Time [s],Packet ID,MOSI,MISO
-0.000057458333333,0,0xFFFF,
-0.000049541666667,0,0xB010,
-0.000033750000000,0,0x830C,
-0.000025833333333,0,0xB110,
0.000004041666667,0,0x0006,
0.000011750000000,0,0x3B1D,
0.000028083333333,0,0xB3E1,
0.000036000000000,0,0xBB10,
0.000051833333333,0,0xB32B,
0.000059750000000,0,0xBC10,
0.000075583333333,0,0xB2BA,
0.000083500000000,0,0xBD10,
0.000099333333333,0,0xB203,
0.000107250000000,0,0xBE10,
0.000123083333333,0,0xB203,
0.000130958333333,0,0xBF10,
0.000146791666667,0,0xB275,
0.000154708333333,0,0xC010,
0.000184541666667,0,0x000A,
0.000192208333333,0,0x4111,
0.000208625000000,0,0xC0C6,
0.000216541666667,0,0xC110,
0.000232375000000,0,0xC0C3,
0.000240291666667,0,0xC210,
0.000256125000000,0,0xC0C3,
0.000264041666667,0,0xC310,
0.000279875000000,0,0xC0C5,
0.000287791666667,0,0xC410,
0.000303625000000,0,0xC0C6,
0.000311541666667,0,0xC510,
0.000327375000000,0,0xDCD6,
0.000335291666667,0,0xC610,
0.000351083333333,0,0x800D,
0.000359000000000,0,0xC710,
0.000374833333333,0,0xA3DC,
0.000382750000000,0,0xC810,
0.000398583333333,0,0x9E3A,
0.000406500000000,0,0xC910,
0.000422333333333,0,0x9E3B,
0.000430250000000,0,0xCA10,
0.000461916666667,0,0x0004,
0.000469583333333,0,0x0325,
0.000485916666667,0,0x0A01,
0.000493791666667,0,0x8325,
0.000509500000000,0,0x0F00,
0.000517333333333,0,0x8425,
0.000533041666667,0,0x0000,
0.000540916666667,0,0x8520,
0.000556625000000,0,0x073F,
0.000564458333333,0,0x8625,
0.000594708333333,0,0x0001,
0.000602375000000,0,0x1D29,
0.000618500000000,0,0x0055,
0.000626333333333,0,0x9D29,
0.000654083333333,0,0x0003,
0.000661750000000,0,0x242D,
0.000677875000000,0,0x004C,
0.000685750000000,0,0xA420,
0.000701458333333,0,0x0040,
0.000709291666667,0,0xA520,
0.000725000000000,0,0x8000,
0.000732875000000,0,0xA620,
0.000762208333333,0,0x0005,
0.000769916666667,0,0x2D21,
0.000785875000000,0,0x94CA,
0.000793750000000,0,0xAD20,
0.000809458333333,0,0xFFF5,
0.000817291666667,0,0xAE20,
0.000833041666667,0,0xA84E,
0.000840875000000,0,0xAF20,
0.000856583333333,0,0x8000,
0.000864458333333,0,0xB020,
0.000880166666667,0,0x8300,
0.000888000000000,0,0xB120,
0.000918291666667,0,0x0006,
0.000925958333333,0,0x3B25,
0.000942041666667,0,0xE517,
0.000949875000000,0,0xBB20,
0.000965583333333,0,0x8000,
0.000973416666667,0,0xBC20,
0.000989166666667,0,0x8002,
0.000997000000000,0,0xBD20,
0.001012708333333,0,0x8004,
0.001020583333333,0,0xBE20,
0.001036291666667,0,0xE5C0,
0.001044125000000,0,0xBF20,
0.001059833333333,0,0xE5D7,
0.001067708333333,0,0xC020,
0.001098250000000,0,0x000A,
0.001105916666667,0,0x4129,
0.001122208333333,0,0xDB2D,
0.001130041666667,0,0xC120,
0.001145750000000,0,0xDC2B,
0.001153625000000,0,0xC220,
0.001169333333333,0,0xDF35,
0.001177166666667,0,0xC320,
0.001192916666667,0,0xE122,
0.001200750000000,0,0xC420,
0.001216458333333,0,0xA97E,
0.001224333333333,0,0xC520,
0.001240041666667,0,0xFF46,
0.001247875000000,0,0xC620,
0.001263625000000,0,0xC016,
0.001271458333333,0,0xC720,
0.001287166666667,0,0xA3BF,
0.001295041666667,0,0xC820,
0.001310750000000,0,0x9E37,
0.001318583333333,0,0xC920,
0.001334291666667,0,0x9E3D,
0.001342166666667,0,0xCA20,
0.008983541666667,0,0x1C3F,
0.008991208333333,0,0x060F,
0.009018833333333,0,0x0004,
0.009026500000000,0,0x0311,
0.009042916666667,0,0x0A01,
0.009050833333333,0,0x8311,
0.009066666666667,0,0x0F00,
0.009074583333333,0,0x8411,
0.009090416666667,0,0x0000,
0.009098333333333,0,0x8511,
0.009114166666667,0,0x1F3F,
0.009122125000000,0,0x8611,
0.009153541666667,0,0x0004,
0.009161250000000,0,0x0315,
0.009177500000000,0,0x0A01,
0.009185416666667,0,0x8315,
0.009201291666667,0,0x0F00,
0.009209166666667,0,0x8415,
0.009225000000000,0,0x0000,
0.009232916666667,0,0x8511,
0.009248750000000,0,0x1F3F,
0.009256708333333,0,0x8615,
0.009287958333333,0,0x0004,
0.009295625000000,0,0x0319,
0.009311625000000,0,0x0A01,
0.009319541666667,0,0x8319,
0.009335375000000,0,0x0F00,
0.009343291666667,0,0x8419,
0.009359125000000,0,0x0000,
0.009367041666667,0,0x8511,
0.009382916666667,0,0x1F3F,
0.009390833333333,0,0x8619,
0.009422208333333,0,0x0004,
0.009429916666667,0,0x031D,
0.009446208333333,0,0x0A01,
0.009454125000000,0,0x831D,
0.009470000000000,0,0x0F00,
0.009477875000000,0,0x841D,
0.009493750000000,0,0x0000,
0.009501625000000,0,0x8511,
0.009517458333333,0,0x1F3F,
0.009525416666667,0,0x861D,
0.009555458333333,0,0x0004,
0.009563125000000,0,0x0311,
0.009579333333333,0,0x0A01,
0.009587250000000,0,0x8311,
0.009603083333333,0,0x0F00,
0.009611000000000,0,0x8411,
0.009626833333333,0,0x0000,
0.009634750000000,0,0x8511,
0.009650583333333,0,0x173F,
0.009658500000000,0,0x8611,
0.009688791666667,0,0x0001,
0.009696458333333,0,0x1D15,
0.009712458333333,0,0x1551,
0.009720375000000,0,0x9D15,
0.009748083333333,0,0x0003,
0.009755750000000,0,0x2419,
0.009771833333333,0,0x0048,
0.009779750000000,0,0xA411,
0.009795583333333,0,0x0040,
0.009803500000000,0,0xA511,
0.009819333333333,0,0x8000,
0.009827250000000,0,0xA611,
0.009856708333333,0,0x0005,
0.009864375000000,0,0x2D1D,
0.009880666666667,0,0x8CFC,
0.009888583333333,0,0xAD11,
0.009904458333333,0,0xFFF4,
0.009912375000000,0,0xAE11,
0.009928208333333,0,0x143C,
0.009936125000000,0,0xAF11,
0.009951958333333,0,0x8000,
0.009959875000000,0,0xB011,
0.009975666666667,0,0x8301,
0.009983583333333,0,0xB111,
0.010013041666667,0,0x0006,
0.010020750000000,0,0x3B11,
0.010037041666667,0,0xB3E0,
0.010044916666667,0,0xBB11,
0.010060750000000,0,0xB32C,
0.010068666666667,0,0xBC11,
0.010084500000000,0,0xB2BA,
0.010092416666667,0,0xBD11,
0.010108250000000,0,0xB1FB,
0.010116166666667,0,0xBE11,
0.010132000000000,0,0xB201,
0.010139916666667,0,0xBF11,
0.010155708333333,0,0xB270,
0.010163666666667,0,0xC011,
0.010193875000000,0,0x000A,
0.010201541666667,0,0x4115,
0.010217583333333,0,0xC0C4,
0.010225500000000,0,0xC111,
0.010241291666667,0,0xC0C7,
0.010249250000000,0,0xC211,
0.010265083333333,0,0xC0C4,
0.010272958333333,0,0xC311,
0.010288791666667,0,0xC0C5,
0.010296708333333,0,0xC411,
0.010312541666667,0,0xC0C4,
0.010320458333333,0,0xC511,
0.010336291666667,0,0xDCD5,
0.010344208333333,0,0xC611,
0.010360041666667,0,0x800E,
0.010367958333333,0,0xC711,
0.010383791666667,0,0xA3DD,
0.010391708333333,0,0xC811,
0.010407541666667,0,0x9E3B,
0.010415458333333,0,0xC911,
0.010431291666667,0,0x9E39,
0.010439208333333,0,0xCA11,
0.010470666666667,0,0x0004,
0.010478333333333,0,0x0329,
0.010494333333333,0,0x0A01,
0.010502166666667,0,0x8329,
0.010517875000000,0,0x0F00,
0.010525750000000,0,0x8429,
0.010541458333333,0,0x0000,
0.010549291666667,0,0x8521,
0.010565000000000,0,0x173F,
0.010572875000000,0,0x8629,
0.010603583333333,0,0x0001,
0.010611250000000,0,0x1D2D,
0.010627375000000,0,0x0055,
0.010635250000000,0,0x9D2D,
0.010663500000000,0,0x0003,
0.010671166666667,0,0x2421,
0.010687250000000,0,0x004C,
0.010695125000000,0,0xA421,
0.010710833333333,0,0x0040,
0.010718708333333,0,0xA521,
0.010734416666667,0,0x8000,
0.010742250000000,0,0xA621,
0.010771333333333,0,0x0005,
0.010779041666667,0,0x2D25,
0.010795291666667,0,0x95D6,
0.010803125000000,0,0xAD21,
0.010818833333333,0,0xFFF5,
0.010826708333333,0,0xAE21,
0.010842416666667,0,0xA5BE,
0.010850291666667,0,0xAF21,
0.010866000000000,0,0x8000,
0.010873833333333,0,0xB021,
0.010889541666667,0,0x8301,
0.010897416666667,0,0xB121,
0.010926666666667,0,0x0006,
0.010934333333333,0,0x3B29,
0.010950458333333,0,0xE51C,
0.010958291666667,0,0xBB21,
0.010974000000000,0,0x8000,
0.010981875000000,0,0xBC21,
0.010997583333333,0,0x8001,
0.011005416666667,0,0xBD21,
0.011021125000000,0,0x8000,
0.011029000000000,0,0xBE21,
0.011044708333333,0,0xE5BA,
0.011052541666667,0,0xBF21,
0.011068250000000,0,0xE5CF,
0.011076125000000,0,0xC021,
0.011107166666667,0,0x000A,
0.011114833333333,0,0x412D,
0.011131083333333,0,0xDB2C,
0.011138958333333,0,0xC121,
0.011154666666667,0,0xDC30,
0.011162500000000,0,0xC221,
0.011178208333333,0,0xDF34,
0.011186083333333,0,0xC321,
0.011201791666667,0,0xE123,
0.011209625000000,0,0xC421,
0.011225375000000,0,0xA97D,
0.011233208333333,0,0xC521,
0.011248916666667,0,0xFF4C,
0.011256791666667,0,0xC621,
0.011272500000000,0,0xC013,
0.011280333333333,0,0xC721,
0.011296041666667,0,0xA3C0,
0.011303916666667,0,0xC821,
0.011319625000000,0,0x9E38,
0.011327458333333,0,0xC921,
0.011343166666667,0,0x9E3B,
0.011351041666667,0,0xCA21,
0.019111416666667,0,0x2C3F,
0.019119125000000,0,0x0603,
0.019146208333333,0,0x0004,
0.019153875000000,0,0x0315,
0.019169875000000,0,0x0A01,
0.019177750000000,0,0x8315,
0.019193583333333,0,0x0F00,
0.019201500000000,0,0x8415,
0.019217375000000,0,0x0000,
0.019225250000000,0,0x8512,
0.019241125000000,0,0x2F3F,
0.019249041666667,0,0x8615,
0.019280625000000,0,0x0004,
0.019288291666667,0,0x0319,
0.019304458333333,0,0x0A01,
0.019312375000000,0,0x8319,
0.019328250000000,0,0x0F00,
0.019336166666667,0,0x8419,
0.019352000000000,0,0x0000,
0.019359916666667,0,0x8512,
0.019375750000000,0,0x2F3F,
0.019383666666667,0,0x8619,
0.019415166666667,0,0x0004,
0.019422875000000,0,0x031D,
0.019439125000000,0,0x0A01,
0.019447041666667,0,0x831D,
0.019462875000000,0,0x0F00,
0.019470791666667,0,0x841D,
0.019486625000000,0,0x0000,
0.019494541666667,0,0x8512,
0.019510375000000,0,0x2F3F,
0.019518291666667,0,0x861D,
0.019549041666667,0,0x0004,
0.019556708333333,0,0x0311,
0.019572708333333,0,0x0A01,
0.019580625000000,0,0x8311,
0.019596458333333,0,0x0F00,
0.019604375000000,0,0x8411,
0.019620208333333,0,0x0000,
0.019628125000000,0,0x8512,
0.019643958333333,0,0x2F3F,
0.019651875000000,0,0x8611,
0.019682000000000,0,0x0004,
0.019689708333333,0,0x0315,
0.019705791666667,0,0x0A01,
0.019713708333333,0,0x8315,
0.019729541666667,0,0x0F00,
0.019737458333333,0,0x8415,
0.019753291666667,0,0x0000,
0.019761208333333,0,0x8512,
0.019777083333333,0,0x273F,
0.019785000000000,0,0x8615,
0.019815875000000,0,0x0001,
0.019823541666667,0,0x1D19,
0.019839916666667,0,0x1551,
0.019847833333333,0,0x9D19,
0.019875666666667,0,0x0003,
0.019883333333333,0,0x241D,
0.019899791666667,0,0x0048,
0.019907708333333,0,0xA412,
0.019923541666667,0,0x0040,
0.019931458333333,0,0xA512,
0.019947291666667,0,0x8000,
0.019955208333333,0,0xA612,
0.019983791666667,0,0x0005,
0.019991458333333,0,0x2D11,
0.020007666666667,0,0x8E09,
0.020015583333333,0,0xAD12,
0.020031416666667,0,0xFFF4,
0.020039333333333,0,0xAE12,
0.020055166666667,0,0x1298,
0.020063083333333,0,0xAF12,
0.020078875000000,0,0xFFFF,
0.020086791666667,0,0xB012,
0.020102625000000,0,0x8307,
0.020110541666667,0,0xB112,
0.020140125000000,0,0x0006,
0.020147791666667,0,0x3B15,
0.020164000000000,0,0xB3E0,
0.020171875000000,0,0xBB12,
0.020187708333333,0,0xB32E,
0.020195625000000,0,0xBC12,
0.020211458333333,0,0xB2BB,
0.020219375000000,0,0xBD12,
0.020235208333333,0,0xB1FD,
0.020243125000000,0,0xBE12,
0.020258958333333,0,0xB200,
0.020266875000000,0,0xBF12,
0.020282708333333,0,0xB273,
0.020290625000000,0,0xC012,
0.020320416666667,0,0x000A,
0.020328083333333,0,0x4119,
0.020344541666667,0,0xC0C8,
0.020352458333333,0,0xC112,
0.020368291666667,0,0xC0C6,
0.020376208333333,0,0xC212,
0.020392041666667,0,0xC0C4,
0.020399958333333,0,0xC312,
0.020415791666667,0,0xC0C3,
0.020423708333333,0,0xC412,
0.020439541666667,0,0xC0C4,
0.020447458333333,0,0xC512,
0.020463291666667,0,0xDCD3,
0.020471208333333,0,0xC612,
0.020487041666667,0,0x8011,
0.020494916666667,0,0xC712,
0.020510791666667,0,0xA3DD,
0.020518666666667,0,0xC812,
0.020534500000000,0,0x9E38,
0.020542458333333,0,0xC912,
0.020558250000000,0,0x9E3B,
0.020566166666667,0,0xCA12,
0.020598041666667,0,0x0004,
0.020605708333333,0,0x032D,
0.020621750000000,0,0x0A01,
0.020629625000000,0,0x832D,
0.020645333333333,0,0x0F00,
0.020653208333333,0,0x842D,
0.020668916666667,0,0x0000,
0.020676791666667,0,0x8522,
0.020692458333333,0,0x273F,
0.020700333333333,0,0x862D,
0.020730833333333,0,0x0001,
0.020738500000000,0,0x1D21,
0.020754833333333,0,0x0055,
0.020762708333333,0,0x9D21,
0.020791000000000,0,0x0003,
0.020798666666667,0,0x2425,
0.020814750000000,0,0x004C,
0.020822583333333,0,0xA422,
0.020838291666667,0,0x0040,
0.020846166666667,0,0xA522,
0.020861875000000,0,0x8000,
0.020869708333333,0,0xA622,
0.020898333333333,0,0x0005,
0.020906000000000,0,0x2D29,
0.020922250000000,0,0x96E5,
0.020930125000000,0,0xAD22,
0.020945833333333,0,0xFFF5,
0.020953708333333,0,0xAE22,
0.020969416666667,0,0xA381,
0.020977250000000,0,0xAF22,
0.020992958333333,0,0xFFFF,
0.021000833333333,0,0xB022,
0.021016541666667,0,0x830D,
0.021024416666667,0,0xB122,
0.021055416666667,0,0x0006,
0.021063083333333,0,0x3B2D,
0.021079375000000,0,0xE51D,
0.021087250000000,0,0xBB22,
0.021102958333333,0,0x8002,
0.021110791666667,0,0xBC22,
0.021126500000000,0,0x8000,
0.021134375000000,0,0xBD22,
0.021150083333333,0,0x8000,
0.021157916666667,0,0xBE22,
0.021173625000000,0,0xE5BC,
0.021181500000000,0,0xBF22,
0.021197208333333,0,0xE5D1,
0.021205083333333,0,0xC022,
0.021235041666667,0,0x000A,
0.021242750000000,0,0x4121,
0.021259083333333,0,0xDB2B,
0.021266958333333,0,0xC122,
0.021282666666667,0,0xDC31,
0.021290541666667,0,0xC222,
0.021306250000000,0,0xDF37,
0.021314083333333,0,0xC322,
0.021329791666667,0,0xE124,
0.021337666666667,0,0xC422,
0.021353375000000,0,0xA97D,
0.021361208333333,0,0xC522,
0.021376958333333,0,0xFF4A,
0.021384791666667,0,0xC622,
0.021400541666667,0,0xC015,
0.021408375000000,0,0xC722,
0.021424083333333,0,0xA3BD,
0.021431958333333,0,0xC822,
0.021447666666667,0,0x9E3A,
0.021455500000000,0,0xC922,
0.021471250000000,0,0x9E3C,
0.021479083333333,0,0xCA22,
0.029003625000000,0,0x3C3F,
0.029011291666667,0,0x0607,
0.029038041666667,0,0x0004,
0.029045708333333,0,0x0319,
0.029061916666667,0,0x0A01,
0.029069833333333,0,0x8319,
0.029085666666667,0,0x0F00,
0.029093583333333,0,0x8419,
0.029109416666667,0,0x0000,
0.029117333333333,0,0x8513,
0.029133166666667,0,0x3F3F,
0.029141083333333,0,0x8619,
0.029172500000000,0,0x0004,
0.029180166666667,0,0x031D,
0.029196500000000,0,0x0A01,
0.029204416666667,0,0x831D,
0.029220250000000,0,0x0F00,
0.029228166666667,0,0x841D,
0.029244000000000,0,0x0000,
0.029251916666667,0,0x8513,
0.029267750000000,0,0x3F3F,
0.029275666666667,0,0x861D,
0.029305708333333,0,0x0004,
0.029313375000000,0,0x0311,
0.029329625000000,0,0x0A01,
0.029337541666667,0,0x8311,
0.029353375000000,0,0x0F00,
0.029361291666667,0,0x8411,
0.029377125000000,0,0x0000,
0.029385041666667,0,0x8513,
0.029400916666667,0,0x3F3F,
0.029408833333333,0,0x8611,
0.029439375000000,0,0x0004,
0.029447041666667,0,0x0315,
0.029463291666667,0,0x0A01,
0.029471208333333,0,0x8315,
0.029487041666667,0,0x0F00,
0.029494958333333,0,0x8415,
0.029510791666667,0,0x0000,
0.029518708333333,0,0x8513,
0.029534541666667,0,0x3F3F,
0.029542458333333,0,0x8615,
0.029573125000000,0,0x0004,
0.029580791666667,0,0x0319,
0.029596875000000,0,0x0A01,
0.029604791666667,0,0x8319,
0.029620625000000,0,0x0F00,
0.029628541666667,0,0x8419,
0.029644375000000,0,0x0000,
0.029652291666667,0,0x8513,
0.029668125000000,0,0x373F,
0.029676041666667,0,0x8619,
0.029706666666667,0,0x0001,
0.029714333333333,0,0x1D1D,
0.029730458333333,0,0x1551,
0.029738375000000,0,0x9D1D,
0.029766166666667,0,0x0003,
0.029773833333333,0,0x2411,
0.029789833333333,0,0x0048,
0.029797750000000,0,0xA413,
0.029813583333333,0,0x0040,
0.029821500000000,0,0xA513,
0.029837333333333,0,0x8000,
0.029845208333333,0,0xA613,
0.029874083333333,0,0x0005,
0.029881750000000,0,0x2D15,
0.029898166666667,0,0x8F10,
0.029906083333333,0,0xAD13,
0.029921916666667,0,0xFFF4,
0.029929833333333,0,0xAE13,
0.029945625000000,0,0x1045,
0.029953583333333,0,0xAF13,
0.029969416666667,0,0x8000,
0.029977333333333,0,0xB013,
0.029993125000000,0,0x8301,
0.030001041666667,0,0xB113,
0.030031375000000,0,0x0006,
0.030039083333333,0,0x3B19,
0.030055458333333,0,0xB3E2,
0.030063375000000,0,0xBB13,
0.030079250000000,0,0xB32D,
0.030087125000000,0,0xBC13,
0.030102958333333,0,0xB2BC,
0.030110875000000,0,0xBD13,
0.030126708333333,0,0xB1FB,
0.030134625000000,0,0xBE13,
0.030150458333333,0,0xB204,
0.030158375000000,0,0xBF13,
0.030174208333333,0,0xB275,
0.030182125000000,0,0xC013,
0.030212583333333,0,0x000A,
0.030220250000000,0,0x411D,
0.030236541666667,0,0xC0C7,
0.030244416666667,0,0xC113,
0.030260250000000,0,0xC0C4,
0.030268208333333,0,0xC213,
0.030284041666667,0,0xC0C6,
0.030291958333333,0,0xC313,
0.030307791666667,0,0xC0C6,
0.030315708333333,0,0xC413,
0.030331541666667,0,0xC0C5,
0.030339458333333,0,0xC513,
0.030355291666667,0,0xDCD1,
0.030363208333333,0,0xC613,
0.030379041666667,0,0x8010,
0.030386958333333,0,0xC713,
0.030402791666667,0,0xA3DF,
0.030410708333333,0,0xC813,
0.030426541666667,0,0x9E3A,
0.030434458333333,0,0xC913,
0.030450291666667,0,0x9E3A,
0.030458208333333,0,0xCA13,
0.030490250000000,0,0x0004,
0.030497916666667,0,0x0321,
0.030514291666667,0,0x0A01,
0.030522166666667,0,0x8321,
0.030537875000000,0,0x0F00,
0.030545750000000,0,0x8421,
0.030561458333333,0,0x0000,
0.030569291666667,0,0x8523,
0.030585041666667,0,0x373F,
0.030592875000000,0,0x8621,
0.030623583333333,0,0x0001,
0.030631291666667,0,0x1D25,
0.030647375000000,0,0x0055,
0.030655250000000,0,0x9D25,
0.030683333333333,0,0x0003,
0.030691000000000,0,0x2429,
0.030707291666667,0,0x004C,
0.030715125000000,0,0xA423,
0.030730833333333,0,0x0040,
0.030738708333333,0,0xA523,
0.030754416666667,0,0x8000,
0.030762291666667,0,0xA623,
0.030791375000000,0,0x0005,
0.030799041666667,0,0x2D2D,
0.030815333333333,0,0x97EE,
0.030823166666667,0,0xAD23,
0.030838875000000,0,0xFFF5,
0.030846750000000,0,0xAE23,
0.030862458333333,0,0xA0D4,
0.030870291666667,0,0xAF23,
0.030886041666667,0,0xFFFF,
0.030893875000000,0,0xB023,
0.030909583333333,0,0x830E,
0.030917458333333,0,0xB123,
0.030948833333333,0,0x0006,
0.030956541666667,0,0x3B21,
0.030972458333333,0,0xE518,
0.030980291666667,0,0xBB23,
0.030996000000000,0,0x8000,
0.031003875000000,0,0xBC23,
0.031019583333333,0,0x8000,
0.031027458333333,0,0xBD23,
0.031043166666667,0,0x8000,
0.031051000000000,0,0xBE23,
0.031066708333333,0,0xE5BA,
0.031074583333333,0,0xBF23,
0.031090291666667,0,0xE5D5,
0.031098166666667,0,0xC023,
0.031128666666667,0,0x000A,
0.031136375000000,0,0x4125,
0.031152666666667,0,0xDB35,
0.031160541666667,0,0xC123,
0.031176250000000,0,0xDC30,
0.031184083333333,0,0xC223,
0.031199791666667,0,0xDF38,
0.031207666666667,0,0xC323,
0.031223375000000,0,0xE123,
0.031231250000000,0,0xC423,
0.031246958333333,0,0xA981,
0.031254791666667,0,0xC523,
0.031270541666667,0,0xFF4D,
0.031278375000000,0,0xC623,
0.031294083333333,0,0xC015,
0.031301958333333,0,0xC723,
0.031317666666667,0,0xA3BC,
0.031325541666667,0,0xC823,
0.031341208333333,0,0x9E3A,
0.031349083333333,0,0xC923,
0.031364791666667,0,0x9E40,
0.031372625000000,0,0xCA23,
0.038974625000000,0,0x4C3F,
0.038982333333333,0,0x060B,
0.039009791666667,0,0x0004,
0.039017458333333,0,0x031D,
0.039033875000000,0,0x0A01,
0.039041791666667,0,0x831D,
0.039057625000000,0,0x0F00,
0.039065541666667,0,0x841D,
0.039081375000000,0,0x0000,
0.039089291666667,0,0x8514,
0.039105125000000,0,0x4F3F,
0.039113041666667,0,0x861D,
0.039144208333333,0,0x0004,
0.039151875000000,0,0x0311,
0.039167958333333,0,0x0A01,
0.039175916666667,0,0x8311,
0.039191750000000,0,0x0F00,
0.039199625000000,0,0x8411,
0.039215458333333,0,0x0000,
0.039223416666667,0,0x8514,
0.039239250000000,0,0x4F3F,
0.039247166666667,0,0x8611,
0.039278625000000,0,0x0004,
0.039286291666667,0,0x0315,
0.039302583333333,0,0x0A01,
0.039310500000000,0,0x8315,
0.039326333333333,0,0x0F00,
0.039334250000000,0,0x8415,
0.039350083333333,0,0x0000,
0.039358000000000,0,0x8514,
0.039373875000000,0,0x4F3F,
0.039381791666667,0,0x8615,
0.039412541666667,0,0x0004,
0.039420250000000,0,0x0319,
0.039436208333333,0,0x0A01,
0.039444125000000,0,0x8319,
0.039459958333333,0,0x0F00,
0.039467875000000,0,0x8419,
0.039483708333333,0,0x0000,
0.039491625000000,0,0x8514,
0.039507458333333,0,0x4F3F,
0.039515375000000,0,0x8619,
0.039546166666667,0,0x0004,
0.039553833333333,0,0x031D,
0.039570250000000,0,0x0A01,
0.039578208333333,0,0x831D,
0.039594041666667,0,0x0F00,
0.039601916666667,0,0x841D,
0.039617750000000,0,0x0000,
0.039625708333333,0,0x8514,
0.039641500000000,0,0x473F,
0.039649416666667,0,0x861D,
0.039680166666667,0,0x0001,
0.039687833333333,0,0x1D11,
0.039703833333333,0,0x1551,
0.039711750000000,0,0x9D11,
0.039739541666667,0,0x0003,
0.039747250000000,0,0x2415,
0.039763666666667,0,0x0048,
0.039771583333333,0,0xA414,
0.039787416666667,0,0x0040,
0.039795333333333,0,0xA514,
0.039811166666667,0,0x8000,
0.039819083333333,0,0xA614,
0.039849083333333,0,0x0005,
0.039856750000000,0,0x2D19,
0.039873000000000,0,0x9019,
0.039880916666667,0,0xAD14,
0.039896750000000,0,0xFFF4,
0.039904666666667,0,0xAE14,
0.039920458333333,0,0x0E18,
0.039928375000000,0,0xAF14,
0.039944208333333,0,0xFFFF,
0.039952125000000,0,0xB014,
0.039967958333333,0,0x830A,
0.039975875000000,0,0xB114,
0.040005250000000,0,0x0006,
0.040012916666667,0,0x3B1D,
0.040029291666667,0,0xB3E2,
0.040037208333333,0,0xBB14,
0.040053041666667,0,0xB32F,
0.040060958333333,0,0xBC14,
0.040076791666667,0,0xB2BF,
0.040084708333333,0,0xBD14,
0.040100541666667,0,0xB1FE,
0.040108458333333,0,0xBE14,
0.040124291666667,0,0xB200,
0.040132208333333,0,0xBF14,
0.040148041666667,0,0xB272,
0.040155958333333,0,0xC014,
0.040185666666667,0,0x000A,
0.040193333333333,0,0x4111,
0.040209375000000,0,0xC0C0,
0.040217291666667,0,0xC114,
0.040233083333333,0,0xC0BF,
0.040241000000000,0,0xC214,
0.040256833333333,0,0xC0BF,
0.040264750000000,0,0xC314,
0.040280583333333,0,0xC0BC,
0.040288500000000,0,0xC414,
0.040304375000000,0,0xC0C0,
0.040312250000000,0,0xC514,
0.040328083333333,0,0xDCD1,
0.040336000000000,0,0xC614,
0.040351833333333,0,0x8009,
0.040359750000000,0,0xC714,
0.040375583333333,0,0xA3DC,
0.040383500000000,0,0xC814,
0.040399333333333,0,0x9E35,
0.040407208333333,0,0xC914,
0.040423041666667,0,0x9E3B,
0.040430958333333,0,0xCA14,
0.040463750000000,0,0x0004,
0.040471458333333,0,0x0325,
0.040487833333333,0,0x0A01,
0.040495708333333,0,0x8325,
0.040511416666667,0,0x0F00,
0.040519250000000,0,0x8425,
0.040534958333333,0,0x0000,
0.040542833333333,0,0x8524,
0.040558500000000,0,0x473F,
0.040566375000000,0,0x8625,
0.040596708333333,0,0x0001,
0.040604375000000,0,0x1D29,
0.040620375000000,0,0x0055,
0.040628208333333,0,0x9D29,
0.040656291666667,0,0x0003,
0.040663958333333,0,0x242D,
0.040680291666667,0,0x004C,
0.040688125000000,0,0xA424,
0.040703875000000,0,0x0040,
0.040711708333333,0,0xA524,
0.040727416666667,0,0x8000,
0.040735291666667,0,0xA624,
0.040763625000000,0,0x0005,
0.040771291666667,0,0x2D21,
0.040787333333333,0,0x98FA,
0.040795166666667,0,0xAD24,
0.040810875000000,0,0xFFF5,
0.040818750000000,0,0xAE24,
0.040834458333333,0,0x9E60,
0.040842333333333,0,0xAF24,
0.040858041666667,0,0xFFFF,
0.040865875000000,0,0xB024,
0.040881583333333,0,0x830B,
0.040889458333333,0,0xB124,
0.040919041666667,0,0x0006,
0.040926708333333,0,0x3B25,
0.040943000000000,0,0xE518,
0.040950833333333,0,0xBB24,
0.040966541666667,0,0x8000,
0.040974416666667,0,0xBC24,
0.040990125000000,0,0x8000,
0.040997958333333,0,0xBD24,
0.041013666666667,0,0x8000,
0.041021541666667,0,0xBE24,
0.041037250000000,0,0xE5B6,
0.041045083333333,0,0xBF24,
0.041060791666667,0,0xE5D1,
0.041068666666667,0,0xC024,
0.041099041666667,0,0x000A,
0.041106708333333,0,0x4129,
0.041122666666667,0,0xDB2F,
0.041130500000000,0,0xC124,
0.041146208333333,0,0xDC2B,
0.041154083333333,0,0xC224,
0.041169791666667,0,0xDF37,
0.041177625000000,0,0xC324,
0.041193333333333,0,0xE120,
0.041201208333333,0,0xC424,
0.041216916666667,0,0xA97C,
0.041224791666667,0,0xC524,
0.041240500000000,0,0xFF4C,
0.041248333333333,0,0xC624,
0.041264083333333,0,0xC012,
0.041271916666667,0,0xC724,
0.041287625000000,0,0xA3BF,
0.041295500000000,0,0xC824,
0.041311208333333,0,0x9E3D,
0.041319041666667,0,0xC924,
0.041334791666667,0,0x9E3E,
0.041342625000000,0,0xCA24,
0.049000666666667,0,0x5C3F,
0.049008375000000,0,0x060F,
0.049035916666667,0,0x0004,
0.049043583333333,0,0x0311,
0.049060000000000,0,0x0A01,
0.049067916666667,0,0x8311,
0.049083750000000,0,0x0F00,
0.049091666666667,0,0x8411,
0.049107500000000,0,0x0000,
0.049115458333333,0,0x8515,
0.049131291666667,0,0x5F3F,
0.049139208333333,0,0x8611,
0.049170583333333,0,0x0004,
0.049178250000000,0,0x0315,
0.049194625000000,0,0x0A01,
0.049202541666667,0,0x8315,
0.049218375000000,0,0x0F00,
0.049226291666667,0,0x8415,
0.049242166666667,0,0x0000,
0.049250083333333,0,0x8515,
0.049265875000000,0,0x5F3F,
0.049273833333333,0,0x8615,
0.049303708333333,0,0x0004,
0.049311375000000,0,0x0319,
0.049327750000000,0,0x0A01,
0.049335666666667,0,0x8319,
0.049351500000000,0,0x0F00,
0.049359416666667,0,0x8419,
0.049375250000000,0,0x0000,
0.049383166666667,0,0x8515,
0.049399000000000,0,0x5F3F,
0.049406916666667,0,0x8619,
0.049437791666667,0,0x0004,
0.049445500000000,0,0x031D,
0.049461833333333,0,0x0A01,
0.049469750000000,0,0x831D,
0.049485583333333,0,0x0F00,
0.049493500000000,0,0x841D,
0.049509333333333,0,0x0000,
0.049517291666667,0,0x8515,
0.049533125000000,0,0x5F3F,
0.049541000000000,0,0x861D,
0.049572125000000,0,0x0004,
0.049579791666667,0,0x0311,
0.049595958333333,0,0x0A01,
0.049603875000000,0,0x8311,
0.049619666666667,0,0x0F00,
0.049627583333333,0,0x8411,
0.049643416666667,0,0x0000,
0.049651333333333,0,0x8515,
0.049667166666667,0,0x573F,
0.049675125000000,0,0x8611,
0.049705208333333,0,0x0001,
0.049712916666667,0,0x1D15,
0.049729041666667,0,0x1551,
0.049736958333333,0,0x9D15,
0.049764833333333,0,0x0003,
0.049772500000000,0,0x2419,
0.049788916666667,0,0x0048,
0.049796833333333,0,0xA415,
0.049812666666667,0,0x0040,
0.049820583333333,0,0xA515,
0.049836416666667,0,0x8000,
0.049844333333333,0,0xA615,
0.049873416666667,0,0x0005,
0.049881083333333,0,0x2D1D,
0.049897291666667,0,0x9124,
0.049905208333333,0,0xAD15,
0.049921000000000,0,0xFFF4,
0.049928958333333,0,0xAE15,
0.049944791666667,0,0x0B7B,
0.049952666666667,0,0xAF15,
0.049968500000000,0,0xFFFF,
0.049976458333333,0,0xB015,
0.049992250000000,0,0x830B,
0.050000166666667,0,0xB115,
0.050030083333333,0,0x0006,
0.050037750000000,0,0x3B11,
0.050054083333333,0,0xB3E0,
0.050062000000000,0,0xBB15,
0.050077833333333,0,0xB32C,
0.050085750000000,0,0xBC15,
0.050101583333333,0,0xB2BC,
0.050109500000000,0,0xBD15,
0.050125333333333,0,0xB200,
0.050133250000000,0,0xBE15,
0.050149083333333,0,0xB200,
0.050157000000000,0,0xBF15,
0.050172833333333,0,0xB271,
0.050180750000000,0,0xC015,
0.050211250000000,0,0x000A,
0.050218916666667,0,0x4115,
0.050235166666667,0,0xC0C3,
0.050243083333333,0,0xC115,
0.050258916666667,0,0xC0C3,
0.050266791666667,0,0xC215,
0.050282625000000,0,0xC0C2,
0.050290541666667,0,0xC315,
0.050306375000000,0,0xC0C2,
0.050314291666667,0,0xC415,
0.050330125000000,0,0xC0C3,
0.050338041666667,0,0xC515,
0.050353875000000,0,0xDCD4,
0.050361750000000,0,0xC615,
0.050377625000000,0,0x800D,
0.050385500000000,0,0xC715,
0.050401333333333,0,0xA3DC,
0.050409250000000,0,0xC815,
0.050425083333333,0,0x9E37,
0.050433000000000,0,0xC915,
0.050448833333333,0,0x9E39,
0.050456750000000,0,0xCA15,
0.050488875000000,0,0x0004,
0.050496583333333,0,0x0329,
0.050512708333333,0,0x0A01,
0.050520541666667,0,0x8329,
0.050536250000000,0,0x0F00,
0.050544125000000,0,0x8429,
0.050559833333333,0,0x0000,
0.050567666666667,0,0x8525,
0.050583375000000,0,0x573F,
0.050591250000000,0,0x8629,
0.050621500000000,0,0x0001,
0.050629166666667,0,0x1D2D,
0.050645250000000,0,0x0055,
0.050653125000000,0,0x9D2D,
0.050681583333333,0,0x0003,
0.050689250000000,0,0x2421,
0.050705666666667,0,0x004C,
0.050713541666667,0,0xA425,
0.050729208333333,0,0x0040,
0.050737083333333,0,0xA525,
0.050752791666667,0,0x8000,
0.050760625000000,0,0xA625,
0.050790041666667,0,0x0005,
0.050797750000000,0,0x2D25,
0.050813666666667,0,0x9A06,
0.050821500000000,0,0xAD25,
0.050837208333333,0,0xFFF5,
0.050845083333333,0,0xAE25,
0.050860791666667,0,0x9C10,
0.050868625000000,0,0xAF25,
0.050884333333333,0,0xFFFF,
0.050892208333333,0,0xB025,
0.050907916666667,0,0x830F,
0.050915750000000,0,0xB125,
0.050946875000000,0,0x0006,
0.050954541666667,0,0x3B29,
0.050970750000000,0,0xE51E,
0.050978583333333,0,0xBB25,
0.050994291666667,0,0x8002,
0.051002166666667,0,0xBC25,
0.051017875000000,0,0x8002,
0.051025708333333,0,0xBD25,
0.051041458333333,0,0x8004,
0.051049291666667,0,0xBE25,
0.051065000000000,0,0xE5B9,
0.051072875000000,0,0xBF25,
0.051088583333333,0,0xE5D0,
0.051096416666667,0,0xC025,
0.051127583333333,0,0x000A,
0.051135250000000,0,0x412D,
0.051151416666667,0,0xDB32,
0.051159291666667,0,0xC125,
0.051175000000000,0,0xDC2B,
0.051182833333333,0,0xC225,
0.051198541666667,0,0xDF34,
0.051206416666667,0,0xC325,
0.051222125000000,0,0xE121,
0.051230000000000,0,0xC425,
0.051245708333333,0,0xA97D,
0.051253541666667,0,0xC525,
0.051269250000000,0,0xFF46,
0.051277125000000,0,0xC625,
0.051292791666667,0,0xC013,
0.051300666666667,0,0xC725,
0.051316375000000,0,0xA3BE,
0.051324250000000,0,0xC825,
0.051339958333333,0,0x9E38,
0.051347791666667,0,0xC925,
0.051363500000000,0,0x9E3D,
0.051371375000000,0,0xCA25,
0.058944250000000,0,0x6C3F,
0.058951958333333,0,0x0603,
0.058979083333333,0,0x0004,
0.058986791666667,0,0x0315,
0.059003166666667,0,0x0A01,
0.059011083333333,0,0x8315,
0.059026916666667,0,0x0F00,
0.059034833333333,0,0x8415,
0.059050666666667,0,0x0000,
0.059058583333333,0,0x8516,
0.059074416666667,0,0x6F3F,
0.059082375000000,0,0x8615,
0.059113041666667,0,0x0004,
0.059120708333333,0,0x0319,
0.059136791666667,0,0x0A01,
0.059144708333333,0,0x8319,
0.059160541666667,0,0x0F00,
0.059168458333333,0,0x8419,
0.059184333333333,0,0x0000,
0.059192250000000,0,0x8516,
0.059208083333333,0,0x6F3F,
0.059216000000000,0,0x8619,
0.059246291666667,0,0x0004,
0.059253958333333,0,0x031D,
0.059269958333333,0,0x0A01,
0.059277875000000,0,0x831D,
0.059293708333333,0,0x0F00,
0.059301625000000,0,0x841D,
0.059317458333333,0,0x0000,
0.059325375000000,0,0x8516,
0.059341208333333,0,0x6F3F,
0.059349125000000,0,0x861D,
0.059379500000000,0,0x0004,
0.059387208333333,0,0x0311,
0.059403541666667,0,0x0A01,
0.059411500000000,0,0x8311,
0.059427333333333,0,0x0F00,
0.059435250000000,0,0x8411,
0.059451083333333,0,0x0000,
0.059459000000000,0,0x8516,
0.059474833333333,0,0x6F3F,
0.059482750000000,0,0x8611,
0.059513000000000,0,0x0004,
0.059520708333333,0,0x0315,
0.059536666666667,0,0x0A01,
0.059544583333333,0,0x8315,
0.059560416666667,0,0x0F00,
0.059568333333333,0,0x8415,
0.059584166666667,0,0x0000,
0.059592083333333,0,0x8516,
0.059607916666667,0,0x673F,
0.059615833333333,0,0x8615,
0.059646125000000,0,0x0001,
0.059653791666667,0,0x1D19,
0.059670250000000,0,0x1551,
0.059678166666667,0,0x9D19,
0.059706666666667,0,0x0003,
0.059714333333333,0,0x241D,
0.059730583333333,0,0x0048,
0.059738500000000,0,0xA416,
0.059754333333333,0,0x0040,
0.059762250000000,0,0xA516,
0.059778083333333,0,0x8000,
0.059786000000000,0,0xA616,
0.059814791666667,0,0x0005,
0.059822458333333,0,0x2D11,
0.059838458333333,0,0x922D,
0.059846375000000,0,0xAD16,
0.059862208333333,0,0xFFF4,
0.059870083333333,0,0xAE16,
0.059885916666667,0,0x091E,
0.059893833333333,0,0xAF16,
0.059909666666667,0,0xFFFF,
0.059917583333333,0,0xB016,
0.059933416666667,0,0x830F,
0.059941333333333,0,0xB116,
0.059971166666667,0,0x0006,
0.059978833333333,0,0x3B15,
0.059995250000000,0,0xB3DD,
0.060003166666667,0,0xBB16,
0.060019000000000,0,0xB329,
0.060026916666667,0,0xBC16,
0.060042750000000,0,0xB2BE,
0.060050708333333,0,0xBD16,
0.060066500000000,0,0xB203,
0.060074416666667,0,0xBE16,
0.060090291666667,0,0xB200,
0.060098208333333,0,0xBF16,
0.060114041666667,0,0xB275,
0.060121958333333,0,0xC016,
0.060152500000000,0,0x000A,
0.060160166666667,0,0x4119,
0.060176375000000,0,0xC0C1,
0.060184291666667,0,0xC116,
0.060200125000000,0,0xC0C6,
0.060208041666667,0,0xC216,
0.060223833333333,0,0xC0C4,
0.060231750000000,0,0xC316,
0.060247583333333,0,0xC0C5,
0.060255500000000,0,0xC416,
0.060271333333333,0,0xC0C5,
0.060279250000000,0,0xC516,
0.060295083333333,0,0xDCD0,
0.060303000000000,0,0xC616,
0.060318833333333,0,0x8013,
0.060326750000000,0,0xC716,
0.060342583333333,0,0xA3DC,
0.060350500000000,0,0xC816,
0.060366333333333,0,0x9E38,
0.060374208333333,0,0xC916,
0.060390083333333,0,0x9E3B,
0.060398000000000,0,0xCA16,
0.060429250000000,0,0x0004,
0.060436916666667,0,0x032D,
0.060453083333333,0,0x0A01,
0.060460916666667,0,0x832D,
0.060476666666667,0,0x0F00,
0.060484500000000,0,0x842D,
0.060500208333333,0,0x0000,
0.060508083333333,0,0x8526,
0.060523791666667,0,0x673F,
0.060531625000000,0,0x862D,
0.060562041666667,0,0x0001,
0.060569750000000,0,0x1D21,
0.060586125000000,0,0x0055,
0.060594000000000,0,0x9D21,
0.060622375000000,0,0x0003,
0.060630041666667,0,0x2425,
0.060646041666667,0,0x004C,
0.060653916666667,0,0xA426,
0.060669625000000,0,0x0040,
0.060677458333333,0,0xA526,
0.060693166666667,0,0x8000,
0.060701041666667,0,0xA626,
0.060729541666667,0,0x0005,
0.060737208333333,0,0x2D29,
0.060753583333333,0,0x9B11,
0.060761416666667,0,0xAD26,
0.060777125000000,0,0xFFF5,
0.060785000000000,0,0xAE26,
0.060800708333333,0,0x9993,
0.060808541666667,0,0xAF26,
0.060824250000000,0,0x8000,
0.060832125000000,0,0xB026,
0.060847833333333,0,0x8300,
0.060855708333333,0,0xB126,
0.060885250000000,0,0x0006,
0.060892916666667,0,0x3B2D,
0.060909208333333,0,0xE516,
0.060917083333333,0,0xBB26,
0.060932791666667,0,0x8000,
0.060940625000000,0,0xBC26,
0.060956375000000,0,0x8001,
0.060964208333333,0,0xBD26,
0.060979916666667,0,0x8006,
0.060987791666667,0,0xBE26,
0.061003500000000,0,0xE5BC,
0.061011375000000,0,0xBF26,
0.061027041666667,0,0xE5D1,
0.061034916666667,0,0xC026,
0.061065083333333,0,0x000A,
0.061072750000000,0,0x4121,
0.061088916666667,0,0xDB2E,
0.061096791666667,0,0xC126,
0.061112500000000,0,0xDC30,
0.061120333333333,0,0xC226,
0.061136041666667,0,0xDF39,
0.061143916666667,0,0xC326,
0.061159625000000,0,0xE122,
0.061167500000000,0,0xC426,
0.061183208333333,0,0xA97B,
0.061191041666667,0,0xC526,
0.061206791666667,0,0xFF4A,
0.061214666666667,0,0xC626,
0.061230333333333,0,0xC015,
0.061238208333333,0,0xC726,
0.061253916666667,0,0xA3BF,
0.061261791666667,0,0xC826,
0.061277500000000,0,0x9E3B,
0.061285375000000,0,0xC926,
0.061301041666667,0,0x9E3D,
0.061308916666667,0,0xCA26,
0.069000750000000,0,0x7C3F,
0.069008458333333,0,0x0607,
0.069035750000000,0,0x0004,
0.069043416666667,0,0x0319,
0.069059833333333,0,0x0A01,
0.069067750000000,0,0x8319,
0.069083583333333,0,0x0F00,
0.069091500000000,0,0x8419,
0.069107333333333,0,0x0000,
0.069115250000000,0,0x8517,
0.069131083333333,0,0x7F3F,
0.069139000000000,0,0x8619,
0.069170708333333,0,0x0004,
0.069178375000000,0,0x031D,
0.069194375000000,0,0x0A01,
0.069202333333333,0,0x831D,
0.069218125000000,0,0x0F00,
0.069226083333333,0,0x841D,
0.069241875000000,0,0x0000,
0.069249833333333,0,0x8517,
0.069265666666667,0,0x7F3F,
0.069273583333333,0,0x861D,
0.069305000000000,0,0x0004,
0.069312666666667,0,0x0311,
0.069329000000000,0,0x0A01,
0.069336916666667,0,0x8311,
0.069352750000000,0,0x0F00,
0.069360666666667,0,0x8411,
0.069376500000000,0,0x0000,
0.069384416666667,0,0x8517,
0.069400250000000,0,0x7F3F,
0.069408166666667,0,0x8611,
0.069439541666667,0,0x0004,
0.069447208333333,0,0x0315,
0.069463583333333,0,0x0A01,
0.069471500000000,0,0x8315,
0.069487333333333,0,0x0F00,
0.069495250000000,0,0x8415,
0.069511083333333,0,0x0000,
0.069519000000000,0,0x8517,
0.069534833333333,0,0x7F3F,
0.069542750000000,0,0x8615,
0.069573250000000,0,0x0004,
0.069580916666667,0,0x0319,
0.069597166666667,0,0x0A01,
0.069605083333333,0,0x8319,
0.069620916666667,0,0x0F00,
0.069628833333333,0,0x8419,
0.069644666666667,0,0x0000,
0.069652583333333,0,0x8517,
0.069668416666667,0,0x773F,
0.069676333333333,0,0x8619,
0.069706916666667,0,0x0001,
0.069714625000000,0,0x1D1D,
0.069730708333333,0,0x1551,
0.069738625000000,0,0x9D1D,
0.069766833333333,0,0x0003,
0.069774500000000,0,0x2411,
0.069790583333333,0,0x0048,
0.069798500000000,0,0xA417,
0.069814333333333,0,0x0040,
0.069822250000000,0,0xA517,
0.069838083333333,0,0x8000,
0.069846000000000,0,0xA617,
0.069875041666667,0,0x0005,
0.069882750000000,0,0x2D15,
0.069898916666667,0,0x9338,
0.069906875000000,0,0xAD17,
0.069922666666667,0,0xFFF4,
0.069930625000000,0,0xAE17,
0.069946458333333,0,0x0602,
0.069954333333333,0,0xAF17,
0.069970166666667,0,0xFFFF,
0.069978083333333,0,0xB017,
0.069993916666667,0,0x830B,
0.070001833333333,0,0xB117,
0.070031291666667,0,0x0006,
0.070039000000000,0,0x3B19,
0.070055250000000,0,0xB3E0,
0.070063166666667,0,0xBB17,
0.070079000000000,0,0xB32C,
0.070086916666667,0,0xBC17,
0.070102750000000,0,0xB2BC,
0.070110625000000,0,0xBD17,
0.070126458333333,0,0xB1FC,
0.070134416666667,0,0xBE17,
0.070150250000000,0,0xB200,
0.070158166666667,0,0xBF17,
0.070174000000000,0,0xB274,
0.070181916666667,0,0xC017,
0.070211958333333,0,0x000A,
0.070219625000000,0,0x411D,
0.070235833333333,0,0xC0C2,
0.070243750000000,0,0xC117,
0.070259583333333,0,0xC0C2,
0.070267500000000,0,0xC217,
0.070283333333333,0,0xC0C1,
0.070291250000000,0,0xC317,
0.070307083333333,0,0xC0C1,
0.070315041666667,0,0xC417,
0.070330833333333,0,0xC0C2,
0.070338750000000,0,0xC517,
0.070354583333333,0,0xDCD1,
0.070362500000000,0,0xC617,
0.070378333333333,0,0x800B,
0.070386208333333,0,0xC717,
0.070402041666667,0,0xA3DD,
0.070409958333333,0,0xC817,
0.070425791666667,0,0x9E36,
0.070433708333333,0,0xC917,
0.070449541666667,0,0x9E3E,
0.070457458333333,0,0xCA17,
0.070489208333333,0,0x0004,
0.070496916666667,0,0x0321,
0.070513291666667,0,0x0A01,
0.070521125000000,0,0x8321,
0.070536833333333,0,0x0F00,
0.070544708333333,0,0x8421,
0.070560416666667,0,0x0000,
0.070568291666667,0,0x8527,
0.070584000000000,0,0x773F,
0.070591833333333,0,0x8621,
0.070623041666667,0,0x0001,
0.070630750000000,0,0x1D25,
0.070646833333333,0,0x0055,
0.070654666666667,0,0x9D25,
0.070682791666667,0,0x0003,
0.070690500000000,0,0x2429,
0.070706750000000,0,0x004C,
0.070714583333333,0,0xA427,
0.070730333333333,0,0x0040,
0.070738166666667,0,0xA527,
0.070753875000000,0,0x8000,
0.070761708333333,0,0xA627,
0.070790583333333,0,0x0005,
0.070798250000000,0,0x2D2D,
0.070814291666667,0,0x9C1E,
0.070822125000000,0,0xAD27,
0.070837833333333,0,0xFFF5,
0.070845708333333,0,0xAE27,
0.070861416666667,0,0x96F1,
0.070869250000000,0,0xAF27,
0.070884958333333,0,0xFFFF,
0.070892833333333,0,0xB027,
0.070908500000000,0,0x830D,
0.070916375000000,0,0xB127,
0.070947750000000,0,0x0006,
0.070955416666667,0,0x3B21,
0.070971375000000,0,0xE51A,
0.070979208333333,0,0xBB27,
0.070994916666667,0,0x8000,
0.071002791666667,0,0xBC27,
0.071018500000000,0,0x8002,
0.071026375000000,0,0xBD27,
0.071042083333333,0,0x8000,
0.071049916666667,0,0xBE27,
0.071065666666667,0,0xE5BD,
0.071073500000000,0,0xBF27,
0.071089208333333,0,0xE5D5,
0.071097083333333,0,0xC027,
0.071126875000000,0,0x000A,
0.071134541666667,0,0x4125,
0.071150583333333,0,0xDB2E,
0.071158416666667,0,0xC127,
0.071174166666667,0,0xDC2C,
0.071182000000000,0,0xC227,
0.071197708333333,0,0xDF35,
0.071205583333333,0,0xC327,
0.071221291666667,0,0xE123,
0.071229166666667,0,0xC427,
0.071244875000000,0,0xA97E,
0.071252708333333,0,0xC527,
0.071268458333333,0,0xFF4C,
0.071276291666667,0,0xC627,
0.071292000000000,0,0xC015,
0.071299833333333,0,0xC727,
0.071315583333333,0,0xA3BF,
0.071323416666667,0,0xC827,
0.071339125000000,0,0x9E39,
0.071346958333333,0,0xC927,
0.071362666666667,0,0x9E3F,
0.071370541666667,0,0xCA27,
0.079097583333333,0,0x8C3F,
0.079105291666667,0,0x060B,
0.079133416666667,0,0x0004,
0.079141083333333,0,0x031D,
0.079157208333333,0,0x0A01,
0.079165125000000,0,0x831D,
0.079180958333333,0,0x0F00,
0.079188875000000,0,0x841D,
0.079204708333333,0,0x0000,
0.079212625000000,0,0x8518,
0.079228458333333,0,0x8F3F,
0.079236375000000,0,0x861D,
0.079266916666667,0,0x0004,
0.079274625000000,0,0x0311,
0.079290791666667,0,0x0A01,
0.079298708333333,0,0x8311,
0.079314541666667,0,0x0F00,
0.079322458333333,0,0x8411,
0.079338291666667,0,0x0000,
0.079346250000000,0,0x8518,
0.079362083333333,0,0x8F3F,
0.079370000000000,0,0x8611,
0.079400625000000,0,0x0004,
0.079408291666667,0,0x0315,
0.079424416666667,0,0x0A01,
0.079432333333333,0,0x8315,
0.079448166666667,0,0x0F00,
0.079456083333333,0,0x8415,
0.079471916666667,0,0x0000,
0.079479833333333,0,0x8518,
0.079495666666667,0,0x8F3F,
0.079503583333333,0,0x8615,
0.079534791666667,0,0x0004,
0.079542458333333,0,0x0319,
0.079558500000000,0,0x0A01,
0.079566416666667,0,0x8319,
0.079582250000000,0,0x0F00,
0.079590208333333,0,0x8419,
0.079606041666667,0,0x0000,
0.079613958333333,0,0x8518,
0.079629791666667,0,0x8F3F,
0.079637708333333,0,0x8619,
0.079668166666667,0,0x0004,
0.079675833333333,0,0x031D,
0.079692125000000,0,0x0A01,
0.079700041666667,0,0x831D,
0.079715833333333,0,0x0F00,
0.079723750000000,0,0x841D,
0.079739583333333,0,0x0000,
0.079747500000000,0,0x8518,
0.079763333333333,0,0x873F,
0.079771250000000,0,0x861D,
0.079801708333333,0,0x0001,
0.079809375000000,0,0x1D11,
0.079825666666667,0,0x1551,
0.079833583333333,0,0x9D11,
0.079861875000000,0,0x0003,
0.079869583333333,0,0x2415,
0.079885500000000,0,0x0048,
0.079893416666667,0,0xA418,
0.079909250000000,0,0x0040,
0.079917166666667,0,0xA518,
0.079933000000000,0,0x8000,
0.079940916666667,0,0xA618,
0.079969541666667,0,0x0005,
0.079977208333333,0,0x2D19,
0.079993333333333,0,0x9445,
0.080001250000000,0,0xAD18,
0.080017083333333,0,0xFFF4,
0.080025000000000,0,0xAE18,
0.080040833333333,0,0x02D2,
0.080048750000000,0,0xAF18,
0.080064541666667,0,0xFFFF,
0.080072458333333,0,0xB018,
0.080088291666667,0,0x8309,
0.080096208333333,0,0xB118,
0.080127000000000,0,0x0006,
0.080134666666667,0,0x3B1D,
0.080151125000000,0,0xB3E2,
0.080159041666667,0,0xBB18,
0.080174875000000,0,0xB32C,
0.080182791666667,0,0xBC18,
0.080198625000000,0,0xB2C1,
0.080206541666667,0,0xBD18,
0.080222375000000,0,0xB204,
0.080230291666667,0,0xBE18,
0.080246125000000,0,0xB201,
0.080254041666667,0,0xBF18,
0.080269875000000,0,0xB271,
0.080277791666667,0,0xC018,
0.080308458333333,0,0x000A,
0.080316125000000,0,0x4111,
0.080332208333333,0,0xC0C2,
0.080340125000000,0,0xC118,
0.080355958333333,0,0xC0C2,
0.080363875000000,0,0xC218,
0.080379708333333,0,0xC0C6,
0.080387625000000,0,0xC318,
0.080403458333333,0,0xC0C2,
0.080411375000000,0,0xC418,
0.080427208333333,0,0xC0C3,
0.080435125000000,0,0xC518,
0.080450958333333,0,0xDCD2,
0.080458875000000,0,0xC618,
0.080474708333333,0,0x800D,
0.080482625000000,0,0xC718,
0.080498500000000,0,0xA3DA,
0.080506375000000,0,0xC818,
0.080522208333333,0,0x9E37,
0.080530125000000,0,0xC918,
0.080545958333333,0,0x9E3A,
0.080553875000000,0,0xCA18,
0.080585000000000,0,0x0004,
0.080592708333333,0,0x0325,
0.080608875000000,0,0x0A01,
0.080616750000000,0,0x8325,
0.080632458333333,0,0x0F00,
0.080640291666667,0,0x8425,
0.080656000000000,0,0x0000,
0.080663875000000,0,0x8528,
0.080679541666667,0,0x873F,
0.080687416666667,0,0x8625,
0.080718583333333,0,0x0001,
0.080726291666667,0,0x1D29,
0.080742416666667,0,0x0055,
0.080750250000000,0,0x9D29,
0.080778041666667,0,0x0003,
0.080785708333333,0,0x242D,
0.080801791666667,0,0x004C,
0.080809666666667,0,0xA428,
0.080825375000000,0,0x0040,
0.080833250000000,0,0xA528,
0.080848958333333,0,0x8000,
0.080856791666667,0,0xA628,
0.080885750000000,0,0x0005,
0.080893416666667,0,0x2D21,
0.080909833333333,0,0x9D2D,
0.080917708333333,0,0xAD28,
0.080933375000000,0,0xFFF5,
0.080941250000000,0,0xAE28,
0.080956958333333,0,0x9431,
0.080964833333333,0,0xAF28,
0.080980541666667,0,0xFFFF,
0.080988375000000,0,0xB028,
0.081004083333333,0,0x830B,
0.081011958333333,0,0xB128,
0.081041916666667,0,0x0006,
0.081049583333333,0,0x3B25,
0.081065958333333,0,0xE51A,
0.081073791666667,0,0xBB28,
0.081089500000000,0,0x8000,
0.081097375000000,0,0xBC28,
0.081113083333333,0,0x8000,
0.081120958333333,0,0xBD28,
0.081136625000000,0,0x8000,
0.081144500000000,0,0xBE28,
0.081160208333333,0,0xE5BA,
0.081168083333333,0,0xBF28,
0.081183791666667,0,0xE5D5,
0.081191625000000,0,0xC028,
0.081221958333333,0,0x000A,
0.081229666666667,0,0x4129,
0.081245625000000,0,0xDB2B,
0.081253500000000,0,0xC128,
0.081269208333333,0,0xDC29,
0.081277041666667,0,0xC228,
0.081292750000000,0,0xDF32,
0.081300625000000,0,0xC328,
0.081316333333333,0,0xE122,
0.081324166666667,0,0xC428,
0.081339875000000,0,0xA97C,
0.081347750000000,0,0xC528,
0.081363458333333,0,0xFF46,
0.081371333333333,0,0xC628,
0.081387000000000,0,0xC011,
0.081394875000000,0,0xC728,
0.081410583333333,0,0xA3C0,
0.081418458333333,0,0xC828,
0.081434125000000,0,0x9E36,
0.081442000000000,0,0xC928,
0.081457708333333,0,0x9E45,
0.081465583333333,0,0xCA28,
0.089143791666667,0,0x9C3F,
0.089151458333333,0,0x060F,
0.089178958333333,0,0x0004,
0.089186666666667,0,0x0311,
0.089203041666667,0,0x0A01,
0.089210958333333,0,0x8311,
0.089226791666667,0,0x0F00,
0.089234708333333,0,0x8411,
0.089250541666667,0,0x0000,
0.089258458333333,0,0x8519,
0.089274291666667,0,0x9F3F,
0.089282208333333,0,0x8611,
0.089313416666667,0,0x0004,
0.089321083333333,0,0x0315,
0.089337125000000,0,0x0A01,
0.089345041666667,0,0x8315,
0.089360875000000,0,0x0F00,
0.089368791666667,0,0x8415,
0.089384625000000,0,0x0000,
0.089392541666667,0,0x8519,
0.089408375000000,0,0x9F3F,
0.089416291666667,0,0x8615,
0.089447625000000,0,0x0004,
0.089455291666667,0,0x0319,
0.089471708333333,0,0x0A01,
0.089479625000000,0,0x8319,
0.089495458333333,0,0x0F00,
0.089503375000000,0,0x8419,
0.089519208333333,0,0x0000,
0.089527125000000,0,0x8519,
0.089542958333333,0,0x9F3F,
0.089550875000000,0,0x8619,
0.089581875000000,0,0x0004,
0.089589541666667,0,0x031D,
0.089605791666667,0,0x0A01,
0.089613708333333,0,0x831D,
0.089629541666667,0,0x0F00,
0.089637458333333,0,0x841D,
0.089653291666667,0,0x0000,
0.089661208333333,0,0x8519,
0.089677083333333,0,0x9F3F,
0.089685000000000,0,0x861D,
0.089716000000000,0,0x0004,
0.089723666666667,0,0x0311,
0.089739875000000,0,0x0A01,
0.089747791666667,0,0x8311,
0.089763625000000,0,0x0F00,
0.089771541666667,0,0x8411,
0.089787375000000,0,0x0000,
0.089795291666667,0,0x8519,
0.089811125000000,0,0x973F,
0.089819041666667,0,0x8611,
0.089849750000000,0,0x0001,
0.089857458333333,0,0x1D15,
0.089873416666667,0,0x1551,
0.089881333333333,0,0x9D15,
0.089909458333333,0,0x0003,
0.089917125000000,0,0x2419,
0.089933250000000,0,0x0048,
0.089941166666667,0,0xA419,
0.089957000000000,0,0x0040,
0.089964916666667,0,0xA519,
0.089980750000000,0,0x8000,
0.089988666666667,0,0xA619,
0.090017625000000,0,0x0005,
0.090025291666667,0,0x2D1D,
0.090041583333333,0,0x9550,
0.090049500000000,0,0xAD19,
0.090065333333333,0,0xFFF4,
0.090073250000000,0,0xAE19,
0.090089083333333,0,0x0008,
0.090097000000000,0,0xAF19,
0.090112833333333,0,0x8000,
0.090120708333333,0,0xB019,
0.090136541666667,0,0x8305,
0.090144458333333,0,0xB119,
0.090173833333333,0,0x0006,
0.090181500000000,0,0x3B11,
0.090197875000000,0,0xB3DF,
0.090205791666667,0,0xBB19,
0.090221625000000,0,0xB32E,
0.090229541666667,0,0xBC19,
0.090245375000000,0,0xB2BE,
0.090253291666667,0,0xBD19,
0.090269125000000,0,0xB1FE,
0.090277041666667,0,0xBE19,
0.090292875000000,0,0xB202,
0.090300791666667,0,0xBF19,
0.090316625000000,0,0xB274,
0.090324541666667,0,0xC019,
0.090354750000000,0,0x000A,
0.090362416666667,0,0x4115,
0.090378458333333,0,0xC0C4,
0.090386375000000,0,0xC119,
0.090402208333333,0,0xC0C3,
0.090410125000000,0,0xC219,
0.090425958333333,0,0xC0C0,
0.090433875000000,0,0xC319,
0.090449708333333,0,0xC0C5,
0.090457625000000,0,0xC419,
0.090473458333333,0,0xC0C2,
0.090481375000000,0,0xC519,
0.090497208333333,0,0xDCD1,
0.090505125000000,0,0xC619,
0.090520958333333,0,0x800E,
0.090528875000000,0,0xC719,
0.090544708333333,0,0xA3DA,
0.090552625000000,0,0xC819,
0.090568458333333,0,0x9E39,
0.090576375000000,0,0xC919,
0.090592208333333,0,0x9E3D,
0.090600125000000,0,0xCA19,
0.090632541666667,0,0x0004,
0.090640208333333,0,0x0329,
0.090656250000000,0,0x0A01,
0.090664125000000,0,0x8329,
0.090679833333333,0,0x0F00,
0.090687666666667,0,0x8429,
0.090703416666667,0,0x0000,
0.090711250000000,0,0x8529,
0.090726958333333,0,0x973F,
0.090734833333333,0,0x8629,
0.090765291666667,0,0x0001,
0.090772958333333,0,0x1D2D,
0.090789333333333,0,0x0055,
0.090797166666667,0,0x9D2D,
0.090825666666667,0,0x0003,
0.090833375000000,0,0x2421,
0.090849708333333,0,0x004C,
0.090857583333333,0,0xA429,
0.090873291666667,0,0x0040,
0.090881125000000,0,0xA529,
0.090896875000000,0,0x8000,
0.090904708333333,0,0xA629,
0.090933583333333,0,0x0005,
0.090941250000000,0,0x2D25,
0.090957250000000,0,0x9E3A,
0.090965125000000,0,0xAD29,
0.090980791666667,0,0xFFF5,
0.090988666666667,0,0xAE29,
0.091004375000000,0,0x9257,
0.091012250000000,0,0xAF29,
0.091027916666667,0,0xFFFF,
0.091035791666667,0,0xB029,
0.091051500000000,0,0x8309,
0.091059375000000,0,0xB129,
0.091088875000000,0,0x0006,
0.091096583333333,0,0x3B29,
0.091112875000000,0,0xE51E,
0.091120750000000,0,0xBB29,
0.091136458333333,0,0x8002,
0.091144291666667,0,0xBC29,
0.091160000000000,0,0x8000,
0.091167875000000,0,0xBD29,
0.091183583333333,0,0x8000,
0.091191458333333,0,0xBE29,
0.091207166666667,0,0xE5BD,
0.091215000000000,0,0xBF29,
0.091230750000000,0,0xE5D4,
0.091238583333333,0,0xC029,
0.091267916666667,0,0x000A,
0.091275625000000,0,0x412D,
0.091291625000000,0,0xDB2D,
0.091299458333333,0,0xC129,
0.091315166666667,0,0xDC2A,
0.091323041666667,0,0xC229,
0.091338750000000,0,0xDF37,
0.091346625000000,0,0xC329,
0.091362333333333,0,0xE122,
0.091370166666667,0,0xC429,
0.091385916666667,0,0xA97F,
0.091393750000000,0,0xC529,
0.091409458333333,0,0xFF4C,
0.091417333333333,0,0xC629,
0.091433041666667,0,0xC012,
0.091440875000000,0,0xC729,
0.091456583333333,0,0xA3BF,
0.091464458333333,0,0xC829,
0.091480166666667,0,0x9E3B,
0.091488000000000,0,0xC929,
0.091503750000000,0,0x9E41,
0.091511583333333,0,0xCA29,
0.099009000000000,0,0xAC3F,
0.099016666666667,0,0x0603,
0.099044291666667,0,0x0004,
0.099051958333333,0,0x0315,
0.099068125000000,0,0x0A01,
0.099076041666667,0,0x8315,
0.099091875000000,0,0x0F00,
0.099099791666667,0,0x8415,
0.099115625000000,0,0x0000,
0.099123541666667,0,0x851A,
0.099139375000000,0,0xAF3F,
0.099147291666667,0,0x8615,
0.099178250000000,0,0x0004,
0.099185958333333,0,0x0319,
0.099202208333333,0,0x0A01,
0.099210125000000,0,0x8319,
0.099225958333333,0,0x0F00,
0.099233875000000,0,0x8419,
0.099249750000000,0,0x0000,
0.099257666666667,0,0x851A,
0.099273458333333,0,0xAF3F,
0.099281416666667,0,0x8619,
0.099311833333333,0,0x0004,
0.099319500000000,0,0x031D,
0.099335791666667,0,0x0A01,
0.099343750000000,0,0x831D,
0.099359541666667,0,0x0F00,
0.099367500000000,0,0x841D,
0.099383291666667,0,0x0000,
0.099391250000000,0,0x851A,
0.099407083333333,0,0xAF3F,
0.099414958333333,0,0x861D,
0.099446583333333,0,0x0004,
0.099454291666667,0,0x0311,
0.099470416666667,0,0x0A01,
0.099478291666667,0,0x8311,
0.099494166666667,0,0x0F00,
0.099502083333333,0,0x8411,
0.099517916666667,0,0x0000,
0.099525833333333,0,0x851A,
0.099541666666667,0,0xAF3F,
0.099549583333333,0,0x8611,
0.099580416666667,0,0x0004,
0.099588083333333,0,0x0315,
0.099604500000000,0,0x0A01,
0.099612416666667,0,0x8315,
0.099628250000000,0,0x0F00,
0.099636166666667,0,0x8415,
0.099652000000000,0,0x0000,
0.099659916666667,0,0x851A,
0.099675750000000,0,0xA73F,
0.099683666666667,0,0x8615,
0.099714666666667,0,0x0001,
0.099722333333333,0,0x1D19,
0.099738583333333,0,0x1551,
0.099746500000000,0,0x9D19,
0.099774333333333,0,0x0003,
0.099782000000000,0,0x241D,
0.099798416666667,0,0x0048,
0.099806375000000,0,0xA41A,
0.099822166666667,0,0x0040,
0.099830083333333,0,0xA51A,
0.099845916666667,0,0x8000,
0.099853833333333,0,0xA61A,
0.099883541666667,0,0x0005,
0.099891208333333,0,0x2D11,
0.099907250000000,0,0x9657,
0.099915166666667,0,0xAD1A,
0.099931000000000,0,0xFFF3,
0.099938916666667,0,0xAE1A,
0.099954750000000,0,0xFCF7,
0.099962666666667,0,0xAF1A,
0.099978500000000,0,0xFFFF,
0.099986416666667,0,0xB01A,
0.100002250000000,0,0x830F,
0.100010166666667,0,0xB11A,
0.100040333333333,0,0x0006,
0.100048000000000,0,0x3B15,
0.100064083333333,0,0xB3E3,
0.100072000000000,0,0xBB1A,
0.100087833333333,0,0xB32C,
0.100095750000000,0,0xBC1A,
0.100111583333333,0,0xB2BF,
0.100119500000000,0,0xBD1A,
0.100135333333333,0,0xB1FF,
0.100143208333333,0,0xBE1A,
0.100159041666667,0,0xB1FD,
0.100167000000000,0,0xBF1A,
0.100182791666667,0,0xB26D,
0.100190708333333,0,0xC01A,
0.100220625000000,0,0x000A,
0.100228291666667,0,0x4119,
0.100244625000000,0,0xC0C2,
0.100252541666667,0,0xC11A,
0.100268375000000,0,0xC0C3,
0.100276291666667,0,0xC21A,
0.100292125000000,0,0xC0C3,
0.100300041666667,0,0xC31A,
0.100315875000000,0,0xC0C2,
0.100323791666667,0,0xC41A,
0.100339625000000,0,0xC0C4,
0.100347541666667,0,0xC51A,
0.100363375000000,0,0xDCCD,
0.100371291666667,0,0xC61A,
0.100387125000000,0,0x800D,
0.100395041666667,0,0xC71A,
0.100410875000000,0,0xA3DC,
0.100418791666667,0,0xC81A,
0.100434625000000,0,0x9E38,
0.100442541666667,0,0xC91A,
0.100458375000000,0,0x9E38,
0.100466291666667,0,0xCA1A,
0.100498708333333,0,0x0004,
0.100506375000000,0,0x032D,
0.100522500000000,0,0x0A01,
0.100530375000000,0,0x832D,
0.100546083333333,0,0x0F00,
0.100553916666667,0,0x842D,
0.100569625000000,0,0x0000,
0.100577500000000,0,0x852A,
0.100593208333333,0,0xA73F,
0.100601083333333,0,0x862D,
0.100632041666667,0,0x0001,
0.100639708333333,0,0x1D21,
0.100656041666667,0,0x0055,
0.100663916666667,0,0x9D21,
0.100691583333333,0,0x0003,
0.100699291666667,0,0x2425,
0.100715458333333,0,0x004C,
0.100723291666667,0,0xA42A,
0.100739041666667,0,0x0040,
0.100746875000000,0,0xA52A,
0.100762583333333,0,0x8000,
0.100770458333333,0,0xA62A,
0.100799000000000,0,0x0005,
0.100806708333333,0,0x2D29,
0.100822958333333,0,0x9F43,
0.100830833333333,0,0xAD2A,
0.100846541666667,0,0xFFF5,
0.100854375000000,0,0xAE2A,
0.100870125000000,0,0x8FB5,
0.100877958333333,0,0xAF2A,
0.100893666666667,0,0xFFFF,
0.100901541666667,0,0xB02A,
0.100917250000000,0,0x830F,
0.100925083333333,0,0xB12A,
0.100955833333333,0,0x0006,
0.100963500000000,0,0x3B2D,
0.100979625000000,0,0xE51D,
0.100987458333333,0,0xBB2A,
0.101003166666667,0,0x8002,
0.101011041666667,0,0xBC2A,
0.101026750000000,0,0x8001,
0.101034583333333,0,0xBD2A,
0.101050291666667,0,0x8002,
0.101058166666667,0,0xBE2A,
0.101073875000000,0,0xE5B5,
0.101081708333333,0,0xBF2A,
0.101097416666667,0,0xE5D2,
0.101105291666667,0,0xC02A,
0.101135416666667,0,0x000A,
0.101143083333333,0,0x4121,
0.101159291666667,0,0xDB2E,
0.101167166666667,0,0xC12A,
0.101182875000000,0,0xDC31,
0.101190708333333,0,0xC22A,
0.101206416666667,0,0xDF3A,
0.101214291666667,0,0xC32A,
0.101230000000000,0,0xE121,
0.101237875000000,0,0xC42A,
0.101253541666667,0,0xA97E,
0.101261416666667,0,0xC52A,
0.101277125000000,0,0xFF50,
0.101285000000000,0,0xC62A,
0.101300708333333,0,0xC016,
0.101308541666667,0,0xC72A,
0.101324291666667,0,0xA3C0,
0.101332125000000,0,0xC82A,
0.101347833333333,0,0x9E3E,
0.101355666666667,0,0xC92A,
0.101371416666667,0,0x9E40,
0.101379250000000,0,0xCA2A,
0.108995708333333,0,0xBC3F,
0.109003416666667,0,0x0607,
0.109030458333333,0,0x0004,
0.109038125000000,0,0x0319,
0.109054333333333,0,0x0A01,
0.109062250000000,0,0x8319,
0.109078083333333,0,0x0F00,
0.109086000000000,0,0x8419,
0.109101833333333,0,0x0000,
0.109109750000000,0,0x851B,
0.109125583333333,0,0xBF3F,
0.109133500000000,0,0x8619,
0.109165041666667,0,0x0004,
0.109172708333333,0,0x031D,
0.109188958333333,0,0x0A01,
0.109196875000000,0,0x831D,
0.109212708333333,0,0x0F00,
0.109220625000000,0,0x841D,
0.109236458333333,0,0x0000,
0.109244375000000,0,0x851B,
0.109260208333333,0,0xBF3F,
0.109268125000000,0,0x861D,
0.109299333333333,0,0x0004,
0.109307041666667,0,0x0311,
0.109323041666667,0,0x0A01,
0.109330958333333,0,0x8311,
0.109346791666667,0,0x0F00,
0.109354708333333,0,0x8411,
0.109370541666667,0,0x0000,
0.109378458333333,0,0x851B,
0.109394291666667,0,0xBF3F,
0.109402208333333,0,0x8611,
0.109433541666667,0,0x0004,
0.109441250000000,0,0x0315,
0.109457666666667,0,0x0A01,
0.109465583333333,0,0x8315,
0.109481416666667,0,0x0F00,
0.109489333333333,0,0x8415,
0.109505208333333,0,0x0000,
0.109513125000000,0,0x851B,
0.109528958333333,0,0xBF3F,
0.109536875000000,0,0x8615,
0.109566916666667,0,0x0004,
0.109574625000000,0,0x0319,
0.109590750000000,0,0x0A01,
0.109598666666667,0,0x8319,
0.109614500000000,0,0x0F00,
0.109622416666667,0,0x8419,
0.109638291666667,0,0x0000,
0.109646166666667,0,0x851B,
0.109662000000000,0,0xB73F,
0.109669916666667,0,0x8619,
0.109700958333333,0,0x0001,
0.109708625000000,0,0x1D1D,
0.109724833333333,0,0x1551,
0.109732750000000,0,0x9D1D,
0.109761000000000,0,0x0003,
0.109768666666667,0,0x2411,
0.109784666666667,0,0x0048,
0.109792583333333,0,0xA41B,
0.109808416666667,0,0x0040,
0.109816375000000,0,0xA51B,
0.109832166666667,0,0x8000,
0.109840083333333,0,0xA61B,
0.109869000000000,0,0x0005,
0.109876708333333,0,0x2D15,
0.109893041666667,0,0x9760,
0.109900916666667,0,0xAD1B,
0.109916750000000,0,0xFFF3,
0.109924666666667,0,0xAE1B,
0.109940500000000,0,0xFA01,
0.109948458333333,0,0xAF1B,
0.109964250000000,0,0xFFFF,
0.109972166666667,0,0xB01B,
0.109988000000000,0,0x830B,
0.109995916666667,0,0xB11B,
0.110026208333333,0,0x0006,
0.110033875000000,0,0x3B19,
0.110050333333333,0,0xB3E0,
0.110058250000000,0,0xBB1B,
0.110074083333333,0,0xB32A,
0.110082000000000,0,0xBC1B,
0.110097833333333,0,0xB2C0,
0.110105750000000,0,0xBD1B,
0.110121583333333,0,0xB200,
0.110129500000000,0,0xBE1B,
0.110145333333333,0,0xB201,
0.110153250000000,0,0xBF1B,
0.110169083333333,0,0xB271,
0.110177000000000,0,0xC01B,
0.110206625000000,0,0x000A,
0.110214250000000,0,0x411D,
0.110230416666667,0,0xC0C2,
0.110238333333333,0,0xC11B,
0.110254166666667,0,0xC0C1,
0.110262083333333,0,0xC21B,
0.110277916666667,0,0xC0C3,
0.110285833333333,0,0xC31B,
0.110301666666667,0,0xC0C3,
0.110309583333333,0,0xC41B,
0.110325416666667,0,0xC0C3,
0.110333333333333,0,0xC51B,
0.110349166666667,0,0xDCD1,
0.110357083333333,0,0xC61B,
0.110372916666667,0,0x800B,
0.110380833333333,0,0xC71B,
0.110396666666667,0,0xA3DE,
0.110404583333333,0,0xC81B,
0.110420416666667,0,0x9E35,
0.110428375000000,0,0xC91B,
0.110444166666667,0,0x9E3C,
0.110452083333333,0,0xCA1B,
0.110483916666667,0,0x0004,
0.110491583333333,0,0x0321,
0.110507833333333,0,0x0A01,
0.110515708333333,0,0x8321,
0.110531416666667,0,0x0F00,
0.110539250000000,0,0x8421,
0.110555000000000,0,0x0000,
0.110562833333333,0,0x852B,
0.110578541666667,0,0xB73F,
0.110586416666667,0,0x8621,
0.110616625000000,0,0x0001,
0.110624291666667,0,0x1D25,
0.110640416666667,0,0x0055,
0.110648291666667,0,0x9D25,
0.110676708333333,0,0x0003,
0.110684375000000,0,0x2429,
0.110700333333333,0,0x004C,
0.110708166666667,0,0xA42B,
0.110723875000000,0,0x0040,
0.110731750000000,0,0xA52B,
0.110747458333333,0,0x8000,
0.110755333333333,0,0xA62B,
0.110784583333333,0,0x0005,
0.110792250000000,0,0x2D2D,
0.110808333333333,0,0xA04E,
0.110816208333333,0,0xAD2B,
0.110831916666667,0,0xFFF5,
0.110839791666667,0,0xAE2B,
0.110855500000000,0,0x8D8A,
0.110863333333333,0,0xAF2B,
0.110879083333333,0,0x8000,
0.110886916666667,0,0xB02B,
0.110902625000000,0,0x8303,
0.110910500000000,0,0xB12B,
0.110939958333333,0,0x0006,
0.110947625000000,0,0x3B21,
0.110964041666667,0,0xE517,
0.110971875000000,0,0xBB2B,
0.110987583333333,0,0x8001,
0.110995458333333,0,0xBC2B,
0.111011166666667,0,0x8000,
0.111019041666667,0,0xBD2B,
0.111034750000000,0,0x8001,
0.111042583333333,0,0xBE2B,
0.111058291666667,0,0xE5BC,
0.111066166666667,0,0xBF2B,
0.111081875000000,0,0xE5D0,
0.111089750000000,0,0xC02B,
0.111119708333333,0,0x000A,
0.111127416666667,0,0x4125,
0.111143750000000,0,0xDB29,
0.111151625000000,0,0xC12B,
0.111167333333333,0,0xDC2B,
0.111175166666667,0,0xC22B,
0.111190875000000,0,0xDF35,
0.111198750000000,0,0xC32B,
0.111214458333333,0,0xE11F,
0.111222291666667,0,0xC42B,
0.111238000000000,0,0xA979,
0.111245875000000,0,0xC52B,
0.111261583333333,0,0xFF4A,
0.111269416666667,0,0xC62B,
0.111285166666667,0,0xC013,
0.111293000000000,0,0xC72B,
0.111308708333333,0,0xA3BF,
0.111316583333333,0,0xC82B,
0.111332291666667,0,0x9E38,
0.111340166666667,0,0xC92B,
0.111355833333333,0,0x9E41,
0.111363708333333,0,0xCA2B,
0.118961375000000,0,0xCC3F,
0.118969041666667,0,0x060B,
0.118997125000000,0,0x0004,
0.119004833333333,0,0x031D,
0.119020875000000,0,0x0A01,
0.119028791666667,0,0x831D,
0.119044625000000,0,0x0F00,
0.119052541666667,0,0x841D,
0.119068375000000,0,0x0000,
0.119076291666667,0,0x851C,
0.119092125000000,0,0xCF3F,
0.119100041666667,0,0x861D,
0.119131166666667,0,0x0004,
0.119138875000000,0,0x0311,
0.119154958333333,0,0x0A01,
0.119162875000000,0,0x8311,
0.119178708333333,0,0x0F00,
0.119186583333333,0,0x8411,
0.119202458333333,0,0x0000,
0.119210375000000,0,0x851C,
0.119226208333333,0,0xCF3F,
0.119234083333333,0,0x8611,
0.119265166666667,0,0x0004,
0.119272875000000,0,0x0315,
0.119289041666667,0,0x0A01,
0.119296958333333,0,0x8315,
0.119312791666667,0,0x0F00,
0.119320708333333,0,0x8415,
0.119336541666667,0,0x0000,
0.119344458333333,0,0x851C,
0.119360291666667,0,0xCF3F,
0.119368208333333,0,0x8615,
0.119398291666667,0,0x0004,
0.119406000000000,0,0x0319,
0.119422125000000,0,0x0A01,
0.119430041666667,0,0x8319,
0.119445875000000,0,0x0F00,
0.119453791666667,0,0x8419,
0.119469625000000,0,0x0000,
0.119477541666667,0,0x851C,
0.119493375000000,0,0xCF3F,
0.119501291666667,0,0x8619,
0.119531375000000,0,0x0004,
0.119539041666667,0,0x031D,
0.119555208333333,0,0x0A01,
0.119563125000000,0,0x831D,
0.119578958333333,0,0x0F00,
0.119586875000000,0,0x841D,
0.119602708333333,0,0x0000,
0.119610625000000,0,0x851C,
0.119626458333333,0,0xC73F,
0.119634375000000,0,0x861D,
0.119664833333333,0,0x0001,
0.119672541666667,0,0x1D11,
0.119688791666667,0,0x1551,
0.119696708333333,0,0x9D11,
0.119725125000000,0,0x0003,
0.119732833333333,0,0x2415,
0.119749125000000,0,0x0048,
0.119757041666667,0,0xA41C,
0.119772875000000,0,0x0040,
0.119780791666667,0,0xA51C,
0.119796666666667,0,0x8000,
0.119804541666667,0,0xA61C,
0.119833041666667,0,0x0005,
0.119840708333333,0,0x2D19,
0.119857000000000,0,0x9869,
0.119864916666667,0,0xAD1C,
0.119880750000000,0,0xFFF3,
0.119888666666667,0,0xAE1C,
0.119904500000000,0,0xF770,
0.119912416666667,0,0xAF1C,
0.119928250000000,0,0xFFFF,
0.119936166666667,0,0xB01C,
0.119952000000000,0,0x830E,
0.119959916666667,0,0xB11C,
0.119989375000000,0,0x0006,
0.119997083333333,0,0x3B1D,
0.120013291666667,0,0xB3DD,
0.120021208333333,0,0xBB1C,
0.120037041666667,0,0xB32C,
0.120044958333333,0,0xBC1C,
0.120060833333333,0,0xB2BE,
0.120068708333333,0,0xBD1C,
0.120084541666667,0,0xB1FE,
0.120092458333333,0,0xBE1C,
0.120108291666667,0,0xB205,
0.120116208333333,0,0xBF1C,
0.120132041666667,0,0xB275,
0.120139958333333,0,0xC01C,
0.120169625000000,0,0x000A,
0.120177291666667,0,0x4111,
0.120193375000000,0,0xC0C7,
0.120201291666667,0,0xC11C,
0.120217125000000,0,0xC0C6,
0.120225041666667,0,0xC21C,
0.120240875000000,0,0xC0C4,
0.120248791666667,0,0xC31C,
0.120264625000000,0,0xC0C5,
0.120272541666667,0,0xC41C,
0.120288333333333,0,0xC0C8,
0.120296291666667,0,0xC51C,
0.120312125000000,0,0xDCD4,
0.120320000000000,0,0xC61C,
0.120335833333333,0,0x800E,
0.120343750000000,0,0xC71C,
0.120359583333333,0,0xA3DB,
0.120367500000000,0,0xC81C,
0.120383333333333,0,0x9E3C,
0.120391250000000,0,0xC91C,
0.120407083333333,0,0x9E36,
0.120415000000000,0,0xCA1C,
0.120447041666667,0,0x0004,
0.120454708333333,0,0x0325,
0.120470875000000,0,0x0A01,
0.120478708333333,0,0x8325,
0.120494416666667,0,0x0F00,
0.120502291666667,0,0x8425,
0.120518000000000,0,0x0000,
0.120525833333333,0,0x852C,
0.120541583333333,0,0xC73F,
0.120549416666667,0,0x8625,
0.120579750000000,0,0x0001,
0.120587416666667,0,0x1D29,
0.120603416666667,0,0x0055,
0.120611291666667,0,0x9D29,
0.120639875000000,0,0x0003,
0.120647583333333,0,0x242D,
0.120663833333333,0,0x004C,
0.120671708333333,0,0xA42C,
0.120687416666667,0,0x0040,
0.120695250000000,0,0xA52C,
0.120710958333333,0,0x8000,
0.120718833333333,0,0xA62C,
0.120748125000000,0,0x0005,
0.120755833333333,0,0x2D21,
0.120771833333333,0,0xA159,
0.120779708333333,0,0xAD2C,
0.120795416666667,0,0xFFF5,
0.120803291666667,0,0xAE2C,
0.120819000000000,0,0x8ACB,
0.120826833333333,0,0xAF2C,
0.120842541666667,0,0xFFFF,
0.120850416666667,0,0xB02C,
0.120866125000000,0,0x830C,
0.120874000000000,0,0xB12C,
0.120904375000000,0,0x0006,
0.120912041666667,0,0x3B25,
0.120928000000000,0,0xE51F,
0.120935875000000,0,0xBB2C,
0.120951583333333,0,0x8000,
0.120959416666667,0,0xBC2C,
0.120975125000000,0,0x8001,
0.120983000000000,0,0xBD2C,
0.120998708333333,0,0x8001,
0.121006583333333,0,0xBE2C,
0.121022291666667,0,0xE5BA,
0.121030125000000,0,0xBF2C,
0.121045833333333,0,0xE5D4,
0.121053708333333,0,0xC02C,
0.121083875000000,0,0x000A,
0.121091541666667,0,0x4129,
0.121107708333333,0,0xDB31,
0.121115541666667,0,0xC12C,
0.121131250000000,0,0xDC2F,
0.121139125000000,0,0xC22C,
0.121154833333333,0,0xDF3B,
0.121162708333333,0,0xC32C,
0.121178416666667,0,0xE122,
0.121186250000000,0,0xC42C,
0.121202000000000,0,0xA97F,
0.121209833333333,0,0xC52C,
0.121225541666667,0,0xFF49,
0.121233416666667,0,0xC62C,
0.121249125000000,0,0xC018,
0.121257000000000,0,0xC72C,
0.121272708333333,0,0xA3BD,
0.121280541666667,0,0xC82C,
0.121296291666667,0,0x9E3E,
0.121304125000000,0,0xC92C,
0.121319833333333,0,0x9E3E,
0.121327666666667,0,0xCA2C,
0.129017541666667,0,0xDC3F,
0.129025208333333,0,0x060F,
0.129052291666667,0,0x0004,
0.129059958333333,0,0x0311,
0.129076000000000,0,0x0A01,
0.129083916666667,0,0x8311,
0.129099750000000,0,0x0F00,
0.129107666666667,0,0x8411,
0.129123500000000,0,0x0000,
0.129131416666667,0,0x851D,
0.129147250000000,0,0xDF3F,
0.129155166666667,0,0x8611,
0.129186083333333,0,0x0004,
0.129193791666667,0,0x0315,
0.129210083333333,0,0x0A01,
0.129218000000000,0,0x8315,
0.129233791666667,0,0x0F00,
0.129241708333333,0,0x8415,
0.129257541666667,0,0x0000,
0.129265500000000,0,0x851D,
0.129281291666667,0,0xDF3F,
0.129289250000000,0,0x8615,
0.129320208333333,0,0x0004,
0.129327875000000,0,0x0319,
0.129344166666667,0,0x0A01,
0.129352041666667,0,0x8319,
0.129367875000000,0,0x0F00,
0.129375791666667,0,0x8419,
0.129391625000000,0,0x0000,
0.129399541666667,0,0x851D,
0.129415416666667,0,0xDF3F,
0.129423333333333,0,0x8619,
0.129453833333333,0,0x0004,
0.129461500000000,0,0x031D,
0.129477750000000,0,0x0A01,
0.129485666666667,0,0x831D,
0.129501500000000,0,0x0F00,
0.129509416666667,0,0x841D,
0.129525250000000,0,0x0000,
0.129533166666667,0,0x851D,
0.129549000000000,0,0xDF3F,
0.129556916666667,0,0x861D,
0.129588041666667,0,0x0004,
0.129595708333333,0,0x0311,
0.129611791666667,0,0x0A01,
0.129619708333333,0,0x8311,
0.129635541666667,0,0x0F00,
0.129643458333333,0,0x8411,
0.129659291666667,0,0x0000,
0.129667208333333,0,0x851D,
0.129683041666667,0,0xD73F,
0.129690958333333,0,0x8611,
0.129722208333333,0,0x0001,
0.129729875000000,0,0x1D15,
0.129745875000000,0,0x1551,
0.129753791666667,0,0x9D15,
0.129781916666667,0,0x0003,
0.129789583333333,0,0x2419,
0.129805750000000,0,0x0048,
0.129813666666667,0,0xA41D,
0.129829458333333,0,0x0040,
0.129837416666667,0,0xA51D,
0.129853250000000,0,0x8000,
0.129861166666667,0,0xA61D,
0.129889750000000,0,0x0005,
0.129897416666667,0,0x2D1D,
0.129913583333333,0,0x9975,
0.129921500000000,0,0xAD1D,
0.129937291666667,0,0xFFF3,
0.129945250000000,0,0xAE1D,
0.129961083333333,0,0xF4A2,
0.129969000000000,0,0xAF1D,
0.129984833333333,0,0xFFFF,
0.129992708333333,0,0xB01D,
0.130008541666667,0,0x830F,
0.130016458333333,0,0xB11D,
0.130046625000000,0,0x0006,
0.130054291666667,0,0x3B11,
0.130070375000000,0,0xB3DF,
0.130078333333333,0,0xBB1D,
0.130094125000000,0,0xB32C,
0.130102041666667,0,0xBC1D,
0.130117875000000,0,0xB2BE,
0.130125791666667,0,0xBD1D,
0.130141625000000,0,0xB1FF,
0.130149541666667,0,0xBE1D,
0.130165375000000,0,0xB201,
0.130173291666667,0,0xBF1D,
0.130189083333333,0,0xB26E,
0.130197000000000,0,0xC01D,
0.130227083333333,0,0x000A,
0.130234750000000,0,0x4115,
0.130250958333333,0,0xC0C7,
0.130258875000000,0,0xC11D,
0.130274708333333,0,0xC0C5,
0.130282583333333,0,0xC21D,
0.130298458333333,0,0xC0C7,
0.130306375000000,0,0xC31D,
0.130322166666667,0,0xC0C7,
0.130330083333333,0,0xC41D,
0.130345958333333,0,0xC0C7,
0.130353875000000,0,0xC51D,
0.130369708333333,0,0xDCD4,
0.130377625000000,0,0xC61D,
0.130393458333333,0,0x8012,
0.130401375000000,0,0xC71D,
0.130417166666667,0,0xA3DA,
0.130425083333333,0,0xC81D,
0.130440916666667,0,0x9E3C,
0.130448833333333,0,0xC91D,
0.130464666666667,0,0x9E3B,
0.130472583333333,0,0xCA1D,
0.130504333333333,0,0x0004,
0.130512041666667,0,0x0329,
0.130528083333333,0,0x0A01,
0.130535958333333,0,0x8329,
0.130551666666667,0,0x0F00,
0.130559541666667,0,0x8429,
0.130575250000000,0,0x0000,
0.130583083333333,0,0x852D,
0.130598791666667,0,0xD73F,
0.130606666666667,0,0x8629,
0.130637083333333,0,0x0001,
0.130644750000000,0,0x1D2D,
0.130661166666667,0,0x0055,
0.130669041666667,0,0x9D2D,
0.130697000000000,0,0x0003,
0.130704666666667,0,0x2421,
0.130721083333333,0,0x004C,
0.130728916666667,0,0xA42D,
0.130744666666667,0,0x0040,
0.130752500000000,0,0xA52D,
0.130768208333333,0,0x8000,
0.130776041666667,0,0xA62D,
0.130805125000000,0,0x0005,
0.130812833333333,0,0x2D25,
0.130829125000000,0,0xA267,
0.130836958333333,0,0xAD2D,
0.130852666666667,0,0xFFF5,
0.130860541666667,0,0xAE2D,
0.130876250000000,0,0x8823,
0.130884083333333,0,0xAF2D,
0.130899833333333,0,0xFFFF,
0.130907666666667,0,0xB02D,
0.130923375000000,0,0x830B,
0.130931250000000,0,0xB12D,
0.130962208333333,0,0x0006,
0.130969916666667,0,0x3B29,
0.130986250000000,0,0xE515,
0.130994083333333,0,0xBB2D,
0.131009791666667,0,0x8001,
0.131017666666667,0,0xBC2D,
0.131033375000000,0,0x8000,
0.131041250000000,0,0xBD2D,
0.131056958333333,0,0x8000,
0.131064833333333,0,0xBE2D,
0.131080500000000,0,0xE5B8,
0.131088375000000,0,0xBF2D,
0.131104083333333,0,0xE5D3,
0.131111958333333,0,0xC02D,
0.131142333333333,0,0x000A,
0.131150000000000,0,0x412D,
0.131166416666667,0,0xDB2D,
0.131174291666667,0,0xC12D,
0.131190000000000,0,0xDC2E,
0.131197875000000,0,0xC22D,
0.131213583333333,0,0xDF37,
0.131221458333333,0,0xC32D,
0.131237166666667,0,0xE120,
0.131245000000000,0,0xC42D,
0.131260708333333,0,0xA97E,
0.131268583333333,0,0xC52D,
0.131284291666667,0,0xFF4A,
0.131292166666667,0,0xC62D,
0.131307875000000,0,0xC017,
0.131315708333333,0,0xC72D,
0.131331416666667,0,0xA3C0,
0.131339291666667,0,0xC82D,
0.131355000000000,0,0x9E37,
0.131362833333333,0,0xC92D,
0.131378583333333,0,0x9E3D,
0.131386416666667,0,0xCA2D,
0.139143208333333,0,0xEC3F,
0.139150875000000,0,0x0603,
0.139178333333333,0,0x0004,
0.139186000000000,0,0x0315,
0.139202333333333,0,0x0A01,
0.139210250000000,0,0x8315,
0.139226083333333,0,0x0F00,
0.139234041666667,0,0x8415,
0.139249875000000,0,0x0000,
0.139257791666667,0,0x851E,
0.139273625000000,0,0xEF3F,
0.139281500000000,0,0x8615,
0.139312166666667,0,0x0004,
0.139319833333333,0,0x0319,
0.139335916666667,0,0x0A01,
0.139343875000000,0,0x8319,
0.139359666666667,0,0x0F00,
0.139367583333333,0,0x8419,
0.139383416666667,0,0x0000,
0.139391333333333,0,0x851E,
0.139407166666667,0,0xEF3F,
0.139415083333333,0,0x8619,
0.139445708333333,0,0x0004,
0.139453416666667,0,0x031D,
0.139469500000000,0,0x0A01,
0.139477416666667,0,0x831D,
0.139493291666667,0,0x0F00,
0.139501208333333,0,0x841D,
0.139517041666667,0,0x0000,
0.139524958333333,0,0x851E,
0.139540791666667,0,0xEF3F,
0.139548708333333,0,0x861D,
0.139579791666667,0,0x0004,
0.139587458333333,0,0x0311,
0.139603583333333,0,0x0A01,
0.139611500000000,0,0x8311,
0.139627375000000,0,0x0F00,
0.139635250000000,0,0x8411,
0.139651083333333,0,0x0000,
0.139659000000000,0,0x851E,
0.139674833333333,0,0xEF3F,
0.139682750000000,0,0x8611,
0.139713208333333,0,0x0004,
0.139720875000000,0,0x0315,
0.139737166666667,0,0x0A01,
0.139745083333333,0,0x8315,
0.139760916666667,0,0x0F00,
0.139768833333333,0,0x8415,
0.139784666666667,0,0x0000,
0.139792583333333,0,0x851E,
0.139808416666667,0,0xE73F,
0.139816333333333,0,0x8615,
0.139846291666667,0,0x0001,
0.139854000000000,0,0x1D19,
0.139870208333333,0,0x1551,
0.139878125000000,0,0x9D19,
0.139906041666667,0,0x0003,
0.139913708333333,0,0x241D,
0.139930041666667,0,0x0048,
0.139938000000000,0,0xA41E,
0.139953791666667,0,0x0040,
0.139961708333333,0,0xA51E,
0.139977541666667,0,0x8000,
0.139985458333333,0,0xA61E,
0.140014708333333,0,0x0005,
0.140022375000000,0,0x2D11,
0.140038875000000,0,0x9A82,
0.140046791666667,0,0xAD1E,
0.140062625000000,0,0xFFF3,
0.140070541666667,0,0xAE1E,
0.140086333333333,0,0xF168,
0.140094250000000,0,0xAF1E,
0.140110125000000,0,0xFFFF,
0.140118041666667,0,0xB01E,
0.140133833333333,0,0x830B,
0.140141791666667,0,0xB11E,
0.140171875000000,0,0x0006,
0.140179541666667,0,0x3B15,
0.140195666666667,0,0xB3E3,
0.140203583333333,0,0xBB1E,
0.140219416666667,0,0xB32B,
0.140227333333333,0,0xBC1E,
0.140243166666667,0,0xB2B9,
0.140251083333333,0,0xBD1E,
0.140266916666667,0,0xB1FF,
0.140274833333333,0,0xBE1E,
0.140290666666667,0,0xB1FF,
0.140298583333333,0,0xBF1E,
0.140314416666667,0,0xB272,
0.140322333333333,0,0xC01E,
0.140352375000000,0,0x000A,
0.140360083333333,0,0x4119,
0.140376250000000,0,0xC0C4,
0.140384166666667,0,0xC11E,
0.140400000000000,0,0xC0C6,
0.140407916666667,0,0xC21E,
0.140423708333333,0,0xC0C4,
0.140431625000000,0,0xC31E,
0.140447458333333,0,0xC0C6,
0.140455375000000,0,0xC41E,
0.140471208333333,0,0xC0C2,
0.140479125000000,0,0xC51E,
0.140494958333333,0,0xDCCE,
0.140502875000000,0,0xC61E,
0.140518708333333,0,0x800E,
0.140526625000000,0,0xC71E,
0.140542458333333,0,0xA3DC,
0.140550375000000,0,0xC81E,
0.140566208333333,0,0x9E38,
0.140574125000000,0,0xC91E,
0.140589958333333,0,0x9E3A,
0.140597875000000,0,0xCA1E,
0.140629833333333,0,0x0004,
0.140637500000000,0,0x032D,
0.140653500000000,0,0x0A01,
0.140661375000000,0,0x832D,
0.140677083333333,0,0x0F00,
0.140684916666667,0,0x842D,
0.140700625000000,0,0x0000,
0.140708500000000,0,0x852E,
0.140724208333333,0,0xE73F,
0.140732083333333,0,0x862D,
0.140762375000000,0,0x0001,
0.140770041666667,0,0x1D21,
0.140786041666667,0,0x0055,
0.140793916666667,0,0x9D21,
0.140822166666667,0,0x0003,
0.140829833333333,0,0x2425,
0.140845958333333,0,0x004C,
0.140853833333333,0,0xA42E,
0.140869541666667,0,0x0040,
0.140877375000000,0,0xA52E,
0.140893125000000,0,0x8000,
0.140900958333333,0,0xA62E,
0.140929375000000,0,0x0005,
0.140937083333333,0,0x2D29,
0.140953500000000,0,0xA376,
0.140961375000000,0,0xAD2E,
0.140977083333333,0,0xFFF5,
0.140984916666667,0,0xAE2E,
0.141000666666667,0,0x855D,
0.141008500000000,0,0xAF2E,
0.141024208333333,0,0xFFFF,
0.141032041666667,0,0xB02E,
0.141047750000000,0,0x830D,
0.141055625000000,0,0xB12E,
0.141085500000000,0,0x0006,
0.141093166666667,0,0x3B2D,
0.141109125000000,0,0xE518,
0.141117000000000,0,0xBB2E,
0.141132708333333,0,0x8002,
0.141140541666667,0,0xBC2E,
0.141156250000000,0,0x8001,
0.141164125000000,0,0xBD2E,
0.141179833333333,0,0x8006,
0.141187666666667,0,0xBE2E,
0.141203416666667,0,0xE5B6,
0.141211250000000,0,0xBF2E,
0.141226958333333,0,0xE5D1,
0.141234791666667,0,0xC02E,
0.141264375000000,0,0x000A,
0.141272083333333,0,0x4121,
0.141288333333333,0,0xDB2F,
0.141296166666667,0,0xC12E,
0.141311875000000,0,0xDC2F,
0.141319708333333,0,0xC22E,
0.141335416666667,0,0xDF3B,
0.141343291666667,0,0xC32E,
0.141359000000000,0,0xE124,
0.141366833333333,0,0xC42E,
0.141382541666667,0,0xA980,
0.141390416666667,0,0xC52E,
0.141406125000000,0,0xFF4E,
0.141414000000000,0,0xC62E,
0.141429666666667,0,0xC017,
0.141437541666667,0,0xC72E,
0.141453250000000,0,0xA3BF,
0.141461083333333,0,0xC82E,
0.141476833333333,0,0x9E3F,
0.141484666666667,0,0xC92E,
0.141500375000000,0,0x9E3F,
0.141508250000000,0,0xCA2E,
0.149012875000000,0,0xFC3F,
0.149020583333333,0,0x0607,
0.149047416666667,0,0x0004,
0.149055125000000,0,0x0319,
0.149071208333333,0,0x0A01,
0.149079125000000,0,0x8319,
0.149094958333333,0,0x0F00,
0.149102875000000,0,0x8419,
0.149118708333333,0,0x0000,
0.149126625000000,0,0x851F,
0.149142458333333,0,0xFF3F,
0.149150416666667,0,0x8619,
0.149181916666667,0,0x0004,
0.149189583333333,0,0x031D,
0.149205791666667,0,0x0A01,
0.149213708333333,0,0x831D,
0.149229541666667,0,0x0F00,
0.149237458333333,0,0x841D,
0.149253291666667,0,0x0000,
0.149261208333333,0,0x851F,
0.149277041666667,0,0xFF3F,
0.149284958333333,0,0x861D,
0.149315541666667,0,0x0004,
0.149323208333333,0,0x0311,
0.149339375000000,0,0x0A01,
0.149347291666667,0,0x8311,
0.149363125000000,0,0x0F00,
0.149371041666667,0,0x8411,
0.149386916666667,0,0x0000,
0.149394833333333,0,0x851F,
0.149410625000000,0,0xFF3F,
0.149418583333333,0,0x8611,
0.149449250000000,0,0x0004,
0.149456916666667,0,0x0315,
0.149473000000000,0,0x0A01,
0.149480916666667,0,0x8315,
0.149496750000000,0,0x0F00,
0.149504666666667,0,0x8415,
0.149520500000000,0,0x0000,
0.149528416666667,0,0x851F,
0.149544250000000,0,0xFF3F,
0.149552166666667,0,0x8615,
0.149583500000000,0,0x0004,
0.149591166666667,0,0x0319,
0.149607541666667,0,0x0A01,
0.149615458333333,0,0x8319,
0.149631250000000,0,0x0F00,
0.149639208333333,0,0x8419,
0.149655041666667,0,0x0000,
0.149662916666667,0,0x851F,
0.149678791666667,0,0xF73F,
0.149686666666667,0,0x8619,
0.149716583333333,0,0x0001,
0.149724250000000,0,0x1D1D,
0.149740583333333,0,0x1551,
0.149748500000000,0,0x9D1D,
0.149776583333333,0,0x0003,
0.149784250000000,0,0x2411,
0.149800416666667,0,0x0048,
0.149808333333333,0,0xA41F,
0.149824166666667,0,0x0040,
0.149832083333333,0,0xA51F,
0.149847916666667,0,0x8000,
0.149855833333333,0,0xA61F,
0.149885208333333,0,0x0005,
0.149892916666667,0,0x2D15,
0.149909250000000,0,0x9B89,
0.149917166666667,0,0xAD1F,
0.149933000000000,0,0xFFF3,
0.149940916666667,0,0xAE1F,
0.149956750000000,0,0xEEF4,
0.149964666666667,0,0xAF1F,
0.149980500000000,0,0xFFFF,
0.149988416666667,0,0xB01F,
0.150004250000000,0,0x8304,
0.150012166666667,0,0xB11F,
0.150042291666667,0,0x0006,
0.150049958333333,0,0x3B19,
0.150066083333333,0,0xB3DF,
0.150074000000000,0,0xBB1F,
0.150089833333333,0,0xB32B,
0.150097750000000,0,0xBC1F,
0.150113583333333,0,0xB2BC,
0.150121500000000,0,0xBD1F,
0.150137333333333,0,0xB1FB,
0.150145250000000,0,0xBE1F,
0.150161083333333,0,0xB1FF,
0.150169000000000,0,0xBF1F,
0.150184791666667,0,0xB270,
0.150192708333333,0,0xC01F,
0.150223625000000,0,0x000A,
0.150231291666667,0,0x411D,
0.150247625000000,0,0xC0C7,
0.150255541666667,0,0xC11F,
0.150271333333333,0,0xC0C5,
0.150279250000000,0,0xC21F,
0.150295083333333,0,0xC0C7,
0.150303041666667,0,0xC31F,
0.150318833333333,0,0xC0C5,
0.150326750000000,0,0xC41F,
0.150342583333333,0,0xC0C5,
0.150350500000000,0,0xC51F,
0.150366333333333,0,0xDCD5,
0.150374250000000,0,0xC61F,
0.150390083333333,0,0x8011,
0.150398000000000,0,0xC71F,
0.150413833333333,0,0xA3DB,
0.150421750000000,0,0xC81F,
0.150437583333333,0,0x9E3C,
0.150445500000000,0,0xC91F,
0.150461333333333,0,0x9E38,
0.150469250000000,0,0xCA1F,
0.150501291666667,0,0x0004,
0.150509000000000,0,0x0321,
0.150525083333333,0,0x0A01,
0.150532916666667,0,0x8321,
0.150548625000000,0,0x0F00,
0.150556500000000,0,0x8421,
0.150572208333333,0,0x0000,
0.150580083333333,0,0x852F,
0.150595791666667,0,0xF73F,
0.150603625000000,0,0x8621,
0.150633875000000,0,0x0001,
0.150641583333333,0,0x1D25,
0.150657666666667,0,0x0055,
0.150665500000000,0,0x9D25,
0.150693708333333,0,0x0003,
0.150701416666667,0,0x2429,
0.150717541666667,0,0x004C,
0.150725375000000,0,0xA42F,
0.150741125000000,0,0x0040,
0.150748958333333,0,0xA52F,
0.150764666666667,0,0x8000,
0.150772541666667,0,0xA62F,
0.150800958333333,0,0x0005,
0.150808625000000,0,0x2D2D,
0.150825041666667,0,0xA47F,
0.150832916666667,0,0xAD2F,
0.150848625000000,0,0xFFF5,
0.150856500000000,0,0xAE2F,
0.150872208333333,0,0x82A0,
0.150880041666667,0,0xAF2F,
0.150895750000000,0,0xFFFF,
0.150903625000000,0,0xB02F,
0.150919333333333,0,0x830B,
0.150927166666667,0,0xB12F,
0.150958916666667,0,0x0006,
0.150966625000000,0,0x3B21,
0.150982666666667,0,0xE51C,
0.150990500000000,0,0xBB2F,
0.151006208333333,0,0x8003,
0.151014083333333,0,0xBC2F,
0.151029791666667,0,0x8000,
0.151037666666667,0,0xBD2F,
0.151053333333333,0,0x8000,
0.151061208333333,0,0xBE2F,
0.151076916666667,0,0xE5B9,
0.151084791666667,0,0xBF2F,
0.151100500000000,0,0xE5D2,
0.151108333333333,0,0xC02F,
0.151138375000000,0,0x000A,
0.151146041666667,0,0x4125,
0.151162375000000,0,0xDB2B,
0.151170208333333,0,0xC12F,
0.151185916666667,0,0xDC2D,
0.151193791666667,0,0xC22F,
0.151209500000000,0,0xDF32,
0.151217375000000,0,0xC32F,
0.151233041666667,0,0xE11F,
0.151240916666667,0,0xC42F,
0.151256625000000,0,0xA97B,
0.151264500000000,0,0xC52F,
0.151280208333333,0,0xFF4B,
0.151288041666667,0,0xC62F,
0.151303750000000,0,0xC015,
0.151311625000000,0,0xC72F,
0.151327333333333,0,0xA3BF,
0.151335166666667,0,0xC82F,
0.151350916666667,0,0x9E34,
0.151358750000000,0,0xC92F,
0.151374458333333,0,0x9E3D,
0.151382291666667,0,0xCA2F,
0.158987791666667,0,0x0C3F,
0.158995458333333,0,0x060B,
0.159023291666667,0,0x0004,
0.159030958333333,0,0x031D,
0.159047250000000,0,0x0A01,
0.159055166666667,0,0x831D,
0.159071000000000,0,0x0F00,
0.159078916666667,0,0x841D,
0.159094750000000,0,0x0000,
0.159102666666667,0,0x8510,
0.159118541666667,0,0x0F3F,
0.159126416666667,0,0x861D,
0.159156458333333,0,0x0004,
0.159164125000000,0,0x0311,
0.159180375000000,0,0x0A01,
0.159188291666667,0,0x8311,
0.159204125000000,0,0x0F00,
0.159212041666667,0,0x8411,
0.159227875000000,0,0x0000,
0.159235791666667,0,0x8510,
0.159251625000000,0,0x0F3F,
0.159259541666667,0,0x8611,
0.159290583333333,0,0x0004,
0.159298291666667,0,0x0315,
0.159314500000000,0,0x0A01,
0.159322416666667,0,0x8315,
0.159338250000000,0,0x0F00,
0.159346166666667,0,0x8415,
0.159362000000000,0,0x0000,
0.159369958333333,0,0x8510,
0.159385750000000,0,0x0F3F,
0.159393708333333,0,0x8615,
0.159424375000000,0,0x0004,
0.159432083333333,0,0x0319,
0.159448125000000,0,0x0A01,
0.159456041666667,0,0x8319,
0.159471875000000,0,0x0F00,
0.159479791666667,0,0x8419,
0.159495625000000,0,0x0000,
0.159503541666667,0,0x8510,
0.159519375000000,0,0x0F3F,
0.159527291666667,0,0x8619,
0.159557541666667,0,0x0004,
0.159565208333333,0,0x031D,
0.159581208333333,0,0x0A01,
0.159589125000000,0,0x831D,
0.159604958333333,0,0x0F00,
0.159612875000000,0,0x841D,
0.159628708333333,0,0x0000,
0.159636625000000,0,0x8510,
0.159652458333333,0,0x073F,
0.159660375000000,0,0x861D,
0.159691041666667,0,0x0001,
0.159698708333333,0,0x1D11,
0.159714791666667,0,0x1551,
0.159722708333333,0,0x9D11,
0.159750666666667,0,0x0003,
0.159758333333333,0,0x2415,
0.159774625000000,0,0x0048,
0.159782541666667,0,0xA410,
0.159798375000000,0,0x0040,
0.159806291666667,0,0xA510,
0.159822083333333,0,0x8000,
0.159830000000000,0,0xA610,
0.159859375000000,0,0x0005,
0.159867041666667,0,0x2D19,
0.159883458333333,0,0x9C92,
0.159891375000000,0,0xAD10,
0.159907208333333,0,0xFFF3,
0.159915125000000,0,0xAE10,
0.159930958333333,0,0xEBE4,
0.159938875000000,0,0xAF10,
0.159954708333333,0,0x8000,
0.159962625000000,0,0xB010,
0.159978458333333,0,0x8304,
0.159986375000000,0,0xB110,
0.160016666666667,0,0x0006,
0.160024375000000,0,0x3B1D,
0.160040791666667,0,0xB3DD,
0.160048708333333,0,0xBB10,
0.160064541666667,0,0xB327,
0.160072458333333,0,0xBC10,
0.160088291666667,0,0xB2BC,
0.160096208333333,0,0xBD10,
0.160112041666667,0,0xB200,
0.160119958333333,0,0xBE10,
0.160135791666667,0,0xB201,
0.160143708333333,0,0xBF10,
0.160159541666667,0,0xB275,
0.160167458333333,0,0xC010,
0.160197000000000,0,0x000A,
0.160204708333333,0,0x4111,
0.160220875000000,0,0xC0C2,
0.160228833333333,0,0xC110,
0.160244625000000,0,0xC0C4,
0.160252583333333,0,0xC210,
0.160268375000000,0,0xC0C2,
0.160276291666667,0,0xC310,
0.160292125000000,0,0xC0C3,
0.160300041666667,0,0xC410,
0.160315875000000,0,0xC0C2,
0.160323791666667,0,0xC510,
0.160339625000000,0,0xDCD0,
0.160347541666667,0,0xC610,
0.160363375000000,0,0x800D,
0.160371291666667,0,0xC710,
0.160387125000000,0,0xA3DA,
0.160395041666667,0,0xC810,
0.160410833333333,0,0x9E36,
0.160418791666667,0,0xC910,
0.160434625000000,0,0x9E3D,
0.160442541666667,0,0xCA10,
0.160474208333333,0,0x0004,
0.160481875000000,0,0x0325,
0.160498125000000,0,0x0A01,
0.160506000000000,0,0x8325,
0.160521708333333,0,0x0F00,
0.160529541666667,0,0x8425,
0.160545250000000,0,0x0000,
0.160553125000000,0,0x8520,
0.160568833333333,0,0x073F,
0.160576708333333,0,0x8625,
0.160606833333333,0,0x0001,
0.160614500000000,0,0x1D29,
0.160630708333333,0,0x0055,
0.160638541666667,0,0x9D29,
0.160666291666667,0,0x0003,
0.160673958333333,0,0x242D,
0.160690083333333,0,0x004C,
0.160697958333333,0,0xA420,
0.160713666666667,0,0x0040,
0.160721500000000,0,0xA520,
0.160737208333333,0,0x8000,
0.160745083333333,0,0xA620,
0.160774250000000,0,0x0005,
0.160781916666667,0,0x2D21,
0.160798083333333,0,0xA58A,
0.160805958333333,0,0xAD20,
0.160821666666667,0,0xFFF5,
0.160829541666667,0,0xAE20,
0.160845208333333,0,0x807C,
0.160853083333333,0,0xAF20,
0.160868791666667,0,0x8000,
0.160876625000000,0,0xB020,
0.160892375000000,0,0x8302,
0.160900208333333,0,0xB120,
0.160929875000000,0,0x0006,
0.160937500000000,0,0x3B25,
0.160953708333333,0,0xE514,
0.160961583333333,0,0xBB20,
0.160977291666667,0,0x8000,
0.160985166666667,0,0xBC20,
0.161000875000000,0,0x8000,
0.161008708333333,0,0xBD20,
0.161024416666667,0,0x8000,
0.161032291666667,0,0xBE20,
0.161048000000000,0,0xE5B9,
0.161055833333333,0,0xBF20,
0.161071541666667,0,0xE5D5,
0.161079416666667,0,0xC020,
0.161110666666667,0,0x000A,
0.161118333333333,0,0x4129,
0.161134416666667,0,0xDB2F,
0.161142250000000,0,0xC120,
0.161157958333333,0,0xDC31,
0.161165833333333,0,0xC220,
0.161181541666667,0,0xDF3C,
0.161189416666667,0,0xC320,
0.161205125000000,0,0xE125,
0.161212958333333,0,0xC420,
0.161228666666667,0,0xA97C,
0.161236541666667,0,0xC520,
0.161252250000000,0,0xFF4C,
0.161260083333333,0,0xC620,
0.161275791666667,0,0xC018,
0.161283666666667,0,0xC720,
0.161299416666667,0,0xA3BC,
0.161307250000000,0,0xC820,
0.161322958333333,0,0x9E3B,
0.161330833333333,0,0xC920,
0.161346541666667,0,0x9E3F,
0.161354375000000,0,0xCA20,
0.169006666666667,0,0x1C3F,
0.169014375000000,0,0x060F,
0.169042375000000,0,0x0004,
0.169050083333333,0,0x0311,
0.169066250000000,0,0x0A01,
0.169074166666667,0,0x8311,
0.169090000000000,0,0x0F00,
0.169097916666667,0,0x8411,
0.169113750000000,0,0x0000,
0.169121666666667,0,0x8511,
0.169137500000000,0,0x1F3F,
0.169145416666667,0,0x8611,
0.169176833333333,0,0x0004,
0.169184541666667,0,0x0315,
0.169200833333333,0,0x0A01,
0.169208750000000,0,0x8315,
0.169224583333333,0,0x0F00,
0.169232500000000,0,0x8415,
0.169248333333333,0,0x0000,
0.169256250000000,0,0x8511,
0.169272083333333,0,0x1F3F,
0.169280000000000,0,0x8615,
0.169310166666667,0,0x0004,
0.169317875000000,0,0x0319,
0.169333916666667,0,0x0A01,
0.169341833333333,0,0x8319,
0.169357666666667,0,0x0F00,
0.169365583333333,0,0x8419,
0.169381416666667,0,0x0000,
0.169389333333333,0,0x8511,
0.169405166666667,0,0x1F3F,
0.169413083333333,0,0x8619,
0.169444000000000,0,0x0004,
0.169451708333333,0,0x031D,
0.169468000000000,0,0x0A01,
0.169475916666667,0,0x831D,
0.169491750000000,0,0x0F00,
0.169499666666667,0,0x841D,
0.169515500000000,0,0x0000,
0.169523416666667,0,0x8511,
0.169539250000000,0,0x1F3F,
0.169547166666667,0,0x861D,
0.169578750000000,0,0x0004,
0.169586458333333,0,0x0311,
0.169602541666667,0,0x0A01,
0.169610458333333,0,0x8311,
0.169626291666667,0,0x0F00,
0.169634208333333,0,0x8411,
0.169650041666667,0,0x0000,
0.169657958333333,0,0x8511,
0.169673750000000,0,0x173F,
0.169681708333333,0,0x8611,
0.169712083333333,0,0x0001,
0.169719791666667,0,0x1D15,
0.169736083333333,0,0x1551,
0.169744000000000,0,0x9D15,
0.169772250000000,0,0x0003,
0.169779958333333,0,0x2419,
0.169795958333333,0,0x0048,
0.169803833333333,0,0xA411,
0.169819708333333,0,0x0040,
0.169827583333333,0,0xA511,
0.169843416666667,0,0x8000,
0.169851333333333,0,0xA611,
0.169880375000000,0,0x0005,
0.169888083333333,0,0x2D1D,
0.169904291666667,0,0x9D9D,
0.169912166666667,0,0xAD11,
0.169928000000000,0,0xFFF3,
0.169935916666667,0,0xAE11,
0.169951750000000,0,0xE954,
0.169959666666667,0,0xAF11,
0.169975500000000,0,0xFFFF,
0.169983416666667,0,0xB011,
0.169999250000000,0,0x830F,
0.170007166666667,0,0xB111,
0.170037625000000,0,0x0006,
0.170045333333333,0,0x3B11,
0.170061583333333,0,0xB3E0,
0.170069500000000,0,0xBB11,
0.170085333333333,0,0xB32B,
0.170093208333333,0,0xBC11,
0.170109083333333,0,0xB2BA,
0.170116958333333,0,0xBD11,
0.170132791666667,0,0xB1FD,
0.170140708333333,0,0xBE11,
0.170156541666667,0,0xB203,
0.170164458333333,0,0xBF11,
0.170180291666667,0,0xB271,
0.170188208333333,0,0xC011,
0.170219291666667,0,0x000A,
0.170227000000000,0,0x4115,
0.170243083333333,0,0xC0C4,
0.170251000000000,0,0xC111,
0.170266833333333,0,0xC0C6,
0.170274750000000,0,0xC211,
0.170290583333333,0,0xC0C6,
0.170298500000000,0,0xC311,
0.170314333333333,0,0xC0C3,
0.170322250000000,0,0xC411,
0.170338083333333,0,0xC0C4,
0.170346000000000,0,0xC511,
0.170361833333333,0,0xDCD3,
0.170369750000000,0,0xC611,
0.170385583333333,0,0x800D,
0.170393500000000,0,0xC711,
0.170409333333333,0,0xA3DA,
0.170417250000000,0,0xC811,
0.170433083333333,0,0x9E39,
0.170441000000000,0,0xC911,
0.170456833333333,0,0x9E37,
0.170464750000000,0,0xCA11,
0.170497083333333,0,0x0004,
0.170504750000000,0,0x0329,
0.170521083333333,0,0x0A01,
0.170528958333333,0,0x8329,
0.170544666666667,0,0x0F00,
0.170552500000000,0,0x8429,
0.170568208333333,0,0x0000,
0.170576083333333,0,0x8521,
0.170591791666667,0,0x173F,
0.170599666666667,0,0x8629,
0.170630541666667,0,0x0001,
0.170638250000000,0,0x1D2D,
0.170654666666667,0,0x0055,
0.170662500000000,0,0x9D2D,
0.170690500000000,0,0x0003,
0.170698208333333,0,0x2421,
0.170714541666667,0,0x004C,
0.170722416666667,0,0xA421,
0.170738125000000,0,0x0040,
0.170745958333333,0,0xA521,
0.170761666666667,0,0x8000,
0.170769541666667,0,0xA621,
0.170798166666667,0,0x0005,
0.170805875000000,0,0x2D25,
0.170822041666667,0,0xA697,
0.170829916666667,0,0xAD21,
0.170845625000000,0,0xFFF5,
0.170853458333333,0,0xAE21,
0.170869166666667,0,0x7DB3,
0.170877041666667,0,0xAF21,
0.170892791666667,0,0xFFFF,
0.170900625000000,0,0xB021,
0.170916333333333,0,0x830C,
0.170924208333333,0,0xB121,
0.170955791666667,0,0x0006,
0.170963500000000,0,0x3B29,
0.170979666666667,0,0xE51D,
0.170987541666667,0,0xBB21,
0.171003250000000,0,0x8003,
0.171011083333333,0,0xBC21,
0.171026791666667,0,0x8001,
0.171034666666667,0,0xBD21,
0.171050375000000,0,0x8002,
0.171058208333333,0,0xBE21,
0.171073958333333,0,0xE5B7,
0.171081791666667,0,0xBF21,
0.171097500000000,0,0xE5D0,
0.171105333333333,0,0xC021,
0.171135750000000,0,0x000A,
0.171143416666667,0,0x412D,
0.171159875000000,0,0xDB2D,
0.171167708333333,0,0xC121,
0.171183416666667,0,0xDC2D,
0.171191291666667,0,0xC221,
0.171207000000000,0,0xDF36,
0.171214875000000,0,0xC321,
0.171230583333333,0,0xE122,
0.171238416666667,0,0xC421,
0.171254125000000,0,0xA97E,
0.171262000000000,0,0xC521,
0.171277708333333,0,0xFF4A,
0.171285541666667,0,0xC621,
0.171301291666667,0,0xC016,
0.171309125000000,0,0xC721,
0.171324833333333,0,0xA3C0,
0.171332708333333,0,0xC821,
0.171348416666667,0,0x9E37,
0.171356250000000,0,0xC921,
0.171371958333333,0,0x9E3F,
0.171379833333333,0,0xCA21,
0.178961416666667,0,0x2C3F,
0.178969083333333,0,0x0603,
0.178996500000000,0,0x0004,
0.179004166666667,0,0x0315,
0.179020583333333,0,0x0A01,
0.179028500000000,0,0x8315,
0.179044333333333,0,0x0F00,
0.179052250000000,0,0x8415,
0.179068083333333,0,0x0000,
0.179076000000000,0,0x8512,
0.179091833333333,0,0x2F3F,
0.179099750000000,0,0x8615,
0.179130583333333,0,0x0004,
0.179138250000000,0,0x0319,
0.179154666666667,0,0x0A01,
0.179162583333333,0,0x8319,
0.179178416666667,0,0x0F00,
0.179186333333333,0,0x8419,
0.179202166666667,0,0x0000,
0.179210083333333,0,0x8512,
0.179225916666667,0,0x2F3F,
0.179233833333333,0,0x8619,
0.179264916666667,0,0x0004,
0.179272583333333,0,0x031D,
0.179288791666667,0,0x0A01,
0.179296708333333,0,0x831D,
0.179312500000000,0,0x0F00,
0.179320458333333,0,0x841D,
0.179336250000000,0,0x0000,
0.179344208333333,0,0x8512,
0.179360041666667,0,0x2F3F,
0.179367958333333,0,0x861D,
0.179398500000000,0,0x0004,
0.179406166666667,0,0x0311,
0.179422375000000,0,0x0A01,
0.179430291666667,0,0x8311,
0.179446125000000,0,0x0F00,
0.179454041666667,0,0x8411,
0.179469875000000,0,0x0000,
0.179477791666667,0,0x8512,
0.179493625000000,0,0x2F3F,
0.179501541666667,0,0x8611,
0.179532333333333,0,0x0004,
0.179540000000000,0,0x0315,
0.179556458333333,0,0x0A01,
0.179564375000000,0,0x8315,
0.179580208333333,0,0x0F00,
0.179588125000000,0,0x8415,
0.179603958333333,0,0x0000,
0.179611875000000,0,0x8512,
0.179627666666667,0,0x273F,
0.179635625000000,0,0x8615,
0.179666541666667,0,0x0001,
0.179674208333333,0,0x1D19,
0.179690500000000,0,0x1551,
0.179698416666667,0,0x9D19,
0.179727583333333,0,0x0003,
0.179735250000000,0,0x241D,
0.179751375000000,0,0x0048,
0.179759250000000,0,0xA412,
0.179775125000000,0,0x0040,
0.179783000000000,0,0xA512,
0.179798833333333,0,0x8000,
0.179806750000000,0,0xA612,
0.179835750000000,0,0x0005,
0.179843416666667,0,0x2D11,
0.179859666666667,0,0x9EA6,
0.179867583333333,0,0xAD12,
0.179883416666667,0,0xFFF3,
0.179891333333333,0,0xAE12,
0.179907166666667,0,0xE669,
0.179915083333333,0,0xAF12,
0.179930916666667,0,0xFFFF,
0.179938833333333,0,0xB012,
0.179954666666667,0,0x830D,
0.179962583333333,0,0xB112,
0.179992541666667,0,0x0006,
0.180000250000000,0,0x3B15,
0.180016500000000,0,0xB3E1,
0.180024458333333,0,0xBB12,
0.180040291666667,0,0xB32C,
0.180048208333333,0,0xBC12,
0.180064041666667,0,0xB2B8,
0.180071958333333,0,0xBD12,
0.180087791666667,0,0xB200,
0.180095708333333,0,0xBE12,
0.180111541666667,0,0xB1FC,
0.180119458333333,0,0xBF12,
0.180135291666667,0,0xB26C,
0.180143208333333,0,0xC012,
0.180173708333333,0,0x000A,
0.180181375000000,0,0x4119,
0.180197625000000,0,0xC0C5,
0.180205541666667,0,0xC112,
0.180221375000000,0,0xC0C8,
0.180229291666667,0,0xC212,
0.180245125000000,0,0xC0C9,
0.180253041666667,0,0xC312,
0.180268875000000,0,0xC0C8,
0.180276791666667,0,0xC412,
0.180292625000000,0,0xC0CB,
0.180300541666667,0,0xC512,
0.180316416666667,0,0xDCD2,
0.180324333333333,0,0xC612,
0.180340125000000,0,0x800E,
0.180348041666667,0,0xC712,
0.180363875000000,0,0xA3DD,
0.180371791666667,0,0xC812,
0.180387625000000,0,0x9E3D,
0.180395541666667,0,0xC912,
0.180411375000000,0,0x9E39,
0.180419291666667,0,0xCA12,
0.180450875000000,0,0x0004,
0.180458541666667,0,0x032D,
0.180474666666667,0,0x0A01,
0.180482541666667,0,0x832D,
0.180498250000000,0,0x0F00,
0.180506125000000,0,0x842D,
0.180521833333333,0,0x0000,
0.180529708333333,0,0x8522,
0.180545416666667,0,0x273F,
0.180553250000000,0,0x862D,
0.180583875000000,0,0x0001,
0.180591583333333,0,0x1D21,
0.180607750000000,0,0x0055,
0.180615625000000,0,0x9D21,
0.180643958333333,0,0x0003,
0.180651625000000,0,0x2425,
0.180667666666667,0,0x004C,
0.180675500000000,0,0xA422,
0.180691208333333,0,0x0040,
0.180699083333333,0,0xA522,
0.180714791666667,0,0x8000,
0.180722625000000,0,0xA622,
0.180750791666667,0,0x0005,
0.180758500000000,0,0x2D29,
0.180774708333333,0,0xA7A1,
0.180782541666667,0,0xAD22,
0.180798291666667,0,0xFFF5,
0.180806125000000,0,0xAE22,
0.180821833333333,0,0x7B63,
0.180829708333333,0,0xAF22,
0.180845416666667,0,0x8000,
0.180853250000000,0,0xB022,
0.180868958333333,0,0x8301,
0.180876833333333,0,0xB122,
0.180906166666667,0,0x0006,
0.180913833333333,0,0x3B2D,
0.180929875000000,0,0xE51D,
0.180937708333333,0,0xBB22,
0.180953416666667,0,0x8000,
0.180961291666667,0,0xBC22,
0.180977000000000,0,0x8000,
0.180984833333333,0,0xBD22,
0.181000541666667,0,0x8000,
0.181008416666667,0,0xBE22,
0.181024125000000,0,0xE5BB,
0.181032000000000,0,0xBF22,
0.181047708333333,0,0xE5D1,
0.181055541666667,0,0xC022,
0.181085875000000,0,0x000A,
0.181093583333333,0,0x4121,
0.181109541666667,0,0xDB2B,
0.181117416666667,0,0xC122,
0.181133125000000,0,0xDC2D,
0.181141000000000,0,0xC222,
0.181156708333333,0,0xDF34,
0.181164541666667,0,0xC322,
0.181180250000000,0,0xE123,
0.181188125000000,0,0xC422,
0.181203833333333,0,0xA981,
0.181211708333333,0,0xC522,
0.181227416666667,0,0xFF47,
0.181235250000000,0,0xC622,
0.181250958333333,0,0xC015,
0.181258833333333,0,0xC722,
0.181274541666667,0,0xA3BF,
0.181282375000000,0,0xC822,
0.181298125000000,0,0x9E39,
0.181305958333333,0,0xC922,
0.181321666666667,0,0x9E3B,
0.181329541666667,0,0xCA22,
0.189157333333333,0,0x3C3F,
0.189165000000000,0,0x0607,
0.189192541666667,0,0x0004,
0.189200250000000,0,0x0319,
0.189216583333333,0,0x0A01,
0.189224500000000,0,0x8319,
0.189240333333333,0,0x0F00,
0.189248250000000,0,0x8419,
0.189264083333333,0,0x0000,
0.189272000000000,0,0x8513,
0.189287833333333,0,0x3F3F,
0.189295750000000,0,0x8619,
0.189326291666667,0,0x0004,
0.189333958333333,0,0x031D,
0.189350166666667,0,0x0A01,
0.189358083333333,0,0x831D,
0.189373916666667,0,0x0F00,
0.189381833333333,0,0x841D,
0.189397666666667,0,0x0000,
0.189405583333333,0,0x8513,
0.189421416666667,0,0x3F3F,
0.189429333333333,0,0x861D,
0.189460125000000,0,0x0004,
0.189467833333333,0,0x0311,
0.189484250000000,0,0x0A01,
0.189492166666667,0,0x8311,
0.189508000000000,0,0x0F00,
0.189515916666667,0,0x8411,
0.189531750000000,0,0x0000,
0.189539708333333,0,0x8513,
0.189555541666667,0,0x3F3F,
0.189563458333333,0,0x8611,
0.189594833333333,0,0x0004,
0.189602500000000,0,0x0315,
0.189618875000000,0,0x0A01,
0.189626791666667,0,0x8315,
0.189642625000000,0,0x0F00,
0.189650541666667,0,0x8415,
0.189666416666667,0,0x0000,
0.189674333333333,0,0x8513,
0.189690166666667,0,0x3F3F,
0.189698083333333,0,0x8615,
0.189729791666667,0,0x0004,
0.189737458333333,0,0x0319,
0.189753458333333,0,0x0A01,
0.189761375000000,0,0x8319,
0.189777208333333,0,0x0F00,
0.189785125000000,0,0x8419,
0.189800958333333,0,0x0000,
0.189808875000000,0,0x8513,
0.189824666666667,0,0x373F,
0.189832625000000,0,0x8619,
0.189863166666667,0,0x0001,
0.189870833333333,0,0x1D1D,
0.189887041666667,0,0x1551,
0.189894916666667,0,0x9D1D,
0.189923000000000,0,0x0003,
0.189930666666667,0,0x2411,
0.189946875000000,0,0x0048,
0.189954750000000,0,0xA413,
0.189970583333333,0,0x0040,
0.189978541666667,0,0xA513,
0.189994375000000,0,0x8000,
0.190002291666667,0,0xA613,
0.190030875000000,0,0x0005,
0.190038541666667,0,0x2D15,
0.190054708333333,0,0x9FB5,
0.190062625000000,0,0xAD13,
0.190078458333333,0,0xFFF3,
0.190086375000000,0,0xAE13,
0.190102208333333,0,0xE401,
0.190110125000000,0,0xAF13,
0.190125958333333,0,0xFFFF,
0.190133875000000,0,0xB013,
0.190149708333333,0,0x830B,
0.190157625000000,0,0xB113,
0.190187958333333,0,0x0006,
0.190195625000000,0,0x3B19,
0.190212041666667,0,0xB3E1,
0.190219958333333,0,0xBB13,
0.190235791666667,0,0xB32E,
0.190243750000000,0,0xBC13,
0.190259541666667,0,0xB2BD,
0.190267458333333,0,0xBD13,
0.190283291666667,0,0xB1FE,
0.190291208333333,0,0xBE13,
0.190307041666667,0,0xB205,
0.190314958333333,0,0xBF13,
0.190330791666667,0,0xB277,
0.190338708333333,0,0xC013,
0.190369166666667,0,0x000A,
0.190376833333333,0,0x411D,
0.190393125000000,0,0xC0C5,
0.190401041666667,0,0xC113,
0.190416875000000,0,0xC0C1,
0.190424791666667,0,0xC213,
0.190440625000000,0,0xC0BF,
0.190448541666667,0,0xC313,
0.190464416666667,0,0xC0C2,
0.190472333333333,0,0xC413,
0.190488125000000,0,0xC0C5,
0.190496041666667,0,0xC513,
0.190511875000000,0,0xDCD1,
0.190519791666667,0,0xC613,
0.190535666666667,0,0x800D,
0.190543541666667,0,0xC713,
0.190559375000000,0,0xA3DC,
0.190567291666667,0,0xC813,
0.190583125000000,0,0x9E39,
0.190591041666667,0,0xC913,
0.190606875000000,0,0x9E38,
0.190614791666667,0,0xCA13,
0.190646791666667,0,0x0004,
0.190654458333333,0,0x0321,
0.190670875000000,0,0x0A01,
0.190678750000000,0,0x8321,
0.190694458333333,0,0x0F00,
0.190702333333333,0,0x8421,
0.190718041666667,0,0x0000,
0.190725875000000,0,0x8523,
0.190741583333333,0,0x373F,
0.190749458333333,0,0x8621,
0.190780291666667,0,0x0001,
0.190788000000000,0,0x1D25,
0.190803958333333,0,0x0055,
0.190811791666667,0,0x9D25,
0.190839666666667,0,0x0003,
0.190847333333333,0,0x2429,
0.190863375000000,0,0x004C,
0.190871208333333,0,0xA423,
0.190886916666667,0,0x0040,
0.190894791666667,0,0xA523,
0.190910500000000,0,0x8000,
0.190918375000000,0,0xA623,
0.190947208333333,0,0x0005,
0.190954875000000,0,0x2D2D,
0.190970916666667,0,0xA8B3,
0.190978750000000,0,0xAD23,
0.190994458333333,0,0xFFF5,
0.191002333333333,0,0xAE23,
0.191018041666667,0,0x789B,
0.191025875000000,0,0xAF23,
0.191041583333333,0,0xFFFF,
0.191049458333333,0,0xB023,
0.191065166666667,0,0x830A,
0.191073041666667,0,0xB123,
0.191102375000000,0,0x0006,
0.191110083333333,0,0x3B21,
0.191126041666667,0,0xE51B,
0.191133916666667,0,0xBB23,
0.191149625000000,0,0x8000,
0.191157458333333,0,0xBC23,
0.191173166666667,0,0x8000,
0.191181041666667,0,0xBD23,
0.191196750000000,0,0x8002,
0.191204583333333,0,0xBE23,
0.191220291666667,0,0xE5BD,
0.191228166666667,0,0xBF23,
0.191243875000000,0,0xE5D6,
0.191251708333333,0,0xC023,
0.191281708333333,0,0x000A,
0.191289416666667,0,0x4125,
0.191305708333333,0,0xDB29,
0.191313583333333,0,0xC123,
0.191329291666667,0,0xDC2C,
0.191337125000000,0,0xC223,
0.191352833333333,0,0xDF34,
0.191360708333333,0,0xC323,
0.191376416666667,0,0xE123,
0.191384250000000,0,0xC423,
0.191400000000000,0,0xA97C,
0.191407833333333,0,0xC523,
0.191423541666667,0,0xFF4A,
0.191431375000000,0,0xC623,
0.191447125000000,0,0xC013,
0.191454958333333,0,0xC723,
0.191470666666667,0,0xA3BE,
0.191478541666667,0,0xC823,
0.191494250000000,0,0x9E38,
0.191502083333333,0,0xC923,
0.191517833333333,0,0x9E3E,
0.191525666666667,0,0xCA23,
0.199152625000000,0,0x4C3F,
0.199160333333333,0,0x060B,
0.199188250000000,0,0x0004,
0.199195916666667,0,0x031D,
0.199212000000000,0,0x0A01,
0.199219875000000,0,0x831D,
0.199235750000000,0,0x0F00,
0.199243666666667,0,0x841D,
0.199259500000000,0,0x0000,
0.199267416666667,0,0x8514,
0.199283250000000,0,0x4F3F,
0.199291166666667,0,0x861D,
0.199321041666667,0,0x0004,
0.199328708333333,0,0x0311,
0.199345083333333,0,0x0A01,
0.199353000000000,0,0x8311,
0.199368791666667,0,0x0F00,
0.199376708333333,0,0x8411,
0.199392583333333,0,0x0000,
0.199400500000000,0,0x8514,
0.199416333333333,0,0x4F3F,
0.199424208333333,0,0x8611,
0.199455458333333,0,0x0004,
0.199463125000000,0,0x0315,
0.199479166666667,0,0x0A01,
0.199487041666667,0,0x8315,
0.199502916666667,0,0x0F00,
0.199510833333333,0,0x8415,
0.199526666666667,0,0x0000,
0.199534583333333,0,0x8514,
0.199550416666667,0,0x4F3F,
0.199558333333333,0,0x8615,
0.199589000000000,0,0x0004,
0.199596666666667,0,0x0319,
0.199612750000000,0,0x0A01,
0.199620666666667,0,0x8319,
0.199636500000000,0,0x0F00,
0.199644416666667,0,0x8419,
0.199660250000000,0,0x0000,
0.199668166666667,0,0x8514,
0.199684000000000,0,0x4F3F,
0.199691916666667,0,0x8619,
0.199722291666667,0,0x0004,
0.199730000000000,0,0x031D,
0.199746333333333,0,0x0A01,
0.199754250000000,0,0x831D,
0.199770041666667,0,0x0F00,
0.199777958333333,0,0x841D,
0.199793791666667,0,0x0000,
0.199801708333333,0,0x8514,
0.199817541666667,0,0x473F,
0.199825458333333,0,0x861D,
0.199856291666667,0,0x0001,
0.199864000000000,0,0x1D11,
0.199880375000000,0,0x1551,
0.199888291666667,0,0x9D11,
0.199916125000000,0,0x0003,
0.199923791666667,0,0x2415,
0.199940208333333,0,0x0048,
0.199948125000000,0,0xA414,
0.199963958333333,0,0x0040,
0.199971875000000,0,0xA514,
0.199987708333333,0,0x8000,
0.199995625000000,0,0xA614,
0.200024750000000,0,0x0005,
0.200032458333333,0,0x2D19,
0.200048541666667,0,0xA0BF,
0.200056458333333,0,0xAD14,
0.200072291666667,0,0xFFF3,
0.200080208333333,0,0xAE14,
0.200096041666667,0,0xE165,
0.200103958333333,0,0xAF14,
0.200119791666667,0,0xFFFF,
0.200127708333333,0,0xB014,
0.200143541666667,0,0x830D,
0.200151458333333,0,0xB114,
0.200182083333333,0,0x0006,
0.200189791666667,0,0x3B1D,
0.200205833333333,0,0xB3E4,
0.200213750000000,0,0xBB14,
0.200229583333333,0,0xB32D,
0.200237500000000,0,0xBC14,
0.200253333333333,0,0xB2BC,
0.200261250000000,0,0xBD14,
0.200277083333333,0,0xB1FD,
0.200285000000000,0,0xBE14,
0.200300833333333,0,0xB203,
0.200308708333333,0,0xBF14,
0.200324541666667,0,0xB274,
0.200332458333333,0,0xC014,
0.200362875000000,0,0x000A,
0.200370583333333,0,0x4111,
0.200386833333333,0,0xC0C6,
0.200394791666667,0,0xC114,
0.200410583333333,0,0xC0C6,
0.200418541666667,0,0xC214,
0.200434333333333,0,0xC0C6,
0.200442250000000,0,0xC314,
0.200458083333333,0,0xC0C5,
0.200466000000000,0,0xC414,
0.200481833333333,0,0xC0C7,
0.200489750000000,0,0xC514,
0.200505583333333,0,0xDCD5,
0.200513500000000,0,0xC614,
0.200529333333333,0,0x800F,
0.200537250000000,0,0xC714,
0.200553041666667,0,0xA3DC,
0.200560958333333,0,0xC814,
0.200576791666667,0,0x9E37,
0.200584750000000,0,0xC914,
0.200600541666667,0,0x9E35,
0.200608458333333,0,0xCA14,
0.200640541666667,0,0x0004,
0.200648208333333,0,0x0325,
0.200664291666667,0,0x0A01,
0.200672166666667,0,0x8325,
0.200687875000000,0,0x0F00,
0.200695750000000,0,0x8425,
0.200711416666667,0,0x0000,
0.200719291666667,0,0x8524,
0.200735000000000,0,0x473F,
0.200742833333333,0,0x8625,
0.200772708333333,0,0x0001,
0.200780416666667,0,0x1D29,
0.200796333333333,0,0x0055,
0.200804208333333,0,0x9D29,
0.200831875000000,0,0x0003,
0.200839583333333,0,0x242D,
0.200855750000000,0,0x004C,
0.200863625000000,0,0xA424,
0.200879333333333,0,0x0040,
0.200887166666667,0,0xA524,
0.200902875000000,0,0x8000,
0.200910750000000,0,0xA624,
0.200940208333333,0,0x0005,
0.200947875000000,0,0x2D21,
0.200964250000000,0,0xA9BE,
0.200972125000000,0,0xAD24,
0.200987833333333,0,0xFFF5,
0.200995708333333,0,0xAE24,
0.201011416666667,0,0x76F3,
0.201019291666667,0,0xAF24,
0.201035000000000,0,0xFFFF,
0.201042833333333,0,0xB024,
0.201058541666667,0,0x830C,
0.201066416666667,0,0xB124,
0.201096833333333,0,0x0006,
0.201104541666667,0,0x3B25,
0.201120916666667,0,0xE515,
0.201128791666667,0,0xBB24,
0.201144500000000,0,0x8000,
0.201152333333333,0,0xBC24,
0.201168041666667,0,0x8000,
0.201175916666667,0,0xBD24,
0.201191625000000,0,0x8000,
0.201199458333333,0,0xBE24,
0.201215166666667,0,0xE5BE,
0.201223041666667,0,0xBF24,
0.201238750000000,0,0xE5D4,
0.201246625000000,0,0xC024,
0.201276916666667,0,0x000A,
0.201284583333333,0,0x4129,
0.201300625000000,0,0xDB2B,
0.201308500000000,0,0xC124,
0.201324208333333,0,0xDC2D,
0.201332041666667,0,0xC224,
0.201347750000000,0,0xDF34,
0.201355583333333,0,0xC324,
0.201371333333333,0,0xE121,
0.201379166666667,0,0xC424,
0.201394875000000,0,0xA97E,
0.201402750000000,0,0xC524,
0.201418458333333,0,0xFF4B,
0.201426333333333,0,0xC624,
0.201442041666667,0,0xC012,
0.201449916666667,0,0xC724,
0.201465625000000,0,0xA3BE,
0.201473458333333,0,0xC824,
0.201489166666667,0,0x9E37,
0.201497000000000,0,0xC924,
0.201512750000000,0,0x9E3E,
0.201520583333333,0,0xCA24,
0.209036541666667,0,0x5C3F,
0.209044208333333,0,0x060F,
0.209071416666667,0,0x0004,
0.209079125000000,0,0x0311,
0.209095541666667,0,0x0A01,
0.209103416666667,0,0x8311,
0.209119250000000,0,0x0F00,
0.209127166666667,0,0x8411,
0.209143000000000,0,0x0000,
0.209150916666667,0,0x8515,
0.209166791666667,0,0x5F3F,
0.209174708333333,0,0x8611,
0.209205250000000,0,0x0004,
0.209212958333333,0,0x0315,
0.209229125000000,0,0x0A01,
0.209237041666667,0,0x8315,
0.209252875000000,0,0x0F00,
0.209260791666667,0,0x8415,
0.209276625000000,0,0x0000,
0.209284541666667,0,0x8515,
0.209300375000000,0,0x5F3F,
0.209308291666667,0,0x8615,
0.209338833333333,0,0x0004,
0.209346541666667,0,0x0319,
0.209362708333333,0,0x0A01,
0.209370666666667,0,0x8319,
0.209386458333333,0,0x0F00,
0.209394416666667,0,0x8419,
0.209410250000000,0,0x0000,
0.209418125000000,0,0x8515,
0.209433958333333,0,0x5F3F,
0.209441916666667,0,0x8619,
0.209473333333333,0,0x0004,
0.209481041666667,0,0x031D,
0.209497333333333,0,0x0A01,
0.209505250000000,0,0x831D,
0.209521083333333,0,0x0F00,
0.209528958333333,0,0x841D,
0.209544833333333,0,0x0000,
0.209552750000000,0,0x8515,
0.209568583333333,0,0x5F3F,
0.209576500000000,0,0x861D,
0.209607333333333,0,0x0004,
0.209615000000000,0,0x0311,
0.209631375000000,0,0x0A01,
0.209639333333333,0,0x8311,
0.209655166666667,0,0x0F00,
0.209663041666667,0,0x8411,
0.209678875000000,0,0x0000,
0.209686791666667,0,0x8515,
0.209702625000000,0,0x573F,
0.209710541666667,0,0x8611,
0.209741583333333,0,0x0001,
0.209749291666667,0,0x1D15,
0.209765416666667,0,0x1551,
0.209773333333333,0,0x9D15,
0.209801333333333,0,0x0003,
0.209809000000000,0,0x2419,
0.209825250000000,0,0x0048,
0.209833166666667,0,0xA415,
0.209849000000000,0,0x0040,
0.209856916666667,0,0xA515,
0.209872750000000,0,0x8000,
0.209880666666667,0,0xA615,
0.209909916666667,0,0x0005,
0.209917625000000,0,0x2D1D,
0.209933583333333,0,0xA1C6,
0.209941500000000,0,0xAD15,
0.209957333333333,0,0xFFF3,
0.209965250000000,0,0xAE15,
0.209981083333333,0,0xDF07,
0.209989000000000,0,0xAF15,
0.210004833333333,0,0xFFFF,
0.210012750000000,0,0xB015,
0.210028583333333,0,0x830E,
0.210036500000000,0,0xB115,
0.210066458333333,0,0x0006,
0.210074125000000,0,0x3B11,
0.210090375000000,0,0xB3E3,
0.210098291666667,0,0xBB15,
0.210114125000000,0,0xB32F,
0.210122041666667,0,0xBC15,
0.210137875000000,0,0xB2BF,
0.210145791666667,0,0xBD15,
0.210161625000000,0,0xB201,
0.210169541666667,0,0xBE15,
0.210185375000000,0,0xB201,
0.210193291666667,0,0xBF15,
0.210209083333333,0,0xB275,
0.210217041666667,0,0xC015,
0.210246500000000,0,0x000A,
0.210254166666667,0,0x4115,
0.210270458333333,0,0xC0C2,
0.210278375000000,0,0xC115,
0.210294208333333,0,0xC0C4,
0.210302125000000,0,0xC215,
0.210317916666667,0,0xC0C2,
0.210325833333333,0,0xC315,
0.210341666666667,0,0xC0C0,
0.210349583333333,0,0xC415,
0.210365416666667,0,0xC0C1,
0.210373333333333,0,0xC515,
0.210389166666667,0,0xDCCF,
0.210397083333333,0,0xC615,
0.210412916666667,0,0x800C,
0.210420833333333,0,0xC715,
0.210436666666667,0,0xA3DA,
0.210444583333333,0,0xC815,
0.210460416666667,0,0x9E34,
0.210468333333333,0,0xC915,
0.210484166666667,0,0x9E40,
0.210492083333333,0,0xCA15,
0.210524416666667,0,0x0004,
0.210532083333333,0,0x0329,
0.210548250000000,0,0x0A01,
0.210556125000000,0,0x8329,
0.210571833333333,0,0x0F00,
0.210579666666667,0,0x8429,
0.210595416666667,0,0x0000,
0.210603250000000,0,0x8525,
0.210618958333333,0,0x573F,
0.210626833333333,0,0x8629,
0.210657583333333,0,0x0001,
0.210665250000000,0,0x1D2D,
0.210681333333333,0,0x0055,
0.210689208333333,0,0x9D2D,
0.210717375000000,0,0x0003,
0.210725041666667,0,0x2421,
0.210741208333333,0,0x004C,
0.210749083333333,0,0xA425,
0.210764791666667,0,0x0040,
0.210772666666667,0,0xA525,
0.210788375000000,0,0x8000,
0.210796250000000,0,0xA625,
0.210825291666667,0,0x0005,
0.210832958333333,0,0x2D25,
0.210849250000000,0,0xAAC7,
0.210857125000000,0,0xAD25,
0.210872833333333,0,0xFFF5,
0.210880666666667,0,0xAE25,
0.210896416666667,0,0x749D,
0.210904250000000,0,0xAF25,
0.210920000000000,0,0x8000,
0.210927833333333,0,0xB025,
0.210943541666667,0,0x8306,
0.210951416666667,0,0xB125,
0.210982791666667,0,0x0006,
0.210990458333333,0,0x3B29,
0.211006375000000,0,0xE516,
0.211014250000000,0,0xBB25,
0.211029958333333,0,0x8000,
0.211037833333333,0,0xBC25,
0.211053541666667,0,0x8000,
0.211061375000000,0,0xBD25,
0.211077083333333,0,0x8000,
0.211084916666667,0,0xBE25,
0.211100625000000,0,0xE5B9,
0.211108500000000,0,0xBF25,
0.211124208333333,0,0xE5D5,
0.211132083333333,0,0xC025,
0.211162416666667,0,0x000A,
0.211170083333333,0,0x412D,
0.211186083333333,0,0xDB2D,
0.211193916666667,0,0xC125,
0.211209625000000,0,0xDC2E,
0.211217500000000,0,0xC225,
0.211233208333333,0,0xDF34,
0.211241041666667,0,0xC325,
0.211256750000000,0,0xE122,
0.211264583333333,0,0xC425,
0.211280333333333,0,0xA97F,
0.211288166666667,0,0xC525,
0.211303875000000,0,0xFF4E,
0.211311750000000,0,0xC625,
0.211327458333333,0,0xC018,
0.211335333333333,0,0xC725,
0.211351000000000,0,0xA3BE,
0.211358875000000,0,0xC825,
0.211374583333333,0,0x9E38,
0.211382458333333,0,0xC925,
0.211398166666667,0,0x9E3B,
0.211406000000000,0,0xCA25,
0.219002291666667,0,0x6C3F,
0.219009958333333,0,0x0603,
0.219037416666667,0,0x0004,
0.219045125000000,0,0x0315,
0.219061333333333,0,0x0A01,
0.219069250000000,0,0x8315,
0.219085083333333,0,0x0F00,
0.219093000000000,0,0x8415,
0.219108833333333,0,0x0000,
0.219116750000000,0,0x8516,
0.219132583333333,0,0x6F3F,
0.219140500000000,0,0x8615,
0.219171666666667,0,0x0004,
0.219179375000000,0,0x0319,
0.219195416666667,0,0x0A01,
0.219203333333333,0,0x8319,
0.219219166666667,0,0x0F00,
0.219227083333333,0,0x8419,
0.219242916666667,0,0x0000,
0.219250833333333,0,0x8516,
0.219266666666667,0,0x6F3F,
0.219274625000000,0,0x8619,
0.219305000000000,0,0x0004,
0.219312666666667,0,0x031D,
0.219329041666667,0,0x0A01,
0.219337000000000,0,0x831D,
0.219352791666667,0,0x0F00,
0.219360750000000,0,0x841D,
0.219376583333333,0,0x0000,
0.219384500000000,0,0x8516,
0.219400333333333,0,0x6F3F,
0.219408250000000,0,0x861D,
0.219439250000000,0,0x0004,
0.219446916666667,0,0x0311,
0.219463166666667,0,0x0A01,
0.219471083333333,0,0x8311,
0.219486916666667,0,0x0F00,
0.219494833333333,0,0x8411,
0.219510666666667,0,0x0000,
0.219518583333333,0,0x8516,
0.219534416666667,0,0x6F3F,
0.219542333333333,0,0x8611,
0.219572666666667,0,0x0004,
0.219580333333333,0,0x0315,
0.219596750000000,0,0x0A01,
0.219604666666667,0,0x8315,
0.219620500000000,0,0x0F00,
0.219628416666667,0,0x8415,
0.219644250000000,0,0x0000,
0.219652166666667,0,0x8516,
0.219668000000000,0,0x673F,
0.219675916666667,0,0x8615,
0.219707375000000,0,0x0001,
0.219715083333333,0,0x1D19,
0.219731291666667,0,0x1551,
0.219739208333333,0,0x9D19,
0.219767041666667,0,0x0003,
0.219774750000000,0,0x241D,
0.219791166666667,0,0x0048,
0.219799041666667,0,0xA416,
0.219814916666667,0,0x0040,
0.219822833333333,0,0xA516,
0.219838666666667,0,0x8000,
0.219846583333333,0,0xA616,
0.219875500000000,0,0x0005,
0.219883166666667,0,0x2D11,
0.219899500000000,0,0xA2CF,
0.219907416666667,0,0xAD16,
0.219923208333333,0,0xFFF3,
0.219931125000000,0,0xAE16,
0.219947000000000,0,0xDC3C,
0.219954916666667,0,0xAF16,
0.219970750000000,0,0x8000,
0.219978625000000,0,0xB016,
0.219994458333333,0,0x8300,
0.220002375000000,0,0xB116,
0.220032291666667,0,0x0006,
0.220039958333333,0,0x3B15,
0.220056291666667,0,0xB3E0,
0.220064208333333,0,0xBB16,
0.220080041666667,0,0xB328,
0.220087958333333,0,0xBC16,
0.220103791666667,0,0xB2BA,
0.220111708333333,0,0xBD16,
0.220127541666667,0,0xB201,
0.220135458333333,0,0xBE16,
0.220151291666667,0,0xB1FF,
0.220159208333333,0,0xBF16,
0.220175041666667,0,0xB26E,
0.220182958333333,0,0xC016,
0.220213083333333,0,0x000A,
0.220220750000000,0,0x4119,
0.220236875000000,0,0xC0C7,
0.220244791666667,0,0xC116,
0.220260625000000,0,0xC0C5,
0.220268541666667,0,0xC216,
0.220284375000000,0,0xC0C4,
0.220292291666667,0,0xC316,
0.220308125000000,0,0xC0C9,
0.220316041666667,0,0xC416,
0.220331875000000,0,0xC0C9,
0.220339791666667,0,0xC516,
0.220355625000000,0,0xDCD2,
0.220363541666667,0,0xC616,
0.220379375000000,0,0x800F,
0.220387291666667,0,0xC716,
0.220403125000000,0,0xA3DA,
0.220411041666667,0,0xC816,
0.220426875000000,0,0x9E3A,
0.220434791666667,0,0xC916,
0.220450625000000,0,0x9E3D,
0.220458500000000,0,0xCA16,
0.220489708333333,0,0x0004,
0.220497375000000,0,0x032D,
0.220513416666667,0,0x0A01,
0.220521250000000,0,0x832D,
0.220536958333333,0,0x0F00,
0.220544833333333,0,0x842D,
0.220560541666667,0,0x0000,
0.220568416666667,0,0x8526,
0.220584083333333,0,0x673F,
0.220591958333333,0,0x862D,
0.220621833333333,0,0x0001,
0.220629500000000,0,0x1D21,
0.220645458333333,0,0x0055,
0.220653333333333,0,0x9D21,
0.220681666666667,0,0x0003,
0.220689333333333,0,0x2425,
0.220705375000000,0,0x004C,
0.220713208333333,0,0xA426,
0.220728958333333,0,0x0040,
0.220736791666667,0,0xA526,
0.220752500000000,0,0x8000,
0.220760375000000,0,0xA626,
0.220789208333333,0,0x0005,
0.220796916666667,0,0x2D29,
0.220812875000000,0,0xABD2,
0.220820750000000,0,0xAD26,
0.220836458333333,0,0xFFF5,
0.220844291666667,0,0xAE26,
0.220860041666667,0,0x7248,
0.220867875000000,0,0xAF26,
0.220883583333333,0,0xFFFF,
0.220891458333333,0,0xB026,
0.220907166666667,0,0x830F,
0.220915041666667,0,0xB126,
0.220945250000000,0,0x0006,
0.220952916666667,0,0x3B2D,
0.220969041666667,0,0xE51A,
0.220976875000000,0,0xBB26,
0.220992583333333,0,0x8000,
0.221000458333333,0,0xBC26,
0.221016166666667,0,0x8000,
0.221024000000000,0,0xBD26,
0.221039750000000,0,0x8000,
0.221047583333333,0,0xBE26,
0.221063291666667,0,0xE5BB,
0.221071166666667,0,0xBF26,
0.221086875000000,0,0xE5D5,
0.221094708333333,0,0xC026,
0.221125125000000,0,0x000A,
0.221132833333333,0,0x4121,
0.221149208333333,0,0xDB2E,
0.221157083333333,0,0xC126,
0.221172791666667,0,0xDC32,
0.221180625000000,0,0xC226,
0.221196375000000,0,0xDF34,
0.221204208333333,0,0xC326,
0.221219916666667,0,0xE121,
0.221227750000000,0,0xC426,
0.221243458333333,0,0xA97C,
0.221251333333333,0,0xC526,
0.221267041666667,0,0xFF49,
0.221274916666667,0,0xC626,
0.221290625000000,0,0xC015,
0.221298500000000,0,0xC726,
0.221314208333333,0,0xA3C0,
0.221322041666667,0,0xC826,
0.221337791666667,0,0x9E39,
0.221345625000000,0,0xC926,
0.221361333333333,0,0x9E40,
0.221369208333333,0,0xCA26,
0.229014916666667,0,0x7C3F,
0.229022583333333,0,0x0607,
0.229049958333333,0,0x0004,
0.229057625000000,0,0x0319,
0.229074083333333,0,0x0A01,
0.229082041666667,0,0x8319,
0.229097875000000,0,0x0F00,
0.229105750000000,0,0x8419,
0.229121625000000,0,0x0000,
0.229129500000000,0,0x8517,
0.229145375000000,0,0x7F3F,
0.229153291666667,0,0x8619,
0.229183416666667,0,0x0004,
0.229191083333333,0,0x031D,
0.229207208333333,0,0x0A01,
0.229215125000000,0,0x831D,
0.229231000000000,0,0x0F00,
0.229238875000000,0,0x841D,
0.229254750000000,0,0x0000,
0.229262666666667,0,0x8517,
0.229278500000000,0,0x7F3F,
0.229286416666667,0,0x861D,
0.229317291666667,0,0x0004,
0.229324958333333,0,0x0311,
0.229341333333333,0,0x0A01,
0.229349250000000,0,0x8311,
0.229365083333333,0,0x0F00,
0.229373000000000,0,0x8411,
0.229388833333333,0,0x0000,
0.229396750000000,0,0x8517,
0.229412583333333,0,0x7F3F,
0.229420500000000,0,0x8611,
0.229450875000000,0,0x0004,
0.229458583333333,0,0x0315,
0.229474916666667,0,0x0A01,
0.229482833333333,0,0x8315,
0.229498666666667,0,0x0F00,
0.229506583333333,0,0x8415,
0.229522416666667,0,0x0000,
0.229530333333333,0,0x8517,
0.229546208333333,0,0x7F3F,
0.229554083333333,0,0x8615,
0.229584416666667,0,0x0004,
0.229592083333333,0,0x0319,
0.229608541666667,0,0x0A01,
0.229616458333333,0,0x8319,
0.229632291666667,0,0x0F00,
0.229640208333333,0,0x8419,
0.229656041666667,0,0x0000,
0.229663958333333,0,0x8517,
0.229679791666667,0,0x773F,
0.229687708333333,0,0x8619,
0.229718541666667,0,0x0001,
0.229726208333333,0,0x1D1D,
0.229742625000000,0,0x1551,
0.229750541666667,0,0x9D1D,
0.229778250000000,0,0x0003,
0.229785916666667,0,0x2411,
0.229802000000000,0,0x0048,
0.229809916666667,0,0xA417,
0.229825750000000,0,0x0040,
0.229833666666667,0,0xA517,
0.229849500000000,0,0x8000,
0.229857416666667,0,0xA617,
0.229885958333333,0,0x0005,
0.229893625000000,0,0x2D15,
0.229909875000000,0,0xA3D9,
0.229917791666667,0,0xAD17,
0.229933625000000,0,0xFFF3,
0.229941541666667,0,0xAE17,
0.229957375000000,0,0xD9A5,
0.229965291666667,0,0xAF17,
0.229981125000000,0,0xFFFF,
0.229989041666667,0,0xB017,
0.230004875000000,0,0x830A,
0.230012791666667,0,0xB117,
0.230042416666667,0,0x0006,
0.230050125000000,0,0x3B19,
0.230066208333333,0,0xB3DE,
0.230074125000000,0,0xBB17,
0.230089958333333,0,0xB32B,
0.230097875000000,0,0xBC17,
0.230113708333333,0,0xB2BE,
0.230121625000000,0,0xBD17,
0.230137458333333,0,0xB200,
0.230145416666667,0,0xBE17,
0.230161208333333,0,0xB1FE,
0.230169125000000,0,0xBF17,
0.230184958333333,0,0xB26E,
0.230192916666667,0,0xC017,
0.230222500000000,0,0x000A,
0.230230208333333,0,0x411D,
0.230246333333333,0,0xC0BF,
0.230254250000000,0,0xC117,
0.230270083333333,0,0xC0C1,
0.230278000000000,0,0xC217,
0.230293833333333,0,0xC0C0,
0.230301750000000,0,0xC317,
0.230317583333333,0,0xC0BE,
0.230325500000000,0,0xC417,
0.230341333333333,0,0xC0C1,
0.230349250000000,0,0xC517,
0.230365083333333,0,0xDCD2,
0.230373000000000,0,0xC617,
0.230388791666667,0,0x800A,
0.230396750000000,0,0xC717,
0.230412583333333,0,0xA3DD,
0.230420458333333,0,0xC817,
0.230436291666667,0,0x9E35,
0.230444208333333,0,0xC917,
0.230460041666667,0,0x9E3A,
0.230468000000000,0,0xCA17,
0.230500000000000,0,0x0004,
0.230507666666667,0,0x0321,
0.230523791666667,0,0x0A01,
0.230531666666667,0,0x8321,
0.230547375000000,0,0x0F00,
0.230555208333333,0,0x8421,
0.230570916666667,0,0x0000,
0.230578791666667,0,0x8527,
0.230594500000000,0,0x773F,
0.230602375000000,0,0x8621,
0.230632625000000,0,0x0001,
0.230640333333333,0,0x1D25,
0.230656375000000,0,0x0055,
0.230664208333333,0,0x9D25,
0.230692000000000,0,0x0003,
0.230699666666667,0,0x2429,
0.230715750000000,0,0x004C,
0.230723583333333,0,0xA427,
0.230739291666667,0,0x0040,
0.230747166666667,0,0xA527,
0.230762875000000,0,0x8000,
0.230770750000000,0,0xA627,
0.230799416666667,0,0x0005,
0.230807083333333,0,0x2D2D,
0.230823250000000,0,0xACDF,
0.230831125000000,0,0xAD27,
0.230846833333333,0,0xFFF5,
0.230854666666667,0,0xAE27,
0.230870375000000,0,0x6FFF,
0.230878250000000,0,0xAF27,
0.230893958333333,0,0xFFFF,
0.230901833333333,0,0xB027,
0.230917541666667,0,0x8308,
0.230925375000000,0,0xB127,
0.230955208333333,0,0x0006,
0.230962875000000,0,0x3B21,
0.230978916666667,0,0xE519,
0.230986750000000,0,0xBB27,
0.231002458333333,0,0x8003,
0.231010333333333,0,0xBC27,
0.231026000000000,0,0x8002,
0.231033875000000,0,0xBD27,
0.231049583333333,0,0x8000,
0.231057416666667,0,0xBE27,
0.231073166666667,0,0xE5BD,
0.231081000000000,0,0xBF27,
0.231096708333333,0,0xE5D5,
0.231104541666667,0,0xC027,
0.231134291666667,0,0x000A,
0.231141958333333,0,0x4125,
0.231158083333333,0,0xDB30,
0.231165916666667,0,0xC127,
0.231181666666667,0,0xDC2E,
0.231189500000000,0,0xC227,
0.231205208333333,0,0xDF38,
0.231213041666667,0,0xC327,
0.231228750000000,0,0xE123,
0.231236625000000,0,0xC427,
0.231252333333333,0,0xA97D,
0.231260208333333,0,0xC527,
0.231275916666667,0,0xFF4B,
0.231283791666667,0,0xC627,
0.231299458333333,0,0xC016,
0.231307333333333,0,0xC727,
0.231323041666667,0,0xA3BD,
0.231330916666667,0,0xC827,
0.231346583333333,0,0x9E3C,
0.231354458333333,0,0xC927,
0.231370166666667,0,0x9E3E,
0.231378041666667,0,0xCA27,
0.239025750000000,0,0x8C3F,
0.239033458333333,0,0x060B,
0.239061333333333,0,0x0004,
0.239069000000000,0,0x031D,
0.239085000000000,0,0x0A01,
0.239092916666667,0,0x831D,
0.239108750000000,0,0x0F00,
0.239116666666667,0,0x841D,
0.239132500000000,0,0x0000,
0.239140416666667,0,0x8518,
0.239156250000000,0,0x8F3F,
0.239164166666667,0,0x861D,
0.239195125000000,0,0x0004,
0.239202833333333,0,0x0311,
0.239219083333333,0,0x0A01,
0.239227000000000,0,0x8311,
0.239242833333333,0,0x0F00,
0.239250750000000,0,0x8411,
0.239266583333333,0,0x0000,
0.239274500000000,0,0x8518,
0.239290333333333,0,0x8F3F,
0.239298250000000,0,0x8611,
0.239328958333333,0,0x0004,
0.239336625000000,0,0x0315,
0.239352666666667,0,0x0A01,
0.239360583333333,0,0x8315,
0.239376416666667,0,0x0F00,
0.239384333333333,0,0x8415,
0.239400208333333,0,0x0000,
0.239408125000000,0,0x8518,
0.239423916666667,0,0x8F3F,
0.239431833333333,0,0x8615,
0.239462416666667,0,0x0004,
0.239470083333333,0,0x0319,
0.239486291666667,0,0x0A01,
0.239494208333333,0,0x8319,
0.239510041666667,0,0x0F00,
0.239517958333333,0,0x8419,
0.239533791666667,0,0x0000,
0.239541666666667,0,0x8518,
0.239557500000000,0,0x8F3F,
0.239565458333333,0,0x8619,
0.239596125000000,0,0x0004,
0.239603791666667,0,0x031D,
0.239619833333333,0,0x0A01,
0.239627750000000,0,0x831D,
0.239643583333333,0,0x0F00,
0.239651500000000,0,0x841D,
0.239667291666667,0,0x0000,
0.239675250000000,0,0x8518,
0.239691083333333,0,0x873F,
0.239699000000000,0,0x861D,
0.239730208333333,0,0x0001,
0.239737875000000,0,0x1D11,
0.239753875000000,0,0x1551,
0.239761791666667,0,0x9D11,
0.239789958333333,0,0x0003,
0.239797666666667,0,0x2415,
0.239813750000000,0,0x0048,
0.239821666666667,0,0xA418,
0.239837500000000,0,0x0040,
0.239845416666667,0,0xA518,
0.239861250000000,0,0x8000,
0.239869166666667,0,0xA618,
0.239897958333333,0,0x0005,
0.239905666666667,0,0x2D19,
0.239922083333333,0,0xA4E3,
0.239930000000000,0,0xAD18,
0.239945833333333,0,0xFFF3,
0.239953750000000,0,0xAE18,
0.239969583333333,0,0xD6F7,
0.239977500000000,0,0xAF18,
0.239993333333333,0,0xFFFF,
0.240001250000000,0,0xB018,
0.240017083333333,0,0x830B,
0.240025000000000,0,0xB118,
0.240054625000000,0,0x0006,
0.240062333333333,0,0x3B1D,
0.240078416666667,0,0xB3E2,
0.240086333333333,0,0xBB18,
0.240102166666667,0,0xB326,
0.240110083333333,0,0xBC18,
0.240125916666667,0,0xB2B9,
0.240133833333333,0,0xBD18,
0.240149666666667,0,0xB1FE,
0.240157583333333,0,0xBE18,
0.240173416666667,0,0xB203,
0.240181333333333,0,0xBF18,
0.240197166666667,0,0xB274,
0.240205083333333,0,0xC018,
0.240236125000000,0,0x000A,
0.240243791666667,0,0x4111,
0.240259958333333,0,0xC0C2,
0.240267916666667,0,0xC118,
0.240283750000000,0,0xC0BF,
0.240291666666667,0,0xC218,
0.240307458333333,0,0xC0C0,
0.240315416666667,0,0xC318,
0.240331250000000,0,0xC0C0,
0.240339125000000,0,0xC418,
0.240354958333333,0,0xC0C2,
0.240362916666667,0,0xC518,
0.240378708333333,0,0xDCD1,
0.240386666666667,0,0xC618,
0.240402458333333,0,0x800D,
0.240410375000000,0,0xC718,
0.240426208333333,0,0xA3DC,
0.240434125000000,0,0xC818,
0.240449958333333,0,0x9E38,
0.240457875000000,0,0xC918,
0.240473708333333,0,0x9E3A,
0.240481625000000,0,0xCA18,
0.240514291666667,0,0x0004,
0.240521958333333,0,0x0325,
0.240538333333333,0,0x0A01,
0.240546208333333,0,0x8325,
0.240561875000000,0,0x0F00,
0.240569750000000,0,0x8425,
0.240585458333333,0,0x0000,
0.240593333333333,0,0x8528,
0.240609041666667,0,0x873F,
0.240616875000000,0,0x8625,
0.240647208333333,0,0x0001,
0.240654875000000,0,0x1D29,
0.240670916666667,0,0x0055,
0.240678750000000,0,0x9D29,
0.240707208333333,0,0x0003,
0.240714916666667,0,0x242D,
0.240731250000000,0,0x004C,
0.240739125000000,0,0xA428,
0.240754833333333,0,0x0040,
0.240762708333333,0,0xA528,
0.240778416666667,0,0x8000,
0.240786291666667,0,0xA628,
0.240815041666667,0,0x0005,
0.240822750000000,0,0x2D21,
0.240838791666667,0,0xADEB,
0.240846666666667,0,0xAD28,
0.240862375000000,0,0xFFF5,
0.240870208333333,0,0xAE28,
0.240885958333333,0,0x6D32,
0.240893791666667,0,0xAF28,
0.240909500000000,0,0xFFFF,
0.240917375000000,0,0xB028,
0.240933041666667,0,0x830B,
0.240940916666667,0,0xB128,
0.240971833333333,0,0x0006,
0.240979541666667,0,0x3B25,
0.240995916666667,0,0xE51C,
0.241003750000000,0,0xBB28,
0.241019458333333,0,0x8000,
0.241027333333333,0,0xBC28,
0.241043000000000,0,0x8002,
0.241050875000000,0,0xBD28,
0.241066583333333,0,0x8003,
0.241074458333333,0,0xBE28,
0.241090166666667,0,0xE5BB,
0.241098000000000,0,0xBF28,
0.241113708333333,0,0xE5D1,
0.241121583333333,0,0xC028,
0.241152625000000,0,0x000A,
0.241160333333333,0,0x4129,
0.241176583333333,0,0xDB30,
0.241184458333333,0,0xC128,
0.241200125000000,0,0xDC32,
0.241208000000000,0,0xC228,
0.241223708333333,0,0xDF3C,
0.241231583333333,0,0xC328,
0.241247291666667,0,0xE124,
0.241255166666667,0,0xC428,
0.241270833333333,0,0xA981,
0.241278708333333,0,0xC528,
0.241294416666667,0,0xFF4E,
0.241302291666667,0,0xC628,
0.241318000000000,0,0xC018,
0.241325833333333,0,0xC728,
0.241341541666667,0,0xA3BD,
0.241349416666667,0,0xC828,
0.241365125000000,0,0x9E3B,
0.241373000000000,0,0xC928,
0.241388666666667,0,0x9E3C,
0.241396541666667,0,0xCA28,
0.249032500000000,0,0x9C3F,
0.249040208333333,0,0x060F,
0.249067500000000,0,0x0004,
0.249075166666667,0,0x0311,
0.249091666666667,0,0x0A01,
0.249099583333333,0,0x8311,
0.249115416666667,0,0x0F00,
0.249123333333333,0,0x8411,
0.249139166666667,0,0x0000,
0.249147083333333,0,0x8519,
0.249162958333333,0,0x9F3F,
0.249170875000000,0,0x8611,
0.249201041666667,0,0x0004,
0.249208750000000,0,0x0315,
0.249224791666667,0,0x0A01,
0.249232708333333,0,0x8315,
0.249248541666667,0,0x0F00,
0.249256458333333,0,0x8415,
0.249272291666667,0,0x0000,
0.249280208333333,0,0x8519,
0.249296041666667,0,0x9F3F,
0.249303958333333,0,0x8615,
0.249334500000000,0,0x0004,
0.249342208333333,0,0x0319,
0.249358416666667,0,0x0A01,
0.249366291666667,0,0x8319,
0.249382125000000,0,0x0F00,
0.249390083333333,0,0x8419,
0.249405916666667,0,0x0000,
0.249413833333333,0,0x8519,
0.249429666666667,0,0x9F3F,
0.249437583333333,0,0x8619,
0.249468083333333,0,0x0004,
0.249475750000000,0,0x031D,
0.249492041666667,0,0x0A01,
0.249499958333333,0,0x831D,
0.249515791666667,0,0x0F00,
0.249523708333333,0,0x841D,
0.249539541666667,0,0x0000,
0.249547458333333,0,0x8519,
0.249563291666667,0,0x9F3F,
0.249571208333333,0,0x861D,
0.249602166666667,0,0x0004,
0.249609833333333,0,0x0311,
0.249626125000000,0,0x0A01,
0.249634041666667,0,0x8311,
0.249649875000000,0,0x0F00,
0.249657791666667,0,0x8411,
0.249673625000000,0,0x0000,
0.249681541666667,0,0x8519,
0.249697375000000,0,0x973F,
0.249705291666667,0,0x8611,
0.249736125000000,0,0x0001,
0.249743833333333,0,0x1D15,
0.249760208333333,0,0x1551,
0.249768166666667,0,0x9D15,
0.249796125000000,0,0x0003,
0.249803791666667,0,0x2419,
0.249820083333333,0,0x0048,
0.249828000000000,0,0xA419,
0.249843833333333,0,0x0040,
0.249851750000000,0,0xA519,
0.249867583333333,0,0x8000,
0.249875500000000,0,0xA619,
0.249904583333333,0,0x0005,
0.249912250000000,0,0x2D1D,
0.249928416666667,0,0xA5EE,
0.249936333333333,0,0xAD19,
0.249952166666667,0,0xFFF3,
0.249960083333333,0,0xAE19,
0.249975916666667,0,0xD448,
0.249983833333333,0,0xAF19,
0.249999666666667,0,0xFFFF,
0.250007583333333,0,0xB019,
0.250023416666667,0,0x830C,
0.250031333333333,0,0xB119,
0.250061291666667,0,0x0006,
0.250068958333333,0,0x3B11,
0.250085250000000,0,0xB3DF,
0.250093166666667,0,0xBB19,
0.250109000000000,0,0xB329,
0.250116916666667,0,0xBC19,
0.250132750000000,0,0xB2BA,
0.250140666666667,0,0xBD19,
0.250156500000000,0,0xB1FD,
0.250164416666667,0,0xBE19,
0.250180250000000,0,0xB200,
0.250188166666667,0,0xBF19,
0.250204000000000,0,0xB273,
0.250211916666667,0,0xC019,
0.250241291666667,0,0x000A,
0.250248958333333,0,0x4115,
0.250265333333333,0,0xC0C6,
0.250273250000000,0,0xC119,
0.250289083333333,0,0xC0C8,
0.250297000000000,0,0xC219,
0.250312833333333,0,0xC0C9,
0.250320750000000,0,0xC319,
0.250336583333333,0,0xC0C9,
0.250344458333333,0,0xC419,
0.250360333333333,0,0xC0C8,
0.250368250000000,0,0xC519,
0.250384083333333,0,0xDCD4,
0.250392000000000,0,0xC619,
0.250407833333333,0,0x8010,
0.250415750000000,0,0xC719,
0.250431583333333,0,0xA3DA,
0.250439500000000,0,0xC819,
0.250455333333333,0,0x9E3B,
0.250463250000000,0,0xC919,
0.250479041666667,0,0x9E3C,
0.250486958333333,0,0xCA19,
0.250519375000000,0,0x0004,
0.250527083333333,0,0x0329,
0.250543125000000,0,0x0A01,
0.250551000000000,0,0x8329,
0.250566708333333,0,0x0F00,
0.250574541666667,0,0x8429,
0.250590291666667,0,0x0000,
0.250598125000000,0,0x8529,
0.250613833333333,0,0x973F,
0.250621708333333,0,0x8629,
0.250652583333333,0,0x0001,
0.250660250000000,0,0x1D2D,
0.250676666666667,0,0x0055,
0.250684541666667,0,0x9D2D,
0.250712041666667,0,0x0003,
0.250719750000000,0,0x2421,
0.250736083333333,0,0x004C,
0.250743958333333,0,0xA429,
0.250759625000000,0,0x0040,
0.250767500000000,0,0xA529,
0.250783208333333,0,0x8000,
0.250791083333333,0,0xA629,
0.250820291666667,0,0x0005,
0.250827958333333,0,0x2D25,
0.250844083333333,0,0xAEF7,
0.250851958333333,0,0xAD29,
0.250867666666667,0,0xFFF5,
0.250875500000000,0,0xAE29,
0.250891208333333,0,0x6B5A,
0.250899083333333,0,0xAF29,
0.250914791666667,0,0xFFFF,
0.250922625000000,0,0xB029,
0.250938333333333,0,0x8309,
0.250946208333333,0,0xB129,
0.250977583333333,0,0x0006,
0.250985250000000,0,0x3B29,
0.251001208333333,0,0xE516,
0.251009041666667,0,0xBB29,
0.251024750000000,0,0x8000,
0.251032625000000,0,0xBC29,
0.251048333333333,0,0x8000,
0.251056166666667,0,0xBD29,
0.251071875000000,0,0x8004,
0.251079750000000,0,0xBE29,
0.251095458333333,0,0xE5BC,
0.251103291666667,0,0xBF29,
0.251119000000000,0,0xE5D1,
0.251126875000000,0,0xC029,
0.251157541666667,0,0x000A,
0.251165208333333,0,0x412D,
0.251181375000000,0,0xDB2C,
0.251189208333333,0,0xC129,
0.251204916666667,0,0xDC2D,
0.251212791666667,0,0xC229,
0.251228500000000,0,0xDF37,
0.251236333333333,0,0xC329,
0.251252083333333,0,0xE122,
0.251259916666667,0,0xC429,
0.251275625000000,0,0xA97D,
0.251283500000000,0,0xC529,
0.251299208333333,0,0xFF47,
0.251307083333333,0,0xC629,
0.251322750000000,0,0xC013,
0.251330625000000,0,0xC729,
0.251346333333333,0,0xA3BE,
0.251354166666667,0,0xC829,
0.251369875000000,0,0x9E38,
0.251377750000000,0,0xC929,
0.251393458333333,0,0x9E3F,
0.251401291666667,0,0xCA29,
0.259127333333333,0,0xAC3F,
0.259135000000000,0,0x0603,
0.259163208333333,0,0x0004,
0.259170916666667,0,0x0315,
0.259186958333333,0,0x0A01,
0.259194875000000,0,0x8315,
0.259210708333333,0,0x0F00,
0.259218625000000,0,0x8415,
0.259234458333333,0,0x0000,
0.259242375000000,0,0x851A,
0.259258208333333,0,0xAF3F,
0.259266125000000,0,0x8615,
0.259297416666667,0,0x0004,
0.259305125000000,0,0x0319,
0.259321541666667,0,0x0A01,
0.259329458333333,0,0x8319,
0.259345291666667,0,0x0F00,
0.259353208333333,0,0x8419,
0.259369041666667,0,0x0000,
0.259376958333333,0,0x851A,
0.259392791666667,0,0xAF3F,
0.259400708333333,0,0x8619,
0.259430875000000,0,0x0004,
0.259438541666667,0,0x031D,
0.259454666666667,0,0x0A01,
0.259462583333333,0,0x831D,
0.259478416666667,0,0x0F00,
0.259486333333333,0,0x841D,
0.259502166666667,0,0x0000,
0.259510083333333,0,0x851A,
0.259525958333333,0,0xAF3F,
0.259533875000000,0,0x861D,
0.259564833333333,0,0x0004,
0.259572500000000,0,0x0311,
0.259588791666667,0,0x0A01,
0.259596666666667,0,0x8311,
0.259612541666667,0,0x0F00,
0.259620458333333,0,0x8411,
0.259636291666667,0,0x0000,
0.259644208333333,0,0x851A,
0.259660041666667,0,0xAF3F,
0.259667916666667,0,0x8611,
0.259698375000000,0,0x0004,
0.259706041666667,0,0x0315,
0.259722333333333,0,0x0A01,
0.259730291666667,0,0x8315,
0.259746083333333,0,0x0F00,
0.259754041666667,0,0x8415,
0.259769833333333,0,0x0000,
0.259777750000000,0,0x851A,
0.259793583333333,0,0xA73F,
0.259801500000000,0,0x8615,
0.259831500000000,0,0x0001,
0.259839166666667,0,0x1D19,
0.259855416666667,0,0x1551,
0.259863333333333,0,0x9D19,
0.259891333333333,0,0x0003,
0.259899000000000,0,0x241D,
0.259915250000000,0,0x0048,
0.259923208333333,0,0xA41A,
0.259939041666667,0,0x0040,
0.259946958333333,0,0xA51A,
0.259962750000000,0,0x8000,
0.259970708333333,0,0xA61A,
0.259999291666667,0,0x0005,
0.260006958333333,0,0x2D11,
0.260023125000000,0,0xA6FA,
0.260031083333333,0,0xAD1A,
0.260046875000000,0,0xFFF3,
0.260054791666667,0,0xAE1A,
0.260070625000000,0,0xD225,
0.260078541666667,0,0xAF1A,
0.260094375000000,0,0x8000,
0.260102291666667,0,0xB01A,
0.260118125000000,0,0x8302,
0.260126041666667,0,0xB11A,
0.260156416666667,0,0x0006,
0.260164125000000,0,0x3B15,
0.260180458333333,0,0xB3E2,
0.260188375000000,0,0xBB1A,
0.260204208333333,0,0xB32D,
0.260212125000000,0,0xBC1A,
0.260227916666667,0,0xB2BE,
0.260235833333333,0,0xBD1A,
0.260251666666667,0,0xB1FD,
0.260259583333333,0,0xBE1A,
0.260275416666667,0,0xB203,
0.260283333333333,0,0xBF1A,
0.260299166666667,0,0xB275,
0.260307083333333,0,0xC01A,
0.260337291666667,0,0x000A,
0.260345000000000,0,0x4119,
0.260361000000000,0,0xC0C3,
0.260368916666667,0,0xC11A,
0.260384750000000,0,0xC0C8,
0.260392666666667,0,0xC21A,
0.260408500000000,0,0xC0C6,
0.260416416666667,0,0xC31A,
0.260432250000000,0,0xC0C4,
0.260440166666667,0,0xC41A,
0.260456000000000,0,0xC0C4,
0.260463916666667,0,0xC51A,
0.260479750000000,0,0xDCD3,
0.260487666666667,0,0xC61A,
0.260503500000000,0,0x800E,
0.260511416666667,0,0xC71A,
0.260527250000000,0,0xA3DA,
0.260535166666667,0,0xC81A,
0.260551000000000,0,0x9E38,
0.260558916666667,0,0xC91A,
0.260574750000000,0,0x9E39,
0.260582666666667,0,0xCA1A,
0.260614291666667,0,0x0004,
0.260621958333333,0,0x032D,
0.260638083333333,0,0x0A01,
0.260645958333333,0,0x832D,
0.260661666666667,0,0x0F00,
0.260669541666667,0,0x842D,
0.260685208333333,0,0x0000,
0.260693083333333,0,0x852A,
0.260708791666667,0,0xA73F,
0.260716666666667,0,0x862D,
0.260747291666667,0,0x0001,
0.260754958333333,0,0x1D21,
0.260771166666667,0,0x0055,
0.260779000000000,0,0x9D21,
0.260807041666667,0,0x0003,
0.260814708333333,0,0x2425,
0.260831083333333,0,0x004C,
0.260838916666667,0,0xA42A,
0.260854625000000,0,0x0040,
0.260862500000000,0,0xA52A,
0.260878208333333,0,0x8000,
0.260886083333333,0,0xA62A,
0.260914625000000,0,0x0005,
0.260922291666667,0,0x2D29,
0.260938583333333,0,0xB006,
0.260946458333333,0,0xAD2A,
0.260962166666667,0,0xFFF5,
0.260970041666667,0,0xAE2A,
0.260985708333333,0,0x69BC,
0.260993583333333,0,0xAF2A,
0.261009333333333,0,0xFFFF,
0.261017166666667,0,0xB02A,
0.261032875000000,0,0x830A,
0.261040750000000,0,0xB12A,
0.261070916666667,0,0x0006,
0.261078583333333,0,0x3B2D,
0.261094750000000,0,0xE517,
0.261102625000000,0,0xBB2A,
0.261118333333333,0,0x8000,
0.261126166666667,0,0xBC2A,
0.261141916666667,0,0x8001,
0.261149750000000,0,0xBD2A,
0.261165458333333,0,0x8001,
0.261173333333333,0,0xBE2A,
0.261189041666667,0,0xE5BC,
0.261196916666667,0,0xBF2A,
0.261212583333333,0,0xE5D9,
0.261220458333333,0,0xC02A,
0.261250750000000,0,0x000A,
0.261258416666667,0,0x4121,
0.261274458333333,0,0xDB2B,
0.261282333333333,0,0xC12A,
0.261298041666667,0,0xDC2C,
0.261305916666667,0,0xC22A,
0.261321625000000,0,0xDF37,
0.261329458333333,0,0xC32A,
0.261345208333333,0,0xE123,
0.261353041666667,0,0xC42A,
0.261368791666667,0,0xA97D,
0.261376625000000,0,0xC52A,
0.261392333333333,0,0xFF4A,
0.261400208333333,0,0xC62A,
0.261415916666667,0,0xC013,
0.261423791666667,0,0xC72A,
0.261439500000000,0,0xA3C2,
0.261447375000000,0,0xC82A,
0.261463083333333,0,0x9E3B,
0.261470916666667,0,0xC92A,
0.261486625000000,0,0x9E40,
0.261494500000000,0,0xCA2A,
0.269021625000000,0,0xBC3F,
0.269029333333333,0,0x0607,
0.269055916666667,0,0x0004,
0.269063583333333,0,0x0319,
0.269079833333333,0,0x0A01,
0.269087791666667,0,0x8319,
0.269103625000000,0,0x0F00,
0.269111541666667,0,0x8419,
0.269127375000000,0,0x0000,
0.269135291666667,0,0x851B,
0.269151125000000,0,0xBF3F,
0.269159041666667,0,0x8619,
0.269190333333333,0,0x0004,
0.269198000000000,0,0x031D,
0.269213958333333,0,0x0A01,
0.269221875000000,0,0x831D,
0.269237708333333,0,0x0F00,
0.269245625000000,0,0x841D,
0.269261458333333,0,0x0000,
0.269269375000000,0,0x851B,
0.269285208333333,0,0xBF3F,
0.269293125000000,0,0x861D,
0.269323041666667,0,0x0004,
0.269330750000000,0,0x0311,
0.269347041666667,0,0x0A01,
0.269355000000000,0,0x8311,
0.269370791666667,0,0x0F00,
0.269378708333333,0,0x8411,
0.269394583333333,0,0x0000,
0.269402500000000,0,0x851B,
0.269418333333333,0,0xBF3F,
0.269426250000000,0,0x8611,
0.269456833333333,0,0x0004,
0.269464541666667,0,0x0315,
0.269480666666667,0,0x0A01,
0.269488583333333,0,0x8315,
0.269504416666667,0,0x0F00,
0.269512333333333,0,0x8415,
0.269528166666667,0,0x0000,
0.269536083333333,0,0x851B,
0.269551916666667,0,0xBF3F,
0.269559791666667,0,0x8615,
0.269590958333333,0,0x0004,
0.269598625000000,0,0x0319,
0.269614708333333,0,0x0A01,
0.269622625000000,0,0x8319,
0.269638458333333,0,0x0F00,
0.269646375000000,0,0x8419,
0.269662166666667,0,0x0000,
0.269670125000000,0,0x851B,
0.269685958333333,0,0xB73F,
0.269693833333333,0,0x8619,
0.269723750000000,0,0x0001,
0.269731458333333,0,0x1D1D,
0.269747750000000,0,0x1551,
0.269755666666667,0,0x9D1D,
0.269783750000000,0,0x0003,
0.269791458333333,0,0x2411,
0.269807625000000,0,0x0048,
0.269815541666667,0,0xA41B,
0.269831375000000,0,0x0040,
0.269839250000000,0,0xA51B,
0.269855083333333,0,0x8000,
0.269863041666667,0,0xA61B,
0.269892333333333,0,0x0005,
0.269900041666667,0,0x2D15,
0.269916458333333,0,0xA801,
0.269924333333333,0,0xAD1B,
0.269940166666667,0,0xFFF3,
0.269948083333333,0,0xAE1B,
0.269963916666667,0,0xCF98,
0.269971833333333,0,0xAF1B,
0.269987666666667,0,0x8000,
0.269995625000000,0,0xB01B,
0.270011458333333,0,0x8302,
0.270019375000000,0,0xB11B,
0.270048791666667,0,0x0006,
0.270056458333333,0,0x3B19,
0.270072750000000,0,0xB3DD,
0.270080666666667,0,0xBB1B,
0.270096500000000,0,0xB32A,
0.270104416666667,0,0xBC1B,
0.270120250000000,0,0xB2BB,
0.270128166666667,0,0xBD1B,
0.270144000000000,0,0xB1FB,
0.270151916666667,0,0xBE1B,
0.270167708333333,0,0xB200,
0.270175666666667,0,0xBF1B,
0.270191458333333,0,0xB271,
0.270199375000000,0,0xC01B,
0.270230041666667,0,0x000A,
0.270237750000000,0,0x411D,
0.270253791666667,0,0xC0C2,
0.270261708333333,0,0xC11B,
0.270277541666667,0,0xC0C8,
0.270285416666667,0,0xC21B,
0.270301250000000,0,0xC0C5,
0.270309166666667,0,0xC31B,
0.270325000000000,0,0xC0C8,
0.270332916666667,0,0xC41B,
0.270348750000000,0,0xC0C3,
0.270356666666667,0,0xC51B,
0.270372500000000,0,0xDCD3,
0.270380416666667,0,0xC61B,
0.270396250000000,0,0x800D,
0.270404166666667,0,0xC71B,
0.270420000000000,0,0xA3DC,
0.270427916666667,0,0xC81B,
0.270443750000000,0,0x9E39,
0.270451666666667,0,0xC91B,
0.270467458333333,0,0x9E3C,
0.270475375000000,0,0xCA1B,
0.270507291666667,0,0x0004,
0.270514958333333,0,0x0321,
0.270531333333333,0,0x0A01,
0.270539166666667,0,0x8321,
0.270554916666667,0,0x0F00,
0.270562750000000,0,0x8421,
0.270578458333333,0,0x0000,
0.270586333333333,0,0x852B,
0.270602041666667,0,0xB73F,
0.270609916666667,0,0x8621,
0.270640208333333,0,0x0001,
0.270647916666667,0,0x1D25,
0.270663916666667,0,0x0055,
0.270671750000000,0,0x9D25,
0.270700375000000,0,0x0003,
0.270708083333333,0,0x2429,
0.270724291666667,0,0x004C,
0.270732166666667,0,0xA42B,
0.270747875000000,0,0x0040,
0.270755750000000,0,0xA52B,
0.270771458333333,0,0x8000,
0.270779333333333,0,0xA62B,
0.270808083333333,0,0x0005,
0.270815750000000,0,0x2D2D,
0.270831875000000,0,0xB10F,
0.270839708333333,0,0xAD2B,
0.270855416666667,0,0xFFF5,
0.270863291666667,0,0xAE2B,
0.270879000000000,0,0x66C3,
0.270886875000000,0,0xAF2B,
0.270902583333333,0,0x8000,
0.270910458333333,0,0xB02B,
0.270926166666667,0,0x8302,
0.270934000000000,0,0xB12B,
0.270965500000000,0,0x0006,
0.270973208333333,0,0x3B21,
0.270989500000000,0,0xE515,
0.270997375000000,0,0xBB2B,
0.271013083333333,0,0x8000,
0.271020916666667,0,0xBC2B,
0.271036666666667,0,0x8005,
0.271044500000000,0,0xBD2B,
0.271060208333333,0,0x8004,
0.271068083333333,0,0xBE2B,
0.271083791666667,0,0xE5B8,
0.271091625000000,0,0xBF2B,
0.271107333333333,0,0xE5D5,
0.271115208333333,0,0xC02B,
0.271146333333333,0,0x000A,
0.271154000000000,0,0x4125,
0.271170208333333,0,0xDB30,
0.271178083333333,0,0xC12B,
0.271193791666667,0,0xDC31,
0.271201625000000,0,0xC22B,
0.271217375000000,0,0xDF39,
0.271225208333333,0,0xC32B,
0.271240958333333,0,0xE125,
0.271248791666667,0,0xC42B,
0.271264500000000,0,0xA97E,
0.271272375000000,0,0xC52B,
0.271288083333333,0,0xFF4E,
0.271295916666667,0,0xC62B,
0.271311666666667,0,0xC018,
0.271319500000000,0,0xC72B,
0.271335208333333,0,0xA3C1,
0.271343083333333,0,0xC82B,
0.271358791666667,0,0x9E3B,
0.271366666666667,0,0xC92B,
0.271382375000000,0,0x9E3D,
0.271390208333333,0,0xCA2B,
0.278969125000000,0,0xCC3F,
0.278976791666667,0,0x060B,
0.279003750000000,0,0x0004,
0.279011458333333,0,0x031D,
0.279027500000000,0,0x0A01,
0.279035416666667,0,0x831D,
0.279051291666667,0,0x0F00,
0.279059166666667,0,0x841D,
0.279075041666667,0,0x0000,
0.279082958333333,0,0x851C,
0.279098791666667,0,0xCF3F,
0.279106708333333,0,0x861D,
0.279137625000000,0,0x0004,
0.279145291666667,0,0x0311,
0.279161625000000,0,0x0A01,
0.279169541666667,0,0x8311,
0.279185375000000,0,0x0F00,
0.279193333333333,0,0x8411,
0.279209125000000,0,0x0000,
0.279217083333333,0,0x851C,
0.279232916666667,0,0xCF3F,
0.279240833333333,0,0x8611,
0.279271458333333,0,0x0004,
0.279279125000000,0,0x0315,
0.279295291666667,0,0x0A01,
0.279303208333333,0,0x8315,
0.279319041666667,0,0x0F00,
0.279326958333333,0,0x8415,
0.279342791666667,0,0x0000,
0.279350708333333,0,0x851C,
0.279366583333333,0,0xCF3F,
0.279374458333333,0,0x8615,
0.279405000000000,0,0x0004,
0.279412666666667,0,0x0319,
0.279428916666667,0,0x0A01,
0.279436833333333,0,0x8319,
0.279452666666667,0,0x0F00,
0.279460583333333,0,0x8419,
0.279476416666667,0,0x0000,
0.279484333333333,0,0x851C,
0.279500166666667,0,0xCF3F,
0.279508083333333,0,0x8619,
0.279538458333333,0,0x0004,
0.279546125000000,0,0x031D,
0.279562500000000,0,0x0A01,
0.279570375000000,0,0x831D,
0.279586250000000,0,0x0F00,
0.279594166666667,0,0x841D,
0.279610000000000,0,0x0000,
0.279617916666667,0,0x851C,
0.279633750000000,0,0xC73F,
0.279641666666667,0,0x861D,
0.279672583333333,0,0x0001,
0.279680250000000,0,0x1D11,
0.279696583333333,0,0x1551,
0.279704500000000,0,0x9D11,
0.279733416666667,0,0x0003,
0.279741125000000,0,0x2415,
0.279757416666667,0,0x0048,
0.279765333333333,0,0xA41C,
0.279781166666667,0,0x0040,
0.279789083333333,0,0xA51C,
0.279804916666667,0,0x8000,
0.279812833333333,0,0xA61C,
0.279842458333333,0,0x0005,
0.279850125000000,0,0x2D19,
0.279866250000000,0,0xA90A,
0.279874166666667,0,0xAD1C,
0.279890000000000,0,0xFFF3,
0.279897916666667,0,0xAE1C,
0.279913791666667,0,0xCC7B,
0.279921666666667,0,0xAF1C,
0.279937500000000,0,0xFFFF,
0.279945416666667,0,0xB01C,
0.279961250000000,0,0x8308,
0.279969166666667,0,0xB11C,
0.279999416666667,0,0x0006,
0.280007083333333,0,0x3B1D,
0.280023083333333,0,0xB3DC,
0.280031041666667,0,0xBB1C,
0.280046875000000,0,0xB327,
0.280054750000000,0,0xBC1C,
0.280070583333333,0,0xB2BE,
0.280078541666667,0,0xBD1C,
0.280094333333333,0,0xB203,
0.280102250000000,0,0xBE1C,
0.280118083333333,0,0xB200,
0.280126000000000,0,0xBF1C,
0.280141875000000,0,0xB272,
0.280149750000000,0,0xC01C,
0.280180583333333,0,0x000A,
0.280188250000000,0,0x4111,
0.280204666666667,0,0xC0C3,
0.280212625000000,0,0xC11C,
0.280228458333333,0,0xC0C2,
0.280236375000000,0,0xC21C,
0.280252166666667,0,0xC0C3,
0.280260125000000,0,0xC31C,
0.280275958333333,0,0xC0C3,
0.280283875000000,0,0xC41C,
0.280299666666667,0,0xC0C1,
0.280307583333333,0,0xC51C,
0.280323416666667,0,0xDCCF,
0.280331333333333,0,0xC61C,
0.280347166666667,0,0x800C,
0.280355083333333,0,0xC71C,
0.280370916666667,0,0xA3DB,
0.280378791666667,0,0xC81C,
0.280394625000000,0,0x9E33,
0.280402541666667,0,0xC91C,
0.280418375000000,0,0x9E3A,
0.280426291666667,0,0xCA1C,
0.280457958333333,0,0x0004,
0.280465625000000,0,0x0325,
0.280481875000000,0,0x0A01,
0.280489708333333,0,0x8325,
0.280505416666667,0,0x0F00,
0.280513291666667,0,0x8425,
0.280529000000000,0,0x0000,
0.280536833333333,0,0x852C,
0.280552583333333,0,0xC73F,
0.280560416666667,0,0x8625,
0.280590375000000,0,0x0001,
0.280598041666667,0,0x1D29,
0.280614416666667,0,0x0055,
0.280622291666667,0,0x9D29,
0.280650875000000,0,0x0003,
0.280658541666667,0,0x242D,
0.280674791666667,0,0x004C,
0.280682666666667,0,0xA42C,
0.280698375000000,0,0x0040,
0.280706250000000,0,0xA52C,
0.280721916666667,0,0x8000,
0.280729791666667,0,0xA62C,
0.280758666666667,0,0x0005,
0.280766333333333,0,0x2D21,
0.280782333333333,0,0xB219,
0.280790166666667,0,0xAD2C,
0.280805875000000,0,0xFFF5,
0.280813750000000,0,0xAE2C,
0.280829458333333,0,0x647B,
0.280837291666667,0,0xAF2C,
0.280853000000000,0,0xFFFF,
0.280860875000000,0,0xB02C,
0.280876583333333,0,0x830F,
0.280884416666667,0,0xB12C,
0.280914375000000,0,0x0006,
0.280922041666667,0,0x3B25,
0.280938458333333,0,0xE51A,
0.280946291666667,0,0xBB2C,
0.280962000000000,0,0x8001,
0.280969875000000,0,0xBC2C,
0.280985583333333,0,0x8002,
0.280993458333333,0,0xBD2C,
0.281009166666667,0,0x8003,
0.281017000000000,0,0xBE2C,
0.281032708333333,0,0xE5BA,
0.281040583333333,0,0xBF2C,
0.281056291666667,0,0xE5D6,
0.281064166666667,0,0xC02C,
0.281094458333333,0,0x000A,
0.281102166666667,0,0x4129,
0.281118166666667,0,0xDB31,
0.281126000000000,0,0xC12C,
0.281141708333333,0,0xDC2D,
0.281149583333333,0,0xC22C,
0.281165291666667,0,0xDF37,
0.281173166666667,0,0xC32C,
0.281188875000000,0,0xE123,
0.281196708333333,0,0xC42C,
0.281212458333333,0,0xA981,
0.281220291666667,0,0xC52C,
0.281236000000000,0,0xFF4B,
0.281243875000000,0,0xC62C,
0.281259583333333,0,0xC016,
0.281267458333333,0,0xC72C,
0.281283166666667,0,0xA3C0,
0.281291041666667,0,0xC82C,
0.281306708333333,0,0x9E3C,
0.281314583333333,0,0xC92C,
0.281330291666667,0,0x9E40,
0.281338166666667,0,0xCA2C,
0.289155750000000,0,0xDC3F,
0.289163416666667,0,0x060F,
0.289191833333333,0,0x0004,
0.289199500000000,0,0x0311,
0.289215833333333,0,0x0A01,
0.289223750000000,0,0x8311,
0.289239583333333,0,0x0F00,
0.289247500000000,0,0x8411,
0.289263375000000,0,0x0000,
0.289271291666667,0,0x851D,
0.289287125000000,0,0xDF3F,
0.289295041666667,0,0x8611,
0.289325875000000,0,0x0004,
0.289333541666667,0,0x0315,
0.289349958333333,0,0x0A01,
0.289357875000000,0,0x8315,
0.289373708333333,0,0x0F00,
0.289381625000000,0,0x8415,
0.289397458333333,0,0x0000,
0.289405375000000,0,0x851D,
0.289421208333333,0,0xDF3F,
0.289429125000000,0,0x8615,
0.289460000000000,0,0x0004,
0.289467666666667,0,0x0319,
0.289484041666667,0,0x0A01,
0.289491958333333,0,0x8319,
0.289507791666667,0,0x0F00,
0.289515708333333,0,0x8419,
0.289531541666667,0,0x0000,
0.289539458333333,0,0x851D,
0.289555291666667,0,0xDF3F,
0.289563208333333,0,0x8619,
0.289594416666667,0,0x0004,
0.289602125000000,0,0x031D,
0.289618125000000,0,0x0A01,
0.289626041666667,0,0x831D,
0.289641875000000,0,0x0F00,
0.289649791666667,0,0x841D,
0.289665625000000,0,0x0000,
0.289673541666667,0,0x851D,
0.289689375000000,0,0xDF3F,
0.289697291666667,0,0x861D,
0.289727250000000,0,0x0004,
0.289734958333333,0,0x0311,
0.289751208333333,0,0x0A01,
0.289759125000000,0,0x8311,
0.289774958333333,0,0x0F00,
0.289782875000000,0,0x8411,
0.289798708333333,0,0x0000,
0.289806583333333,0,0x851D,
0.289822416666667,0,0xD73F,
0.289830333333333,0,0x8611,
0.289861000000000,0,0x0001,
0.289868666666667,0,0x1D15,
0.289884750000000,0,0x1551,
0.289892666666667,0,0x9D15,
0.289920375000000,0,0x0003,
0.289928041666667,0,0x2419,
0.289944125000000,0,0x0048,
0.289952041666667,0,0xA41D,
0.289967875000000,0,0x0040,
0.289975791666667,0,0xA51D,
0.289991625000000,0,0x8000,
0.289999541666667,0,0xA61D,
0.290028375000000,0,0x0005,
0.290036083333333,0,0x2D1D,
0.290052458333333,0,0xAA19,
0.290060375000000,0,0xAD1D,
0.290076208333333,0,0xFFF3,
0.290084125000000,0,0xAE1D,
0.290099958333333,0,0xC96F,
0.290107875000000,0,0xAF1D,
0.290123708333333,0,0xFFFF,
0.290131666666667,0,0xB01D,
0.290147500000000,0,0x830A,
0.290155375000000,0,0xB11D,
0.290186083333333,0,0x0006,
0.290193750000000,0,0x3B11,
0.290209833333333,0,0xB3E2,
0.290217750000000,0,0xBB1D,
0.290233583333333,0,0xB329,
0.290241500000000,0,0xBC1D,
0.290257333333333,0,0xB2BD,
0.290265250000000,0,0xBD1D,
0.290281083333333,0,0xB1FE,
0.290289000000000,0,0xBE1D,
0.290304833333333,0,0xB202,
0.290312750000000,0,0xBF1D,
0.290328583333333,0,0xB273,
0.290336500000000,0,0xC01D,
0.290366750000000,0,0x000A,
0.290374458333333,0,0x4115,
0.290390416666667,0,0xC0C2,
0.290398333333333,0,0xC11D,
0.290414125000000,0,0xC0C3,
0.290422083333333,0,0xC21D,
0.290437875000000,0,0xC0C6,
0.290445791666667,0,0xC31D,
0.290461625000000,0,0xC0C1,
0.290469541666667,0,0xC41D,
0.290485375000000,0,0xC0C4,
0.290493291666667,0,0xC51D,
0.290509125000000,0,0xDCD0,
0.290517041666667,0,0xC61D,
0.290532875000000,0,0x800E,
0.290540791666667,0,0xC71D,
0.290556625000000,0,0xA3DE,
0.290564541666667,0,0xC81D,
0.290580333333333,0,0x9E37,
0.290588250000000,0,0xC91D,
0.290604083333333,0,0x9E3B,
0.290612000000000,0,0xCA1D,
0.290645083333333,0,0x0004,
0.290652750000000,0,0x0329,
0.290668916666667,0,0x0A01,
0.290676791666667,0,0x8329,
0.290692500000000,0,0x0F00,
0.290700333333333,0,0x8429,
0.290716083333333,0,0x0000,
0.290723916666667,0,0x852D,
0.290739625000000,0,0xD73F,
0.290747500000000,0,0x8629,
0.290778208333333,0,0x0001,
0.290785875000000,0,0x1D2D,
0.290802000000000,0,0x0055,
0.290809833333333,0,0x9D2D,
0.290839041666667,0,0x0003,
0.290846708333333,0,0x2421,
0.290862875000000,0,0x004C,
0.290870750000000,0,0xA42D,
0.290886458333333,0,0x0040,
0.290894333333333,0,0xA52D,
0.290910041666667,0,0x8000,
0.290917916666667,0,0xA62D,
0.290945791666667,0,0x0005,
0.290953500000000,0,0x2D25,
0.290969916666667,0,0xB32A,
0.290977791666667,0,0xAD2D,
0.290993500000000,0,0xFFF5,
0.291001333333333,0,0xAE2D,
0.291017041666667,0,0x627B,
0.291024916666667,0,0xAF2D,
0.291040625000000,0,0x8000,
0.291048500000000,0,0xB02D,
0.291064208333333,0,0x8300,
0.291072083333333,0,0xB12D,
0.291101416666667,0,0x0006,
0.291109125000000,0,0x3B29,
0.291125083333333,0,0xE51C,
0.291132916666667,0,0xBB2D,
0.291148666666667,0,0x8003,
0.291156500000000,0,0xBC2D,
0.291172250000000,0,0x8000,
0.291180083333333,0,0xBD2D,
0.291195791666667,0,0x8002,
0.291203666666667,0,0xBE2D,
0.291219375000000,0,0xE5BB,
0.291227250000000,0,0xBF2D,
0.291242958333333,0,0xE5D5,
0.291250791666667,0,0xC02D,
0.291281208333333,0,0x000A,
0.291288916666667,0,0x412D,
0.291304833333333,0,0xDB24,
0.291312666666667,0,0xC12D,
0.291328375000000,0,0xDC29,
0.291336250000000,0,0xC22D,
0.291351958333333,0,0xDF36,
0.291359833333333,0,0xC32D,
0.291375500000000,0,0xE121,
0.291383375000000,0,0xC42D,
0.291399083333333,0,0xA97C,
0.291406958333333,0,0xC52D,
0.291422666666667,0,0xFF48,
0.291430500000000,0,0xC62D,
0.291446208333333,0,0xC010,
0.291454083333333,0,0xC72D,
0.291469791666667,0,0xA3C0,
0.291477666666667,0,0xC82D,
0.291493333333333,0,0x9E3A,
0.291501208333333,0,0xC92D,
0.291516916666667,0,0x9E3F,
0.291524791666667,0,0xCA2D,
0.299011041666667,0,0xEC3F,
0.299018750000000,0,0x0603,
0.299046500000000,0,0x0004,
0.299054166666667,0,0x0315,
0.299070166666667,0,0x0A01,
0.299078041666667,0,0x8315,
0.299093916666667,0,0x0F00,
0.299101791666667,0,0x8415,
0.299117666666667,0,0x0000,
0.299125583333333,0,0x851E,
0.299141416666667,0,0xEF3F,
0.299149333333333,0,0x8615,
0.299180458333333,0,0x0004,
0.299188125000000,0,0x0319,
0.299204250000000,0,0x0A01,
0.299212166666667,0,0x8319,
0.299228000000000,0,0x0F00,
0.299235916666667,0,0x8419,
0.299251750000000,0,0x0000,
0.299259666666667,0,0x851E,
0.299275500000000,0,0xEF3F,
0.299283416666667,0,0x8619,
0.299313708333333,0,0x0004,
0.299321416666667,0,0x031D,
0.299337875000000,0,0x0A01,
0.299345750000000,0,0x831D,
0.299361583333333,0,0x0F00,
0.299369500000000,0,0x841D,
0.299385333333333,0,0x0000,
0.299393291666667,0,0x851E,
0.299409083333333,0,0xEF3F,
0.299417041666667,0,0x861D,
0.299448708333333,0,0x0004,
0.299456375000000,0,0x0311,
0.299472416666667,0,0x0A01,
0.299480375000000,0,0x8311,
0.299496208333333,0,0x0F00,
0.299504125000000,0,0x8411,
0.299519958333333,0,0x0000,
0.299527875000000,0,0x851E,
0.299543708333333,0,0xEF3F,
0.299551583333333,0,0x8611,
0.299581958333333,0,0x0004,
0.299589625000000,0,0x0315,
0.299606000000000,0,0x0A01,
0.299613916666667,0,0x8315,
0.299629750000000,0,0x0F00,
0.299637666666667,0,0x8415,
0.299653500000000,0,0x0000,
0.299661416666667,0,0x851E,
0.299677250000000,0,0xE73F,
0.299685166666667,0,0x8615,
0.299716458333333,0,0x0001,
0.299724125000000,0,0x1D19,
0.299740583333333,0,0x1551,
0.299748458333333,0,0x9D19,
0.299777291666667,0,0x0003,
0.299784958333333,0,0x241D,
0.299801416666667,0,0x0048,
0.299809333333333,0,0xA41E,
0.299825166666667,0,0x0040,
0.299833083333333,0,0xA51E,
0.299848916666667,0,0x8000,
0.299856833333333,0,0xA61E,
0.299886541666667,0,0x0005,
0.299894208333333,0,0x2D11,
0.299910291666667,0,0xAB1F,
0.299918208333333,0,0xAD1E,
0.299934041666667,0,0xFFF3,
0.299941958333333,0,0xAE1E,
0.299957791666667,0,0xC68D,
0.299965708333333,0,0xAF1E,
0.299981541666667,0,0x8000,
0.299989458333333,0,0xB01E,
0.300005291666667,0,0x8303,
0.300013208333333,0,0xB11E,
0.300043583333333,0,0x0006,
0.300051291666667,0,0x3B15,
0.300067625000000,0,0xB3DF,
0.300075541666667,0,0xBB1E,
0.300091375000000,0,0xB32C,
0.300099291666667,0,0xBC1E,
0.300115125000000,0,0xB2C0,
0.300123041666667,0,0xBD1E,
0.300138875000000,0,0xB1FF,
0.300146791666667,0,0xBE1E,
0.300162625000000,0,0xB1FE,
0.300170541666667,0,0xBF1E,
0.300186416666667,0,0xB270,
0.300194333333333,0,0xC01E,
0.300224500000000,0,0x000A,
0.300232166666667,0,0x4119,
0.300248250000000,0,0xC0C1,
0.300256166666667,0,0xC11E,
0.300272000000000,0,0xC0C2,
0.300279916666667,0,0xC21E,
0.300295750000000,0,0xC0C4,
0.300303666666667,0,0xC31E,
0.300319500000000,0,0xC0C3,
0.300327416666667,0,0xC41E,
0.300343250000000,0,0xC0C3,
0.300351166666667,0,0xC51E,
0.300367000000000,0,0xDCD1,
0.300374916666667,0,0xC61E,
0.300390750000000,0,0x800E,
0.300398625000000,0,0xC71E,
0.300414458333333,0,0xA3DC,
0.300422375000000,0,0xC81E,
0.300438208333333,0,0x9E36,
0.300446125000000,0,0xC91E,
0.300461958333333,0,0x9E3A,
0.300469875000000,0,0xCA1E,
0.300501166666667,0,0x0004,
0.300508833333333,0,0x032D,
0.300525250000000,0,0x0A01,
0.300533083333333,0,0x832D,
0.300548791666667,0,0x0F00,
0.300556666666667,0,0x842D,
0.300572375000000,0,0x0000,
0.300580208333333,0,0x852E,
0.300595916666667,0,0xE73F,
0.300603791666667,0,0x862D,
0.300634208333333,0,0x0001,
0.300641916666667,0,0x1D21,
0.300658291666667,0,0x0055,
0.300666166666667,0,0x9D21,
0.300694541666667,0,0x0003,
0.300702208333333,0,0x2425,
0.300718208333333,0,0x004C,
0.300726041666667,0,0xA42E,
0.300741750000000,0,0x0040,
0.300749625000000,0,0xA52E,
0.300765333333333,0,0x8000,
0.300773208333333,0,0xA62E,
0.300802000000000,0,0x0005,
0.300809666666667,0,0x2D29,
0.300825708333333,0,0xB433,
0.300833541666667,0,0xAD2E,
0.300849291666667,0,0xFFF5,
0.300857125000000,0,0xAE2E,
0.300872833333333,0,0x60AD,
0.300880708333333,0,0xAF2E,
0.300896416666667,0,0xFFFF,
0.300904250000000,0,0xB02E,
0.300919958333333,0,0x830F,
0.300927833333333,0,0xB12E,
0.300959083333333,0,0x0006,
0.300966750000000,0,0x3B2D,
0.300982833333333,0,0xE51A,
0.300990666666667,0,0xBB2E,
0.301006375000000,0,0x8001,
0.301014250000000,0,0xBC2E,
0.301029916666667,0,0x8000,
0.301037791666667,0,0xBD2E,
0.301053500000000,0,0x8000,
0.301061375000000,0,0xBE2E,
0.301077083333333,0,0xE5C0,
0.301084916666667,0,0xBF2E,
0.301100625000000,0,0xE5D7,
0.301108500000000,0,0xC02E,
0.301139166666667,0,0x000A,
0.301146833333333,0,0x4121,
0.301163000000000,0,0xDB2B,
0.301170875000000,0,0xC12E,
0.301186541666667,0,0xDC2D,
0.301194416666667,0,0xC22E,
0.301210125000000,0,0xDF3A,
0.301218000000000,0,0xC32E,
0.301233708333333,0,0xE122,
0.301241583333333,0,0xC42E,
0.301257291666667,0,0xA97D,
0.301265125000000,0,0xC52E,
0.301280833333333,0,0xFF4A,
0.301288708333333,0,0xC62E,
0.301304416666667,0,0xC014,
0.301312250000000,0,0xC72E,
0.301327958333333,0,0xA3BF,
0.301335833333333,0,0xC82E,
0.301351541666667,0,0x9E3C,
0.301359375000000,0,0xC92E,
0.301375083333333,0,0x9E3E,
0.301382958333333,0,0xCA2E,
0.309010083333333,0,0xFC3F,
0.309017750000000,0,0x0607,
0.309045833333333,0,0x0004,
0.309053500000000,0,0x0319,
0.309069916666667,0,0x0A01,
0.309077833333333,0,0x8319,
0.309093625000000,0,0x0F00,
0.309101583333333,0,0x8419,
0.309117416666667,0,0x0000,
0.309125333333333,0,0x851F,
0.309141166666667,0,0xFF3F,
0.309149083333333,0,0x8619,
0.309179416666667,0,0x0004,
0.309187125000000,0,0x031D,
0.309203541666667,0,0x0A01,
0.309211458333333,0,0x831D,
0.309227291666667,0,0x0F00,
0.309235208333333,0,0x841D,
0.309251041666667,0,0x0000,
0.309258958333333,0,0x851F,
0.309274833333333,0,0xFF3F,
0.309282750000000,0,0x861D,
0.309313666666667,0,0x0004,
0.309321333333333,0,0x0311,
0.309337666666667,0,0x0A01,
0.309345583333333,0,0x8311,
0.309361416666667,0,0x0F00,
0.309369333333333,0,0x8411,
0.309385166666667,0,0x0000,
0.309393083333333,0,0x851F,
0.309408916666667,0,0xFF3F,
0.309416833333333,0,0x8611,
0.309447250000000,0,0x0004,
0.309454958333333,0,0x0315,
0.309471291666667,0,0x0A01,
0.309479208333333,0,0x8315,
0.309495041666667,0,0x0F00,
0.309502958333333,0,0x8415,
0.309518791666667,0,0x0000,
0.309526708333333,0,0x851F,
0.309542541666667,0,0xFF3F,
0.309550458333333,0,0x8615,
0.309581250000000,0,0x0004,
0.309588916666667,0,0x0319,
0.309604916666667,0,0x0A01,
0.309612833333333,0,0x8319,
0.309628666666667,0,0x0F00,
0.309636583333333,0,0x8419,
0.309652375000000,0,0x0000,
0.309660333333333,0,0x851F,
0.309676166666667,0,0xF73F,
0.309684083333333,0,0x8619,
0.309714250000000,0,0x0001,
0.309721916666667,0,0x1D1D,
0.309738000000000,0,0x1551,
0.309745916666667,0,0x9D1D,
0.309773666666667,0,0x0003,
0.309781375000000,0,0x2411,
0.309797375000000,0,0x0048,
0.309805291666667,0,0xA41F,
0.309821125000000,0,0x0040,
0.309829041666667,0,0xA51F,
0.309844875000000,0,0x8000,
0.309852791666667,0,0xA61F,
0.309882125000000,0,0x0005,
0.309889791666667,0,0x2D15,
0.309906208333333,0,0xAC29,
0.309914166666667,0,0xAD1F,
0.309929958333333,0,0xFFF3,
0.309937875000000,0,0xAE1F,
0.309953708333333,0,0xC3F2,
0.309961625000000,0,0xAF1F,
0.309977458333333,0,0x8000,
0.309985375000000,0,0xB01F,
0.310001208333333,0,0x8306,
0.310009125000000,0,0xB11F,
0.310038625000000,0,0x0006,
0.310046291666667,0,0x3B19,
0.310062541666667,0,0xB3E0,
0.310070458333333,0,0xBB1F,
0.310086291666667,0,0xB32C,
0.310094208333333,0,0xBC1F,
0.310110041666667,0,0xB2BD,
0.310117958333333,0,0xBD1F,
0.310133791666667,0,0xB202,
0.310141708333333,0,0xBE1F,
0.310157541666667,0,0xB201,
0.310165458333333,0,0xBF1F,
0.310181291666667,0,0xB271,
0.310189208333333,0,0xC01F,
0.310219375000000,0,0x000A,
0.310227041666667,0,0x411D,
0.310243125000000,0,0xC0C1,
0.310251041666667,0,0xC11F,
0.310266875000000,0,0xC0C3,
0.310274791666667,0,0xC21F,
0.310290625000000,0,0xC0C4,
0.310298541666667,0,0xC31F,
0.310314375000000,0,0xC0C5,
0.310322291666667,0,0xC41F,
0.310338125000000,0,0xC0C7,
0.310346041666667,0,0xC51F,
0.310361875000000,0,0xDCD4,
0.310369791666667,0,0xC61F,
0.310385625000000,0,0x800E,
0.310393541666667,0,0xC71F,
0.310409375000000,0,0xA3D9,
0.310417291666667,0,0xC81F,
0.310433125000000,0,0x9E38,
0.310441041666667,0,0xC91F,
0.310456875000000,0,0x9E39,
0.310464791666667,0,0xCA1F,
0.310495916666667,0,0x0004,
0.310503583333333,0,0x0321,
0.310519625000000,0,0x0A01,
0.310527500000000,0,0x8321,
0.310543208333333,0,0x0F00,
0.310551041666667,0,0x8421,
0.310566750000000,0,0x0000,
0.310574625000000,0,0x852F,
0.310590333333333,0,0xF73F,
0.310598208333333,0,0x8621,
0.310628416666667,0,0x0001,
0.310636083333333,0,0x1D25,
0.310652166666667,0,0x0055,
0.310660041666667,0,0x9D25,
0.310688000000000,0,0x0003,
0.310695708333333,0,0x2429,
0.310712125000000,0,0x004C,
0.310719958333333,0,0xA42F,
0.310735666666667,0,0x0040,
0.310743541666667,0,0xA52F,
0.310759250000000,0,0x8000,
0.310767083333333,0,0xA62F,
0.310796250000000,0,0x0005,
0.310803958333333,0,0x2D2D,
0.310820125000000,0,0xB53E,
0.310828000000000,0,0xAD2F,
0.310843708333333,0,0xFFF5,
0.310851583333333,0,0xAE2F,
0.310867291666667,0,0x5DFE,
0.310875125000000,0,0xAF2F,
0.310890833333333,0,0xFFFF,
0.310898708333333,0,0xB02F,
0.310914416666667,0,0x8305,
0.310922250000000,0,0xB12F,
0.310951666666667,0,0x0006,
0.310959333333333,0,0x3B21,
0.310975333333333,0,0xE51D,
0.310983166666667,0,0xBB2F,
0.310998875000000,0,0x8000,
0.311006750000000,0,0xBC2F,
0.311022458333333,0,0x8003,
0.311030291666667,0,0xBD2F,
0.311046041666667,0,0x8002,
0.311053875000000,0,0xBE2F,
0.311069583333333,0,0xE5B9,
0.311077458333333,0,0xBF2F,
0.311093166666667,0,0xE5D3,
0.311101041666667,0,0xC02F,
0.311130708333333,0,0x000A,
0.311138375000000,0,0x4125,
0.311154541666667,0,0xDB2E,
0.311162416666667,0,0xC12F,
0.311178125000000,0,0xDC30,
0.311185958333333,0,0xC22F,
0.311201666666667,0,0xDF39,
0.311209541666667,0,0xC32F,
0.311225250000000,0,0xE124,
0.311233083333333,0,0xC42F,
0.311248833333333,0,0xA981,
0.311256666666667,0,0xC52F,
0.311272375000000,0,0xFF4C,
0.311280250000000,0,0xC62F,
0.311295958333333,0,0xC017,
0.311303833333333,0,0xC72F,
0.311319541666667,0,0xA3BD,
0.311327375000000,0,0xC82F,
0.311343083333333,0,0x9E40,
0.311350958333333,0,0xC92F,
0.311366666666667,0,0x9E3B,
0.311374541666667,0,0xCA2F,
0.319140583333333,0,0x0C3F,
0.319148250000000,0,0x060B,
0.319176000000000,0,0x0004,
0.319183666666667,0,0x031D,
0.319200041666667,0,0x0A01,
0.319207958333333,0,0x831D,
0.319223791666667,0,0x0F00,
0.319231708333333,0,0x841D,
0.319247541666667,0,0x0000,
0.319255458333333,0,0x8510,
0.319271333333333,0,0x0F3F,
0.319279250000000,0,0x861D,
0.319311458333333,0,0x0004,
0.319319166666667,0,0x0311,
0.319335166666667,0,0x0A01,
0.319343083333333,0,0x8311,
0.319358916666667,0,0x0F00,
0.319366833333333,0,0x8411,
0.319382666666667,0,0x0000,
0.319390583333333,0,0x8510,
0.319406416666667,0,0x0F3F,
0.319414333333333,0,0x8611,
0.319445333333333,0,0x0004,
0.319453041666667,0,0x0315,
0.319469250000000,0,0x0A01,
0.319477166666667,0,0x8315,
0.319493000000000,0,0x0F00,
0.319500916666667,0,0x8415,
0.319516750000000,0,0x0000,
0.319524666666667,0,0x8510,
0.319540500000000,0,0x0F3F,
0.319548416666667,0,0x8615,
0.319578916666667,0,0x0004,
0.319586583333333,0,0x0319,
0.319602833333333,0,0x0A01,
0.319610750000000,0,0x8319,
0.319626583333333,0,0x0F00,
0.319634500000000,0,0x8419,
0.319650333333333,0,0x0000,
0.319658291666667,0,0x8510,
0.319674125000000,0,0x0F3F,
0.319682041666667,0,0x8619,
0.319712250000000,0,0x0004,
0.319719958333333,0,0x031D,
0.319735958333333,0,0x0A01,
0.319743875000000,0,0x831D,
0.319759708333333,0,0x0F00,
0.319767583333333,0,0x841D,
0.319783458333333,0,0x0000,
0.319791375000000,0,0x8510,
0.319807208333333,0,0x073F,
0.319815083333333,0,0x861D,
0.319844875000000,0,0x0001,
0.319852583333333,0,0x1D11,
0.319869000000000,0,0x1551,
0.319876916666667,0,0x9D11,
0.319905208333333,0,0x0003,
0.319912875000000,0,0x2415,
0.319928875000000,0,0x0048,
0.319936791666667,0,0xA410,
0.319952625000000,0,0x0040,
0.319960541666667,0,0xA510,
0.319976333333333,0,0x8000,
0.319984291666667,0,0xA610,
0.320013291666667,0,0x0005,
0.320021000000000,0,0x2D19,
0.320037208333333,0,0xAD37,
0.320045125000000,0,0xAD10,
0.320060958333333,0,0xFFF3,
0.320068875000000,0,0xAE10,
0.320084708333333,0,0xC0A0,
0.320092625000000,0,0xAF10,
0.320108458333333,0,0x8000,
0.320116375000000,0,0xB010,
0.320132208333333,0,0x8301,
0.320140125000000,0,0xB110,
0.320170916666667,0,0x0006,
0.320178583333333,0,0x3B1D,
0.320195041666667,0,0xB3DF,
0.320202958333333,0,0xBB10,
0.320218791666667,0,0xB32A,
0.320226708333333,0,0xBC10,
0.320242541666667,0,0xB2B9,
0.320250458333333,0,0xBD10,
0.320266250000000,0,0xB1FD,
0.320274166666667,0,0xBE10,
0.320290000000000,0,0xB1FF,
0.320297916666667,0,0xBF10,
0.320313750000000,0,0xB271,
0.320321666666667,0,0xC010,
0.320352500000000,0,0x000A,
0.320360208333333,0,0x4111,
0.320376583333333,0,0xC0C4,
0.320384458333333,0,0xC110,
0.320400291666667,0,0xC0C6,
0.320408250000000,0,0xC210,
0.320424041666667,0,0xC0C2,
0.320431958333333,0,0xC310,
0.320447791666667,0,0xC0C3,
0.320455708333333,0,0xC410,
0.320471541666667,0,0xC0C3,
0.320479458333333,0,0xC510,
0.320495291666667,0,0xDCD0,
0.320503208333333,0,0xC610,
0.320519041666667,0,0x800C,
0.320526958333333,0,0xC710,
0.320542791666667,0,0xA3DB,
0.320550708333333,0,0xC810,
0.320566541666667,0,0x9E37,
0.320574458333333,0,0xC910,
0.320590291666667,0,0x9E3C,
0.320598208333333,0,0xCA10,
0.320629708333333,0,0x0004,
0.320637375000000,0,0x0325,
0.320653750000000,0,0x0A01,
0.320661583333333,0,0x8325,
0.320677333333333,0,0x0F00,
0.320685166666667,0,0x8425,
0.320700875000000,0,0x0000,
0.320708750000000,0,0x8520,
0.320724458333333,0,0x073F,
0.320732333333333,0,0x8625,
0.320762666666667,0,0x0001,
0.320770333333333,0,0x1D29,
0.320786333333333,0,0x0055,
0.320794166666667,0,0x9D29,
0.320821958333333,0,0x0003,
0.320829666666667,0,0x242D,
0.320845708333333,0,0x004C,
0.320853541666667,0,0xA420,
0.320869250000000,0,0x0040,
0.320877125000000,0,0xA520,
0.320892833333333,0,0x8000,
0.320900666666667,0,0xA620,
0.320929333333333,0,0x0005,
0.320937000000000,0,0x2D21,
0.320953208333333,0,0xB64E,
0.320961083333333,0,0xAD20,
0.320976791666667,0,0xFFF5,
0.320984666666667,0,0xAE20,
0.321000333333333,0,0x5BB6,
0.321008208333333,0,0xAF20,
0.321023916666667,0,0xFFFF,
0.321031791666667,0,0xB020,
0.321047500000000,0,0x8306,
0.321055375000000,0,0xB120,
0.321085416666667,0,0x0006,
0.321093125000000,0,0x3B25,
0.321109375000000,0,0xE520,
0.321117250000000,0,0xBB20,
0.321132916666667,0,0x8003,
0.321140791666667,0,0xBC20,
0.321156500000000,0,0x8004,
0.321164333333333,0,0xBD20,
0.321180083333333,0,0x8000,
0.321187916666667,0,0xBE20,
0.321203625000000,0,0xE5BB,
0.321211500000000,0,0xBF20,
0.321227208333333,0,0xE5D1,
0.321235041666667,0,0xC020,
0.321265458333333,0,0x000A,
0.321273125000000,0,0x4129,
0.321289083333333,0,0xDB2D,
0.321296958333333,0,0xC120,
0.321312666666667,0,0xDC2E,
0.321320500000000,0,0xC220,
0.321336208333333,0,0xDF38,
0.321344083333333,0,0xC320,
0.321359791666667,0,0xE125,
0.321367625000000,0,0xC420,
0.321383375000000,0,0xA97E,
0.321391208333333,0,0xC520,
0.321406916666667,0,0xFF4A,
0.321414750000000,0,0xC620,
0.321430500000000,0,0xC017,
0.321438333333333,0,0xC720,
0.321454041666667,0,0xA3BF,
0.321461875000000,0,0xC820,
0.321477625000000,0,0x9E3B,
0.321485458333333,0,0xC920,
0.321501166666667,0,0x9E41,
0.321509041666667,0,0xCA20,
0.329026166666667,0,0x1C3F,
0.329033833333333,0,0x060F,
0.329061333333333,0,0x0004,
0.329069041666667,0,0x0311,
0.329085333333333,0,0x0A01,
0.329093208333333,0,0x8311,
0.329109041666667,0,0x0F00,
0.329116958333333,0,0x8411,
0.329132833333333,0,0x0000,
0.329140750000000,0,0x8511,
0.329156583333333,0,0x1F3F,
0.329164500000000,0,0x8611,
0.329195041666667,0,0x0004,
0.329202708333333,0,0x0315,
0.329218958333333,0,0x0A01,
0.329226875000000,0,0x8315,
0.329242708333333,0,0x0F00,
0.329250625000000,0,0x8415,
0.329266458333333,0,0x0000,
0.329274375000000,0,0x8511,
0.329290208333333,0,0x1F3F,
0.329298166666667,0,0x8615,
0.329328916666667,0,0x0004,
0.329336583333333,0,0x0319,
0.329352625000000,0,0x0A01,
0.329360541666667,0,0x8319,
0.329376375000000,0,0x0F00,
0.329384291666667,0,0x8419,
0.329400125000000,0,0x0000,
0.329408041666667,0,0x8511,
0.329423875000000,0,0x1F3F,
0.329431791666667,0,0x8619,
0.329462291666667,0,0x0004,
0.329469958333333,0,0x031D,
0.329486250000000,0,0x0A01,
0.329494166666667,0,0x831D,
0.329510000000000,0,0x0F00,
0.329517916666667,0,0x841D,
0.329533750000000,0,0x0000,
0.329541708333333,0,0x8511,
0.329557541666667,0,0x1F3F,
0.329565458333333,0,0x861D,
0.329595291666667,0,0x0004,
0.329603000000000,0,0x0311,
0.329619375000000,0,0x0A01,
0.329627291666667,0,0x8311,
0.329643125000000,0,0x0F00,
0.329651041666667,0,0x8411,
0.329666875000000,0,0x0000,
0.329674791666667,0,0x8511,
0.329690625000000,0,0x173F,
0.329698541666667,0,0x8611,
0.329729500000000,0,0x0001,
0.329737166666667,0,0x1D15,
0.329753458333333,0,0x1551,
0.329761375000000,0,0x9D15,
0.329789250000000,0,0x0003,
0.329796916666667,0,0x2419,
0.329813333333333,0,0x0048,
0.329821250000000,0,0xA411,
0.329837083333333,0,0x0040,
0.329845000000000,0,0xA511,
0.329860791666667,0,0x8000,
0.329868708333333,0,0xA611,
0.329897791666667,0,0x0005,
0.329905500000000,0,0x2D1D,
0.329921666666667,0,0xAE3E,
0.329929583333333,0,0xAD11,
0.329945416666667,0,0xFFF3,
0.329953333333333,0,0xAE11,
0.329969166666667,0,0xBE2F,
0.329977083333333,0,0xAF11,
0.329992916666667,0,0x8000,
0.330000833333333,0,0xB011,
0.330016666666667,0,0x8304,
0.330024583333333,0,0xB111,
0.330054333333333,0,0x0006,
0.330062041666667,0,0x3B11,
0.330078500000000,0,0xB3E3,
0.330086416666667,0,0xBB11,
0.330102250000000,0,0xB32F,
0.330110166666667,0,0xBC11,
0.330126000000000,0,0xB2BA,
0.330133916666667,0,0xBD11,
0.330149750000000,0,0xB1FF,
0.330157666666667,0,0xBE11,
0.330173500000000,0,0xB1FF,
0.330181416666667,0,0xBF11,
0.330197250000000,0,0xB272,
0.330205166666667,0,0xC011,
0.330235166666667,0,0x000A,
0.330242833333333,0,0x4115,
0.330259125000000,0,0xC0C2,
0.330267041666667,0,0xC111,
0.330282875000000,0,0xC0C3,
0.330290791666667,0,0xC211,
0.330306583333333,0,0xC0C4,
0.330314500000000,0,0xC311,
0.330330333333333,0,0xC0C3,
0.330338250000000,0,0xC411,
0.330354083333333,0,0xC0C7,
0.330362041666667,0,0xC511,
0.330377833333333,0,0xDCD2,
0.330385750000000,0,0xC611,
0.330401583333333,0,0x8010,
0.330409500000000,0,0xC711,
0.330425333333333,0,0xA3DD,
0.330433250000000,0,0xC811,
0.330449083333333,0,0x9E37,
0.330457000000000,0,0xC911,
0.330472833333333,0,0x9E3E,
0.330480750000000,0,0xCA11,
0.330512375000000,0,0x0004,
0.330520041666667,0,0x0329,
0.330536041666667,0,0x0A01,
0.330543875000000,0,0x8329,
0.330559583333333,0,0x0F00,
0.330567458333333,0,0x8429,
0.330583166666667,0,0x0000,
0.330591041666667,0,0x8521,
0.330606750000000,0,0x173F,
0.330614583333333,0,0x8629,
0.330644916666667,0,0x0001,
0.330652583333333,0,0x1D2D,
0.330668625000000,0,0x0055,
0.330676458333333,0,0x9D2D,
0.330704291666667,0,0x0003,
0.330711958333333,0,0x2421,
0.330728041666667,0,0x004C,
0.330735875000000,0,0xA421,
0.330751583333333,0,0x0040,
0.330759458333333,0,0xA521,
0.330775166666667,0,0x8000,
0.330783000000000,0,0xA621,
0.330811916666667,0,0x0005,
0.330819583333333,0,0x2D25,
0.330835541666667,0,0xB757,
0.330843416666667,0,0xAD21,
0.330859125000000,0,0xFFF5,
0.330866958333333,0,0xAE21,
0.330882666666667,0,0x592A,
0.330890541666667,0,0xAF21,
0.330906250000000,0,0xFFFF,
0.330914125000000,0,0xB021,
0.330929833333333,0,0x830D,
0.330937666666667,0,0xB121,
0.330967250000000,0,0x0006,
0.330974916666667,0,0x3B29,
0.330991208333333,0,0xE51B,
0.330999041666667,0,0xBB21,
0.331014750000000,0,0x8000,
0.331022583333333,0,0xBC21,
0.331038333333333,0,0x8000,
0.331046166666667,0,0xBD21,
0.331061875000000,0,0x8003,
0.331069750000000,0,0xBE21,
0.331085458333333,0,0xE5B9,
0.331093291666667,0,0xBF21,
0.331109000000000,0,0xE5D3,
0.331116875000000,0,0xC021,
0.331147166666667,0,0x000A,
0.331154833333333,0,0x412D,
0.331170916666667,0,0xDB2B,
0.331178750000000,0,0xC121,
0.331194458333333,0,0xDC2E,
0.331202333333333,0,0xC221,
0.331218041666667,0,0xDF37,
0.331225916666667,0,0xC321,
0.331241625000000,0,0xE123,
0.331249458333333,0,0xC421,
0.331265208333333,0,0xA97E,
0.331273041666667,0,0xC521,
0.331288750000000,0,0xFF49,
0.331296625000000,0,0xC621,
0.331312333333333,0,0xC018,
0.331320208333333,0,0xC721,
0.331335875000000,0,0xA3BF,
0.331343750000000,0,0xC821,
0.331359458333333,0,0x9E3C,
0.331367333333333,0,0xC921,
0.331383041666667,0,0x9E3E,
0.331390916666667,0,0xCA21,
0.339025750000000,0,0x2C3F,
0.339033458333333,0,0x0603,
0.339061166666667,0,0x0004,
0.339068833333333,0,0x0315,
0.339084791666667,0,0x0A01,
0.339092708333333,0,0x8315,
0.339108541666667,0,0x0F00,
0.339116458333333,0,0x8415,
0.339132291666667,0,0x0000,
0.339140208333333,0,0x8512,
0.339156041666667,0,0x2F3F,
0.339163958333333,0,0x8615,
0.339195375000000,0,0x0004,
0.339203083333333,0,0x0319,
0.339219375000000,0,0x0A01,
0.339227333333333,0,0x8319,
0.339243125000000,0,0x0F00,
0.339251041666667,0,0x8419,
0.339266916666667,0,0x0000,
0.339274833333333,0,0x8512,
0.339290666666667,0,0x2F3F,
0.339298583333333,0,0x8619,
0.339329208333333,0,0x0004,
0.339336875000000,0,0x031D,
0.339353000000000,0,0x0A01,
0.339360916666667,0,0x831D,
0.339376750000000,0,0x0F00,
0.339384666666667,0,0x841D,
0.339400500000000,0,0x0000,
0.339408416666667,0,0x8512,
0.339424250000000,0,0x2F3F,
0.339432166666667,0,0x861D,
0.339463333333333,0,0x0004,
0.339471000000000,0,0x0311,
0.339487083333333,0,0x0A01,
0.339495041666667,0,0x8311,
0.339510833333333,0,0x0F00,
0.339518750000000,0,0x8411,
0.339534583333333,0,0x0000,
0.339542500000000,0,0x8512,
0.339558375000000,0,0x2F3F,
0.339566291666667,0,0x8611,
0.339597000000000,0,0x0004,
0.339604666666667,0,0x0315,
0.339620666666667,0,0x0A01,
0.339628583333333,0,0x8315,
0.339644458333333,0,0x0F00,
0.339652333333333,0,0x8415,
0.339668166666667,0,0x0000,
0.339676083333333,0,0x8512,
0.339691916666667,0,0x273F,
0.339699833333333,0,0x8615,
0.339730583333333,0,0x0001,
0.339738250000000,0,0x1D19,
0.339754250000000,0,0x1551,
0.339762166666667,0,0x9D19,
0.339790291666667,0,0x0003,
0.339798000000000,0,0x241D,
0.339814125000000,0,0x0048,
0.339822041666667,0,0xA412,
0.339837833333333,0,0x0040,
0.339845791666667,0,0xA512,
0.339861583333333,0,0x8000,
0.339869541666667,0,0xA612,
0.339898625000000,0,0x0005,
0.339906333333333,0,0x2D11,
0.339922458333333,0,0xAF48,
0.339930375000000,0,0xAD12,
0.339946166666667,0,0xFFF3,
0.339954125000000,0,0xAE12,
0.339969916666667,0,0xBB4E,
0.339977833333333,0,0xAF12,
0.339993666666667,0,0xFFFF,
0.340001583333333,0,0xB012,
0.340017416666667,0,0x830E,
0.340025333333333,0,0xB112,
0.340055291666667,0,0x0006,
0.340062958333333,0,0x3B15,
0.340079250000000,0,0xB3E4,
0.340087166666667,0,0xBB12,
0.340103000000000,0,0xB32C,
0.340110916666667,0,0xBC12,
0.340126750000000,0,0xB2BD,
0.340134666666667,0,0xBD12,
0.340150500000000,0,0xB1FF,
0.340158416666667,0,0xBE12,
0.340174250000000,0,0xB201,
0.340182166666667,0,0xBF12,
0.340198000000000,0,0xB26F,
0.340205916666667,0,0xC012,
0.340236708333333,0,0x000A,
0.340244375000000,0,0x4119,
0.340260791666667,0,0xC0C2,
0.340268708333333,0,0xC112,
0.340284541666667,0,0xC0C5,
0.340292458333333,0,0xC212,
0.340308291666667,0,0xC0C5,
0.340316208333333,0,0xC312,
0.340332041666667,0,0xC0C4,
0.340339958333333,0,0xC412,
0.340355791666667,0,0xC0C4,
0.340363708333333,0,0xC512,
0.340379541666667,0,0xDCD4,
0.340387458333333,0,0xC612,
0.340403291666667,0,0x800D,
0.340411208333333,0,0xC712,
0.340427041666667,0,0xA3DA,
0.340434958333333,0,0xC812,
0.340450791666667,0,0x9E39,
0.340458708333333,0,0xC912,
0.340474541666667,0,0x9E3A,
0.340482416666667,0,0xCA12,
0.340514333333333,0,0x0004,
0.340522041666667,0,0x032D,
0.340538333333333,0,0x0A01,
0.340546166666667,0,0x832D,
0.340561875000000,0,0x0F00,
0.340569750000000,0,0x842D,
0.340585416666667,0,0x0000,
0.340593291666667,0,0x8522,
0.340609000000000,0,0x273F,
0.340616833333333,0,0x862D,
0.340647208333333,0,0x0001,
0.340654875000000,0,0x1D21,
0.340670833333333,0,0x0055,
0.340678708333333,0,0x9D21,
0.340707375000000,0,0x0003,
0.340715083333333,0,0x2425,
0.340731250000000,0,0x004C,
0.340739125000000,0,0xA422,
0.340754791666667,0,0x0040,
0.340762666666667,0,0xA522,
0.340778375000000,0,0x8000,
0.340786250000000,0,0xA622,
0.340814708333333,0,0x0005,
0.340822375000000,0,0x2D29,
0.340838750000000,0,0xB863,
0.340846625000000,0,0xAD22,
0.340862333333333,0,0xFFF5,
0.340870208333333,0,0xAE22,
0.340885916666667,0,0x56F2,
0.340893750000000,0,0xAF22,
0.340909458333333,0,0xFFFF,
0.340917333333333,0,0xB022,
0.340933041666667,0,0x8308,
0.340940875000000,0,0xB122,
0.340971875000000,0,0x0006,
0.340979541666667,0,0x3B2D,
0.340995875000000,0,0xE51C,
0.341003750000000,0,0xBB22,
0.341019458333333,0,0x8002,
0.341027333333333,0,0xBC22,
0.341043041666667,0,0x8000,
0.341050875000000,0,0xBD22,
0.341066583333333,0,0x8001,
0.341074458333333,0,0xBE22,
0.341090166666667,0,0xE5BF,
0.341098000000000,0,0xBF22,
0.341113708333333,0,0xE5D4,
0.341121583333333,0,0xC022,
0.341152750000000,0,0x000A,
0.341160458333333,0,0x4121,
0.341176583333333,0,0xDB28,
0.341184416666667,0,0xC122,
0.341200125000000,0,0xDC2C,
0.341208000000000,0,0xC222,
0.341223708333333,0,0xDF38,
0.341231541666667,0,0xC322,
0.341247250000000,0,0xE121,
0.341255125000000,0,0xC422,
0.341270833333333,0,0xA97C,
0.341278666666667,0,0xC522,
0.341294375000000,0,0xFF46,
0.341302250000000,0,0xC622,
0.341317958333333,0,0xC014,
0.341325833333333,0,0xC722,
0.341341500000000,0,0xA3BE,
0.341349375000000,0,0xC822,
0.341365083333333,0,0x9E39,
0.341372958333333,0,0xC922,
0.341388666666667,0,0x9E3C,
0.341396541666667,0,0xCA22,
0.349076208333333,0,0x3C3F,
0.349083916666667,0,0x0607,
0.349111916666667,0,0x0004,
0.349119583333333,0,0x0319,
0.349135750000000,0,0x0A01,
0.349143666666667,0,0x8319,
0.349159500000000,0,0x0F00,
0.349167416666667,0,0x8419,
0.349183250000000,0,0x0000,
0.349191166666667,0,0x8513,
0.349207000000000,0,0x3F3F,
0.349214916666667,0,0x8619,
0.349245625000000,0,0x0004,
0.349253291666667,0,0x031D,
0.349269333333333,0,0x0A01,
0.349277250000000,0,0x831D,
0.349293083333333,0,0x0F00,
0.349301000000000,0,0x841D,
0.349316833333333,0,0x0000,
0.349324750000000,0,0x8513,
0.349340583333333,0,0x3F3F,
0.349348500000000,0,0x861D,
0.349379083333333,0,0x0004,
0.349386791666667,0,0x0311,
0.349402916666667,0,0x0A01,
0.349410833333333,0,0x8311,
0.349426708333333,0,0x0F00,
0.349434583333333,0,0x8411,
0.349450458333333,0,0x0000,
0.349458375000000,0,0x8513,
0.349474208333333,0,0x3F3F,
0.349482125000000,0,0x8611,
0.349513583333333,0,0x0004,
0.349521250000000,0,0x0315,
0.349537541666667,0,0x0A01,
0.349545458333333,0,0x8315,
0.349561291666667,0,0x0F00,
0.349569208333333,0,0x8415,
0.349585041666667,0,0x0000,
0.349592958333333,0,0x8513,
0.349608791666667,0,0x3F3F,
0.349616708333333,0,0x8615,
0.349647625000000,0,0x0004,
0.349655291666667,0,0x0319,
0.349671583333333,0,0x0A01,
0.349679541666667,0,0x8319,
0.349695375000000,0,0x0F00,
0.349703250000000,0,0x8419,
0.349719083333333,0,0x0000,
0.349727041666667,0,0x8513,
0.349742833333333,0,0x373F,
0.349750750000000,0,0x8619,
0.349781541666667,0,0x0001,
0.349789208333333,0,0x1D1D,
0.349805666666667,0,0x1551,
0.349813583333333,0,0x9D1D,
0.349841333333333,0,0x0003,
0.349849041666667,0,0x2411,
0.349865500000000,0,0x0048,
0.349873416666667,0,0xA413,
0.349889250000000,0,0x0040,
0.349897166666667,0,0xA513,
0.349913000000000,0,0x8000,
0.349920916666667,0,0xA613,
0.349950000000000,0,0x0005,
0.349957666666667,0,0x2D15,
0.349973833333333,0,0xB053,
0.349981750000000,0,0xAD13,
0.349997583333333,0,0xFFF3,
0.350005500000000,0,0xAE13,
0.350021333333333,0,0xB8BA,
0.350029250000000,0,0xAF13,
0.350045083333333,0,0xFFFF,
0.350053000000000,0,0xB013,
0.350068791666667,0,0x830F,
0.350076708333333,0,0xB113,
0.350106875000000,0,0x0006,
0.350114541666667,0,0x3B19,
0.350130625000000,0,0xB3DB,
0.350138541666667,0,0xBB13,
0.350154375000000,0,0xB327,
0.350162291666667,0,0xBC13,
0.350178125000000,0,0xB2BF,
0.350186041666667,0,0xBD13,
0.350201875000000,0,0xB202,
0.350209791666667,0,0xBE13,
0.350225625000000,0,0xB202,
0.350233541666667,0,0xBF13,
0.350249375000000,0,0xB272,
0.350257291666667,0,0xC013,
0.350287125000000,0,0x000A,
0.350294791666667,0,0x411D,
0.350311166666667,0,0xC0C5,
0.350319125000000,0,0xC113,
0.350334958333333,0,0xC0C6,
0.350342875000000,0,0xC213,
0.350358666666667,0,0xC0C4,
0.350366583333333,0,0xC313,
0.350382416666667,0,0xC0C6,
0.350390333333333,0,0xC413,
0.350406166666667,0,0xC0C5,
0.350414083333333,0,0xC513,
0.350429916666667,0,0xDCD4,
0.350437833333333,0,0xC613,
0.350453666666667,0,0x8010,
0.350461583333333,0,0xC713,
0.350477416666667,0,0xA3DB,
0.350485291666667,0,0xC813,
0.350501125000000,0,0x9E3B,
0.350509041666667,0,0xC913,
0.350524875000000,0,0x9E39,
0.350532791666667,0,0xCA13,
0.350565083333333,0,0x0004,
0.350572750000000,0,0x0321,
0.350588708333333,0,0x0A01,
0.350596583333333,0,0x8321,
0.350612291666667,0,0x0F00,
0.350620166666667,0,0x8421,
0.350635875000000,0,0x0000,
0.350643708333333,0,0x8523,
0.350659416666667,0,0x373F,
0.350667291666667,0,0x8621,
0.350697833333333,0,0x0001,
0.350705500000000,0,0x1D25,
0.350721791666667,0,0x0055,
0.350729625000000,0,0x9D25,
0.350757791666667,0,0x0003,
0.350765458333333,0,0x2429,
0.350781666666667,0,0x004C,
0.350789541666667,0,0xA423,
0.350805250000000,0,0x0040,
0.350813083333333,0,0xA523,
0.350828791666667,0,0x8000,
0.350836666666667,0,0xA623,
0.350865500000000,0,0x0005,
0.350873166666667,0,0x2D2D,
0.350889166666667,0,0xB970,
0.350897041666667,0,0xAD23,
0.350912750000000,0,0xFFF5,
0.350920583333333,0,0xAE23,
0.350936291666667,0,0x5482,
0.350944166666667,0,0xAF23,
0.350959875000000,0,0x8000,
0.350967750000000,0,0xB023,
0.350983416666667,0,0x8303,
0.350991291666667,0,0xB123,
0.351021083333333,0,0x0006,
0.351028750000000,0,0x3B21,
0.351044791666667,0,0xE521,
0.351052666666667,0,0xBB23,
0.351068375000000,0,0x8000,
0.351076208333333,0,0xBC23,
0.351091916666667,0,0x8000,
0.351099791666667,0,0xBD23,
0.351115500000000,0,0x8000,
0.351123333333333,0,0xBE23,
0.351139041666667,0,0xE5BF,
0.351146916666667,0,0xBF23,
0.351162625000000,0,0xE5D4,
0.351170458333333,0,0xC023,
0.351200166666667,0,0x000A,
0.351207875000000,0,0x4125,
0.351224000000000,0,0xDB2B,
0.351231833333333,0,0xC123,
0.351247541666667,0,0xDC2D,
0.351255416666667,0,0xC223,
0.351271125000000,0,0xDF34,
0.351278958333333,0,0xC323,
0.351294708333333,0,0xE121,
0.351302541666667,0,0xC423,
0.351318250000000,0,0xA97C,
0.351326125000000,0,0xC523,
0.351341791666667,0,0xFF45,
0.351349666666667,0,0xC623,
0.351365375000000,0,0xC012,
0.351373250000000,0,0xC723,
0.351388958333333,0,0xA3BF,
0.351396791666667,0,0xC823,
0.351412500000000,0,0x9E37,
0.351420375000000,0,0xC923,
0.351436083333333,0,0x9E3A,
0.351443916666667,0,0xCA23,
0.358980791666667,0,0x4C3F,
0.358988458333333,0,0x060B,
0.359015541666667,0,0x0004,
0.359023208333333,0,0x031D,
0.359039375000000,0,0x0A01,
0.359047291666667,0,0x831D,
0.359063125000000,0,0x0F00,
0.359071041666667,0,0x841D,
0.359086833333333,0,0x0000,
0.359094791666667,0,0x8514,
0.359110625000000,0,0x4F3F,
0.359118500000000,0,0x861D,
0.359149208333333,0,0x0004,
0.359156875000000,0,0x0311,
0.359172958333333,0,0x0A01,
0.359180875000000,0,0x8311,
0.359196708333333,0,0x0F00,
0.359204625000000,0,0x8411,
0.359220458333333,0,0x0000,
0.359228375000000,0,0x8514,
0.359244208333333,0,0x4F3F,
0.359252125000000,0,0x8611,
0.359283000000000,0,0x0004,
0.359290666666667,0,0x0315,
0.359307041666667,0,0x0A01,
0.359314958333333,0,0x8315,
0.359330791666667,0,0x0F00,
0.359338708333333,0,0x8415,
0.359354541666667,0,0x0000,
0.359362458333333,0,0x8514,
0.359378291666667,0,0x4F3F,
0.359386208333333,0,0x8615,
0.359416708333333,0,0x0004,
0.359424375000000,0,0x0319,
0.359440625000000,0,0x0A01,
0.359448541666667,0,0x8319,
0.359464375000000,0,0x0F00,
0.359472291666667,0,0x8419,
0.359488125000000,0,0x0000,
0.359496041666667,0,0x8514,
0.359511875000000,0,0x4F3F,
0.359519791666667,0,0x8619,
0.359550291666667,0,0x0004,
0.359558000000000,0,0x031D,
0.359574208333333,0,0x0A01,
0.359582125000000,0,0x831D,
0.359597958333333,0,0x0F00,
0.359605875000000,0,0x841D,
0.359621708333333,0,0x0000,
0.359629625000000,0,0x8514,
0.359645458333333,0,0x473F,
0.359653375000000,0,0x861D,
0.359683541666667,0,0x0001,
0.359691208333333,0,0x1D11,
0.359707333333333,0,0x1551,
0.359715208333333,0,0x9D11,
0.359744375000000,0,0x0003,
0.359752083333333,0,0x2415,
0.359768166666667,0,0x0048,
0.359776083333333,0,0xA414,
0.359791916666667,0,0x0040,
0.359799833333333,0,0xA514,
0.359815625000000,0,0x8000,
0.359823541666667,0,0xA614,
0.359852541666667,0,0x0005,
0.359860250000000,0,0x2D19,
0.359876500000000,0,0xB15A,
0.359884416666667,0,0xAD14,
0.359900208333333,0,0xFFF3,
0.359908125000000,0,0xAE14,
0.359923958333333,0,0xB644,
0.359931875000000,0,0xAF14,
0.359947708333333,0,0xFFFF,
0.359955625000000,0,0xB014,
0.359971458333333,0,0x830C,
0.359979375000000,0,0xB114,
0.360008791666667,0,0x0006,
0.360016458333333,0,0x3B1D,
0.360032791666667,0,0xB3E2,
0.360040708333333,0,0xBB14,
0.360056541666667,0,0xB329,
0.360064458333333,0,0xBC14,
0.360080291666667,0,0xB2BD,
0.360088208333333,0,0xBD14,
0.360104041666667,0,0xB1FE,
0.360111958333333,0,0xBE14,
0.360127791666667,0,0xB200,
0.360135708333333,0,0xBF14,
0.360151541666667,0,0xB272,
0.360159458333333,0,0xC014,
0.360189708333333,0,0x000A,
0.360197416666667,0,0x4111,
0.360213833333333,0,0xC0C5,
0.360221750000000,0,0xC114,
0.360237583333333,0,0xC0C8,
0.360245500000000,0,0xC214,
0.360261333333333,0,0xC0C9,
0.360269250000000,0,0xC314,
0.360285041666667,0,0xC0C7,
0.360292958333333,0,0xC414,
0.360308791666667,0,0xC0C5,
0.360316708333333,0,0xC514,
0.360332500000000,0,0xDCD4,
0.360340458333333,0,0xC614,
0.360356291666667,0,0x8010,
0.360364166666667,0,0xC714,
0.360380000000000,0,0xA3DD,
0.360387916666667,0,0xC814,
0.360403750000000,0,0x9E39,
0.360411666666667,0,0xC914,
0.360427500000000,0,0x9E3D,
0.360435416666667,0,0xCA14,
0.360467250000000,0,0x0004,
0.360474916666667,0,0x0325,
0.360491125000000,0,0x0A01,
0.360498958333333,0,0x8325,
0.360514708333333,0,0x0F00,
0.360522541666667,0,0x8425,
0.360538250000000,0,0x0000,
0.360546083333333,0,0x8524,
0.360561791666667,0,0x473F,
0.360569666666667,0,0x8625,
0.360600375000000,0,0x0001,
0.360608083333333,0,0x1D29,
0.360624125000000,0,0x0055,
0.360632000000000,0,0x9D29,
0.360660500000000,0,0x0003,
0.360668166666667,0,0x242D,
0.360684541666667,0,0x004C,
0.360692375000000,0,0xA424,
0.360708125000000,0,0x0040,
0.360715958333333,0,0xA524,
0.360731666666667,0,0x8000,
0.360739541666667,0,0xA624,
0.360768083333333,0,0x0005,
0.360775791666667,0,0x2D21,
0.360792083333333,0,0xBA7A,
0.360799916666667,0,0xAD24,
0.360815666666667,0,0xFFF5,
0.360823500000000,0,0xAE24,
0.360839208333333,0,0x51F2,
0.360847083333333,0,0xAF24,
0.360862791666667,0,0x8000,
0.360870666666667,0,0xB024,
0.360886375000000,0,0x8308,
0.360894208333333,0,0xB124,
0.360924250000000,0,0x0006,
0.360931916666667,0,0x3B25,
0.360948250000000,0,0xE519,
0.360956083333333,0,0xBB24,
0.360971791666667,0,0x8000,
0.360979666666667,0,0xBC24,
0.360995375000000,0,0x8000,
0.361003208333333,0,0xBD24,
0.361018916666667,0,0x8000,
0.361026791666667,0,0xBE24,
0.361042500000000,0,0xE5BC,
0.361050375000000,0,0xBF24,
0.361066041666667,0,0xE5D4,
0.361073916666667,0,0xC024,
0.361104500000000,0,0x000A,
0.361112208333333,0,0x4129,
0.361128416666667,0,0xDB2A,
0.361136291666667,0,0xC124,
0.361152000000000,0,0xDC2F,
0.361159833333333,0,0xC224,
0.361175541666667,0,0xDF33,
0.361183416666667,0,0xC324,
0.361199125000000,0,0xE121,
0.361206958333333,0,0xC424,
0.361222666666667,0,0xA97F,
0.361230541666667,0,0xC524,
0.361246250000000,0,0xFF49,
0.361254125000000,0,0xC624,
0.361269833333333,0,0xC012,
0.361277666666667,0,0xC724,
0.361293375000000,0,0xA3BD,
0.361301250000000,0,0xC824,
0.361316958333333,0,0x9E39,
0.361324791666667,0,0xC924,
0.361340500000000,0,0x9E43,
0.361348375000000,0,0xCA24,
0.369074583333333,0,0x5C3F,
0.369082250000000,0,0x060F,
0.369109625000000,0,0x0004,
0.369117333333333,0,0x0311,
0.369133750000000,0,0x0A01,
0.369141666666667,0,0x8311,
0.369157500000000,0,0x0F00,
0.369165458333333,0,0x8411,
0.369181291666667,0,0x0000,
0.369189208333333,0,0x8515,
0.369205041666667,0,0x5F3F,
0.369212958333333,0,0x8611,
0.369243666666667,0,0x0004,
0.369251333333333,0,0x0315,
0.369267416666667,0,0x0A01,
0.369275333333333,0,0x8315,
0.369291166666667,0,0x0F00,
0.369299083333333,0,0x8415,
0.369314916666667,0,0x0000,
0.369322833333333,0,0x8515,
0.369338666666667,0,0x5F3F,
0.369346583333333,0,0x8615,
0.369377125000000,0,0x0004,
0.369384791666667,0,0x0319,
0.369401041666667,0,0x0A01,
0.369408958333333,0,0x8319,
0.369424791666667,0,0x0F00,
0.369432708333333,0,0x8419,
0.369448541666667,0,0x0000,
0.369456500000000,0,0x8515,
0.369472333333333,0,0x5F3F,
0.369480250000000,0,0x8619,
0.369511083333333,0,0x0004,
0.369518791666667,0,0x031D,
0.369535208333333,0,0x0A01,
0.369543125000000,0,0x831D,
0.369558958333333,0,0x0F00,
0.369566875000000,0,0x841D,
0.369582708333333,0,0x0000,
0.369590625000000,0,0x8515,
0.369606458333333,0,0x5F3F,
0.369614375000000,0,0x861D,
0.369644666666667,0,0x0004,
0.369652333333333,0,0x0311,
0.369668333333333,0,0x0A01,
0.369676250000000,0,0x8311,
0.369692083333333,0,0x0F00,
0.369699958333333,0,0x8411,
0.369715833333333,0,0x0000,
0.369723750000000,0,0x8515,
0.369739583333333,0,0x573F,
0.369747458333333,0,0x8611,
0.369778291666667,0,0x0001,
0.369786000000000,0,0x1D15,
0.369802416666667,0,0x1551,
0.369810333333333,0,0x9D15,
0.369837750000000,0,0x0003,
0.369845458333333,0,0x2419,
0.369861750000000,0,0x0048,
0.369869666666667,0,0xA415,
0.369885500000000,0,0x0040,
0.369893416666667,0,0xA515,
0.369909250000000,0,0x8000,
0.369917166666667,0,0xA615,
0.369946166666667,0,0x0005,
0.369953833333333,0,0x2D1D,
0.369970041666667,0,0xB267,
0.369977958333333,0,0xAD15,
0.369993791666667,0,0xFFF3,
0.370001708333333,0,0xAE15,
0.370017500000000,0,0xB38F,
0.370025416666667,0,0xAF15,
0.370041250000000,0,0x8000,
0.370049166666667,0,0xB015,
0.370065000000000,0,0x8301,
0.370072916666667,0,0xB115,
0.370102833333333,0,0x0006,
0.370110500000000,0,0x3B11,
0.370126833333333,0,0xB3DF,
0.370134750000000,0,0xBB15,
0.370150583333333,0,0xB32A,
0.370158500000000,0,0xBC15,
0.370174333333333,0,0xB2C2,
0.370182208333333,0,0xBD15,
0.370198041666667,0,0xB202,
0.370205958333333,0,0xBE15,
0.370221791666667,0,0xB201,
0.370229708333333,0,0xBF15,
0.370245541666667,0,0xB273,
0.370253458333333,0,0xC015,
0.370284000000000,0,0x000A,
0.370291666666667,0,0x4115,
0.370307833333333,0,0xC0C6,
0.370315750000000,0,0xC115,
0.370331583333333,0,0xC0C6,
0.370339500000000,0,0xC215,
0.370355291666667,0,0xC0C8,
0.370363250000000,0,0xC315,
0.370379041666667,0,0xC0C7,
0.370386958333333,0,0xC415,
0.370402791666667,0,0xC0CA,
0.370410708333333,0,0xC515,
0.370426500000000,0,0xDCD8,
0.370434416666667,0,0xC615,
0.370450250000000,0,0x800F,
0.370458166666667,0,0xC715,
0.370474000000000,0,0xA3DE,
0.370481916666667,0,0xC815,
0.370497708333333,0,0x9E3B,
0.370505625000000,0,0xC915,
0.370521458333333,0,0x9E3A,
0.370529375000000,0,0xCA15,
0.370561458333333,0,0x0004,
0.370569125000000,0,0x0329,
0.370585250000000,0,0x0A01,
0.370593083333333,0,0x8329,
0.370608791666667,0,0x0F00,
0.370616666666667,0,0x8429,
0.370632375000000,0,0x0000,
0.370640250000000,0,0x8525,
0.370655958333333,0,0x573F,
0.370663791666667,0,0x8629,
0.370694041666667,0,0x0001,
0.370701750000000,0,0x1D2D,
0.370717833333333,0,0x0055,
0.370725666666667,0,0x9D2D,
0.370754125000000,0,0x0003,
0.370761833333333,0,0x2421,
0.370778208333333,0,0x004C,
0.370786083333333,0,0xA425,
0.370801791666667,0,0x0040,
0.370809625000000,0,0xA525,
0.370825333333333,0,0x8000,
0.370833208333333,0,0xA625,
0.370862166666667,0,0x0005,
0.370869833333333,0,0x2D25,
0.370886208333333,0,0xBB88,
0.370894083333333,0,0xAD25,
0.370909791666667,0,0xFFF5,
0.370917666666667,0,0xAE25,
0.370933375000000,0,0x4F57,
0.370941250000000,0,0xAF25,
0.370956916666667,0,0xFFFF,
0.370964791666667,0,0xB025,
0.370980500000000,0,0x830C,
0.370988375000000,0,0xB125,
0.371018583333333,0,0x0006,
0.371026250000000,0,0x3B29,
0.371042375000000,0,0xE51B,
0.371050250000000,0,0xBB25,
0.371065958333333,0,0x8002,
0.371073833333333,0,0xBC25,
0.371089500000000,0,0x8003,
0.371097375000000,0,0xBD25,
0.371113083333333,0,0x8006,
0.371120958333333,0,0xBE25,
0.371136666666667,0,0xE5BC,
0.371144500000000,0,0xBF25,
0.371160250000000,0,0xE5D7,
0.371168083333333,0,0xC025,
0.371198791666667,0,0x000A,
0.371206458333333,0,0x412D,
0.371222583333333,0,0xDB2B,
0.371230416666667,0,0xC125,
0.371246125000000,0,0xDC2B,
0.371254000000000,0,0xC225,
0.371269708333333,0,0xDF33,
0.371277583333333,0,0xC325,
0.371293291666667,0,0xE120,
0.371301125000000,0,0xC425,
0.371316875000000,0,0xA97E,
0.371324708333333,0,0xC525,
0.371340416666667,0,0xFF48,
0.371348250000000,0,0xC625,
0.371364000000000,0,0xC015,
0.371371833333333,0,0xC725,
0.371387583333333,0,0xA3BE,
0.371395416666667,0,0xC825,
0.371411125000000,0,0x9E39,
0.371419000000000,0,0xC925,
0.371434708333333,0,0x9E3E,
0.371442583333333,0,0xCA25,
0.379126375000000,0,0x6C3F,
0.379134041666667,0,0x0603,
0.379162250000000,0,0x0004,
0.379169916666667,0,0x0315,
0.379186250000000,0,0x0A01,
0.379194125000000,0,0x8315,
0.379209958333333,0,0x0F00,
0.379217875000000,0,0x8415,
0.379233708333333,0,0x0000,
0.379241666666667,0,0x8516,
0.379257500000000,0,0x6F3F,
0.379265416666667,0,0x8615,
0.379296791666667,0,0x0004,
0.379304458333333,0,0x0319,
0.379320833333333,0,0x0A01,
0.379328750000000,0,0x8319,
0.379344583333333,0,0x0F00,
0.379352500000000,0,0x8419,
0.379368333333333,0,0x0000,
0.379376250000000,0,0x8516,
0.379392083333333,0,0x6F3F,
0.379400000000000,0,0x8619,
0.379431000000000,0,0x0004,
0.379438666666667,0,0x031D,
0.379454875000000,0,0x0A01,
0.379462791666667,0,0x831D,
0.379478625000000,0,0x0F00,
0.379486541666667,0,0x841D,
0.379502375000000,0,0x0000,
0.379510291666667,0,0x8516,
0.379526125000000,0,0x6F3F,
0.379534041666667,0,0x861D,
0.379565291666667,0,0x0004,
0.379572958333333,0,0x0311,
0.379588916666667,0,0x0A01,
0.379596875000000,0,0x8311,
0.379612708333333,0,0x0F00,
0.379620583333333,0,0x8411,
0.379636416666667,0,0x0000,
0.379644333333333,0,0x8516,
0.379660166666667,0,0x6F3F,
0.379668083333333,0,0x8611,
0.379699083333333,0,0x0004,
0.379706791666667,0,0x0315,
0.379722958333333,0,0x0A01,
0.379730875000000,0,0x8315,
0.379746708333333,0,0x0F00,
0.379754625000000,0,0x8415,
0.379770458333333,0,0x0000,
0.379778333333333,0,0x8516,
0.379794166666667,0,0x673F,
0.379802083333333,0,0x8615,
0.379832583333333,0,0x0001,
0.379840250000000,0,0x1D19,
0.379856458333333,0,0x1551,
0.379864375000000,0,0x9D19,
0.379892166666667,0,0x0003,
0.379899875000000,0,0x241D,
0.379916333333333,0,0x0048,
0.379924208333333,0,0xA416,
0.379940041666667,0,0x0040,
0.379947958333333,0,0xA516,
0.379963791666667,0,0x8000,
0.379971708333333,0,0xA616,
0.380000791666667,0,0x0005,
0.380008458333333,0,0x2D11,
0.380024583333333,0,0xB372,
0.380032500000000,0,0xAD16,
0.380048333333333,0,0xFFF3,
0.380056250000000,0,0xAE16,
0.380072083333333,0,0xB0DF,
0.380079958333333,0,0xAF16,
0.380095791666667,0,0xFFFF,
0.380103708333333,0,0xB016,
0.380119541666667,0,0x830B,
0.380127458333333,0,0xB116,
0.380157250000000,0,0x0006,
0.380164916666667,0,0x3B15,
0.380181375000000,0,0xB3E1,
0.380189291666667,0,0xBB16,
0.380205083333333,0,0xB32C,
0.380213000000000,0,0xBC16,
0.380228833333333,0,0xB2BF,
0.380236750000000,0,0xBD16,
0.380252583333333,0,0xB200,
0.380260458333333,0,0xBE16,
0.380276291666667,0,0xB200,
0.380284208333333,0,0xBF16,
0.380300041666667,0,0xB275,
0.380307916666667,0,0xC016,
0.380338416666667,0,0x000A,
0.380346125000000,0,0x4119,
0.380362333333333,0,0xC0C0,
0.380370250000000,0,0xC116,
0.380386041666667,0,0xC0C4,
0.380394000000000,0,0xC216,
0.380409791666667,0,0xC0C3,
0.380417708333333,0,0xC316,
0.380433541666667,0,0xC0C3,
0.380441416666667,0,0xC416,
0.380457291666667,0,0xC0C0,
0.380465166666667,0,0xC516,
0.380481041666667,0,0xDCCF,
0.380488916666667,0,0xC616,
0.380504750000000,0,0x800D,
0.380512666666667,0,0xC716,
0.380528541666667,0,0xA3DB,
0.380536458333333,0,0xC816,
0.380552250000000,0,0x9E36,
0.380560166666667,0,0xC916,
0.380576000000000,0,0x9E3D,
0.380583916666667,0,0xCA16,
0.380616083333333,0,0x0004,
0.380623750000000,0,0x032D,
0.380639791666667,0,0x0A01,
0.380647666666667,0,0x832D,
0.380663375000000,0,0x0F00,
0.380671208333333,0,0x842D,
0.380686916666667,0,0x0000,
0.380694791666667,0,0x8526,
0.380710500000000,0,0x673F,
0.380718333333333,0,0x862D,
0.380749375000000,0,0x0001,
0.380757041666667,0,0x1D21,
0.380773333333333,0,0x0055,
0.380781208333333,0,0x9D21,
0.380809208333333,0,0x0003,
0.380816875000000,0,0x2425,
0.380833208333333,0,0x004C,
0.380841083333333,0,0xA426,
0.380856791666667,0,0x0040,
0.380864666666667,0,0xA526,
0.380880375000000,0,0x8000,
0.380888208333333,0,0xA626,
0.380918041666667,0,0x0005,
0.380925708333333,0,0x2D29,
0.380941750000000,0,0xBC96,
0.380949625000000,0,0xAD26,
0.380965333333333,0,0xFFF5,
0.380973166666667,0,0xAE26,
0.380988916666667,0,0x4D4F,
0.380996750000000,0,0xAF26,
0.381012458333333,0,0x8000,
0.381020291666667,0,0xB026,
0.381036041666667,0,0x8305,
0.381043875000000,0,0xB126,
0.381073958333333,0,0x0006,
0.381081666666667,0,0x3B2D,
0.381097916666667,0,0xE51D,
0.381105791666667,0,0xBB26,
0.381121500000000,0,0x8000,
0.381129333333333,0,0xBC26,
0.381145041666667,0,0x8000,
0.381152916666667,0,0xBD26,
0.381168625000000,0,0x8000,
0.381176500000000,0,0xBE26,
0.381192208333333,0,0xE5BB,
0.381200041666667,0,0xBF26,
0.381215791666667,0,0xE5D7,
0.381223625000000,0,0xC026,
0.381254208333333,0,0x000A,
0.381261916666667,0,0x4121,
0.381278125000000,0,0xDB2E,
0.381286000000000,0,0xC126,
0.381301708333333,0,0xDC30,
0.381309541666667,0,0xC226,
0.381325250000000,0,0xDF36,
0.381333125000000,0,0xC326,
0.381348833333333,0,0xE125,
0.381356666666667,0,0xC426,
0.381372375000000,0,0xA980,
0.381380250000000,0,0xC526,
0.381395958333333,0,0xFF4B,
0.381403833333333,0,0xC626,
0.381419541666667,0,0xC015,
0.381427375000000,0,0xC726,
0.381443083333333,0,0xA3BC,
0.381450916666667,0,0xC826,
0.381466625000000,0,0x9E3C,
0.381474500000000,0,0xC926,
0.381490250000000,0,0x9E3E,
0.381498083333333,0,0xCA26,
0.389174000000000,0,0x7C3F,
0.389181708333333,0,0x0607,
0.389209041666667,0,0x0004,
0.389216708333333,0,0x0319,
0.389233000000000,0,0x0A01,
0.389240958333333,0,0x8319,
0.389256791666667,0,0x0F00,
0.389264708333333,0,0x8419,
0.389280541666667,0,0x0000,
0.389288458333333,0,0x8517,
0.389304291666667,0,0x7F3F,
0.389312208333333,0,0x8619,
0.389342500000000,0,0x0004,
0.389350208333333,0,0x031D,
0.389366666666667,0,0x0A01,
0.389374583333333,0,0x831D,
0.389390416666667,0,0x0F00,
0.389398333333333,0,0x841D,
0.389414166666667,0,0x0000,
0.389422125000000,0,0x8517,
0.389437916666667,0,0x7F3F,
0.389445833333333,0,0x861D,
0.389476375000000,0,0x0004,
0.389484041666667,0,0x0311,
0.389500291666667,0,0x0A01,
0.389508208333333,0,0x8311,
0.389524041666667,0,0x0F00,
0.389532000000000,0,0x8411,
0.389547833333333,0,0x0000,
0.389555750000000,0,0x8517,
0.389571583333333,0,0x7F3F,
0.389579500000000,0,0x8611,
0.389610416666667,0,0x0004,
0.389618125000000,0,0x0315,
0.389634416666667,0,0x0A01,
0.389642375000000,0,0x8315,
0.389658208333333,0,0x0F00,
0.389666125000000,0,0x8415,
0.389681958333333,0,0x0000,
0.389689875000000,0,0x8517,
0.389705708333333,0,0x7F3F,
0.389713625000000,0,0x8615,
0.389744000000000,0,0x0004,
0.389751666666667,0,0x0319,
0.389768041666667,0,0x0A01,
0.389775958333333,0,0x8319,
0.389791750000000,0,0x0F00,
0.389799666666667,0,0x8419,
0.389815500000000,0,0x0000,
0.389823458333333,0,0x8517,
0.389839250000000,0,0x773F,
0.389847166666667,0,0x8619,
0.389878458333333,0,0x0001,
0.389886125000000,0,0x1D1D,
0.389902583333333,0,0x1551,
0.389910458333333,0,0x9D1D,
0.389938666666667,0,0x0003,
0.389946375000000,0,0x2411,
0.389962416666667,0,0x0048,
0.389970333333333,0,0xA417,
0.389986166666667,0,0x0040,
0.389994041666667,0,0xA517,
0.390009875000000,0,0x8000,
0.390017791666667,0,0xA617,
0.390046625000000,0,0x0005,
0.390054291666667,0,0x2D15,
0.390070750000000,0,0xB47E,
0.390078625000000,0,0xAD17,
0.390094458333333,0,0xFFF3,
0.390102375000000,0,0xAE17,
0.390118208333333,0,0xAE42,
0.390126125000000,0,0xAF17,
0.390141958333333,0,0x8000,
0.390149875000000,0,0xB017,
0.390165708333333,0,0x8300,
0.390173625000000,0,0xB117,
0.390203541666667,0,0x0006,
0.390211208333333,0,0x3B19,
0.390227541666667,0,0xB3E3,
0.390235458333333,0,0xBB17,
0.390251291666667,0,0xB32C,
0.390259208333333,0,0xBC17,
0.390275041666667,0,0xB2BD,
0.390282958333333,0,0xBD17,
0.390298791666667,0,0xB200,
0.390306708333333,0,0xBE17,
0.390322541666667,0,0xB1FE,
0.390330458333333,0,0xBF17,
0.390346250000000,0,0xB270,
0.390354166666667,0,0xC017,
0.390383750000000,0,0x000A,
0.390391416666667,0,0x411D,
0.390407583333333,0,0xC0C4,
0.390415500000000,0,0xC117,
0.390431333333333,0,0xC0C3,
0.390439250000000,0,0xC217,
0.390455083333333,0,0xC0C0,
0.390463000000000,0,0xC317,
0.390478833333333,0,0xC0C4,
0.390486708333333,0,0xC417,
0.390502541666667,0,0xC0C3,
0.390510458333333,0,0xC517,
0.390526333333333,0,0xDCD2,
0.390534208333333,0,0xC617,
0.390550041666667,0,0x800C,
0.390557958333333,0,0xC717,
0.390573791666667,0,0xA3DA,
0.390581708333333,0,0xC817,
0.390597541666667,0,0x9E37,
0.390605458333333,0,0xC917,
0.390621291666667,0,0x9E39,
0.390629208333333,0,0xCA17,
0.390661958333333,0,0x0004,
0.390669625000000,0,0x0321,
0.390685666666667,0,0x0A01,
0.390693541666667,0,0x8321,
0.390709250000000,0,0x0F00,
0.390717083333333,0,0x8421,
0.390732791666667,0,0x0000,
0.390740666666667,0,0x8527,
0.390756375000000,0,0x773F,
0.390764250000000,0,0x8621,
0.390794583333333,0,0x0001,
0.390802250000000,0,0x1D25,
0.390818250000000,0,0x0055,
0.390826125000000,0,0x9D25,
0.390854416666667,0,0x0003,
0.390862083333333,0,0x2429,
0.390878166666667,0,0x004C,
0.390886000000000,0,0xA427,
0.390901708333333,0,0x0040,
0.390909583333333,0,0xA527,
0.390925291666667,0,0x8000,
0.390933166666667,0,0xA627,
0.390963083333333,0,0x0005,
0.390970750000000,0,0x2D2D,
0.390987166666667,0,0xBDA3,
0.390995000000000,0,0xAD27,
0.391010750000000,0,0xFFF5,
0.391018625000000,0,0xAE27,
0.391034291666667,0,0x4B04,
0.391042166666667,0,0xAF27,
0.391057875000000,0,0xFFFF,
0.391065750000000,0,0xB027,
0.391081458333333,0,0x830E,
0.391089291666667,0,0xB127,
0.391119083333333,0,0x0006,
0.391126791666667,0,0x3B21,
0.391142833333333,0,0xE51A,
0.391150708333333,0,0xBB27,
0.391166416666667,0,0x8001,
0.391174250000000,0,0xBC27,
0.391189958333333,0,0x8000,
0.391197833333333,0,0xBD27,
0.391213541666667,0,0x8000,
0.391221375000000,0,0xBE27,
0.391237083333333,0,0xE5BA,
0.391244958333333,0,0xBF27,
0.391260666666667,0,0xE5D6,
0.391268500000000,0,0xC027,
0.391299041666667,0,0x000A,
0.391306708333333,0,0x4125,
0.391323000000000,0,0xDB2D,
0.391330875000000,0,0xC127,
0.391346583333333,0,0xDC2D,
0.391354416666667,0,0xC227,
0.391370125000000,0,0xDF36,
0.391378000000000,0,0xC327,
0.391393708333333,0,0xE125,
0.391401583333333,0,0xC427,
0.391417291666667,0,0xA97E,
0.391425125000000,0,0xC527,
0.391440833333333,0,0xFF4A,
0.391448708333333,0,0xC627,
0.391464416666667,0,0xC013,
0.391472291666667,0,0xC727,
0.391488000000000,0,0xA3BE,
0.391495833333333,0,0xC827,
0.391511541666667,0,0x9E3A,
0.391519416666667,0,0xC927,
0.391535125000000,0,0x9E43,
0.391542958333333,0,0xCA27,
0.399020458333333,0,0x8C3F,
0.399028125000000,0,0x060B,
0.399055875000000,0,0x0004,
0.399063541666667,0,0x031D,
0.399079541666667,0,0x0A01,
0.399087500000000,0,0x831D,
0.399103333333333,0,0x0F00,
0.399111250000000,0,0x841D,
0.399127083333333,0,0x0000,
0.399135000000000,0,0x8518,
0.399150833333333,0,0x8F3F,
0.399158750000000,0,0x861D,
0.399189291666667,0,0x0004,
0.399196958333333,0,0x0311,
0.399213208333333,0,0x0A01,
0.399221125000000,0,0x8311,
0.399236958333333,0,0x0F00,
0.399244875000000,0,0x8411,
0.399260708333333,0,0x0000,
0.399268625000000,0,0x8518,
0.399284458333333,0,0x8F3F,
0.399292375000000,0,0x8611,
0.399323333333333,0,0x0004,
0.399331000000000,0,0x0315,
0.399347291666667,0,0x0A01,
0.399355208333333,0,0x8315,
0.399371041666667,0,0x0F00,
0.399378958333333,0,0x8415,
0.399394791666667,0,0x0000,
0.399402708333333,0,0x8518,
0.399418541666667,0,0x8F3F,
0.399426458333333,0,0x8615,
0.399458666666667,0,0x0004,
0.399466333333333,0,0x0319,
0.399482375000000,0,0x0A01,
0.399490291666667,0,0x8319,
0.399506125000000,0,0x0F00,
0.399514041666667,0,0x8419,
0.399529916666667,0,0x0000,
0.399537791666667,0,0x8518,
0.399553666666667,0,0x8F3F,
0.399561541666667,0,0x8619,
0.399591583333333,0,0x0004,
0.399599208333333,0,0x031D,
0.399615500000000,0,0x0A01,
0.399623416666667,0,0x831D,
0.399639208333333,0,0x0F00,
0.399647125000000,0,0x841D,
0.399662958333333,0,0x0000,
0.399670875000000,0,0x8518,
0.399686708333333,0,0x873F,
0.399694625000000,0,0x861D,
0.399725333333333,0,0x0001,
0.399733000000000,0,0x1D11,
0.399749041666667,0,0x1551,
0.399756958333333,0,0x9D11,
0.399785500000000,0,0x0003,
0.399793208333333,0,0x2415,
0.399809375000000,0,0x0048,
0.399817291666667,0,0xA418,
0.399833125000000,0,0x0040,
0.399841041666667,0,0xA518,
0.399856875000000,0,0x8000,
0.399864791666667,0,0xA618,
0.399893666666667,0,0x0005,
0.399901375000000,0,0x2D19,
0.399917708333333,0,0xB584,
0.399925625000000,0,0xAD18,
0.399941458333333,0,0xFFF3,
0.399949375000000,0,0xAE18,
0.399965208333333,0,0xAB5C,
0.399973125000000,0,0xAF18,
0.399988958333333,0,0xFFFF,
0.399996875000000,0,0xB018,
0.400012708333333,0,0x830E,
0.400020625000000,0,0xB118,
0.400051000000000,0,0x0006,
0.400058666666667,0,0x3B1D,
0.400075041666667,0,0xB3DE,
0.400082958333333,0,0xBB18,
0.400098791666667,0,0xB323,
0.400106708333333,0,0xBC18,
0.400122500000000,0,0xB2BA,
0.400130458333333,0,0xBD18,
0.400146250000000,0,0xB1FD,
0.400154166666667,0,0xBE18,
0.400170000000000,0,0xB200,
0.400177916666667,0,0xBF18,
0.400193750000000,0,0xB272,
0.400201666666667,0,0xC018,
0.400232750000000,0,0x000A,
0.400240416666667,0,0x4111,
0.400256541666667,0,0xC0C8,
0.400264458333333,0,0xC118,
0.400280291666667,0,0xC0C9,
0.400288208333333,0,0xC218,
0.400304041666667,0,0xC0CA,
0.400311958333333,0,0xC318,
0.400327791666667,0,0xC0C8,
0.400335708333333,0,0xC418,
0.400351541666667,0,0xC0C7,
0.400359458333333,0,0xC518,
0.400375291666667,0,0xDCD7,
0.400383208333333,0,0xC618,
0.400399041666667,0,0x8010,
0.400406958333333,0,0xC718,
0.400422791666667,0,0xA3DB,
0.400430708333333,0,0xC818,
0.400446541666667,0,0x9E3C,
0.400454458333333,0,0xC918,
0.400470291666667,0,0x9E42,
0.400478208333333,0,0xCA18,
0.400510000000000,0,0x0004,
0.400517708333333,0,0x0325,
0.400533833333333,0,0x0A01,
0.400541666666667,0,0x8325,
0.400557416666667,0,0x0F00,
0.400565250000000,0,0x8425,
0.400580958333333,0,0x0000,
0.400588833333333,0,0x8528,
0.400604541666667,0,0x873F,
0.400612416666667,0,0x8625,
0.400643083333333,0,0x0001,
0.400650750000000,0,0x1D29,
0.400666875000000,0,0x0055,
0.400674750000000,0,0x9D29,
0.400702416666667,0,0x0003,
0.400710083333333,0,0x242D,
0.400726291666667,0,0x004C,
0.400734166666667,0,0xA428,
0.400749875000000,0,0x0040,
0.400757750000000,0,0xA528,
0.400773458333333,0,0x8000,
0.400781291666667,0,0xA628,
0.400809875000000,0,0x0005,
0.400817583333333,0,0x2D21,
0.400833833333333,0,0xBEAB,
0.400841708333333,0,0xAD28,
0.400857416666667,0,0xFFF5,
0.400865291666667,0,0xAE28,
0.400881000000000,0,0x48F3,
0.400888833333333,0,0xAF28,
0.400904541666667,0,0xFFFF,
0.400912416666667,0,0xB028,
0.400928125000000,0,0x8307,
0.400936000000000,0,0xB128,
0.400966500000000,0,0x0006,
0.400974208333333,0,0x3B25,
0.400990500000000,0,0xE51D,
0.400998333333333,0,0xBB28,
0.401014041666667,0,0x8005,
0.401021916666667,0,0xBC28,
0.401037625000000,0,0x8000,
0.401045458333333,0,0xBD28,
0.401061166666667,0,0x8000,
0.401069041666667,0,0xBE28,
0.401084750000000,0,0xE5BE,
0.401092583333333,0,0xBF28,
0.401108291666667,0,0xE5D6,
0.401116166666667,0,0xC028,
0.401146541666667,0,0x000A,
0.401154208333333,0,0x4129,
0.401170166666667,0,0xDB30,
0.401178000000000,0,0xC128,
0.401193750000000,0,0xDC32,
0.401201583333333,0,0xC228,
0.401217291666667,0,0xDF3B,
0.401225125000000,0,0xC328,
0.401240833333333,0,0xE122,
0.401248708333333,0,0xC428,
0.401264416666667,0,0xA983,
0.401272250000000,0,0xC528,
0.401288000000000,0,0xFF4C,
0.401295833333333,0,0xC628,
0.401311541666667,0,0xC016,
0.401319416666667,0,0xC728,
0.401335125000000,0,0xA3C0,
0.401342958333333,0,0xC828,
0.401358708333333,0,0x9E3C,
0.401366541666667,0,0xC928,
0.401382250000000,0,0x9E3B,
0.401390125000000,0,0xCA28,
0.409103916666667,0,0x9C3F,
0.409111583333333,0,0x060F,
0.409139791666667,0,0x0004,
0.409147458333333,0,0x0311,
0.409163625000000,0,0x0A01,
0.409171541666667,0,0x8311,
0.409187375000000,0,0x0F00,
0.409195291666667,0,0x8411,
0.409211125000000,0,0x0000,
0.409219041666667,0,0x8519,
0.409234875000000,0,0x9F3F,
0.409242791666667,0,0x8611,
0.409272916666667,0,0x0004,
0.409280583333333,0,0x0315,
0.409296708333333,0,0x0A01,
0.409304625000000,0,0x8315,
0.409320458333333,0,0x0F00,
0.409328375000000,0,0x8415,
0.409344250000000,0,0x0000,
0.409352125000000,0,0x8519,
0.409368000000000,0,0x9F3F,
0.409375916666667,0,0x8615,
0.409406875000000,0,0x0004,
0.409414541666667,0,0x0319,
0.409430875000000,0,0x0A01,
0.409438750000000,0,0x8319,
0.409454625000000,0,0x0F00,
0.409462541666667,0,0x8419,
0.409478375000000,0,0x0000,
0.409486291666667,0,0x8519,
0.409502125000000,0,0x9F3F,
0.409510041666667,0,0x8619,
0.409541083333333,0,0x0004,
0.409548791666667,0,0x031D,
0.409564958333333,0,0x0A01,
0.409572875000000,0,0x831D,
0.409588708333333,0,0x0F00,
0.409596625000000,0,0x841D,
0.409612458333333,0,0x0000,
0.409620375000000,0,0x8519,
0.409636250000000,0,0x9F3F,
0.409644166666667,0,0x861D,
0.409674625000000,0,0x0004,
0.409682291666667,0,0x0311,
0.409698583333333,0,0x0A01,
0.409706500000000,0,0x8311,
0.409722291666667,0,0x0F00,
0.409730208333333,0,0x8411,
0.409746041666667,0,0x0000,
0.409753958333333,0,0x8519,
0.409769791666667,0,0x973F,
0.409777708333333,0,0x8611,
0.409807958333333,0,0x0001,
0.409815625000000,0,0x1D15,
0.409831625000000,0,0x1551,
0.409839541666667,0,0x9D15,
0.409867166666667,0,0x0003,
0.409874833333333,0,0x2419,
0.409891000000000,0,0x0048,
0.409898916666667,0,0xA419,
0.409914750000000,0,0x0040,
0.409922666666667,0,0xA519,
0.409938500000000,0,0x8000,
0.409946416666667,0,0xA619,
0.409974708333333,0,0x0005,
0.409982375000000,0,0x2D1D,
0.409998333333333,0,0xB690,
0.410006250000000,0,0xAD19,
0.410022083333333,0,0xFFF3,
0.410030041666667,0,0xAE19,
0.410045875000000,0,0xA8CB,
0.410053791666667,0,0xAF19,
0.410069583333333,0,0xFFFF,
0.410077500000000,0,0xB019,
0.410093333333333,0,0x830A,
0.410101250000000,0,0xB119,
0.410130708333333,0,0x0006,
0.410138416666667,0,0x3B11,
0.410154708333333,0,0xB3E2,
0.410162625000000,0,0xBB19,
0.410178458333333,0,0xB32F,
0.410186375000000,0,0xBC19,
0.410202208333333,0,0xB2BE,
0.410210125000000,0,0xBD19,
0.410225958333333,0,0xB1FF,
0.410233875000000,0,0xBE19,
0.410249708333333,0,0xB200,
0.410257583333333,0,0xBF19,
0.410273416666667,0,0xB272,
0.410281375000000,0,0xC019,
0.410311625000000,0,0x000A,
0.410319333333333,0,0x4115,
0.410335791666667,0,0xC0C6,
0.410343708333333,0,0xC119,
0.410359541666667,0,0xC0C3,
0.410367458333333,0,0xC219,
0.410383291666667,0,0xC0C4,
0.410391208333333,0,0xC319,
0.410407041666667,0,0xC0C4,
0.410414958333333,0,0xC419,
0.410430791666667,0,0xC0C9,
0.410438708333333,0,0xC519,
0.410454541666667,0,0xDCD3,
0.410462458333333,0,0xC619,
0.410478291666667,0,0x800C,
0.410486208333333,0,0xC719,
0.410502041666667,0,0xA3DC,
0.410509916666667,0,0xC819,
0.410525791666667,0,0x9E3A,
0.410533708333333,0,0xC919,
0.410549541666667,0,0x9E3C,
0.410557416666667,0,0xCA19,
0.410589791666667,0,0x0004,
0.410597500000000,0,0x0329,
0.410613583333333,0,0x0A01,
0.410621458333333,0,0x8329,
0.410637125000000,0,0x0F00,
0.410645000000000,0,0x8429,
0.410660708333333,0,0x0000,
0.410668583333333,0,0x8529,
0.410684291666667,0,0x973F,
0.410692125000000,0,0x8629,
0.410722041666667,0,0x0001,
0.410729708333333,0,0x1D2D,
0.410745666666667,0,0x0055,
0.410753541666667,0,0x9D2D,
0.410781375000000,0,0x0003,
0.410789041666667,0,0x2421,
0.410805083333333,0,0x004C,
0.410812958333333,0,0xA429,
0.410828625000000,0,0x0040,
0.410836500000000,0,0xA529,
0.410852208333333,0,0x8000,
0.410860041666667,0,0xA629,
0.410889000000000,0,0x0005,
0.410896666666667,0,0x2D25,
0.410913083333333,0,0xBFB9,
0.410920958333333,0,0xAD29,
0.410936666666667,0,0xFFF5,
0.410944500000000,0,0xAE29,
0.410960208333333,0,0x46C6,
0.410968083333333,0,0xAF29,
0.410983791666667,0,0xFFFF,
0.410991666666667,0,0xB029,
0.411007375000000,0,0x8307,
0.411015208333333,0,0xB129,
0.411045500000000,0,0x0006,
0.411053166666667,0,0x3B29,
0.411069250000000,0,0xE518,
0.411077083333333,0,0xBB29,
0.411092791666667,0,0x8000,
0.411100666666667,0,0xBC29,
0.411116375000000,0,0x8000,
0.411124250000000,0,0xBD29,
0.411139916666667,0,0x8000,
0.411147791666667,0,0xBE29,
0.411163500000000,0,0xE5BF,
0.411171375000000,0,0xBF29,
0.411187041666667,0,0xE5DC,
0.411194916666667,0,0xC029,
0.411225875000000,0,0x000A,
0.411233541666667,0,0x412D,
0.411249916666667,0,0xDB2C,
0.411257791666667,0,0xC129,
0.411273500000000,0,0xDC31,
0.411281333333333,0,0xC229,
0.411297083333333,0,0xDF38,
0.411304916666667,0,0xC329,
0.411320625000000,0,0xE122,
0.411328500000000,0,0xC429,
0.411344208333333,0,0xA981,
0.411352083333333,0,0xC529,
0.411367791666667,0,0xFF48,
0.411375625000000,0,0xC629,
0.411391333333333,0,0xC017,
0.411399208333333,0,0xC729,
0.411414916666667,0,0xA3BE,
0.411422750000000,0,0xC829,
0.411438458333333,0,0x9E3E,
0.411446333333333,0,0xC929,
0.411462041666667,0,0x9E3E,
0.411469875000000,0,0xCA29,
0.419040208333333,0,0xAC3F,
0.419047875000000,0,0x0603,
0.419075583333333,0,0x0004,
0.419083250000000,0,0x0315,
0.419099416666667,0,0x0A01,
0.419107333333333,0,0x8315,
0.419123166666667,0,0x0F00,
0.419131083333333,0,0x8415,
0.419146916666667,0,0x0000,
0.419154833333333,0,0x851A,
0.419170666666667,0,0xAF3F,
0.419178583333333,0,0x8615,
0.419209375000000,0,0x0004,
0.419217083333333,0,0x0319,
0.419233500000000,0,0x0A01,
0.419241416666667,0,0x8319,
0.419257250000000,0,0x0F00,
0.419265166666667,0,0x8419,
0.419281000000000,0,0x0000,
0.419288916666667,0,0x851A,
0.419304750000000,0,0xAF3F,
0.419312666666667,0,0x8619,
0.419342875000000,0,0x0004,
0.419350583333333,0,0x031D,
0.419366541666667,0,0x0A01,
0.419374500000000,0,0x831D,
0.419390291666667,0,0x0F00,
0.419398208333333,0,0x841D,
0.419414041666667,0,0x0000,
0.419421958333333,0,0x851A,
0.419437791666667,0,0xAF3F,
0.419445708333333,0,0x861D,
0.419476333333333,0,0x0004,
0.419484041666667,0,0x0311,
0.419500083333333,0,0x0A01,
0.419508000000000,0,0x8311,
0.419523833333333,0,0x0F00,
0.419531750000000,0,0x8411,
0.419547583333333,0,0x0000,
0.419555500000000,0,0x851A,
0.419571333333333,0,0xAF3F,
0.419579208333333,0,0x8611,
0.419609875000000,0,0x0004,
0.419617541666667,0,0x0315,
0.419633625000000,0,0x0A01,
0.419641541666667,0,0x8315,
0.419657333333333,0,0x0F00,
0.419665250000000,0,0x8415,
0.419681041666667,0,0x0000,
0.419688958333333,0,0x851A,
0.419704791666667,0,0xA73F,
0.419712708333333,0,0x8615,
0.419743541666667,0,0x0001,
0.419751208333333,0,0x1D19,
0.419767583333333,0,0x1551,
0.419775458333333,0,0x9D19,
0.419803291666667,0,0x0003,
0.419810958333333,0,0x241D,
0.419827375000000,0,0x0048,
0.419835291666667,0,0xA41A,
0.419851125000000,0,0x0040,
0.419859000000000,0,0xA51A,
0.419874833333333,0,0x8000,
0.419882750000000,0,0xA61A,
0.419911625000000,0,0x0005,
0.419919333333333,0,0x2D11,
0.419935666666667,0,0xB798,
0.419943583333333,0,0xAD1A,
0.419959375000000,0,0xFFF3,
0.419967291666667,0,0xAE1A,
0.419983125000000,0,0xA61C,
0.419991041666667,0,0xAF1A,
0.420006875000000,0,0x8000,
0.420014791666667,0,0xB01A,
0.420030625000000,0,0x8305,
0.420038541666667,0,0xB11A,
0.420068875000000,0,0x0006,
0.420076583333333,0,0x3B15,
0.420092958333333,0,0xB3E0,
0.420100875000000,0,0xBB1A,
0.420116708333333,0,0xB328,
0.420124625000000,0,0xBC1A,
0.420140458333333,0,0xB2BA,
0.420148333333333,0,0xBD1A,
0.420164166666667,0,0xB1FF,
0.420172083333333,0,0xBE1A,
0.420187916666667,0,0xB201,
0.420195833333333,0,0xBF1A,
0.420211666666667,0,0xB275,
0.420219583333333,0,0xC01A,
0.420249708333333,0,0x000A,
0.420257416666667,0,0x4119,
0.420273500000000,0,0xC0C3,
0.420281416666667,0,0xC11A,
0.420297250000000,0,0xC0C8,
0.420305208333333,0,0xC21A,
0.420321041666667,0,0xC0C3,
0.420328958333333,0,0xC31A,
0.420344750000000,0,0xC0C7,
0.420352708333333,0,0xC41A,
0.420368541666667,0,0xC0C3,
0.420376458333333,0,0xC51A,
0.420392291666667,0,0xDCD2,
0.420400208333333,0,0xC61A,
0.420416041666667,0,0x8011,
0.420423958333333,0,0xC71A,
0.420439791666667,0,0xA3DB,
0.420447708333333,0,0xC81A,
0.420463500000000,0,0x9E3C,
0.420471416666667,0,0xC91A,
0.420487250000000,0,0x9E38,
0.420495166666667,0,0xCA1A,
0.420526833333333,0,0x0004,
0.420534500000000,0,0x032D,
0.420550875000000,0,0x0A01,
0.420558750000000,0,0x832D,
0.420574458333333,0,0x0F00,
0.420582333333333,0,0x842D,
0.420598041666667,0,0x0000,
0.420605875000000,0,0x852A,
0.420621625000000,0,0xA73F,
0.420629458333333,0,0x862D,
0.420659958333333,0,0x0001,
0.420667666666667,0,0x1D21,
0.420684000000000,0,0x0055,
0.420691833333333,0,0x9D21,
0.420719416666667,0,0x0003,
0.420727083333333,0,0x2425,
0.420743375000000,0,0x004C,
0.420751250000000,0,0xA42A,
0.420766958333333,0,0x0040,
0.420774833333333,0,0xA52A,
0.420790541666667,0,0x8000,
0.420798375000000,0,0xA62A,
0.420827583333333,0,0x0005,
0.420835250000000,0,0x2D29,
0.420851416666667,0,0xC0C3,
0.420859291666667,0,0xAD2A,
0.420875000000000,0,0xFFF5,
0.420882875000000,0,0xAE2A,
0.420898583333333,0,0x44E7,
0.420906416666667,0,0xAF2A,
0.420922125000000,0,0xFFFF,
0.420930000000000,0,0xB02A,
0.420945708333333,0,0x830E,
0.420953583333333,0,0xB12A,
0.420984291666667,0,0x0006,
0.420991958333333,0,0x3B2D,
0.421008083333333,0,0xE518,
0.421015958333333,0,0xBB2A,
0.421031666666667,0,0x8000,
0.421039500000000,0,0xBC2A,
0.421055208333333,0,0x8000,
0.421063083333333,0,0xBD2A,
0.421078791666667,0,0x8002,
0.421086666666667,0,0xBE2A,
0.421102375000000,0,0xE5B8,
0.421110208333333,0,0xBF2A,
0.421125916666667,0,0xE5D5,
0.421133791666667,0,0xC02A,
0.421164416666667,0,0x000A,
0.421172083333333,0,0x4121,
0.421188291666667,0,0xDB29,
0.421196166666667,0,0xC12A,
0.421211875000000,0,0xDC2D,
0.421219708333333,0,0xC22A,
0.421235458333333,0,0xDF32,
0.421243291666667,0,0xC32A,
0.421259000000000,0,0xE123,
0.421266875000000,0,0xC42A,
0.421282583333333,0,0xA97D,
0.421290458333333,0,0xC52A,
0.421306166666667,0,0xFF49,
0.421314000000000,0,0xC62A,
0.421329750000000,0,0xC011,
0.421337583333333,0,0xC72A,
0.421353291666667,0,0xA3BC,
0.421361166666667,0,0xC82A,
0.421376875000000,0,0x9E37,
0.421384708333333,0,0xC92A,
0.421400416666667,0,0x9E3D,
0.421408291666667,0,0xCA2A,
0.429045500000000,0,0xBC3F,
0.429053166666667,0,0x0607,
0.429080250000000,0,0x0004,
0.429087916666667,0,0x0319,
0.429104208333333,0,0x0A01,
0.429112083333333,0,0x8319,
0.429127916666667,0,0x0F00,
0.429135833333333,0,0x8419,
0.429151708333333,0,0x0000,
0.429159583333333,0,0x851B,
0.429175458333333,0,0xBF3F,
0.429183333333333,0,0x8619,
0.429215291666667,0,0x0004,
0.429222958333333,0,0x031D,
0.429239291666667,0,0x0A01,
0.429247208333333,0,0x831D,
0.429263041666667,0,0x0F00,
0.429270958333333,0,0x841D,
0.429286791666667,0,0x0000,
0.429294708333333,0,0x851B,
0.429310541666667,0,0xBF3F,
0.429318416666667,0,0x861D,
0.429349041666667,0,0x0004,
0.429356708333333,0,0x0311,
0.429372875000000,0,0x0A01,
0.429380791666667,0,0x8311,
0.429396625000000,0,0x0F00,
0.429404541666667,0,0x8411,
0.429420375000000,0,0x0000,
0.429428291666667,0,0x851B,
0.429444125000000,0,0xBF3F,
0.429452041666667,0,0x8611,
0.429483000000000,0,0x0004,
0.429490666666667,0,0x0315,
0.429506958333333,0,0x0A01,
0.429514875000000,0,0x8315,
0.429530708333333,0,0x0F00,
0.429538625000000,0,0x8415,
0.429554458333333,0,0x0000,
0.429562375000000,0,0x851B,
0.429578208333333,0,0xBF3F,
0.429586125000000,0,0x8615,
0.429617333333333,0,0x0004,
0.429625000000000,0,0x0319,
0.429641000000000,0,0x0A01,
0.429648916666667,0,0x8319,
0.429664750000000,0,0x0F00,
0.429672666666667,0,0x8419,
0.429688500000000,0,0x0000,
0.429696416666667,0,0x851B,
0.429712250000000,0,0xB73F,
0.429720125000000,0,0x8619,
0.429750458333333,0,0x0001,
0.429758166666667,0,0x1D1D,
0.429774541666667,0,0x1551,
0.429782500000000,0,0x9D1D,
0.429810250000000,0,0x0003,
0.429817916666667,0,0x2411,
0.429833916666667,0,0x0048,
0.429841833333333,0,0xA41B,
0.429857666666667,0,0x0040,
0.429865583333333,0,0xA51B,
0.429881416666667,0,0x8000,
0.429889291666667,0,0xA61B,
0.429918625000000,0,0x0005,
0.429926291666667,0,0x2D15,
0.429942750000000,0,0xB8A2,
0.429950666666667,0,0xAD1B,
0.429966500000000,0,0xFFF3,
0.429974375000000,0,0xAE1B,
0.429990208333333,0,0xA2F4,
0.429998125000000,0,0xAF1B,
0.430013958333333,0,0xFFFF,
0.430021875000000,0,0xB01B,
0.430037666666667,0,0x830B,
0.430045583333333,0,0xB11B,
0.430075750000000,0,0x0006,
0.430083416666667,0,0x3B19,
0.430099500000000,0,0xB3DD,
0.430107416666667,0,0xBB1B,
0.430123208333333,0,0xB326,
0.430131125000000,0,0xBC1B,
0.430146958333333,0,0xB2BC,
0.430154875000000,0,0xBD1B,
0.430170666666667,0,0xB201,
0.430178583333333,0,0xBE1B,
0.430194416666667,0,0xB201,
0.430202333333333,0,0xBF1B,
0.430218166666667,0,0xB274,
0.430226041666667,0,0xC01B,
0.430255958333333,0,0x000A,
0.430263625000000,0,0x411D,
0.430279958333333,0,0xC0C7,
0.430287833333333,0,0xC11B,
0.430303666666667,0,0xC0C4,
0.430311583333333,0,0xC21B,
0.430327416666667,0,0xC0C6,
0.430335333333333,0,0xC31B,
0.430351125000000,0,0xC0C6,
0.430359041666667,0,0xC41B,
0.430374875000000,0,0xC0C8,
0.430382791666667,0,0xC51B,
0.430398625000000,0,0xDCD5,
0.430406541666667,0,0xC61B,
0.430422375000000,0,0x8011,
0.430430250000000,0,0xC71B,
0.430446083333333,0,0xA3DE,
0.430454000000000,0,0xC81B,
0.430469833333333,0,0x9E3A,
0.430477708333333,0,0xC91B,
0.430493541666667,0,0x9E36,
0.430501458333333,0,0xCA1B,
0.430533333333333,0,0x0004,
0.430541041666667,0,0x0321,
0.430557375000000,0,0x0A01,
0.430565208333333,0,0x8321,
0.430580916666667,0,0x0F00,
0.430588791666667,0,0x8421,
0.430604500000000,0,0x0000,
0.430612333333333,0,0x852B,
0.430628041666667,0,0xB73F,
0.430635916666667,0,0x8621,
0.430666416666667,0,0x0001,
0.430674083333333,0,0x1D25,
0.430690416666667,0,0x0055,
0.430698291666667,0,0x9D25,
0.430726375000000,0,0x0003,
0.430734041666667,0,0x2429,
0.430750333333333,0,0x004C,
0.430758166666667,0,0xA42B,
0.430773875000000,0,0x0040,
0.430781708333333,0,0xA52B,
0.430797416666667,0,0x8000,
0.430805291666667,0,0xA62B,
0.430834375000000,0,0x0005,
0.430842041666667,0,0x2D2D,
0.430858333333333,0,0xC1CF,
0.430866208333333,0,0xAD2B,
0.430881916666667,0,0xFFF5,
0.430889750000000,0,0xAE2B,
0.430905458333333,0,0x42E3,
0.430913333333333,0,0xAF2B,
0.430929041666667,0,0xFFFF,
0.430936875000000,0,0xB02B,
0.430952625000000,0,0x8307,
0.430960458333333,0,0xB12B,
0.430991583333333,0,0x0006,
0.430999291666667,0,0x3B21,
0.431015458333333,0,0xE518,
0.431023333333333,0,0xBB2B,
0.431039041666667,0,0x8000,
0.431046916666667,0,0xBC2B,
0.431062625000000,0,0x8000,
0.431070458333333,0,0xBD2B,
0.431086166666667,0,0x8000,
0.431094041666667,0,0xBE2B,
0.431109750000000,0,0xE5BC,
0.431117625000000,0,0xBF2B,
0.431133291666667,0,0xE5D5,
0.431141166666667,0,0xC02B,
0.431171791666667,0,0x000A,
0.431179500000000,0,0x4125,
0.431195666666667,0,0xDB2E,
0.431203541666667,0,0xC12B,
0.431219250000000,0,0xDC2A,
0.431227083333333,0,0xC22B,
0.431242791666667,0,0xDF36,
0.431250666666667,0,0xC32B,
0.431266375000000,0,0xE121,
0.431274250000000,0,0xC42B,
0.431289958333333,0,0xA97B,
0.431297791666667,0,0xC52B,
0.431313500000000,0,0xFF4B,
0.431321375000000,0,0xC62B,
0.431337083333333,0,0xC015,
0.431344958333333,0,0xC72B,
0.431360666666667,0,0xA3BF,
0.431368541666667,0,0xC82B,
0.431384250000000,0,0x9E39,
0.431392083333333,0,0xC92B,
0.431407791666667,0,0x9E3C,
0.431415666666667,0,0xCA2B,
0.439178208333333,0,0xCC3F,
0.439185875000000,0,0x060B,
0.439213416666667,0,0x0004,
0.439221083333333,0,0x031D,
0.439237083333333,0,0x0A01,
0.439245041666667,0,0x831D,
0.439260875000000,0,0x0F00,
0.439268791666667,0,0x841D,
0.439284625000000,0,0x0000,
0.439292541666667,0,0x851C,
0.439308375000000,0,0xCF3F,
0.439316333333333,0,0x861D,
0.439346750000000,0,0x0004,
0.439354458333333,0,0x0311,
0.439370750000000,0,0x0A01,
0.439378666666667,0,0x8311,
0.439394500000000,0,0x0F00,
0.439402416666667,0,0x8411,
0.439418250000000,0,0x0000,
0.439426166666667,0,0x851C,
0.439442000000000,0,0xCF3F,
0.439449916666667,0,0x8611,
0.439480958333333,0,0x0004,
0.439488625000000,0,0x0315,
0.439504833333333,0,0x0A01,
0.439512791666667,0,0x8315,
0.439528583333333,0,0x0F00,
0.439536541666667,0,0x8415,
0.439552375000000,0,0x0000,
0.439560291666667,0,0x851C,
0.439576125000000,0,0xCF3F,
0.439584041666667,0,0x8615,
0.439614541666667,0,0x0004,
0.439622208333333,0,0x0319,
0.439638458333333,0,0x0A01,
0.439646375000000,0,0x8319,
0.439662208333333,0,0x0F00,
0.439670125000000,0,0x8419,
0.439685958333333,0,0x0000,
0.439693875000000,0,0x851C,
0.439709708333333,0,0xCF3F,
0.439717625000000,0,0x8619,
0.439748041666667,0,0x0004,
0.439755708333333,0,0x031D,
0.439772041666667,0,0x0A01,
0.439779958333333,0,0x831D,
0.439795791666667,0,0x0F00,
0.439803708333333,0,0x841D,
0.439819541666667,0,0x0000,
0.439827458333333,0,0x851C,
0.439843291666667,0,0xC73F,
0.439851208333333,0,0x861D,
0.439882125000000,0,0x0001,
0.439889791666667,0,0x1D11,
0.439906125000000,0,0x1551,
0.439914041666667,0,0x9D11,
0.439941833333333,0,0x0003,
0.439949541666667,0,0x2415,
0.439965500000000,0,0x0048,
0.439973416666667,0,0xA41C,
0.439989250000000,0,0x0040,
0.439997208333333,0,0xA51C,
0.440013041666667,0,0x8000,
0.440020958333333,0,0xA61C,
0.440049541666667,0,0x0005,
0.440057208333333,0,0x2D19,
0.440073375000000,0,0xB9B0,
0.440081291666667,0,0xAD1C,
0.440097125000000,0,0xFFF3,
0.440105041666667,0,0xAE1C,
0.440120875000000,0,0xA060,
0.440128791666667,0,0xAF1C,
0.440144625000000,0,0xFFFF,
0.440152541666667,0,0xB01C,
0.440168375000000,0,0x830D,
0.440176291666667,0,0xB11C,
0.440205958333333,0,0x0006,
0.440213625000000,0,0x3B1D,
0.440229750000000,0,0xB3E0,
0.440237625000000,0,0xBB1C,
0.440253500000000,0,0xB329,
0.440261416666667,0,0xBC1C,
0.440277250000000,0,0xB2BD,
0.440285166666667,0,0xBD1C,
0.440301000000000,0,0xB1FF,
0.440308916666667,0,0xBE1C,
0.440324750000000,0,0xB201,
0.440332666666667,0,0xBF1C,
0.440348500000000,0,0xB273,
0.440356375000000,0,0xC01C,
0.440386625000000,0,0x000A,
0.440394291666667,0,0x4111,
0.440410333333333,0,0xC0C6,
0.440418250000000,0,0xC11C,
0.440434083333333,0,0xC0C4,
0.440442000000000,0,0xC21C,
0.440457833333333,0,0xC0C6,
0.440465750000000,0,0xC31C,
0.440481583333333,0,0xC0C6,
0.440489500000000,0,0xC41C,
0.440505291666667,0,0xC0C6,
0.440513250000000,0,0xC51C,
0.440529083333333,0,0xDCD4,
0.440537000000000,0,0xC61C,
0.440552833333333,0,0x800F,
0.440560750000000,0,0xC71C,
0.440576583333333,0,0xA3DC,
0.440584500000000,0,0xC81C,
0.440600333333333,0,0x9E3C,
0.440608250000000,0,0xC91C,
0.440624083333333,0,0x9E3A,
0.440632000000000,0,0xCA1C,
0.440663791666667,0,0x0004,
0.440671500000000,0,0x0325,
0.440687750000000,0,0x0A01,
0.440695583333333,0,0x8325,
0.440711291666667,0,0x0F00,
0.440719166666667,0,0x8425,
0.440734875000000,0,0x0000,
0.440742708333333,0,0x852C,
0.440758416666667,0,0xC73F,
0.440766291666667,0,0x8625,
0.440796291666667,0,0x0001,
0.440803958333333,0,0x1D29,
0.440820291666667,0,0x0055,
0.440828166666667,0,0x9D29,
0.440856250000000,0,0x0003,
0.440863916666667,0,0x242D,
0.440880208333333,0,0x004C,
0.440888083333333,0,0xA42C,
0.440903791666667,0,0x0040,
0.440911625000000,0,0xA52C,
0.440927333333333,0,0x8000,
0.440935208333333,0,0xA62C,
0.440964083333333,0,0x0005,
0.440971791666667,0,0x2D21,
0.440987750000000,0,0xC2DF,
0.440995625000000,0,0xAD2C,
0.441011291666667,0,0xFFF5,
0.441019166666667,0,0xAE2C,
0.441034916666667,0,0x406A,
0.441042750000000,0,0xAF2C,
0.441058458333333,0,0xFFFF,
0.441066333333333,0,0xB02C,
0.441082041666667,0,0x830C,
0.441089875000000,0,0xB12C,
0.441120750000000,0,0x0006,
0.441128416666667,0,0x3B25,
0.441144375000000,0,0xE518,
0.441152250000000,0,0xBB2C,
0.441167958333333,0,0x8000,
0.441175833333333,0,0xBC2C,
0.441191541666667,0,0x8000,
0.441199375000000,0,0xBD2C,
0.441215083333333,0,0x8004,
0.441222958333333,0,0xBE2C,
0.441238666666667,0,0xE5BB,
0.441246541666667,0,0xBF2C,
0.441262250000000,0,0xE5D5,
0.441270125000000,0,0xC02C,
0.441300583333333,0,0x000A,
0.441308250000000,0,0x4129,
0.441324625000000,0,0xDB2B,
0.441332500000000,0,0xC12C,
0.441348208333333,0,0xDC2D,
0.441356041666667,0,0xC22C,
0.441371750000000,0,0xDF32,
0.441379625000000,0,0xC32C,
0.441395333333333,0,0xE122,
0.441403166666667,0,0xC42C,
0.441418916666667,0,0xA980,
0.441426750000000,0,0xC52C,
0.441442458333333,0,0xFF47,
0.441450333333333,0,0xC62C,
0.441466041666667,0,0xC010,
0.441473875000000,0,0xC72C,
0.441489583333333,0,0xA3C0,
0.441497458333333,0,0xC82C,
0.441513166666667,0,0x9E3A,
0.441521000000000,0,0xC92C,
0.441536750000000,0,0x9E42,
0.441544583333333,0,0xCA2C,
0.449063666666667,0,0xDC3F,
0.449071333333333,0,0x060F,
0.449098625000000,0,0x0004,
0.449106291666667,0,0x0311,
0.449122708333333,0,0x0A01,
0.449130625000000,0,0x8311,
0.449146458333333,0,0x0F00,
0.449154375000000,0,0x8411,
0.449170208333333,0,0x0000,
0.449178125000000,0,0x851D,
0.449193958333333,0,0xDF3F,
0.449201875000000,0,0x8611,
0.449233250000000,0,0x0004,
0.449240958333333,0,0x0315,
0.449257291666667,0,0x0A01,
0.449265208333333,0,0x8315,
0.449281041666667,0,0x0F00,
0.449288958333333,0,0x8415,
0.449304791666667,0,0x0000,
0.449312708333333,0,0x851D,
0.449328541666667,0,0xDF3F,
0.449336458333333,0,0x8615,
0.449367166666667,0,0x0004,
0.449374833333333,0,0x0319,
0.449390875000000,0,0x0A01,
0.449398791666667,0,0x8319,
0.449414625000000,0,0x0F00,
0.449422541666667,0,0x8419,
0.449438375000000,0,0x0000,
0.449446291666667,0,0x851D,
0.449462166666667,0,0xDF3F,
0.449470041666667,0,0x8619,
0.449501625000000,0,0x0004,
0.449509291666667,0,0x031D,
0.449525500000000,0,0x0A01,
0.449533416666667,0,0x831D,
0.449549250000000,0,0x0F00,
0.449557166666667,0,0x841D,
0.449573000000000,0,0x0000,
0.449580958333333,0,0x851D,
0.449596791666667,0,0xDF3F,
0.449604666666667,0,0x861D,
0.449635791666667,0,0x0004,
0.449643500000000,0,0x0311,
0.449659583333333,0,0x0A01,
0.449667500000000,0,0x8311,
0.449683333333333,0,0x0F00,
0.449691250000000,0,0x8411,
0.449707083333333,0,0x0000,
0.449715000000000,0,0x851D,
0.449730833333333,0,0xD73F,
0.449738750000000,0,0x8611,
0.449769625000000,0,0x0001,
0.449777291666667,0,0x1D15,
0.449793666666667,0,0x1551,
0.449801583333333,0,0x9D15,
0.449829833333333,0,0x0003,
0.449837500000000,0,0x2419,
0.449853541666667,0,0x0048,
0.449861416666667,0,0xA41D,
0.449877291666667,0,0x0040,
0.449885208333333,0,0xA51D,
0.449901000000000,0,0x8000,
0.449908916666667,0,0xA61D,
0.449938666666667,0,0x0005,
0.449946375000000,0,0x2D1D,
0.449962333333333,0,0xBAB7,
0.449970250000000,0,0xAD1D,
0.449986083333333,0,0xFFF3,
0.449994000000000,0,0xAE1D,
0.450009833333333,0,0x9DE4,
0.450017750000000,0,0xAF1D,
0.450033583333333,0,0xFFFF,
0.450041500000000,0,0xB01D,
0.450057333333333,0,0x830C,
0.450065250000000,0,0xB11D,
0.450094916666667,0,0x0006,
0.450102583333333,0,0x3B11,
0.450118666666667,0,0xB3DD,
0.450126583333333,0,0xBB1D,
0.450142416666667,0,0xB326,
0.450150291666667,0,0xBC1D,
0.450166125000000,0,0xB2BC,
0.450174041666667,0,0xBD1D,
0.450189875000000,0,0xB1FF,
0.450197791666667,0,0xBE1D,
0.450213625000000,0,0xB1FF,
0.450221541666667,0,0xBF1D,
0.450237375000000,0,0xB272,
0.450245291666667,0,0xC01D,
0.450275458333333,0,0x000A,
0.450283166666667,0,0x4115,
0.450299166666667,0,0xC0C5,
0.450307083333333,0,0xC11D,
0.450322916666667,0,0xC0C2,
0.450330875000000,0,0xC21D,
0.450346666666667,0,0xC0C4,
0.450354583333333,0,0xC31D,
0.450370416666667,0,0xC0C4,
0.450378333333333,0,0xC41D,
0.450394166666667,0,0xC0C3,
0.450402083333333,0,0xC51D,
0.450417875000000,0,0xDCD1,
0.450425833333333,0,0xC61D,
0.450441625000000,0,0x800D,
0.450449541666667,0,0xC71D,
0.450465375000000,0,0xA3DC,
0.450473291666667,0,0xC81D,
0.450489125000000,0,0x9E36,
0.450497041666667,0,0xC91D,
0.450512833333333,0,0x9E39,
0.450520750000000,0,0xCA1D,
0.450553125000000,0,0x0004,
0.450560791666667,0,0x0329,
0.450577083333333,0,0x0A01,
0.450584958333333,0,0x8329,
0.450600666666667,0,0x0F00,
0.450608541666667,0,0x8429,
0.450624250000000,0,0x0000,
0.450632125000000,0,0x852D,
0.450647833333333,0,0xD73F,
0.450655666666667,0,0x8629,
0.450686291666667,0,0x0001,
0.450693958333333,0,0x1D2D,
0.450710208333333,0,0x0055,
0.450718041666667,0,0x9D2D,
0.450746083333333,0,0x0003,
0.450753791666667,0,0x2421,
0.450770083333333,0,0x004C,
0.450777958333333,0,0xA42D,
0.450793666666667,0,0x0040,
0.450801500000000,0,0xA52D,
0.450817250000000,0,0x8000,
0.450825083333333,0,0xA62D,
0.450854500000000,0,0x0005,
0.450862166666667,0,0x2D25,
0.450878125000000,0,0xC3E8,
0.450886000000000,0,0xAD2D,
0.450901708333333,0,0xFFF5,
0.450909541666667,0,0xAE2D,
0.450925250000000,0,0x3DA1,
0.450933125000000,0,0xAF2D,
0.450948833333333,0,0xFFFF,
0.450956708333333,0,0xB02D,
0.450972416666667,0,0x830F,
0.450980250000000,0,0xB12D,
0.451012500000000,0,0x0006,
0.451020208333333,0,0x3B29,
0.451036208333333,0,0xE517,
0.451044083333333,0,0xBB2D,
0.451059791666667,0,0x8000,
0.451067666666667,0,0xBC2D,
0.451083375000000,0,0x8003,
0.451091208333333,0,0xBD2D,
0.451106916666667,0,0x8003,
0.451114791666667,0,0xBE2D,
0.451130541666667,0,0xE5B9,
0.451138375000000,0,0xBF2D,
0.451154083333333,0,0xE5D1,
0.451161958333333,0,0xC02D,
0.451192291666667,0,0x000A,
0.451199958333333,0,0x412D,
0.451215958333333,0,0xDB2A,
0.451223833333333,0,0xC12D,
0.451239541666667,0,0xDC22,
0.451247416666667,0,0xC22D,
0.451263125000000,0,0xDF35,
0.451271000000000,0,0xC32D,
0.451286708333333,0,0xE121,
0.451294541666667,0,0xC42D,
0.451310291666667,0,0xA97C,
0.451318125000000,0,0xC52D,
0.451333833333333,0,0xFF48,
0.451341708333333,0,0xC62D,
0.451357416666667,0,0xC015,
0.451365250000000,0,0xC72D,
0.451380958333333,0,0xA3BD,
0.451388833333333,0,0xC82D,
0.451404541666667,0,0x9E39,
0.451412375000000,0,0xC92D,
0.451428125000000,0,0x9E3D,
0.451435958333333,0,0xCA2D,
0.458994583333333,0,0xEC3F,
0.459002250000000,0,0x0603,
0.459029666666667,0,0x0004,
0.459037375000000,0,0x0315,
0.459053666666667,0,0x0A01,
0.459061583333333,0,0x8315,
0.459077416666667,0,0x0F00,
0.459085333333333,0,0x8415,
0.459101166666667,0,0x0000,
0.459109083333333,0,0x851E,
0.459124916666667,0,0xEF3F,
0.459132833333333,0,0x8615,
0.459162875000000,0,0x0004,
0.459170541666667,0,0x0319,
0.459186750000000,0,0x0A01,
0.459194666666667,0,0x8319,
0.459210500000000,0,0x0F00,
0.459218458333333,0,0x8419,
0.459234291666667,0,0x0000,
0.459242208333333,0,0x851E,
0.459258041666667,0,0xEF3F,
0.459265958333333,0,0x8619,
0.459296875000000,0,0x0004,
0.459304541666667,0,0x031D,
0.459320916666667,0,0x0A01,
0.459328791666667,0,0x831D,
0.459344666666667,0,0x0F00,
0.459352583333333,0,0x841D,
0.459368416666667,0,0x0000,
0.459376333333333,0,0x851E,
0.459392166666667,0,0xEF3F,
0.459400083333333,0,0x861D,
0.459430208333333,0,0x0004,
0.459437875000000,0,0x0311,
0.459454000000000,0,0x0A01,
0.459461958333333,0,0x8311,
0.459477791666667,0,0x0F00,
0.459485666666667,0,0x8411,
0.459501500000000,0,0x0000,
0.459509458333333,0,0x851E,
0.459525291666667,0,0xEF3F,
0.459533208333333,0,0x8611,
0.459563708333333,0,0x0004,
0.459571416666667,0,0x0315,
0.459587625000000,0,0x0A01,
0.459595541666667,0,0x8315,
0.459611375000000,0,0x0F00,
0.459619291666667,0,0x8415,
0.459635125000000,0,0x0000,
0.459643041666667,0,0x851E,
0.459658916666667,0,0xE73F,
0.459666833333333,0,0x8615,
0.459697750000000,0,0x0001,
0.459705458333333,0,0x1D19,
0.459721708333333,0,0x1551,
0.459729625000000,0,0x9D19,
0.459758750000000,0,0x0003,
0.459766416666667,0,0x241D,
0.459782583333333,0,0x0048,
0.459790500000000,0,0xA41E,
0.459806333333333,0,0x0040,
0.459814250000000,0,0xA51E,
0.459830083333333,0,0x8000,
0.459838000000000,0,0xA61E,
0.459866833333333,0,0x0005,
0.459874500000000,0,0x2D11,
0.459890916666667,0,0xBBBF,
0.459898833333333,0,0xAD1E,
0.459914708333333,0,0xFFF3,
0.459922583333333,0,0xAE1E,
0.459938458333333,0,0x9BEA,
0.459946333333333,0,0xAF1E,
0.459962166666667,0,0xFFFF,
0.459970083333333,0,0xB01E,
0.459985916666667,0,0x8303,
0.459993833333333,0,0xB11E,
0.460023916666667,0,0x0006,
0.460031583333333,0,0x3B15,
0.460047791666667,0,0xB3DE,
0.460055708333333,0,0xBB1E,
0.460071541666667,0,0xB32C,
0.460079458333333,0,0xBC1E,
0.460095291666667,0,0xB2BE,
0.460103208333333,0,0xBD1E,
0.460119041666667,0,0xB1FE,
0.460126958333333,0,0xBE1E,
0.460142791666667,0,0xB1FE,
0.460150708333333,0,0xBF1E,
0.460166541666667,0,0xB26E,
0.460174458333333,0,0xC01E,
0.460204416666667,0,0x000A,
0.460212083333333,0,0x4119,
0.460228375000000,0,0xC0C9,
0.460236291666667,0,0xC11E,
0.460252125000000,0,0xC0C8,
0.460260041666667,0,0xC21E,
0.460275833333333,0,0xC0C6,
0.460283791666667,0,0xC31E,
0.460299583333333,0,0xC0CA,
0.460307541666667,0,0xC41E,
0.460323333333333,0,0xC0CA,
0.460331250000000,0,0xC51E,
0.460347083333333,0,0xDCD6,
0.460355000000000,0,0xC61E,
0.460370833333333,0,0x800F,
0.460378750000000,0,0xC71E,
0.460394625000000,0,0xA3DC,
0.460402541666667,0,0xC81E,
0.460418333333333,0,0x9E3A,
0.460426250000000,0,0xC91E,
0.460442083333333,0,0x9E3A,
0.460450041666667,0,0xCA1E,
0.460482208333333,0,0x0004,
0.460489875000000,0,0x032D,
0.460506166666667,0,0x0A01,
0.460514041666667,0,0x832D,
0.460529750000000,0,0x0F00,
0.460537583333333,0,0x842D,
0.460553291666667,0,0x0000,
0.460561166666667,0,0x852E,
0.460576875000000,0,0xE73F,
0.460584750000000,0,0x862D,
0.460615125000000,0,0x0001,
0.460622791666667,0,0x1D21,
0.460638750000000,0,0x0055,
0.460646583333333,0,0x9D21,
0.460674958333333,0,0x0003,
0.460682666666667,0,0x2425,
0.460698666666667,0,0x004C,
0.460706500000000,0,0xA42E,
0.460722208333333,0,0x0040,
0.460730083333333,0,0xA52E,
0.460745791666667,0,0x8000,
0.460753625000000,0,0xA62E,
0.460782416666667,0,0x0005,
0.460790083333333,0,0x2D29,
0.460806166666667,0,0xC4F2,
0.460814041666667,0,0xAD2E,
0.460829750000000,0,0xFFF5,
0.460837583333333,0,0xAE2E,
0.460853333333333,0,0x3B45,
0.460861166666667,0,0xAF2E,
0.460876875000000,0,0xFFFF,
0.460884750000000,0,0xB02E,
0.460900416666667,0,0x830C,
0.460908291666667,0,0xB12E,
0.460938541666667,0,0x0006,
0.460946208333333,0,0x3B2D,
0.460962291666667,0,0xE517,
0.460970166666667,0,0xBB2E,
0.460985875000000,0,0x8000,
0.460993750000000,0,0xBC2E,
0.461009458333333,0,0x8000,
0.461017291666667,0,0xBD2E,
0.461033041666667,0,0x8001,
0.461040875000000,0,0xBE2E,
0.461056583333333,0,0xE5BC,
0.461064416666667,0,0xBF2E,
0.461080166666667,0,0xE5D7,
0.461088000000000,0,0xC02E,
0.461118583333333,0,0x000A,
0.461126250000000,0,0x4121,
0.461142541666667,0,0xDB2B,
0.461150375000000,0,0xC12E,
0.461166083333333,0,0xDC2A,
0.461173958333333,0,0xC22E,
0.461189666666667,0,0xDF32,
0.461197541666667,0,0xC32E,
0.461213250000000,0,0xE11D,
0.461221083333333,0,0xC42E,
0.461236791666667,0,0xA978,
0.461244666666667,0,0xC52E,
0.461260375000000,0,0xFF46,
0.461268208333333,0,0xC62E,
0.461283916666667,0,0xC014,
0.461291791666667,0,0xC72E,
0.461307500000000,0,0xA3BF,
0.461315333333333,0,0xC82E,
0.461331083333333,0,0x9E36,
0.461338916666667,0,0xC92E,
0.461354625000000,0,0x9E42,
0.461362500000000,0,0xCA2E,
0.469085750000000,0,0xFC3F,
0.469093416666667,0,0x0607,
0.469121125000000,0,0x0004,
0.469128791666667,0,0x0319,
0.469145125000000,0,0x0A01,
0.469153000000000,0,0x8319,
0.469168875000000,0,0x0F00,
0.469176750000000,0,0x8419,
0.469192583333333,0,0x0000,
0.469200500000000,0,0x851F,
0.469216333333333,0,0xFF3F,
0.469224291666667,0,0x8619,
0.469254416666667,0,0x0004,
0.469262125000000,0,0x031D,
0.469278208333333,0,0x0A01,
0.469286125000000,0,0x831D,
0.469301958333333,0,0x0F00,
0.469309875000000,0,0x841D,
0.469325708333333,0,0x0000,
0.469333625000000,0,0x851F,
0.469349458333333,0,0xFF3F,
0.469357375000000,0,0x861D,
0.469388041666667,0,0x0004,
0.469395708333333,0,0x0311,
0.469411833333333,0,0x0A01,
0.469419750000000,0,0x8311,
0.469435583333333,0,0x0F00,
0.469443500000000,0,0x8411,
0.469459333333333,0,0x0000,
0.469467250000000,0,0x851F,
0.469483083333333,0,0xFF3F,
0.469491000000000,0,0x8611,
0.469522666666667,0,0x0004,
0.469530333333333,0,0x0315,
0.469546416666667,0,0x0A01,
0.469554333333333,0,0x8315,
0.469570166666667,0,0x0F00,
0.469578083333333,0,0x8415,
0.469593916666667,0,0x0000,
0.469601833333333,0,0x851F,
0.469617666666667,0,0xFF3F,
0.469625625000000,0,0x8615,
0.469656000000000,0,0x0004,
0.469663666666667,0,0x0319,
0.469680041666667,0,0x0A01,
0.469687958333333,0,0x8319,
0.469703791666667,0,0x0F00,
0.469711708333333,0,0x8419,
0.469727541666667,0,0x0000,
0.469735458333333,0,0x851F,
0.469751291666667,0,0xF73F,
0.469759250000000,0,0x8619,
0.469789583333333,0,0x0001,
0.469797291666667,0,0x1D1D,
0.469813666666667,0,0x1551,
0.469821583333333,0,0x9D1D,
0.469849750000000,0,0x0003,
0.469857416666667,0,0x2411,
0.469873541666667,0,0x0048,
0.469881458333333,0,0xA41F,
0.469897291666667,0,0x0040,
0.469905208333333,0,0xA51F,
0.469921041666667,0,0x8000,
0.469928958333333,0,0xA61F,
0.469957875000000,0,0x0005,
0.469965583333333,0,0x2D15,
0.469981875000000,0,0xBCCC,
0.469989791666667,0,0xAD1F,
0.470005666666667,0,0xFFF3,
0.470013541666667,0,0xAE1F,
0.470029375000000,0,0x9853,
0.470037291666667,0,0xAF1F,
0.470053166666667,0,0xFFFF,
0.470061041666667,0,0xB01F,
0.470076875000000,0,0x830B,
0.470084791666667,0,0xB11F,
0.470115208333333,0,0x0006,
0.470122875000000,0,0x3B19,
0.470139208333333,0,0xB3E1,
0.470147125000000,0,0xBB1F,
0.470162958333333,0,0xB32A,
0.470170875000000,0,0xBC1F,
0.470186708333333,0,0xB2BA,
0.470194625000000,0,0xBD1F,
0.470210458333333,0,0xB1FE,
0.470218375000000,0,0xBE1F,
0.470234208333333,0,0xB205,
0.470242125000000,0,0xBF1F,
0.470257958333333,0,0xB275,
0.470265875000000,0,0xC01F,
0.470295916666667,0,0x000A,
0.470303625000000,0,0x411D,
0.470319791666667,0,0xC0C5,
0.470327708333333,0,0xC11F,
0.470343583333333,0,0xC0C7,
0.470351500000000,0,0xC21F,
0.470367333333333,0,0xC0CA,
0.470375250000000,0,0xC31F,
0.470391083333333,0,0xC0C4,
0.470399000000000,0,0xC41F,
0.470414833333333,0,0xC0C8,
0.470422750000000,0,0xC51F,
0.470438541666667,0,0xDCD4,
0.470446458333333,0,0xC61F,
0.470462291666667,0,0x800E,
0.470470208333333,0,0xC71F,
0.470486000000000,0,0xA3DE,
0.470493916666667,0,0xC81F,
0.470509750000000,0,0x9E3D,
0.470517666666667,0,0xC91F,
0.470533500000000,0,0x9E3A,
0.470541416666667,0,0xCA1F,
0.470573500000000,0,0x0004,
0.470581166666667,0,0x0321,
0.470597500000000,0,0x0A01,
0.470605333333333,0,0x8321,
0.470621041666667,0,0x0F00,
0.470628916666667,0,0x8421,
0.470644625000000,0,0x0000,
0.470652500000000,0,0x852F,
0.470668208333333,0,0xF73F,
0.470676083333333,0,0x8621,
0.470706708333333,0,0x0001,
0.470714375000000,0,0x1D25,
0.470730583333333,0,0x0055,
0.470738416666667,0,0x9D25,
0.470766416666667,0,0x0003,
0.470774083333333,0,0x2429,
0.470790500000000,0,0x004C,
0.470798375000000,0,0xA42F,
0.470814083333333,0,0x0040,
0.470821916666667,0,0xA52F,
0.470837625000000,0,0x8000,
0.470845500000000,0,0xA62F,
0.470874208333333,0,0x0005,
0.470881916666667,0,0x2D2D,
0.470898041666667,0,0xC600,
0.470905875000000,0,0xAD2F,
0.470921583333333,0,0xFFF5,
0.470929458333333,0,0xAE2F,
0.470945166666667,0,0x38FE,
0.470953041666667,0,0xAF2F,
0.470968750000000,0,0x8000,
0.470976583333333,0,0xB02F,
0.470992291666667,0,0x8303,
0.471000166666667,0,0xB12F,
0.471029375000000,0,0x0006,
0.471037083333333,0,0x3B21,
0.471053208333333,0,0xE519,
0.471061041666667,0,0xBB2F,
0.471076750000000,0,0x8000,
0.471084625000000,0,0xBC2F,
0.471100333333333,0,0x8001,
0.471108166666667,0,0xBD2F,
0.471123875000000,0,0x8001,
0.471131750000000,0,0xBE2F,
0.471147458333333,0,0xE5BC,
0.471155291666667,0,0xBF2F,
0.471171041666667,0,0xE5D2,
0.471178875000000,0,0xC02F,
0.471209833333333,0,0x000A,
0.471217541666667,0,0x4125,
0.471233875000000,0,0xDB2E,
0.471241750000000,0,0xC12F,
0.471257416666667,0,0xDC2C,
0.471265291666667,0,0xC22F,
0.471281000000000,0,0xDF37,
0.471288875000000,0,0xC32F,
0.471304583333333,0,0xE120,
0.471312458333333,0,0xC42F,
0.471328166666667,0,0xA97E,
0.471336000000000,0,0xC52F,
0.471351708333333,0,0xFF47,
0.471359583333333,0,0xC62F,
0.471375291666667,0,0xC015,
0.471383166666667,0,0xC72F,
0.471398875000000,0,0xA3BE,
0.471406750000000,0,0xC82F,
0.471422416666667,0,0x9E3B,
0.471430291666667,0,0xC92F,
0.471446000000000,0,0x9E38,
0.471453833333333,0,0xCA2F,
0.479036083333333,0,0x0C3F,
0.479043750000000,0,0x060B,
0.479070875000000,0,0x0004,
0.479078583333333,0,0x031D,
0.479094958333333,0,0x0A01,
0.479102875000000,0,0x831D,
0.479118708333333,0,0x0F00,
0.479126625000000,0,0x841D,
0.479142458333333,0,0x0000,
0.479150375000000,0,0x8510,
0.479166208333333,0,0x0F3F,
0.479174125000000,0,0x861D,
0.479204875000000,0,0x0004,
0.479212541666667,0,0x0311,
0.479228541666667,0,0x0A01,
0.479236458333333,0,0x8311,
0.479252291666667,0,0x0F00,
0.479260208333333,0,0x8411,
0.479276041666667,0,0x0000,
0.479283958333333,0,0x8510,
0.479299791666667,0,0x0F3F,
0.479307708333333,0,0x8611,
0.479338666666667,0,0x0004,
0.479346333333333,0,0x0315,
0.479362666666667,0,0x0A01,
0.479370583333333,0,0x8315,
0.479386416666667,0,0x0F00,
0.479394333333333,0,0x8415,
0.479410166666667,0,0x0000,
0.479418083333333,0,0x8510,
0.479433875000000,0,0x0F3F,
0.479441833333333,0,0x8615,
0.479472208333333,0,0x0004,
0.479479875000000,0,0x0319,
0.479496250000000,0,0x0A01,
0.479504166666667,0,0x8319,
0.479520000000000,0,0x0F00,
0.479527916666667,0,0x8419,
0.479543750000000,0,0x0000,
0.479551666666667,0,0x8510,
0.479567500000000,0,0x0F3F,
0.479575416666667,0,0x8619,
0.479605666666667,0,0x0004,
0.479613333333333,0,0x031D,
0.479629333333333,0,0x0A01,
0.479637250000000,0,0x831D,
0.479653083333333,0,0x0F00,
0.479661000000000,0,0x841D,
0.479676833333333,0,0x0000,
0.479684750000000,0,0x8510,
0.479700583333333,0,0x073F,
0.479708500000000,0,0x861D,
0.479738583333333,0,0x0001,
0.479746291666667,0,0x1D11,
0.479762416666667,0,0x1551,
0.479770333333333,0,0x9D11,
0.479798208333333,0,0x0003,
0.479805875000000,0,0x2415,
0.479822250000000,0,0x0048,
0.479830166666667,0,0xA410,
0.479846000000000,0,0x0040,
0.479853916666667,0,0xA510,
0.479869750000000,0,0x8000,
0.479877666666667,0,0xA610,
0.479907250000000,0,0x0005,
0.479914958333333,0,0x2D19,
0.479931083333333,0,0xBDD4,
0.479939000000000,0,0xAD10,
0.479954833333333,0,0xFFF3,
0.479962750000000,0,0xAE10,
0.479978583333333,0,0x957D,
0.479986500000000,0,0xAF10,
0.480002333333333,0,0xFFFF,
0.480010250000000,0,0xB010,
0.480026083333333,0,0x830D,
0.480034000000000,0,0xB110,
0.480063416666667,0,0x0006,
0.480071125000000,0,0x3B1D,
0.480087416666667,0,0xB3E0,
0.480095333333333,0,0xBB10,
0.480111125000000,0,0xB326,
0.480119083333333,0,0xBC10,
0.480134875000000,0,0xB2BB,
0.480142791666667,0,0xBD10,
0.480158625000000,0,0xB1FF,
0.480166541666667,0,0xBE10,
0.480182375000000,0,0xB201,
0.480190291666667,0,0xBF10,
0.480206125000000,0,0xB275,
0.480214041666667,0,0xC010,
0.480244333333333,0,0x000A,
0.480252000000000,0,0x4111,
0.480268458333333,0,0xC0C3,
0.480276375000000,0,0xC110,
0.480292208333333,0,0xC0C4,
0.480300125000000,0,0xC210,
0.480315958333333,0,0xC0C5,
0.480323875000000,0,0xC310,
0.480339666666667,0,0xC0C7,
0.480347583333333,0,0xC410,
0.480363416666667,0,0xC0C5,
0.480371333333333,0,0xC510,
0.480387166666667,0,0xDCD4,
0.480395083333333,0,0xC610,
0.480410916666667,0,0x800C,
0.480418833333333,0,0xC710,
0.480434625000000,0,0xA3DB,
0.480442583333333,0,0xC810,
0.480458375000000,0,0x9E3A,
0.480466333333333,0,0xC910,
0.480482125000000,0,0x9E3E,
0.480490041666667,0,0xCA10,
0.480522000000000,0,0x0004,
0.480529666666667,0,0x0325,
0.480545833333333,0,0x0A01,
0.480553708333333,0,0x8325,
0.480569416666667,0,0x0F00,
0.480577291666667,0,0x8425,
0.480593000000000,0,0x0000,
0.480600833333333,0,0x8520,
0.480616583333333,0,0x073F,
0.480624416666667,0,0x8625,
0.480654375000000,0,0x0001,
0.480662041666667,0,0x1D29,
0.480678458333333,0,0x0055,
0.480686291666667,0,0x9D29,
0.480714458333333,0,0x0003,
0.480722125000000,0,0x242D,
0.480738375000000,0,0x004C,
0.480746208333333,0,0xA420,
0.480761916666667,0,0x0040,
0.480769791666667,0,0xA520,
0.480785541666667,0,0x8000,
0.480793375000000,0,0xA620,
0.480821250000000,0,0x0005,
0.480828958333333,0,0x2D21,
0.480844916666667,0,0xC70B,
0.480852791666667,0,0xAD20,
0.480868500000000,0,0xFFF5,
0.480876375000000,0,0xAE20,
0.480892083333333,0,0x36F3,
0.480899958333333,0,0xAF20,
0.480915666666667,0,0x8000,
0.480923500000000,0,0xB020,
0.480939208333333,0,0x8300,
0.480947083333333,0,0xB120,
0.480976583333333,0,0x0006,
0.480984291666667,0,0x3B25,
0.481000625000000,0,0xE516,
0.481008500000000,0,0xBB20,
0.481024208333333,0,0x8000,
0.481032041666667,0,0xBC20,
0.481047750000000,0,0x8000,
0.481055625000000,0,0xBD20,
0.481071333333333,0,0x8001,
0.481079166666667,0,0xBE20,
0.481094875000000,0,0xE5BF,
0.481102750000000,0,0xBF20,
0.481118458333333,0,0xE5D5,
0.481126333333333,0,0xC020,
0.481156458333333,0,0x000A,
0.481164166666667,0,0x4129,
0.481180333333333,0,0xDB2B,
0.481188208333333,0,0xC120,
0.481203916666667,0,0xDC2D,
0.481211750000000,0,0xC220,
0.481227500000000,0,0xDF35,
0.481235333333333,0,0xC320,
0.481251041666667,0,0xE11E,
0.481258916666667,0,0xC420,
0.481274625000000,0,0xA97A,
0.481282500000000,0,0xC520,
0.481298208333333,0,0xFF46,
0.481306083333333,0,0xC620,
0.481321791666667,0,0xC011,
0.481329625000000,0,0xC720,
0.481345375000000,0,0xA3C0,
0.481353208333333,0,0xC820,
0.481368958333333,0,0x9E3A,
0.481376791666667,0,0xC920,
0.481392500000000,0,0x9E3C,
0.481400375000000,0,0xCA20,
0.489185083333333,0,0x1C3F,
0.489192750000000,0,0x060F,
0.489220208333333,0,0x0004,
0.489227875000000,0,0x0311,
0.489244208333333,0,0x0A01,
0.489252125000000,0,0x8311,
0.489267958333333,0,0x0F00,
0.489275875000000,0,0x8411,
0.489291708333333,0,0x0000,
0.489299625000000,0,0x8511,
0.489315458333333,0,0x1F3F,
0.489323375000000,0,0x8611,
0.489354666666667,0,0x0004,
0.489362375000000,0,0x0315,
0.489378791666667,0,0x0A01,
0.489386708333333,0,0x8315,
0.489402541666667,0,0x0F00,
0.489410458333333,0,0x8415,
0.489426291666667,0,0x0000,
0.489434250000000,0,0x8511,
0.489450041666667,0,0x1F3F,
0.489457958333333,0,0x8615,
0.489488333333333,0,0x0004,
0.489496041666667,0,0x0319,
0.489512375000000,0,0x0A01,
0.489520291666667,0,0x8319,
0.489536125000000,0,0x0F00,
0.489544083333333,0,0x8419,
0.489559875000000,0,0x0000,
0.489567791666667,0,0x8511,
0.489583625000000,0,0x1F3F,
0.489591541666667,0,0x8619,
0.489622416666667,0,0x0004,
0.489630083333333,0,0x031D,
0.489646458333333,0,0x0A01,
0.489654375000000,0,0x831D,
0.489670250000000,0,0x0F00,
0.489678166666667,0,0x841D,
0.489694000000000,0,0x0000,
0.489701916666667,0,0x8511,
0.489717750000000,0,0x1F3F,
0.489725666666667,0,0x861D,
0.489756458333333,0,0x0004,
0.489764125000000,0,0x0311,
0.489780041666667,0,0x0A01,
0.489787958333333,0,0x8311,
0.489803791666667,0,0x0F00,
0.489811750000000,0,0x8411,
0.489827541666667,0,0x0000,
0.489835458333333,0,0x8511,
0.489851291666667,0,0x173F,
0.489859208333333,0,0x8611,
0.489889916666667,0,0x0001,
0.489897583333333,0,0x1D15,
0.489913666666667,0,0x1551,
0.489921541666667,0,0x9D15,
0.489949833333333,0,0x0003,
0.489957500000000,0,0x2419,
0.489973500000000,0,0x0048,
0.489981416666667,0,0xA411,
0.489997250000000,0,0x0040,
0.490005166666667,0,0xA511,
0.490021000000000,0,0x8000,
0.490028875000000,0,0xA611,
0.490058000000000,0,0x0005,
0.490065708333333,0,0x2D1D,
0.490081833333333,0,0xBEE2,
0.490089750000000,0,0xAD11,
0.490105583333333,0,0xFFF3,
0.490113500000000,0,0xAE11,
0.490129333333333,0,0x9294,
0.490137250000000,0,0xAF11,
0.490153083333333,0,0xFFFF,
0.490161000000000,0,0xB011,
0.490176833333333,0,0x830E,
0.490184750000000,0,0xB111,
0.490215125000000,0,0x0006,
0.490222833333333,0,0x3B11,
0.490239208333333,0,0xB3DF,
0.490247125000000,0,0xBB11,
0.490262958333333,0,0xB328,
0.490270875000000,0,0xBC11,
0.490286708333333,0,0xB2C0,
0.490294625000000,0,0xBD11,
0.490310458333333,0,0xB1FD,
0.490318375000000,0,0xBE11,
0.490334208333333,0,0xB202,
0.490342125000000,0,0xBF11,
0.490357958333333,0,0xB272,
0.490365875000000,0,0xC011,
0.490395958333333,0,0x000A,
0.490403625000000,0,0x4115,
0.490419791666667,0,0xC0C3,
0.490427666666667,0,0xC111,
0.490443541666667,0,0xC0C3,
0.490451416666667,0,0xC211,
0.490467291666667,0,0xC0C3,
0.490475166666667,0,0xC311,
0.490491000000000,0,0xC0C2,
0.490498916666667,0,0xC411,
0.490514750000000,0,0xC0C2,
0.490522666666667,0,0xC511,
0.490538500000000,0,0xDCD0,
0.490546416666667,0,0xC611,
0.490562250000000,0,0x800C,
0.490570166666667,0,0xC711,
0.490586000000000,0,0xA3DB,
0.490593916666667,0,0xC811,
0.490609750000000,0,0x9E39,
0.490617666666667,0,0xC911,
0.490633500000000,0,0x9E3B,
0.490641416666667,0,0xCA11,
0.490674250000000,0,0x0004,
0.490681916666667,0,0x0329,
0.490697958333333,0,0x0A01,
0.490705833333333,0,0x8329,
0.490721541666667,0,0x0F00,
0.490729375000000,0,0x8429,
0.490745125000000,0,0x0000,
0.490752958333333,0,0x8521,
0.490768666666667,0,0x173F,
0.490776541666667,0,0x8629,
0.490807208333333,0,0x0001,
0.490814916666667,0,0x1D2D,
0.490831041666667,0,0x0055,
0.490838875000000,0,0x9D2D,
0.490866916666667,0,0x0003,
0.490874625000000,0,0x2421,
0.490890916666667,0,0x004C,
0.490898791666667,0,0xA421,
0.490914500000000,0,0x0040,
0.490922375000000,0,0xA521,
0.490938083333333,0,0x8000,
0.490945916666667,0,0xA621,
0.490974291666667,0,0x0005,
0.490981958333333,0,0x2D25,
0.490997958333333,0,0xC81B,
0.491005833333333,0,0xAD21,
0.491021541666667,0,0xFFF5,
0.491029416666667,0,0xAE21,
0.491045083333333,0,0x34EF,
0.491052958333333,0,0xAF21,
0.491068666666667,0,0x8000,
0.491076500000000,0,0xB021,
0.491092250000000,0,0x8300,
0.491100083333333,0,0xB121,
0.491129375000000,0,0x0006,
0.491137041666667,0,0x3B29,
0.491153125000000,0,0xE519,
0.491160958333333,0,0xBB21,
0.491176666666667,0,0x8000,
0.491184541666667,0,0xBC21,
0.491200250000000,0,0x8001,
0.491208125000000,0,0xBD21,
0.491223833333333,0,0x8000,
0.491231666666667,0,0xBE21,
0.491247375000000,0,0xE5B8,
0.491255250000000,0,0xBF21,
0.491270958333333,0,0xE5D1,
0.491278833333333,0,0xC021,
0.491309375000000,0,0x000A,
0.491317041666667,0,0x412D,
0.491333333333333,0,0xDB2F,
0.491341166666667,0,0xC121,
0.491356916666667,0,0xDC2D,
0.491364750000000,0,0xC221,
0.491380458333333,0,0xDF33,
0.491388333333333,0,0xC321,
0.491404041666667,0,0xE121,
0.491411875000000,0,0xC421,
0.491427583333333,0,0xA97F,
0.491435458333333,0,0xC521,
0.491451166666667,0,0xFF4A,
0.491459041666667,0,0xC621,
0.491474750000000,0,0xC015,
0.491482583333333,0,0xC721,
0.491498291666667,0,0xA3BB,
0.491506166666667,0,0xC821,
0.491521875000000,0,0x9E39,
0.491529750000000,0,0xC921,
0.491545416666667,0,0x9E3F,
0.491553291666667,0,0xCA21,
0.499152375000000,0,0x2C3F,
0.499160083333333,0,0x0603,
0.499188250000000,0,0x0004,
0.499195958333333,0,0x0315,
0.499212166666667,0,0x0A01,
0.499220083333333,0,0x8315,
0.499235916666667,0,0x0F00,
0.499243833333333,0,0x8415,
0.499259625000000,0,0x0000,
0.499267583333333,0,0x8512,
0.499283375000000,0,0x2F3F,
0.499291291666667,0,0x8615,
0.499322083333333,0,0x0004,
0.499329750000000,0,0x0319,
0.499346166666667,0,0x0A01,
0.499354125000000,0,0x8319,
0.499369916666667,0,0x0F00,
0.499377833333333,0,0x8419,
0.499393666666667,0,0x0000,
0.499401583333333,0,0x8512,
0.499417416666667,0,0x2F3F,
0.499425333333333,0,0x8619,
0.499455541666667,0,0x0004,
0.499463208333333,0,0x031D,
0.499479250000000,0,0x0A01,
0.499487125000000,0,0x831D,
0.499502958333333,0,0x0F00,
0.499510875000000,0,0x841D,
0.499526708333333,0,0x0000,
0.499534625000000,0,0x8512,
0.499550458333333,0,0x2F3F,
0.499558375000000,0,0x861D,
0.499589291666667,0,0x0004,
0.499597000000000,0,0x0311,
0.499613291666667,0,0x0A01,
0.499621208333333,0,0x8311,
0.499637041666667,0,0x0F00,
0.499644958333333,0,0x8411,
0.499660791666667,0,0x0000,
0.499668708333333,0,0x8512,
0.499684500000000,0,0x2F3F,
0.499692458333333,0,0x8611,
0.499722958333333,0,0x0004,
0.499730625000000,0,0x0315,
0.499746833333333,0,0x0A01,
0.499754750000000,0,0x8315,
0.499770583333333,0,0x0F00,
0.499778500000000,0,0x8415,
0.499794291666667,0,0x0000,
0.499802208333333,0,0x8512,
0.499818041666667,0,0x273F,
0.499825958333333,0,0x8615,
0.499856083333333,0,0x0001,
0.499863791666667,0,0x1D19,
0.499879833333333,0,0x1551,
0.499887750000000,0,0x9D19,
0.499915791666667,0,0x0003,
0.499923458333333,0,0x241D,
0.499939666666667,0,0x0048,
0.499947583333333,0,0xA412,
0.499963416666667,0,0x0040,
0.499971291666667,0,0xA512,
0.499987125000000,0,0x8000,
0.499995041666667,0,0xA612,
0.500023458333333,0,0x0005,
0.500031166666667,0,0x2D11,
0.500047500000000,0,0xBFEB,
0.500055416666667,0,0xAD12,
0.500071208333333,0,0xFFF3,
0.500079125000000,0,0xAE12,
0.500094958333333,0,0x8F6D,
0.500102875000000,0,0xAF12,
0.500118708333333,0,0x8000,
0.500126625000000,0,0xB012,
0.500142458333333,0,0x8300,
0.500150375000000,0,0xB112,
0.500180500000000,0,0x0006,
0.500188208333333,0,0x3B15,
0.500204291666667,0,0xB3E1,
0.500212208333333,0,0xBB12,
0.500228041666667,0,0xB32E,
0.500235958333333,0,0xBC12,
0.500251791666667,0,0xB2BC,
0.500259708333333,0,0xBD12,
0.500275541666667,0,0xB201,
0.500283416666667,0,0xBE12,
0.500299250000000,0,0xB201,
0.500307166666667,0,0xBF12,
0.500323000000000,0,0xB273,
0.500330916666667,0,0xC012,
0.500361250000000,0,0x000A,
0.500368916666667,0,0x4119,
0.500385333333333,0,0xC0C4,
0.500393250000000,0,0xC112,
0.500409083333333,0,0xC0C2,
0.500417000000000,0,0xC212,
0.500432833333333,0,0xC0C2,
0.500440750000000,0,0xC312,
0.500456541666667,0,0xC0C5,
0.500464458333333,0,0xC412,
0.500480291666667,0,0xC0C4,
0.500488250000000,0,0xC512,
0.500504083333333,0,0xDCD2,
0.500512000000000,0,0xC612,
0.500527791666667,0,0x800F,
0.500535708333333,0,0xC712,
0.500551541666667,0,0xA3DB,
0.500559458333333,0,0xC812,
0.500575291666667,0,0x9E38,
0.500583208333333,0,0xC912,
0.500599041666667,0,0x9E3E,
0.500606958333333,0,0xCA12,
0.500639333333333,0,0x0004,
0.500647000000000,0,0x032D,
0.500663416666667,0,0x0A01,
0.500671250000000,0,0x832D,
0.500686958333333,0,0x0F00,
0.500694833333333,0,0x842D,
0.500710541666667,0,0x0000,
0.500718375000000,0,0x8522,
0.500734125000000,0,0x273F,
0.500741958333333,0,0x862D,
0.500772208333333,0,0x0001,
0.500779875000000,0,0x1D21,
0.500795958333333,0,0x0055,
0.500803833333333,0,0x9D21,
0.500831916666667,0,0x0003,
0.500839625000000,0,0x2425,
0.500855875000000,0,0x004C,
0.500863708333333,0,0xA422,
0.500879416666667,0,0x0040,
0.500887291666667,0,0xA522,
0.500903000000000,0,0x8000,
0.500910833333333,0,0xA622,
0.500940250000000,0,0x0005,
0.500947958333333,0,0x2D29,
0.500964375000000,0,0xC926,
0.500972250000000,0,0xAD22,
0.500987958333333,0,0xFFF5,
0.500995791666667,0,0xAE22,
0.501011500000000,0,0x32A2,
0.501019375000000,0,0xAF22,
0.501035083333333,0,0x8000,
0.501042958333333,0,0xB022,
0.501058625000000,0,0x8303,
0.501066500000000,0,0xB122,
0.501096166666667,0,0x0006,
0.501103833333333,0,0x3B2D,
0.501120041666667,0,0xE519,
0.501127875000000,0,0xBB22,
0.501143583333333,0,0x8000,
0.501151416666667,0,0xBC22,
0.501167125000000,0,0x8001,
0.501175000000000,0,0xBD22,
0.501190708333333,0,0x8003,
0.501198583333333,0,0xBE22,
0.501214291666667,0,0xE5C2,
0.501222125000000,0,0xBF22,
0.501237875000000,0,0xE5D7,
0.501245708333333,0,0xC022,
0.501276500000000,0,0x000A,
0.501284166666667,0,0x4121,
0.501300208333333,0,0xDB2D,
0.501308083333333,0,0xC122,
0.501323750000000,0,0xDC2E,
0.501331625000000,0,0xC222,
0.501347333333333,0,0xDF38,
0.501355208333333,0,0xC322,
0.501370916666667,0,0xE124,
0.501378750000000,0,0xC422,
0.501394458333333,0,0xA97F,
0.501402333333333,0,0xC522,
0.501418041666667,0,0xFF4B,
0.501425875000000,0,0xC622,
0.501441625000000,0,0xC016,
0.501449458333333,0,0xC722,
0.501465208333333,0,0xA3C0,
0.501473041666667,0,0xC822,
0.501488750000000,0,0x9E3C,
0.501496625000000,0,0xC922,
0.501512333333333,0,0x9E41,
0.501520166666667,0,0xCA22,
0.509053416666667,0,0x3C3F,
0.509061083333333,0,0x0607,
0.509087875000000,0,0x0004,
0.509095541666667,0,0x0319,
0.509111625000000,0,0x0A01,
0.509119541666667,0,0x8319,
0.509135416666667,0,0x0F00,
0.509143333333333,0,0x8419,
0.509159166666667,0,0x0000,
0.509167083333333,0,0x8513,
0.509182916666667,0,0x3F3F,
0.509190833333333,0,0x8619,
0.509222083333333,0,0x0004,
0.509229791666667,0,0x031D,
0.509245791666667,0,0x0A01,
0.509253708333333,0,0x831D,
0.509269541666667,0,0x0F00,
0.509277458333333,0,0x841D,
0.509293291666667,0,0x0000,
0.509301208333333,0,0x8513,
0.509317041666667,0,0x3F3F,
0.509324958333333,0,0x861D,
0.509355291666667,0,0x0004,
0.509362958333333,0,0x0311,
0.509379416666667,0,0x0A01,
0.509387333333333,0,0x8311,
0.509403166666667,0,0x0F00,
0.509411083333333,0,0x8411,
0.509426958333333,0,0x0000,
0.509434833333333,0,0x8513,
0.509450708333333,0,0x3F3F,
0.509458625000000,0,0x8611,
0.509489791666667,0,0x0004,
0.509497458333333,0,0x0315,
0.509513541666667,0,0x0A01,
0.509521458333333,0,0x8315,
0.509537291666667,0,0x0F00,
0.509545208333333,0,0x8415,
0.509561041666667,0,0x0000,
0.509568958333333,0,0x8513,
0.509584791666667,0,0x3F3F,
0.509592708333333,0,0x8615,
0.509623291666667,0,0x0004,
0.509631000000000,0,0x0319,
0.509647125000000,0,0x0A01,
0.509655041666667,0,0x8319,
0.509670875000000,0,0x0F00,
0.509678791666667,0,0x8419,
0.509694625000000,0,0x0000,
0.509702541666667,0,0x8513,
0.509718333333333,0,0x373F,
0.509726291666667,0,0x8619,
0.509756666666667,0,0x0001,
0.509764375000000,0,0x1D1D,
0.509780708333333,0,0x1551,
0.509788625000000,0,0x9D1D,
0.509817000000000,0,0x0003,
0.509824666666667,0,0x2411,
0.509841000000000,0,0x0048,
0.509848958333333,0,0xA413,
0.509864750000000,0,0x0040,
0.509872666666667,0,0xA513,
0.509888541666667,0,0x8000,
0.509896416666667,0,0xA613,
0.509925291666667,0,0x0005,
0.509932958333333,0,0x2D15,
0.509949333333333,0,0xC0F3,
0.509957291666667,0,0xAD13,
0.509973083333333,0,0xFFF3,
0.509981000000000,0,0xAE13,
0.509996833333333,0,0x8C41,
0.510004750000000,0,0xAF13,
0.510020583333333,0,0x8000,
0.510028500000000,0,0xB013,
0.510044333333333,0,0x8301,
0.510052250000000,0,0xB113,
0.510082833333333,0,0x0006,
0.510090500000000,0,0x3B19,
0.510106666666667,0,0xB3E2,
0.510114583333333,0,0xBB13,
0.510130416666667,0,0xB32A,
0.510138333333333,0,0xBC13,
0.510154125000000,0,0xB2BD,
0.510162083333333,0,0xBD13,
0.510177875000000,0,0xB203,
0.510185791666667,0,0xBE13,
0.510201625000000,0,0xB201,
0.510209541666667,0,0xBF13,
0.510225375000000,0,0xB276,
0.510233291666667,0,0xC013,
0.510263666666667,0,0x000A,
0.510271333333333,0,0x411D,
0.510287708333333,0,0xC0C3,
0.510295625000000,0,0xC113,
0.510311458333333,0,0xC0C6,
0.510319375000000,0,0xC213,
0.510335208333333,0,0xC0C1,
0.510343125000000,0,0xC313,
0.510358958333333,0,0xC0C7,
0.510366875000000,0,0xC413,
0.510382708333333,0,0xC0C3,
0.510390625000000,0,0xC513,
0.510406458333333,0,0xDCD3,
0.510414375000000,0,0xC613,
0.510430208333333,0,0x800E,
0.510438125000000,0,0xC713,
0.510453958333333,0,0xA3DA,
0.510461875000000,0,0xC813,
0.510477708333333,0,0x9E39,
0.510485625000000,0,0xC913,
0.510501458333333,0,0x9E39,
0.510509333333333,0,0xCA13,
0.510540791666667,0,0x0004,
0.510548500000000,0,0x0321,
0.510564916666667,0,0x0A01,
0.510572750000000,0,0x8321,
0.510588458333333,0,0x0F00,
0.510596333333333,0,0x8421,
0.510612041666667,0,0x0000,
0.510619916666667,0,0x8523,
0.510635625000000,0,0x373F,
0.510643458333333,0,0x8621,
0.510673666666667,0,0x0001,
0.510681375000000,0,0x1D25,
0.510697500000000,0,0x0055,
0.510705333333333,0,0x9D25,
0.510733500000000,0,0x0003,
0.510741166666667,0,0x2429,
0.510757375000000,0,0x004C,
0.510765250000000,0,0xA423,
0.510780958333333,0,0x0040,
0.510788791666667,0,0xA523,
0.510804500000000,0,0x8000,
0.510812375000000,0,0xA623,
0.510840750000000,0,0x0005,
0.510848416666667,0,0x2D2D,
0.510864416666667,0,0xCA2F,
0.510872250000000,0,0xAD23,
0.510887958333333,0,0xFFF5,
0.510895833333333,0,0xAE23,
0.510911541666667,0,0x3118,
0.510919375000000,0,0xAF23,
0.510935083333333,0,0xFFFF,
0.510942958333333,0,0xB023,
0.510958666666667,0,0x830B,
0.510966541666667,0,0xB123,
0.510997708333333,0,0x0006,
0.511005416666667,0,0x3B21,
0.511021541666667,0,0xE515,
0.511029375000000,0,0xBB23,
0.511045125000000,0,0x8001,
0.511052958333333,0,0xBC23,
0.511068666666667,0,0x8000,
0.511076541666667,0,0xBD23,
0.511092250000000,0,0x8000,
0.511100083333333,0,0xBE23,
0.511115791666667,0,0xE5B6,
0.511123666666667,0,0xBF23,
0.511139333333333,0,0xE5D1,
0.511147208333333,0,0xC023,
0.511177625000000,0,0x000A,
0.511185333333333,0,0x4125,
0.511201666666667,0,0xDB2B,
0.511209541666667,0,0xC123,
0.511225250000000,0,0xDC2E,
0.511233125000000,0,0xC223,
0.511248833333333,0,0xDF37,
0.511256666666667,0,0xC323,
0.511272416666667,0,0xE120,
0.511280250000000,0,0xC423,
0.511295958333333,0,0xA97D,
0.511303833333333,0,0xC523,
0.511319541666667,0,0xFF4A,
0.511327375000000,0,0xC623,
0.511343083333333,0,0xC015,
0.511350958333333,0,0xC723,
0.511366666666667,0,0xA3C0,
0.511374541666667,0,0xC823,
0.511390250000000,0,0x9E3C,
0.511398083333333,0,0xC923,
0.511413791666667,0,0x9E3A,
0.511421666666667,0,0xCA23,
0.519053750000000,0,0x4C3F,
0.519061458333333,0,0x060B,
0.519089375000000,0,0x0004,
0.519097041666667,0,0x031D,
0.519113166666667,0,0x0A01,
0.519121083333333,0,0x831D,
0.519136916666667,0,0x0F00,
0.519144833333333,0,0x841D,
0.519160666666667,0,0x0000,
0.519168583333333,0,0x8514,
0.519184416666667,0,0x4F3F,
0.519192333333333,0,0x861D,
0.519223708333333,0,0x0004,
0.519231375000000,0,0x0311,
0.519247750000000,0,0x0A01,
0.519255666666667,0,0x8311,
0.519271500000000,0,0x0F00,
0.519279416666667,0,0x8411,
0.519295250000000,0,0x0000,
0.519303166666667,0,0x8514,
0.519319000000000,0,0x4F3F,
0.519326916666667,0,0x8611,
0.519357458333333,0,0x0004,
0.519365125000000,0,0x0315,
0.519381333333333,0,0x0A01,
0.519389250000000,0,0x8315,
0.519405083333333,0,0x0F00,
0.519413041666667,0,0x8415,
0.519428833333333,0,0x0000,
0.519436791666667,0,0x8514,
0.519452625000000,0,0x4F3F,
0.519460541666667,0,0x8615,
0.519491375000000,0,0x0004,
0.519499083333333,0,0x0319,
0.519515458333333,0,0x0A01,
0.519523375000000,0,0x8319,
0.519539208333333,0,0x0F00,
0.519547125000000,0,0x8419,
0.519562958333333,0,0x0000,
0.519570875000000,0,0x8514,
0.519586708333333,0,0x4F3F,
0.519594625000000,0,0x8619,
0.519625416666667,0,0x0004,
0.519633083333333,0,0x031D,
0.519649500000000,0,0x0A01,
0.519657416666667,0,0x831D,
0.519673250000000,0,0x0F00,
0.519681166666667,0,0x841D,
0.519697000000000,0,0x0000,
0.519704916666667,0,0x8514,
0.519720750000000,0,0x473F,
0.519728666666667,0,0x861D,
0.519759041666667,0,0x0001,
0.519766750000000,0,0x1D11,
0.519783083333333,0,0x1551,
0.519791000000000,0,0x9D11,
0.519819041666667,0,0x0003,
0.519826708333333,0,0x2415,
0.519842958333333,0,0x0048,
0.519850833333333,0,0xA414,
0.519866708333333,0,0x0040,
0.519874583333333,0,0xA514,
0.519890416666667,0,0x8000,
0.519898375000000,0,0xA614,
0.519927916666667,0,0x0005,
0.519935583333333,0,0x2D19,
0.519951750000000,0,0xC1FD,
0.519959666666667,0,0xAD14,
0.519975500000000,0,0xFFF3,
0.519983458333333,0,0xAE14,
0.519999250000000,0,0x89EE,
0.520007166666667,0,0xAF14,
0.520023000000000,0,0xFFFF,
0.520030916666667,0,0xB014,
0.520046750000000,0,0x8306,
0.520054666666667,0,0xB114,
0.520085125000000,0,0x0006,
0.520092791666667,0,0x3B1D,
0.520109083333333,0,0xB3E0,
0.520117000000000,0,0xBB14,
0.520132833333333,0,0xB32B,
0.520140750000000,0,0xBC14,
0.520156583333333,0,0xB2BF,
0.520164458333333,0,0xBD14,
0.520180333333333,0,0xB1FE,
0.520188208333333,0,0xBE14,
0.520204041666667,0,0xB1FE,
0.520211958333333,0,0xBF14,
0.520227791666667,0,0xB26E,
0.520235708333333,0,0xC014,
0.520265708333333,0,0x000A,
0.520273375000000,0,0x4111,
0.520289625000000,0,0xC0C5,
0.520297541666667,0,0xC114,
0.520313375000000,0,0xC0C6,
0.520321291666667,0,0xC214,
0.520337125000000,0,0xC0C6,
0.520345041666667,0,0xC314,
0.520360875000000,0,0xC0C6,
0.520368791666667,0,0xC414,
0.520384625000000,0,0xC0C5,
0.520392541666667,0,0xC514,
0.520408333333333,0,0xDCD5,
0.520416250000000,0,0xC614,
0.520432083333333,0,0x8011,
0.520440000000000,0,0xC714,
0.520455833333333,0,0xA3DD,
0.520463750000000,0,0xC814,
0.520479583333333,0,0x9E3B,
0.520487500000000,0,0xC914,
0.520503333333333,0,0x9E38,
0.520511208333333,0,0xCA14,
0.520543583333333,0,0x0004,
0.520551291666667,0,0x0325,
0.520567625000000,0,0x0A01,
0.520575458333333,0,0x8325,
0.520591166666667,0,0x0F00,
0.520599041666667,0,0x8425,
0.520614750000000,0,0x0000,
0.520622583333333,0,0x8524,
0.520638291666667,0,0x473F,
0.520646166666667,0,0x8625,
0.520676625000000,0,0x0001,
0.520684333333333,0,0x1D29,
0.520700666666667,0,0x0055,
0.520708500000000,0,0x9D29,
0.520736541666667,0,0x0003,
0.520744208333333,0,0x242D,
0.520760541666667,0,0x004C,
0.520768416666667,0,0xA424,
0.520784125000000,0,0x0040,
0.520791958333333,0,0xA524,
0.520807708333333,0,0x8000,
0.520815541666667,0,0xA624,
0.520844375000000,0,0x0005,
0.520852083333333,0,0x2D21,
0.520868083333333,0,0xCB3C,
0.520875958333333,0,0xAD24,
0.520891666666667,0,0xFFF5,
0.520899500000000,0,0xAE24,
0.520915208333333,0,0x2F1E,
0.520923083333333,0,0xAF24,
0.520938791666667,0,0x8000,
0.520946625000000,0,0xB024,
0.520962375000000,0,0x8301,
0.520970208333333,0,0xB124,
0.521001166666667,0,0x0006,
0.521008833333333,0,0x3B25,
0.521025208333333,0,0xE519,
0.521033041666667,0,0xBB24,
0.521048750000000,0,0x8000,
0.521056625000000,0,0xBC24,
0.521072333333333,0,0x8001,
0.521080166666667,0,0xBD24,
0.521095916666667,0,0x8004,
0.521103791666667,0,0xBE24,
0.521119458333333,0,0xE5BA,
0.521127333333333,0,0xBF24,
0.521143041666667,0,0xE5D4,
0.521150875000000,0,0xC024,
0.521181500000000,0,0x000A,
0.521189166666667,0,0x4129,
0.521205416666667,0,0xDB31,
0.521213250000000,0,0xC124,
0.521228958333333,0,0xDC2F,
0.521236833333333,0,0xC224,
0.521252541666667,0,0xDF35,
0.521260416666667,0,0xC324,
0.521276125000000,0,0xE122,
0.521284000000000,0,0xC424,
0.521299708333333,0,0xA980,
0.521307583333333,0,0xC524,
0.521323291666667,0,0xFF4E,
0.521331125000000,0,0xC624,
0.521346833333333,0,0xC017,
0.521354708333333,0,0xC724,
0.521370416666667,0,0xA3BD,
0.521378250000000,0,0xC824,
0.521393958333333,0,0x9E39,
0.521401833333333,0,0xC924,
0.521417541666667,0,0x9E3B,
0.521425375000000,0,0xCA24,
0.530044416666667,0,0x5C3F,
0.530052083333333,0,0x060F,
0.530079500000000,0,0x0004,
0.530087166666667,0,0x0311,
0.530103583333333,0,0x0A01,
0.530111500000000,0,0x8311,
0.530127333333333,0,0x0F00,
0.530135208333333,0,0x8411,
0.530151041666667,0,0x0000,
0.530159000000000,0,0x8515,
0.530174833333333,0,0x5F3F,
0.530182708333333,0,0x8611,
0.530214000000000,0,0x0004,
0.530221708333333,0,0x0315,
0.530238166666667,0,0x0A01,
0.530246083333333,0,0x8315,
0.530261916666667,0,0x0F00,
0.530269833333333,0,0x8415,
0.530285666666667,0,0x0000,
0.530293583333333,0,0x8515,
0.530309416666667,0,0x5F3F,
0.530317333333333,0,0x8615,
0.530348083333333,0,0x0004,
0.530355750000000,0,0x0319,
0.530371791666667,0,0x0A01,
0.530379708333333,0,0x8319,
0.530395541666667,0,0x0F00,
0.530403416666667,0,0x8419,
0.530419291666667,0,0x0000,
0.530427166666667,0,0x8515,
0.530443000000000,0,0x5F3F,
0.530450916666667,0,0x8619,
0.530481666666667,0,0x0004,
0.530489333333333,0,0x031D,
0.530505375000000,0,0x0A01,
0.530513291666667,0,0x831D,
0.530529125000000,0,0x0F00,
0.530537041666667,0,0x841D,
0.530552875000000,0,0x0000,
0.530560791666667,0,0x8515,
0.530576625000000,0,0x5F3F,
0.530584541666667,0,0x861D,
0.530615416666667,0,0x0004,
0.530623083333333,0,0x0311,
0.530639458333333,0,0x0A01,
0.530647375000000,0,0x8311,
0.530663208333333,0,0x0F00,
0.530671125000000,0,0x8411,
0.530686958333333,0,0x0000,
0.530694875000000,0,0x8515,
0.530710666666667,0,0x573F,
0.530718583333333,0,0x8611,
0.530748750000000,0,0x0001,
0.530756416666667,0,0x1D15,
0.530772500000000,0,0x1551,
0.530780416666667,0,0x9D15,
0.530808958333333,0,0x0003,
0.530816625000000,0,0x2419,
0.530832875000000,0,0x0048,
0.530840791666667,0,0xA415,
0.530856625000000,0,0x0040,
0.530864541666667,0,0xA515,
0.530880375000000,0,0x8000,
0.530888291666667,0,0xA615,
0.530918000000000,0,0x0005,
0.530925666666667,0,0x2D1D,
0.530941750000000,0,0xC321,
0.530949625000000,0,0xAD15,
0.530965458333333,0,0xFFF3,
0.530973416666667,0,0xAE15,
0.530989250000000,0,0x87C9,
0.530997166666667,0,0xAF15,
0.531013000000000,0,0x8000,
0.531020916666667,0,0xB015,
0.531036750000000,0,0x8301,
0.531044666666667,0,0xB115,
0.531075208333333,0,0x0006,
0.531082875000000,0,0x3B11,
0.531099083333333,0,0xB3E0,
0.531107000000000,0,0xBB15,
0.531122833333333,0,0xB32F,
0.531130750000000,0,0xBC15,
0.531146583333333,0,0xB2BF,
0.531154500000000,0,0xBD15,
0.531170333333333,0,0xB201,
0.531178250000000,0,0xBE15,
0.531194083333333,0,0xB206,
0.531202000000000,0,0xBF15,
0.531217833333333,0,0xB277,
0.531225750000000,0,0xC015,
0.531255833333333,0,0x000A,
0.531263541666667,0,0x4115,
0.531279625000000,0,0xC0C2,
0.531287583333333,0,0xC115,
0.531303375000000,0,0xC0C5,
0.531311291666667,0,0xC215,
0.531327125000000,0,0xC0C1,
0.531335041666667,0,0xC315,
0.531350875000000,0,0xC0C4,
0.531358750000000,0,0xC415,
0.531374583333333,0,0xC0C3,
0.531382500000000,0,0xC515,
0.531398333333333,0,0xDCD5,
0.531406250000000,0,0xC615,
0.531422083333333,0,0x8009,
0.531430000000000,0,0xC715,
0.531445791666667,0,0xA3DB,
0.531453708333333,0,0xC815,
0.531469541666667,0,0x9E39,
0.531477458333333,0,0xC915,
0.531493291666667,0,0x9E39,
0.531501208333333,0,0xCA15,
0.531532458333333,0,0x0004,
0.531540125000000,0,0x0329,
0.531556500000000,0,0x0A01,
0.531564333333333,0,0x8329,
0.531580041666667,0,0x0F00,
0.531587916666667,0,0x8429,
0.531603625000000,0,0x0000,
0.531611458333333,0,0x8525,
0.531627166666667,0,0x573F,
0.531635041666667,0,0x8629,
0.531666125000000,0,0x0001,
0.531673791666667,0,0x1D2D,
0.531690000000000,0,0x0055,
0.531697875000000,0,0x9D2D,
0.531726250000000,0,0x0003,
0.531733916666667,0,0x2421,
0.531749916666667,0,0x004C,
0.531757791666667,0,0xA425,
0.531773500000000,0,0x0040,
0.531781333333333,0,0xA525,
0.531797041666667,0,0x8000,
0.531804916666667,0,0xA625,
0.531834583333333,0,0x0005,
0.531842291666667,0,0x2D25,
0.531858458333333,0,0xCC62,
0.531866291666667,0,0xAD25,
0.531882000000000,0,0xFFF5,
0.531889875000000,0,0xAE25,
0.531905583333333,0,0x2C56,
0.531913458333333,0,0xAF25,
0.531929166666667,0,0xFFFF,
0.531937000000000,0,0xB025,
0.531952708333333,0,0x830C,
0.531960583333333,0,0xB125,
0.531989583333333,0,0x0006,
0.531997291666667,0,0x3B29,
0.532013583333333,0,0xE51F,
0.532021458333333,0,0xBB25,
0.532037166666667,0,0x8000,
0.532045041666667,0,0xBC25,
0.532060750000000,0,0x8001,
0.532068625000000,0,0xBD25,
0.532084333333333,0,0x8002,
0.532092166666667,0,0xBE25,
0.532107875000000,0,0xE5BD,
0.532115750000000,0,0xBF25,
0.532131458333333,0,0xE5D6,
0.532139333333333,0,0xC025,
0.532169375000000,0,0x000A,
0.532177083333333,0,0x412D,
0.532193333333333,0,0xDB2C,
0.532201166666667,0,0xC125,
0.532216875000000,0,0xDC30,
0.532224750000000,0,0xC225,
0.532240458333333,0,0xDF36,
0.532248333333333,0,0xC325,
0.532264041666667,0,0xE12C,
0.532271916666667,0,0xC425,
0.532287625000000,0,0xA982,
0.532295458333333,0,0xC525,
0.532311166666667,0,0xFF4B,
0.532319041666667,0,0xC625,
0.532334750000000,0,0xC019,
0.532342583333333,0,0xC725,
0.532358333333333,0,0xA3C1,
0.532366166666667,0,0xC825,
0.532381875000000,0,0x9E3A,
0.532389708333333,0,0xC925,
0.532405458333333,0,0x9E40,
0.532413291666667,0,0xCA25,
0.539119000000000,0,0x6C3F,
0.539126666666667,0,0x0603,
0.539154708333333,0,0x0004,
0.539162375000000,0,0x0315,
0.539178833333333,0,0x0A01,
0.539186750000000,0,0x8315,
0.539202583333333,0,0x0F00,
0.539210500000000,0,0x8415,
0.539226333333333,0,0x0000,
0.539234250000000,0,0x8516,
0.539250125000000,0,0x6F3F,
0.539258000000000,0,0x8615,
0.539288125000000,0,0x0004,
0.539295833333333,0,0x0319,
0.539311958333333,0,0x0A01,
0.539319875000000,0,0x8319,
0.539335708333333,0,0x0F00,
0.539343583333333,0,0x8419,
0.539359458333333,0,0x0000,
0.539367333333333,0,0x8516,
0.539383208333333,0,0x6F3F,
0.539391083333333,0,0x8619,
0.539421416666667,0,0x0004,
0.539429083333333,0,0x031D,
0.539445541666667,0,0x0A01,
0.539453458333333,0,0x831D,
0.539469291666667,0,0x0F00,
0.539477208333333,0,0x841D,
0.539493041666667,0,0x0000,
0.539500958333333,0,0x8516,
0.539516791666667,0,0x6F3F,
0.539524708333333,0,0x861D,
0.539556125000000,0,0x0004,
0.539563833333333,0,0x0311,
0.539580125000000,0,0x0A01,
0.539588041666667,0,0x8311,
0.539603875000000,0,0x0F00,
0.539611791666667,0,0x8411,
0.539627625000000,0,0x0000,
0.539635583333333,0,0x8516,
0.539651375000000,0,0x6F3F,
0.539659291666667,0,0x8611,
0.539689750000000,0,0x0004,
0.539697416666667,0,0x0315,
0.539713708333333,0,0x0A01,
0.539721625000000,0,0x8315,
0.539737458333333,0,0x0F00,
0.539745333333333,0,0x8415,
0.539761166666667,0,0x0000,
0.539769083333333,0,0x8516,
0.539784916666667,0,0x673F,
0.539792833333333,0,0x8615,
0.539822833333333,0,0x0001,
0.539830500000000,0,0x1D19,
0.539846750000000,0,0x1551,
0.539854666666667,0,0x9D19,
0.539883291666667,0,0x0003,
0.539891000000000,0,0x241D,
0.539907083333333,0,0x0048,
0.539915000000000,0,0xA416,
0.539930833333333,0,0x0040,
0.539938750000000,0,0xA516,
0.539954583333333,0,0x8000,
0.539962500000000,0,0xA616,
0.539992458333333,0,0x0005,
0.540000125000000,0,0x2D11,
0.540016416666667,0,0xC413,
0.540024333333333,0,0xAD16,
0.540040166666667,0,0xFFF3,
0.540048083333333,0,0xAE16,
0.540063958333333,0,0x85AA,
0.540071833333333,0,0xAF16,
0.540087666666667,0,0xFFFF,
0.540095583333333,0,0xB016,
0.540111416666667,0,0x830A,
0.540119333333333,0,0xB116,
0.540149583333333,0,0x0006,
0.540157250000000,0,0x3B15,
0.540173291666667,0,0xB3DF,
0.540181208333333,0,0xBB16,
0.540197000000000,0,0xB329,
0.540204916666667,0,0xBC16,
0.540220791666667,0,0xB2BA,
0.540228666666667,0,0xBD16,
0.540244541666667,0,0xB1FB,
0.540252416666667,0,0xBE16,
0.540268250000000,0,0xB1FE,
0.540276166666667,0,0xBF16,
0.540292000000000,0,0xB26F,
0.540299916666667,0,0xC016,
0.540330583333333,0,0x000A,
0.540338250000000,0,0x4119,
0.540354333333333,0,0xC0C8,
0.540362250000000,0,0xC116,
0.540378125000000,0,0xC0C7,
0.540386000000000,0,0xC216,
0.540401875000000,0,0xC0C8,
0.540409791666667,0,0xC316,
0.540425625000000,0,0xC0C5,
0.540433541666667,0,0xC416,
0.540449375000000,0,0xC0C7,
0.540457291666667,0,0xC516,
0.540473125000000,0,0xDCD7,
0.540481041666667,0,0xC616,
0.540496875000000,0,0x8011,
0.540504791666667,0,0xC716,
0.540520583333333,0,0xA3DD,
0.540528500000000,0,0xC816,
0.540544333333333,0,0x9E3B,
0.540552250000000,0,0xC916,
0.540568083333333,0,0x9E3A,
0.540576000000000,0,0xCA16,
0.540607625000000,0,0x0004,
0.540615291666667,0,0x032D,
0.540631541666667,0,0x0A01,
0.540639375000000,0,0x832D,
0.540655083333333,0,0x0F00,
0.540662958333333,0,0x842D,
0.540678666666667,0,0x0000,
0.540686500000000,0,0x8526,
0.540702208333333,0,0x673F,
0.540710083333333,0,0x862D,
0.540740500000000,0,0x0001,
0.540748208333333,0,0x1D21,
0.540764583333333,0,0x0055,
0.540772458333333,0,0x9D21,
0.540800375000000,0,0x0003,
0.540808083333333,0,0x2425,
0.540824500000000,0,0x004C,
0.540832375000000,0,0xA426,
0.540848083333333,0,0x0040,
0.540855916666667,0,0xA526,
0.540871625000000,0,0x8000,
0.540879500000000,0,0xA626,
0.540908125000000,0,0x0005,
0.540915791666667,0,0x2D29,
0.540932000000000,0,0xCD55,
0.540939875000000,0,0xAD26,
0.540955583333333,0,0xFFF5,
0.540963458333333,0,0xAE26,
0.540979166666667,0,0x2AA4,
0.540987000000000,0,0xAF26,
0.541002708333333,0,0x8000,
0.541010583333333,0,0xB026,
0.541026291666667,0,0x8302,
0.541034166666667,0,0xB126,
0.541064083333333,0,0x0006,
0.541071750000000,0,0x3B2D,
0.541088166666667,0,0xE517,
0.541096041666667,0,0xBB26,
0.541111750000000,0,0x8001,
0.541119583333333,0,0xBC26,
0.541135333333333,0,0x8003,
0.541143166666667,0,0xBD26,
0.541158875000000,0,0x8001,
0.541166708333333,0,0xBE26,
0.541182458333333,0,0xE5B6,
0.541190291666667,0,0xBF26,
0.541206000000000,0,0xE5D0,
0.541213875000000,0,0xC026,
0.541243750000000,0,0x000A,
0.541251458333333,0,0x4121,
0.541267375000000,0,0xDB28,
0.541275250000000,0,0xC126,
0.541290958333333,0,0xDC2C,
0.541298833333333,0,0xC226,
0.541314541666667,0,0xDF38,
0.541322416666667,0,0xC326,
0.541338125000000,0,0xE122,
0.541345958333333,0,0xC426,
0.541361708333333,0,0xA97C,
0.541369541666667,0,0xC526,
0.541385250000000,0,0xFF49,
0.541393125000000,0,0xC626,
0.541408833333333,0,0xC015,
0.541416708333333,0,0xC726,
0.541432416666667,0,0xA3C0,
0.541440250000000,0,0xC826,
0.541455958333333,0,0x9E38,
0.541463833333333,0,0xC926,
0.541479541666667,0,0x9E3B,
0.541487416666667,0,0xCA26,
0.549063583333333,0,0x7C3F,
0.549071250000000,0,0x0607,
0.549098916666667,0,0x0004,
0.549106583333333,0,0x0319,
0.549122958333333,0,0x0A01,
0.549130833333333,0,0x8319,
0.549146666666667,0,0x0F00,
0.549154583333333,0,0x8419,
0.549170458333333,0,0x0000,
0.549178333333333,0,0x8517,
0.549194166666667,0,0x7F3F,
0.549202083333333,0,0x8619,
0.549232791666667,0,0x0004,
0.549240500000000,0,0x031D,
0.549256541666667,0,0x0A01,
0.549264458333333,0,0x831D,
0.549280291666667,0,0x0F00,
0.549288208333333,0,0x841D,
0.549304041666667,0,0x0000,
0.549311958333333,0,0x8517,
0.549327791666667,0,0x7F3F,
0.549335708333333,0,0x861D,
0.549365958333333,0,0x0004,
0.549373666666667,0,0x0311,
0.549389666666667,0,0x0A01,
0.549397583333333,0,0x8311,
0.549413458333333,0,0x0F00,
0.549421375000000,0,0x8411,
0.549437208333333,0,0x0000,
0.549445125000000,0,0x8517,
0.549460958333333,0,0x7F3F,
0.549468875000000,0,0x8611,
0.549500708333333,0,0x0004,
0.549508375000000,0,0x0315,
0.549524791666667,0,0x0A01,
0.549532708333333,0,0x8315,
0.549548541666667,0,0x0F00,
0.549556500000000,0,0x8415,
0.549572333333333,0,0x0000,
0.549580250000000,0,0x8517,
0.549596083333333,0,0x7F3F,
0.549604000000000,0,0x8615,
0.549634458333333,0,0x0004,
0.549642125000000,0,0x0319,
0.549658416666667,0,0x0A01,
0.549666333333333,0,0x8319,
0.549682166666667,0,0x0F00,
0.549690083333333,0,0x8419,
0.549705916666667,0,0x0000,
0.549713833333333,0,0x8517,
0.549729666666667,0,0x773F,
0.549737583333333,0,0x8619,
0.549768125000000,0,0x0001,
0.549775791666667,0,0x1D1D,
0.549792000000000,0,0x1551,
0.549799916666667,0,0x9D1D,
0.549828250000000,0,0x0003,
0.549835916666667,0,0x2411,
0.549852333333333,0,0x0048,
0.549860250000000,0,0xA417,
0.549876083333333,0,0x0040,
0.549884000000000,0,0xA517,
0.549899833333333,0,0x8000,
0.549907750000000,0,0xA617,
0.549936916666667,0,0x0005,
0.549944583333333,0,0x2D15,
0.549960666666667,0,0xC51B,
0.549968583333333,0,0xAD17,
0.549984416666667,0,0xFFF3,
0.549992333333333,0,0xAE17,
0.550008166666667,0,0x8390,
0.550016083333333,0,0xAF17,
0.550031916666667,0,0xFFFF,
0.550039833333333,0,0xB017,
0.550055666666667,0,0x8309,
0.550063583333333,0,0xB117,
0.550093666666667,0,0x0006,
0.550101333333333,0,0x3B19,
0.550117500000000,0,0xB3DE,
0.550125416666667,0,0xBB17,
0.550141250000000,0,0xB328,
0.550149166666667,0,0xBC17,
0.550165000000000,0,0xB2BC,
0.550172916666667,0,0xBD17,
0.550188750000000,0,0xB1FC,
0.550196666666667,0,0xBE17,
0.550212500000000,0,0xB1FE,
0.550220416666667,0,0xBF17,
0.550236208333333,0,0xB26F,
0.550244125000000,0,0xC017,
0.550275208333333,0,0x000A,
0.550282916666667,0,0x411D,
0.550299041666667,0,0xC0C6,
0.550306958333333,0,0xC117,
0.550322791666667,0,0xC0C5,
0.550330708333333,0,0xC217,
0.550346541666667,0,0xC0C6,
0.550354416666667,0,0xC317,
0.550370250000000,0,0xC0C3,
0.550378208333333,0,0xC417,
0.550394000000000,0,0xC0C7,
0.550401916666667,0,0xC517,
0.550417750000000,0,0xDCD0,
0.550425666666667,0,0xC617,
0.550441500000000,0,0x800D,
0.550449416666667,0,0xC717,
0.550465250000000,0,0xA3DD,
0.550473166666667,0,0xC817,
0.550489000000000,0,0x9E37,
0.550496916666667,0,0xC917,
0.550512750000000,0,0x9E3B,
0.550520666666667,0,0xCA17,
0.550551916666667,0,0x0004,
0.550559625000000,0,0x0321,
0.550575583333333,0,0x0A01,
0.550583416666667,0,0x8321,
0.550599166666667,0,0x0F00,
0.550607000000000,0,0x8421,
0.550622708333333,0,0x0000,
0.550630583333333,0,0x8527,
0.550646291666667,0,0x773F,
0.550654125000000,0,0x8621,
0.550685041666667,0,0x0001,
0.550692750000000,0,0x1D25,
0.550709125000000,0,0x0055,
0.550716958333333,0,0x9D25,
0.550744791666667,0,0x0003,
0.550752500000000,0,0x2429,
0.550768541666667,0,0x004C,
0.550776375000000,0,0xA427,
0.550792083333333,0,0x0040,
0.550799958333333,0,0xA527,
0.550815666666667,0,0x8000,
0.550823500000000,0,0xA627,
0.550852083333333,0,0x0005,
0.550859750000000,0,0x2D2D,
0.550876041666667,0,0xCE60,
0.550883916666667,0,0xAD27,
0.550899625000000,0,0xFFF5,
0.550907500000000,0,0xAE27,
0.550923166666667,0,0x2866,
0.550931041666667,0,0xAF27,
0.550946750000000,0,0xFFFF,
0.550954625000000,0,0xB027,
0.550970333333333,0,0x830E,
0.550978166666667,0,0xB127,
0.551009791666667,0,0x0006,
0.551017458333333,0,0x3B21,
0.551033666666667,0,0xE517,
0.551041500000000,0,0xBB27,
0.551057208333333,0,0x8000,
0.551065083333333,0,0xBC27,
0.551080791666667,0,0x8000,
0.551088625000000,0,0xBD27,
0.551104333333333,0,0x8000,
0.551112208333333,0,0xBE27,
0.551127916666667,0,0xE5B7,
0.551135791666667,0,0xBF27,
0.551151500000000,0,0xE5D2,
0.551159333333333,0,0xC027,
0.551188583333333,0,0x000A,
0.551196291666667,0,0x4125,
0.551212375000000,0,0xDB2E,
0.551220208333333,0,0xC127,
0.551235916666667,0,0xDC34,
0.551243791666667,0,0xC227,
0.551259500000000,0,0xDF3C,
0.551267333333333,0,0xC327,
0.551283041666667,0,0xE123,
0.551290916666667,0,0xC427,
0.551306583333333,0,0xA980,
0.551314458333333,0,0xC527,
0.551330166666667,0,0xFF4A,
0.551338000000000,0,0xC627,
0.551353750000000,0,0xC016,
0.551361583333333,0,0xC727,
0.551377291666667,0,0xA3BE,
0.551385166666667,0,0xC827,
0.551400875000000,0,0x9E3E,
0.551408708333333,0,0xC927,
0.551424416666667,0,0x9E3E,
0.551432291666667,0,0xCA27,
0.559163791666667,0,0x8C3F,
0.559171458333333,0,0x060B,
0.559198958333333,0,0x0004,
0.559206625000000,0,0x031D,
0.559222875000000,0,0x0A01,
0.559230791666667,0,0x831D,
0.559246625000000,0,0x0F00,
0.559254541666667,0,0x841D,
0.559270375000000,0,0x0000,
0.559278291666667,0,0x8518,
0.559294125000000,0,0x8F3F,
0.559302041666667,0,0x861D,
0.559333041666667,0,0x0004,
0.559340750000000,0,0x0311,
0.559356958333333,0,0x0A01,
0.559364875000000,0,0x8311,
0.559380708333333,0,0x0F00,
0.559388625000000,0,0x8411,
0.559404458333333,0,0x0000,
0.559412375000000,0,0x8518,
0.559428208333333,0,0x8F3F,
0.559436125000000,0,0x8611,
0.559466458333333,0,0x0004,
0.559474166666667,0,0x0315,
0.559490583333333,0,0x0A01,
0.559498500000000,0,0x8315,
0.559514333333333,0,0x0F00,
0.559522250000000,0,0x8415,
0.559538083333333,0,0x0000,
0.559546000000000,0,0x8518,
0.559561833333333,0,0x8F3F,
0.559569750000000,0,0x8615,
0.559600291666667,0,0x0004,
0.559607958333333,0,0x0319,
0.559624166666667,0,0x0A01,
0.559632083333333,0,0x8319,
0.559647916666667,0,0x0F00,
0.559655833333333,0,0x8419,
0.559671666666667,0,0x0000,
0.559679583333333,0,0x8518,
0.559695416666667,0,0x8F3F,
0.559703375000000,0,0x8619,
0.559733625000000,0,0x0004,
0.559741333333333,0,0x031D,
0.559757750000000,0,0x0A01,
0.559765666666667,0,0x831D,
0.559781500000000,0,0x0F00,
0.559789416666667,0,0x841D,
0.559805291666667,0,0x0000,
0.559813208333333,0,0x8518,
0.559829000000000,0,0x873F,
0.559836916666667,0,0x861D,
0.559866625000000,0,0x0001,
0.559874291666667,0,0x1D11,
0.559890333333333,0,0x1551,
0.559898250000000,0,0x9D11,
0.559926708333333,0,0x0003,
0.559934375000000,0,0x2415,
0.559950666666667,0,0x0048,
0.559958583333333,0,0xA418,
0.559974416666667,0,0x0040,
0.559982333333333,0,0xA518,
0.559998166666667,0,0x8000,
0.560006083333333,0,0xA618,
0.560035250000000,0,0x0005,
0.560042958333333,0,0x2D19,
0.560059000000000,0,0xC628,
0.560066916666667,0,0xAD18,
0.560082750000000,0,0xFFF3,
0.560090666666667,0,0xAE18,
0.560106500000000,0,0x8157,
0.560114416666667,0,0xAF18,
0.560130250000000,0,0x8000,
0.560138166666667,0,0xB018,
0.560154000000000,0,0x8302,
0.560161875000000,0,0xB118,
0.560192458333333,0,0x0006,
0.560200166666667,0,0x3B1D,
0.560216291666667,0,0xB3E1,
0.560224208333333,0,0xBB18,
0.560240041666667,0,0xB32B,
0.560247958333333,0,0xBC18,
0.560263791666667,0,0xB2BC,
0.560271708333333,0,0xBD18,
0.560287541666667,0,0xB201,
0.560295458333333,0,0xBE18,
0.560311291666667,0,0xB1FD,
0.560319208333333,0,0xBF18,
0.560335041666667,0,0xB272,
0.560342958333333,0,0xC018,
0.560373041666667,0,0x000A,
0.560380708333333,0,0x4111,
0.560396875000000,0,0xC0C3,
0.560404791666667,0,0xC118,
0.560420625000000,0,0xC0C6,
0.560428541666667,0,0xC218,
0.560444375000000,0,0xC0C3,
0.560452291666667,0,0xC318,
0.560468125000000,0,0xC0C2,
0.560476041666667,0,0xC418,
0.560491875000000,0,0xC0C3,
0.560499791666667,0,0xC518,
0.560515625000000,0,0xDCD2,
0.560523500000000,0,0xC618,
0.560539333333333,0,0x8010,
0.560547250000000,0,0xC718,
0.560563083333333,0,0xA3DC,
0.560571000000000,0,0xC818,
0.560586833333333,0,0x9E3A,
0.560594750000000,0,0xC918,
0.560610583333333,0,0x9E3B,
0.560618500000000,0,0xCA18,
0.560650125000000,0,0x0004,
0.560657791666667,0,0x0325,
0.560673958333333,0,0x0A01,
0.560681833333333,0,0x8325,
0.560697541666667,0,0x0F00,
0.560705375000000,0,0x8425,
0.560721083333333,0,0x0000,
0.560728958333333,0,0x8528,
0.560744666666667,0,0x873F,
0.560752541666667,0,0x8625,
0.560783250000000,0,0x0001,
0.560790916666667,0,0x1D29,
0.560807041666667,0,0x0055,
0.560814875000000,0,0x9D29,
0.560842708333333,0,0x0003,
0.560850375000000,0,0x242D,
0.560866416666667,0,0x004C,
0.560874291666667,0,0xA428,
0.560890000000000,0,0x0040,
0.560897875000000,0,0xA528,
0.560913583333333,0,0x8000,
0.560921416666667,0,0xA628,
0.560949791666667,0,0x0005,
0.560957500000000,0,0x2D21,
0.560973458333333,0,0xCF6E,
0.560981333333333,0,0xAD28,
0.560997041666667,0,0xFFF5,
0.561004875000000,0,0xAE28,
0.561020625000000,0,0x26C1,
0.561028458333333,0,0xAF28,
0.561044166666667,0,0x8000,
0.561052041666667,0,0xB028,
0.561067750000000,0,0x8300,
0.561075625000000,0,0xB128,
0.561105125000000,0,0x0006,
0.561112791666667,0,0x3B25,
0.561129166666667,0,0xE513,
0.561137000000000,0,0xBB28,
0.561152708333333,0,0x8000,
0.561160583333333,0,0xBC28,
0.561176291666667,0,0x8000,
0.561184125000000,0,0xBD28,
0.561199833333333,0,0x8001,
0.561207708333333,0,0xBE28,
0.561223416666667,0,0xE5BB,
0.561231250000000,0,0xBF28,
0.561246958333333,0,0xE5D4,
0.561254833333333,0,0xC028,
0.561285708333333,0,0x000A,
0.561293375000000,0,0x4129,
0.561309791666667,0,0xDB2B,
0.561317666666667,0,0xC128,
0.561333375000000,0,0xDC2C,
0.561341250000000,0,0xC228,
0.561356958333333,0,0xDF36,
0.561364791666667,0,0xC328,
0.561380541666667,0,0xE11C,
0.561388375000000,0,0xC428,
0.561404083333333,0,0xA97B,
0.561411958333333,0,0xC528,
0.561427666666667,0,0xFF4A,
0.561435541666667,0,0xC628,
0.561451250000000,0,0xC014,
0.561459083333333,0,0xC728,
0.561474791666667,0,0xA3BD,
0.561482666666667,0,0xC828,
0.561498375000000,0,0x9E3B,
0.561506250000000,0,0xC928,
0.561521958333333,0,0x9E42,
0.561529791666667,0,0xCA28,
0.569039916666667,0,0x9C3F,
0.569047583333333,0,0x060F,
0.569074750000000,0,0x0004,
0.569082458333333,0,0x0311,
0.569098541666667,0,0x0A01,
0.569106458333333,0,0x8311,
0.569122291666667,0,0x0F00,
0.569130208333333,0,0x8411,
0.569146083333333,0,0x0000,
0.569154000000000,0,0x8519,
0.569169833333333,0,0x9F3F,
0.569177750000000,0,0x8611,
0.569208333333333,0,0x0004,
0.569216000000000,0,0x0315,
0.569232166666667,0,0x0A01,
0.569240083333333,0,0x8315,
0.569255875000000,0,0x0F00,
0.569263833333333,0,0x8415,
0.569279666666667,0,0x0000,
0.569287583333333,0,0x8519,
0.569303416666667,0,0x9F3F,
0.569311333333333,0,0x8615,
0.569342166666667,0,0x0004,
0.569349833333333,0,0x0319,
0.569366291666667,0,0x0A01,
0.569374208333333,0,0x8319,
0.569390041666667,0,0x0F00,
0.569397958333333,0,0x8419,
0.569413791666667,0,0x0000,
0.569421750000000,0,0x8519,
0.569437583333333,0,0x9F3F,
0.569445500000000,0,0x8619,
0.569476333333333,0,0x0004,
0.569484000000000,0,0x031D,
0.569500458333333,0,0x0A01,
0.569508333333333,0,0x831D,
0.569524166666667,0,0x0F00,
0.569532083333333,0,0x841D,
0.569547916666667,0,0x0000,
0.569555833333333,0,0x8519,
0.569571708333333,0,0x9F3F,
0.569579583333333,0,0x861D,
0.569609750000000,0,0x0004,
0.569617416666667,0,0x0311,
0.569633500000000,0,0x0A01,
0.569641458333333,0,0x8311,
0.569657250000000,0,0x0F00,
0.569665208333333,0,0x8411,
0.569681000000000,0,0x0000,
0.569688916666667,0,0x8519,
0.569704750000000,0,0x973F,
0.569712708333333,0,0x8611,
0.569743791666667,0,0x0001,
0.569751500000000,0,0x1D15,
0.569767583333333,0,0x1551,
0.569775500000000,0,0x9D15,
0.569802875000000,0,0x0003,
0.569810583333333,0,0x2419,
0.569826958333333,0,0x0048,
0.569834875000000,0,0xA419,
0.569850666666667,0,0x0040,
0.569858625000000,0,0xA519,
0.569874416666667,0,0x8000,
0.569882375000000,0,0xA619,
0.569910791666667,0,0x0005,
0.569918500000000,0,0x2D1D,
0.569934791666667,0,0xC72F,
0.569942708333333,0,0xAD19,
0.569958541666667,0,0xFFF3,
0.569966458333333,0,0xAE19,
0.569982291666667,0,0x7F57,
0.569990250000000,0,0xAF19,
0.570006041666667,0,0x8000,
0.570013958333333,0,0xB019,
0.570029833333333,0,0x8300,
0.570037750000000,0,0xB119,
0.570067375000000,0,0x0006,
0.570075041666667,0,0x3B11,
0.570091166666667,0,0xB3E0,
0.570099083333333,0,0xBB19,
0.570114916666667,0,0xB32B,
0.570122833333333,0,0xBC19,
0.570138666666667,0,0xB2BE,
0.570146583333333,0,0xBD19,
0.570162416666667,0,0xB1FF,
0.570170333333333,0,0xBE19,
0.570186166666667,0,0xB204,
0.570194083333333,0,0xBF19,
0.570209916666667,0,0xB270,
0.570217833333333,0,0xC019,
0.570248291666667,0,0x000A,
0.570255958333333,0,0x4115,
0.570272208333333,0,0xC0C5,
0.570280166666667,0,0xC119,
0.570295958333333,0,0xC0C7,
0.570303916666667,0,0xC219,
0.570319750000000,0,0xC0C7,
0.570327666666667,0,0xC319,
0.570343458333333,0,0xC0C6,
0.570351416666667,0,0xC419,
0.570367250000000,0,0xC0C7,
0.570375166666667,0,0xC519,
0.570391000000000,0,0xDCD2,
0.570398916666667,0,0xC619,
0.570414750000000,0,0x8011,
0.570422666666667,0,0xC719,
0.570438500000000,0,0xA3DA,
0.570446416666667,0,0xC819,
0.570462208333333,0,0x9E3A,
0.570470125000000,0,0xC919,
0.570485958333333,0,0x9E39,
0.570493875000000,0,0xCA19,
0.570525000000000,0,0x0004,
0.570532708333333,0,0x0329,
0.570549083333333,0,0x0A01,
0.570556958333333,0,0x8329,
0.570572666666667,0,0x0F00,
0.570580500000000,0,0x8429,
0.570596250000000,0,0x0000,
0.570604083333333,0,0x8529,
0.570619791666667,0,0x973F,
0.570627666666667,0,0x8629,
0.570657666666667,0,0x0001,
0.570665333333333,0,0x1D2D,
0.570681666666667,0,0x0055,
0.570689541666667,0,0x9D2D,
0.570717833333333,0,0x0003,
0.570725500000000,0,0x2421,
0.570741583333333,0,0x004C,
0.570749416666667,0,0xA429,
0.570765166666667,0,0x0040,
0.570773000000000,0,0xA529,
0.570788750000000,0,0x8000,
0.570796583333333,0,0xA629,
0.570825500000000,0,0x0005,
0.570833166666667,0,0x2D25,
0.570849125000000,0,0xD077,
0.570857000000000,0,0xAD29,
0.570872708333333,0,0xFFF5,
0.570880541666667,0,0xAE29,
0.570896291666667,0,0x242B,
0.570904125000000,0,0xAF29,
0.570919833333333,0,0xFFFF,
0.570927666666667,0,0xB029,
0.570943416666667,0,0x830D,
0.570951250000000,0,0xB129,
0.570981875000000,0,0x0006,
0.570989541666667,0,0x3B29,
0.571005750000000,0,0xE519,
0.571013625000000,0,0xBB29,
0.571029333333333,0,0x8002,
0.571037208333333,0,0xBC29,
0.571052916666667,0,0x8000,
0.571060750000000,0,0xBD29,
0.571076458333333,0,0x8000,
0.571084333333333,0,0xBE29,
0.571100041666667,0,0xE5BA,
0.571107916666667,0,0xBF29,
0.571123625000000,0,0xE5D2,
0.571131458333333,0,0xC029,
0.571161750000000,0,0x000A,
0.571169416666667,0,0x412D,
0.571185458333333,0,0xDB28,
0.571193333333333,0,0xC129,
0.571209041666667,0,0xDC2B,
0.571216916666667,0,0xC229,
0.571232625000000,0,0xDF32,
0.571240458333333,0,0xC329,
0.571256166666667,0,0xE11D,
0.571264041666667,0,0xC429,
0.571279750000000,0,0xA97C,
0.571287583333333,0,0xC529,
0.571303291666667,0,0xFF46,
0.571311166666667,0,0xC629,
0.571326875000000,0,0xC011,
0.571334708333333,0,0xC729,
0.571350416666667,0,0xA3C1,
0.571358291666667,0,0xC829,
0.571374000000000,0,0x9E34,
0.571381875000000,0,0xC929,
0.571397583333333,0,0x9E3B,
0.571405416666667,0,0xCA29,
0.579014958333333,0,0xAC3F,
0.579022625000000,0,0x0603,
0.579049791666667,0,0x0004,
0.579057458333333,0,0x0315,
0.579073500000000,0,0x0A01,
0.579081416666667,0,0x8315,
0.579097250000000,0,0x0F00,
0.579105166666667,0,0x8415,
0.579121000000000,0,0x0000,
0.579128916666667,0,0x851A,
0.579144791666667,0,0xAF3F,
0.579152666666667,0,0x8615,
0.579182875000000,0,0x0004,
0.579190583333333,0,0x0319,
0.579206625000000,0,0x0A01,
0.579214541666667,0,0x8319,
0.579230375000000,0,0x0F00,
0.579238333333333,0,0x8419,
0.579254125000000,0,0x0000,
0.579262041666667,0,0x851A,
0.579277916666667,0,0xAF3F,
0.579285833333333,0,0x8619,
0.579316333333333,0,0x0004,
0.579324000000000,0,0x031D,
0.579340250000000,0,0x0A01,
0.579348166666667,0,0x831D,
0.579364041666667,0,0x0F00,
0.579371958333333,0,0x841D,
0.579387750000000,0,0x0000,
0.579395666666667,0,0x851A,
0.579411500000000,0,0xAF3F,
0.579419416666667,0,0x861D,
0.579450333333333,0,0x0004,
0.579458000000000,0,0x0311,
0.579474333333333,0,0x0A01,
0.579482291666667,0,0x8311,
0.579498125000000,0,0x0F00,
0.579506041666667,0,0x8411,
0.579521875000000,0,0x0000,
0.579529791666667,0,0x851A,
0.579545625000000,0,0xAF3F,
0.579553541666667,0,0x8611,
0.579583708333333,0,0x0004,
0.579591416666667,0,0x0315,
0.579607458333333,0,0x0A01,
0.579615375000000,0,0x8315,
0.579631208333333,0,0x0F00,
0.579639125000000,0,0x8415,
0.579654958333333,0,0x0000,
0.579662875000000,0,0x851A,
0.579678666666667,0,0xA73F,
0.579686625000000,0,0x8615,
0.579717291666667,0,0x0001,
0.579724958333333,0,0x1D19,
0.579741041666667,0,0x1551,
0.579748916666667,0,0x9D19,
0.579777583333333,0,0x0003,
0.579785250000000,0,0x241D,
0.579801375000000,0,0x0048,
0.579809291666667,0,0xA41A,
0.579825125000000,0,0x0040,
0.579833041666667,0,0xA51A,
0.579848875000000,0,0x8000,
0.579856791666667,0,0xA61A,
0.579885541666667,0,0x0005,
0.579893250000000,0,0x2D11,
0.579909208333333,0,0xC838,
0.579917125000000,0,0xAD1A,
0.579933000000000,0,0xFFF3,
0.579940875000000,0,0xAE1A,
0.579956750000000,0,0x7C6E,
0.579964666666667,0,0xAF1A,
0.579980458333333,0,0x8000,
0.579988375000000,0,0xB01A,
0.580004208333333,0,0x8300,
0.580012125000000,0,0xB11A,
0.580041458333333,0,0x0006,
0.580049125000000,0,0x3B15,
0.580065541666667,0,0xB3E0,
0.580073458333333,0,0xBB1A,
0.580089291666667,0,0xB329,
0.580097208333333,0,0xBC1A,
0.580113041666667,0,0xB2BC,
0.580120958333333,0,0xBD1A,
0.580136791666667,0,0xB1FE,
0.580144708333333,0,0xBE1A,
0.580160541666667,0,0xB202,
0.580168458333333,0,0xBF1A,
0.580184291666667,0,0xB277,
0.580192208333333,0,0xC01A,
0.580222916666667,0,0x000A,
0.580230625000000,0,0x4119,
0.580246625000000,0,0xC0C5,
0.580254541666667,0,0xC11A,
0.580270375000000,0,0xC0C0,
0.580278291666667,0,0xC21A,
0.580294125000000,0,0xC0C3,
0.580302041666667,0,0xC31A,
0.580317875000000,0,0xC0C5,
0.580325791666667,0,0xC41A,
0.580341625000000,0,0xC0C4,
0.580349541666667,0,0xC51A,
0.580365375000000,0,0xDCD1,
0.580373291666667,0,0xC61A,
0.580389125000000,0,0x800D,
0.580397041666667,0,0xC71A,
0.580412875000000,0,0xA3DA,
0.580420791666667,0,0xC81A,
0.580436625000000,0,0x9E38,
0.580444541666667,0,0xC91A,
0.580460375000000,0,0x9E3D,
0.580468291666667,0,0xCA1A,
0.580499958333333,0,0x0004,
0.580507625000000,0,0x032D,
0.580523750000000,0,0x0A01,
0.580531583333333,0,0x832D,
0.580547291666667,0,0x0F00,
0.580555166666667,0,0x842D,
0.580570875000000,0,0x0000,
0.580578708333333,0,0x852A,
0.580594416666667,0,0xA73F,
0.580602291666667,0,0x862D,
0.580633000000000,0,0x0001,
0.580640666666667,0,0x1D21,
0.580656791666667,0,0x0055,
0.580664666666667,0,0x9D21,
0.580692500000000,0,0x0003,
0.580700166666667,0,0x2425,
0.580716208333333,0,0x004C,
0.580724041666667,0,0xA42A,
0.580739750000000,0,0x0040,
0.580747625000000,0,0xA52A,
0.580763333333333,0,0x8000,
0.580771166666667,0,0xA62A,
0.580799875000000,0,0x0005,
0.580807541666667,0,0x2D29,
0.580823708333333,0,0xD182,
0.580831541666667,0,0xAD2A,
0.580847250000000,0,0xFFF5,
0.580855125000000,0,0xAE2A,
0.580870833333333,0,0x213E,
0.580878708333333,0,0xAF2A,
0.580894416666667,0,0xFFFF,
0.580902250000000,0,0xB02A,
0.580918000000000,0,0x830B,
0.580925833333333,0,0xB12A,
0.580955375000000,0,0x0006,
0.580963041666667,0,0x3B2D,
0.580979375000000,0,0xE516,
0.580987208333333,0,0xBB2A,
0.581002916666667,0,0x8001,
0.581010791666667,0,0xBC2A,
0.581026500000000,0,0x8000,
0.581034333333333,0,0xBD2A,
0.581050041666667,0,0x8001,
0.581057916666667,0,0xBE2A,
0.581073625000000,0,0xE5BA,
0.581081458333333,0,0xBF2A,
0.581097208333333,0,0xE5CF,
0.581105041666667,0,0xC02A,
0.581135666666667,0,0x000A,
0.581143375000000,0,0x4121,
0.581159541666667,0,0xDB31,
0.581167375000000,0,0xC12A,
0.581183125000000,0,0xDC2D,
0.581190958333333,0,0xC22A,
0.581206666666667,0,0xDF32,
0.581214541666667,0,0xC32A,
0.581230250000000,0,0xE123,
0.581238125000000,0,0xC42A,
0.581253833333333,0,0xA97E,
0.581261666666667,0,0xC52A,
0.581277416666667,0,0xFF4B,
0.581285250000000,0,0xC62A,
0.581300958333333,0,0xC013,
0.581308833333333,0,0xC72A,
0.581324541666667,0,0xA3BE,
0.581332375000000,0,0xC82A,
0.581348083333333,0,0x9E39,
0.581355958333333,0,0xC92A,
0.581371666666667,0,0x9E3C,
0.581379541666667,0,0xCA2A,
0.589199791666667,0,0xBC3F,
0.589207500000000,0,0x0607,
0.589235208333333,0,0x0004,
0.589242875000000,0,0x0319,
0.589259083333333,0,0x0A01,
0.589267000000000,0,0x8319,
0.589282833333333,0,0x0F00,
0.589290750000000,0,0x8419,
0.589306583333333,0,0x0000,
0.589314500000000,0,0x851B,
0.589330333333333,0,0xBF3F,
0.589338250000000,0,0x8619,
0.589369583333333,0,0x0004,
0.589377250000000,0,0x031D,
0.589393666666667,0,0x0A01,
0.589401583333333,0,0x831D,
0.589417416666667,0,0x0F00,
0.589425333333333,0,0x841D,
0.589441166666667,0,0x0000,
0.589449083333333,0,0x851B,
0.589464916666667,0,0xBF3F,
0.589472875000000,0,0x861D,
0.589504250000000,0,0x0004,
0.589511916666667,0,0x0311,
0.589528250000000,0,0x0A01,
0.589536208333333,0,0x8311,
0.589552000000000,0,0x0F00,
0.589559958333333,0,0x8411,
0.589575750000000,0,0x0000,
0.589583708333333,0,0x851B,
0.589599541666667,0,0xBF3F,
0.589607416666667,0,0x8611,
0.589637916666667,0,0x0004,
0.589645583333333,0,0x0315,
0.589661875000000,0,0x0A01,
0.589669791666667,0,0x8315,
0.589685625000000,0,0x0F00,
0.589693541666667,0,0x8415,
0.589709375000000,0,0x0000,
0.589717291666667,0,0x851B,
0.589733125000000,0,0xBF3F,
0.589741041666667,0,0x8615,
0.589771916666667,0,0x0004,
0.589779625000000,0,0x0319,
0.589795916666667,0,0x0A01,
0.589803833333333,0,0x8319,
0.589819666666667,0,0x0F00,
0.589827583333333,0,0x8419,
0.589843416666667,0,0x0000,
0.589851333333333,0,0x851B,
0.589867166666667,0,0xB73F,
0.589875083333333,0,0x8619,
0.589905625000000,0,0x0001,
0.589913333333333,0,0x1D1D,
0.589929500000000,0,0x1551,
0.589937416666667,0,0x9D1D,
0.589965666666667,0,0x0003,
0.589973333333333,0,0x2411,
0.589989333333333,0,0x0048,
0.589997250000000,0,0xA41B,
0.590013083333333,0,0x0040,
0.590021000000000,0,0xA51B,
0.590036833333333,0,0x8000,
0.590044750000000,0,0xA61B,
0.590074125000000,0,0x0005,
0.590081833333333,0,0x2D15,
0.590098166666667,0,0xC947,
0.590106083333333,0,0xAD1B,
0.590121916666667,0,0xFFF3,
0.590129833333333,0,0xAE1B,
0.590145666666667,0,0x7949,
0.590153583333333,0,0xAF1B,
0.590169416666667,0,0xFFFF,
0.590177333333333,0,0xB01B,
0.590193166666667,0,0x830E,
0.590201083333333,0,0xB11B,
0.590231083333333,0,0x0006,
0.590238750000000,0,0x3B19,
0.590255000000000,0,0xB3DF,
0.590262916666667,0,0xBB1B,
0.590278750000000,0,0xB32D,
0.590286666666667,0,0xBC1B,
0.590302500000000,0,0xB2B8,
0.590310416666667,0,0xBD1B,
0.590326250000000,0,0xB1FA,
0.590334166666667,0,0xBE1B,
0.590350000000000,0,0xB203,
0.590357916666667,0,0xBF1B,
0.590373750000000,0,0xB274,
0.590381666666667,0,0xC01B,
0.590411875000000,0,0x000A,
0.590419583333333,0,0x411D,
0.590435583333333,0,0xC0C8,
0.590443500000000,0,0xC11B,
0.590459333333333,0,0xC0C5,
0.590467250000000,0,0xC21B,
0.590483083333333,0,0xC0C7,
0.590491000000000,0,0xC31B,
0.590506833333333,0,0xC0CB,
0.590514750000000,0,0xC41B,
0.590530583333333,0,0xC0CB,
0.590538500000000,0,0xC51B,
0.590554333333333,0,0xDCD4,
0.590562250000000,0,0xC61B,
0.590578083333333,0,0x8014,
0.590586000000000,0,0xC71B,
0.590601833333333,0,0xA3DC,
0.590609750000000,0,0xC81B,
0.590625625000000,0,0x9E3B,
0.590633541666667,0,0xC91B,
0.590649375000000,0,0x9E3D,
0.590657291666667,0,0xCA1B,
0.590690250000000,0,0x0004,
0.590697916666667,0,0x0321,
0.590714041666667,0,0x0A01,
0.590721875000000,0,0x8321,
0.590737583333333,0,0x0F00,
0.590745458333333,0,0x8421,
0.590761166666667,0,0x0000,
0.590769000000000,0,0x852B,
0.590784708333333,0,0xB73F,
0.590792583333333,0,0x8621,
0.590823166666667,0,0x0001,
0.590830833333333,0,0x1D25,
0.590847083333333,0,0x0055,
0.590854958333333,0,0x9D25,
0.590883083333333,0,0x0003,
0.590890791666667,0,0x2429,
0.590906958333333,0,0x004C,
0.590914833333333,0,0xA42B,
0.590930541666667,0,0x0040,
0.590938416666667,0,0xA52B,
0.590954125000000,0,0x8000,
0.590961958333333,0,0xA62B,
0.590990916666667,0,0x0005,
0.590998583333333,0,0x2D2D,
0.591015000000000,0,0xD293,
0.591022833333333,0,0xAD2B,
0.591038541666667,0,0xFFF5,
0.591046375000000,0,0xAE2B,
0.591062125000000,0,0x1EDD,
0.591069958333333,0,0xAF2B,
0.591085708333333,0,0x8000,
0.591093541666667,0,0xB02B,
0.591109250000000,0,0x8305,
0.591117125000000,0,0xB12B,
0.591146375000000,0,0x0006,
0.591154041666667,0,0x3B21,
0.591170125000000,0,0xE518,
0.591178000000000,0,0xBB2B,
0.591193708333333,0,0x8000,
0.591201583333333,0,0xBC2B,
0.591217291666667,0,0x8000,
0.591225125000000,0,0xBD2B,
0.591240833333333,0,0x8003,
0.591248708333333,0,0xBE2B,
0.591264416666667,0,0xE5BF,
0.591272250000000,0,0xBF2B,
0.591287958333333,0,0xE5D9,
0.591295833333333,0,0xC02B,
0.591326041666667,0,0x000A,
0.591333750000000,0,0x4125,
0.591349833333333,0,0xDB2F,
0.591357708333333,0,0xC12B,
0.591373375000000,0,0xDC31,
0.591381250000000,0,0xC22B,
0.591396958333333,0,0xDF32,
0.591404791666667,0,0xC32B,
0.591420500000000,0,0xE125,
0.591428375000000,0,0xC42B,
0.591444083333333,0,0xA97C,
0.591451916666667,0,0xC52B,
0.591467666666667,0,0xFF45,
0.591475500000000,0,0xC62B,
0.591491208333333,0,0xC018,
0.591499083333333,0,0xC72B,
0.591514750000000,0,0xA3C0,
0.591522625000000,0,0xC82B,
0.591538333333333,0,0x9E38,
0.591546208333333,0,0xC92B,
0.591561916666667,0,0x9E3C,
0.591569750000000,0,0xCA2B,
0.599049250000000,0,0xCC3F,
0.599056916666667,0,0x060B,
0.599083916666667,0,0x0004,
0.599091625000000,0,0x031D,
0.599108041666667,0,0x0A01,
0.599115958333333,0,0x831D,
0.599131791666667,0,0x0F00,
0.599139708333333,0,0x841D,
0.599155541666667,0,0x0000,
0.599163458333333,0,0x851C,
0.599179291666667,0,0xCF3F,
0.599187208333333,0,0x861D,
0.599217583333333,0,0x0004,
0.599225291666667,0,0x0311,
0.599241625000000,0,0x0A01,
0.599249541666667,0,0x8311,
0.599265375000000,0,0x0F00,
0.599273291666667,0,0x8411,
0.599289125000000,0,0x0000,
0.599297041666667,0,0x851C,
0.599312875000000,0,0xCF3F,
0.599320791666667,0,0x8611,
0.599351500000000,0,0x0004,
0.599359166666667,0,0x0315,
0.599375208333333,0,0x0A01,
0.599383125000000,0,0x8315,
0.599398958333333,0,0x0F00,
0.599406875000000,0,0x8415,
0.599422708333333,0,0x0000,
0.599430625000000,0,0x851C,
0.599446458333333,0,0xCF3F,
0.599454375000000,0,0x8615,
0.599485208333333,0,0x0004,
0.599492875000000,0,0x0319,
0.599509291666667,0,0x0A01,
0.599517208333333,0,0x8319,
0.599533041666667,0,0x0F00,
0.599540958333333,0,0x8419,
0.599556791666667,0,0x0000,
0.599564708333333,0,0x851C,
0.599580541666667,0,0xCF3F,
0.599588458333333,0,0x8619,
0.599618333333333,0,0x0004,
0.599626041666667,0,0x031D,
0.599642375000000,0,0x0A01,
0.599650291666667,0,0x831D,
0.599666125000000,0,0x0F00,
0.599674041666667,0,0x841D,
0.599689875000000,0,0x0000,
0.599697791666667,0,0x851C,
0.599713625000000,0,0xC73F,
0.599721541666667,0,0x861D,
0.599752250000000,0,0x0001,
0.599759916666667,0,0x1D11,
0.599775916666667,0,0x1551,
0.599783875000000,0,0x9D11,
0.599811375000000,0,0x0003,
0.599819041666667,0,0x2415,
0.599835291666667,0,0x0048,
0.599843208333333,0,0xA41C,
0.599859041666667,0,0x0040,
0.599866958333333,0,0xA51C,
0.599882791666667,0,0x8000,
0.599890708333333,0,0xA61C,
0.599919500000000,0,0x0005,
0.599927208333333,0,0x2D19,
0.599943625000000,0,0xCA4D,
0.599951541666667,0,0xAD1C,
0.599967375000000,0,0xFFF3,
0.599975291666667,0,0xAE1C,
0.599991125000000,0,0x7641,
0.599999041666667,0,0xAF1C,
0.600014875000000,0,0x8000,
0.600022791666667,0,0xB01C,
0.600038583333333,0,0x8300,
0.600046541666667,0,0xB11C,
0.600075958333333,0,0x0006,
0.600083625000000,0,0x3B1D,
0.600099958333333,0,0xB3E2,
0.600107875000000,0,0xBB1C,
0.600123708333333,0,0xB32C,
0.600131625000000,0,0xBC1C,
0.600147458333333,0,0xB2BF,
0.600155333333333,0,0xBD1C,
0.600171166666667,0,0xB200,
0.600179125000000,0,0xBE1C,
0.600194916666667,0,0xB1FF,
0.600202875000000,0,0xBF1C,
0.600218666666667,0,0xB26D,
0.600226583333333,0,0xC01C,
0.600256500000000,0,0x000A,
0.600264166666667,0,0x4111,
0.600280500000000,0,0xC0C6,
0.600288416666667,0,0xC11C,
0.600304250000000,0,0xC0C0,
0.600312166666667,0,0xC21C,
0.600328000000000,0,0xC0C4,
0.600335916666667,0,0xC31C,
0.600351750000000,0,0xC0C1,
0.600359666666667,0,0xC41C,
0.600375500000000,0,0xC0C5,
0.600383416666667,0,0xC51C,
0.600399250000000,0,0xDCD3,
0.600407166666667,0,0xC61C,
0.600422958333333,0,0x800B,
0.600430875000000,0,0xC71C,
0.600446708333333,0,0xA3DE,
0.600454625000000,0,0xC81C,
0.600470458333333,0,0x9E3B,
0.600478375000000,0,0xC91C,
0.600494208333333,0,0x9E3E,
0.600502125000000,0,0xCA1C,
0.600534291666667,0,0x0004,
0.600541958333333,0,0x0325,
0.600558250000000,0,0x0A01,
0.600566083333333,0,0x8325,
0.600581791666667,0,0x0F00,
0.600589666666667,0,0x8425,
0.600605375000000,0,0x0000,
0.600613250000000,0,0x852C,
0.600628958333333,0,0xC73F,
0.600636791666667,0,0x8625,
0.600667083333333,0,0x0001,
0.600674750000000,0,0x1D29,
0.600690791666667,0,0x0055,
0.600698666666667,0,0x9D29,
0.600726958333333,0,0x0003,
0.600734625000000,0,0x242D,
0.600750708333333,0,0x004C,
0.600758541666667,0,0xA42C,
0.600774250000000,0,0x0040,
0.600782125000000,0,0xA52C,
0.600797833333333,0,0x8000,
0.600805666666667,0,0xA62C,
0.600834291666667,0,0x0005,
0.600842000000000,0,0x2D21,
0.600858250000000,0,0xD39B,
0.600866083333333,0,0xAD2C,
0.600881791666667,0,0xFFF5,
0.600889666666667,0,0xAE2C,
0.600905375000000,0,0x1C87,
0.600913208333333,0,0xAF2C,
0.600928916666667,0,0x8000,
0.600936791666667,0,0xB02C,
0.600952500000000,0,0x8305,
0.600960333333333,0,0xB12C,
0.600991666666667,0,0x0006,
0.600999333333333,0,0x3B25,
0.601015333333333,0,0xE516,
0.601023166666667,0,0xBB2C,
0.601038916666667,0,0x8000,
0.601046750000000,0,0xBC2C,
0.601062458333333,0,0x8003,
0.601070333333333,0,0xBD2C,
0.601086000000000,0,0x8004,
0.601093875000000,0,0xBE2C,
0.601109583333333,0,0xE5BC,
0.601117416666667,0,0xBF2C,
0.601133166666667,0,0xE5D1,
0.601141000000000,0,0xC02C,
0.601172000000000,0,0x000A,
0.601179666666667,0,0x4129,
0.601196000000000,0,0xDB30,
0.601203875000000,0,0xC12C,
0.601219583333333,0,0xDC2F,
0.601227458333333,0,0xC22C,
0.601243166666667,0,0xDF38,
0.601251000000000,0,0xC32C,
0.601266708333333,0,0xE123,
0.601274583333333,0,0xC42C,
0.601290291666667,0,0xA97D,
0.601298166666667,0,0xC52C,
0.601313875000000,0,0xFF50,
0.601321750000000,0,0xC62C,
0.601337458333333,0,0xC019,
0.601345291666667,0,0xC72C,
0.601361000000000,0,0xA3BD,
0.601368875000000,0,0xC82C,
0.601384541666667,0,0x9E3D,
0.601392416666667,0,0xC92C,
0.601408166666667,0,0x9E3F,
0.601416000000000,0,0xCA2C,
0.609067666666667,0,0xDC3F,
0.609075333333333,0,0x060F,
0.609103000000000,0,0x0004,
0.609110666666667,0,0x0311,
0.609126750000000,0,0x0A01,
0.609134666666667,0,0x8311,
0.609150500000000,0,0x0F00,
0.609158416666667,0,0x8411,
0.609174250000000,0,0x0000,
0.609182166666667,0,0x851D,
0.609198000000000,0,0xDF3F,
0.609205916666667,0,0x8611,
0.609237541666667,0,0x0004,
0.609245208333333,0,0x0315,
0.609261333333333,0,0x0A01,
0.609269250000000,0,0x8315,
0.609285083333333,0,0x0F00,
0.609293000000000,0,0x8415,
0.609308833333333,0,0x0000,
0.609316750000000,0,0x851D,
0.609332583333333,0,0xDF3F,
0.609340500000000,0,0x8615,
0.609370750000000,0,0x0004,
0.609378458333333,0,0x0319,
0.609394416666667,0,0x0A01,
0.609402333333333,0,0x8319,
0.609418166666667,0,0x0F00,
0.609426083333333,0,0x8419,
0.609441916666667,0,0x0000,
0.609449833333333,0,0x851D,
0.609465666666667,0,0xDF3F,
0.609473583333333,0,0x8619,
0.609504791666667,0,0x0004,
0.609512458333333,0,0x031D,
0.609528500000000,0,0x0A01,
0.609536416666667,0,0x831D,
0.609552250000000,0,0x0F00,
0.609560166666667,0,0x841D,
0.609576000000000,0,0x0000,
0.609583916666667,0,0x851D,
0.609599750000000,0,0xDF3F,
0.609607666666667,0,0x861D,
0.609639500000000,0,0x0004,
0.609647166666667,0,0x0311,
0.609663541666667,0,0x0A01,
0.609671500000000,0,0x8311,
0.609687291666667,0,0x0F00,
0.609695208333333,0,0x8411,
0.609711041666667,0,0x0000,
0.609718958333333,0,0x851D,
0.609734791666667,0,0xD73F,
0.609742708333333,0,0x8611,
0.609772958333333,0,0x0001,
0.609780625000000,0,0x1D15,
0.609796625000000,0,0x1551,
0.609804541666667,0,0x9D15,
0.609832583333333,0,0x0003,
0.609840291666667,0,0x2419,
0.609856458333333,0,0x0048,
0.609864416666667,0,0xA41D,
0.609880208333333,0,0x0040,
0.609888125000000,0,0xA51D,
0.609903958333333,0,0x8000,
0.609911875000000,0,0xA61D,
0.609941083333333,0,0x0005,
0.609948791666667,0,0x2D1D,
0.609964791666667,0,0xCB58,
0.609972708333333,0,0xAD1D,
0.609988541666667,0,0xFFF3,
0.609996458333333,0,0xAE1D,
0.610012291666667,0,0x730F,
0.610020208333333,0,0xAF1D,
0.610036000000000,0,0xFFFF,
0.610043916666667,0,0xB01D,
0.610059791666667,0,0x8305,
0.610067708333333,0,0xB11D,
0.610097583333333,0,0x0006,
0.610105250000000,0,0x3B11,
0.610121583333333,0,0xB3E2,
0.610129500000000,0,0xBB1D,
0.610145333333333,0,0xB32D,
0.610153250000000,0,0xBC1D,
0.610169083333333,0,0xB2BE,
0.610177000000000,0,0xBD1D,
0.610192833333333,0,0xB202,
0.610200750000000,0,0xBE1D,
0.610216583333333,0,0xB200,
0.610224500000000,0,0xBF1D,
0.610240291666667,0,0xB272,
0.610248208333333,0,0xC01D,
0.610278583333333,0,0x000A,
0.610286250000000,0,0x4115,
0.610302625000000,0,0xC0C7,
0.610310541666667,0,0xC11D,
0.610326375000000,0,0xC0C6,
0.610334291666667,0,0xC21D,
0.610350125000000,0,0xC0C7,
0.610358000000000,0,0xC31D,
0.610373875000000,0,0xC0C8,
0.610381750000000,0,0xC41D,
0.610397625000000,0,0xC0CA,
0.610405541666667,0,0xC51D,
0.610421333333333,0,0xDCD3,
0.610429250000000,0,0xC61D,
0.610445083333333,0,0x8010,
0.610453000000000,0,0xC71D,
0.610468833333333,0,0xA3DC,
0.610476750000000,0,0xC81D,
0.610492583333333,0,0x9E3B,
0.610500500000000,0,0xC91D,
0.610516333333333,0,0x9E3A,
0.610524250000000,0,0xCA1D,
0.610556833333333,0,0x0004,
0.610564500000000,0,0x0329,
0.610580916666667,0,0x0A01,
0.610588750000000,0,0x8329,
0.610604458333333,0,0x0F00,
0.610612333333333,0,0x8429,
0.610628041666667,0,0x0000,
0.610635875000000,0,0x852D,
0.610651583333333,0,0xD73F,
0.610659458333333,0,0x8629,
0.610689875000000,0,0x0001,
0.610697541666667,0,0x1D2D,
0.610713958333333,0,0x0055,
0.610721791666667,0,0x9D2D,
0.610749958333333,0,0x0003,
0.610757625000000,0,0x2421,
0.610773833333333,0,0x004C,
0.610781708333333,0,0xA42D,
0.610797416666667,0,0x0040,
0.610805250000000,0,0xA52D,
0.610820958333333,0,0x8000,
0.610828833333333,0,0xA62D,
0.610858000000000,0,0x0005,
0.610865708333333,0,0x2D25,
0.610881833333333,0,0xD4A8,
0.610889708333333,0,0xAD2D,
0.610905416666667,0,0xFFF5,
0.610913291666667,0,0xAE2D,
0.610929000000000,0,0x1A20,
0.610936875000000,0,0xAF2D,
0.610952583333333,0,0xFFFF,
0.610960416666667,0,0xB02D,
0.610976125000000,0,0x8306,
0.610984000000000,0,0xB12D,
0.611014958333333,0,0x0006,
0.611022625000000,0,0x3B29,
0.611038958333333,0,0xE519,
0.611046833333333,0,0xBB2D,
0.611062541666667,0,0x8000,
0.611070375000000,0,0xBC2D,
0.611086083333333,0,0x8000,
0.611093958333333,0,0xBD2D,
0.611109666666667,0,0x8000,
0.611117541666667,0,0xBE2D,
0.611133250000000,0,0xE5B7,
0.611141125000000,0,0xBF2D,
0.611156791666667,0,0xE5D1,
0.611164666666667,0,0xC02D,
0.611195375000000,0,0x000A,
0.611203041666667,0,0x412D,
0.611219166666667,0,0xDB2D,
0.611227041666667,0,0xC12D,
0.611242708333333,0,0xDC2D,
0.611250583333333,0,0xC22D,
0.611266291666667,0,0xDF34,
0.611274166666667,0,0xC32D,
0.611289875000000,0,0xE11D,
0.611297708333333,0,0xC42D,
0.611313416666667,0,0xA97C,
0.611321291666667,0,0xC52D,
0.611337000000000,0,0xFF46,
0.611344833333333,0,0xC62D,
0.611360583333333,0,0xC012,
0.611368416666667,0,0xC72D,
0.611384166666667,0,0xA3BF,
0.611392000000000,0,0xC82D,
0.611407708333333,0,0x9E3B,
0.611415583333333,0,0xC92D,
0.611431291666667,0,0x9E3C,
0.611439125000000,0,0xCA2D,
0.619176875000000,0,0xEC3F,
0.619184541666667,0,0x0603,
0.619212458333333,0,0x0004,
0.619220166666667,0,0x0315,
0.619236583333333,0,0x0A01,
0.619244458333333,0,0x8315,
0.619260333333333,0,0x0F00,
0.619268250000000,0,0x8415,
0.619284083333333,0,0x0000,
0.619292000000000,0,0x851E,
0.619307875000000,0,0xEF3F,
0.619315750000000,0,0x8615,
0.619347416666667,0,0x0004,
0.619355125000000,0,0x0319,
0.619371208333333,0,0x0A01,
0.619379125000000,0,0x8319,
0.619394958333333,0,0x0F00,
0.619402875000000,0,0x8419,
0.619418708333333,0,0x0000,
0.619426625000000,0,0x851E,
0.619442458333333,0,0xEF3F,
0.619450375000000,0,0x8619,
0.619480875000000,0,0x0004,
0.619488541666667,0,0x031D,
0.619504791666667,0,0x0A01,
0.619512708333333,0,0x831D,
0.619528541666667,0,0x0F00,
0.619536458333333,0,0x841D,
0.619552291666667,0,0x0000,
0.619560208333333,0,0x851E,
0.619576083333333,0,0xEF3F,
0.619583958333333,0,0x861D,
0.619614500000000,0,0x0004,
0.619622166666667,0,0x0311,
0.619638416666667,0,0x0A01,
0.619646333333333,0,0x8311,
0.619662166666667,0,0x0F00,
0.619670083333333,0,0x8411,
0.619685916666667,0,0x0000,
0.619693833333333,0,0x851E,
0.619709666666667,0,0xEF3F,
0.619717583333333,0,0x8611,
0.619748541666667,0,0x0004,
0.619756250000000,0,0x0315,
0.619772458333333,0,0x0A01,
0.619780375000000,0,0x8315,
0.619796208333333,0,0x0F00,
0.619804125000000,0,0x8415,
0.619819958333333,0,0x0000,
0.619827875000000,0,0x851E,
0.619843708333333,0,0xE73F,
0.619851583333333,0,0x8615,
0.619881625000000,0,0x0001,
0.619889333333333,0,0x1D19,
0.619905541666667,0,0x1551,
0.619913416666667,0,0x9D19,
0.619941625000000,0,0x0003,
0.619949291666667,0,0x241D,
0.619965375000000,0,0x0048,
0.619973291666667,0,0xA41E,
0.619989125000000,0,0x0040,
0.619997041666667,0,0xA51E,
0.620012875000000,0,0x8000,
0.620020791666667,0,0xA61E,
0.620049500000000,0,0x0005,
0.620057208333333,0,0x2D11,
0.620073208333333,0,0xCC65,
0.620081125000000,0,0xAD1E,
0.620096958333333,0,0xFFF3,
0.620104875000000,0,0xAE1E,
0.620120708333333,0,0x7017,
0.620128625000000,0,0xAF1E,
0.620144458333333,0,0xFFFF,
0.620152375000000,0,0xB01E,
0.620168166666667,0,0x830F,
0.620176083333333,0,0xB11E,
0.620206875000000,0,0x0006,
0.620214541666667,0,0x3B15,
0.620231000000000,0,0xB3E1,
0.620238916666667,0,0xBB1E,
0.620254750000000,0,0xB32A,
0.620262666666667,0,0xBC1E,
0.620278500000000,0,0xB2C0,
0.620286416666667,0,0xBD1E,
0.620302208333333,0,0xB1FF,
0.620310125000000,0,0xBE1E,
0.620325958333333,0,0xB1FE,
0.620333875000000,0,0xBF1E,
0.620349708333333,0,0xB270,
0.620357625000000,0,0xC01E,
0.620388375000000,0,0x000A,
0.620396083333333,0,0x4119,
0.620412500000000,0,0xC0C2,
0.620420458333333,0,0xC11E,
0.620436291666667,0,0xC0C6,
0.620444166666667,0,0xC21E,
0.620460041666667,0,0xC0C2,
0.620467916666667,0,0xC31E,
0.620483791666667,0,0xC0C4,
0.620491708333333,0,0xC41E,
0.620507500000000,0,0xC0C6,
0.620515416666667,0,0xC51E,
0.620531250000000,0,0xDCCF,
0.620539166666667,0,0xC61E,
0.620555000000000,0,0x800B,
0.620562916666667,0,0xC71E,
0.620578750000000,0,0xA3DB,
0.620586666666667,0,0xC81E,
0.620602500000000,0,0x9E39,
0.620610416666667,0,0xC91E,
0.620626250000000,0,0x9E3B,
0.620634166666667,0,0xCA1E,
0.620665375000000,0,0x0004,
0.620673083333333,0,0x032D,
0.620689375000000,0,0x0A01,
0.620697250000000,0,0x832D,
0.620712958333333,0,0x0F00,
0.620720791666667,0,0x842D,
0.620736500000000,0,0x0000,
0.620744375000000,0,0x852E,
0.620760083333333,0,0xE73F,
0.620767958333333,0,0x862D,
0.620798333333333,0,0x0001,
0.620806000000000,0,0x1D21,
0.620822458333333,0,0x0055,
0.620830291666667,0,0x9D21,
0.620857958333333,0,0x0003,
0.620865666666667,0,0x2425,
0.620881833333333,0,0x004C,
0.620889708333333,0,0xA42E,
0.620905416666667,0,0x0040,
0.620913291666667,0,0xA52E,
0.620929000000000,0,0x8000,
0.620936833333333,0,0xA62E,
0.620965166666667,0,0x0005,
0.620972833333333,0,0x2D29,
0.620988875000000,0,0xD5B7,
0.620996750000000,0,0xAD2E,
0.621012458333333,0,0xFFF5,
0.621020333333333,0,0xAE2E,
0.621036041666667,0,0x17C8,
0.621043875000000,0,0xAF2E,
0.621059583333333,0,0xFFFF,
0.621067458333333,0,0xB02E,
0.621083166666667,0,0x830F,
0.621091041666667,0,0xB12E,
0.621121041666667,0,0x0006,
0.621128750000000,0,0x3B2D,
0.621145041666667,0,0xE51D,
0.621152916666667,0,0xBB2E,
0.621168625000000,0,0x8003,
0.621176458333333,0,0xBC2E,
0.621192166666667,0,0x8000,
0.621200041666667,0,0xBD2E,
0.621215750000000,0,0x8004,
0.621223583333333,0,0xBE2E,
0.621239291666667,0,0xE5BC,
0.621247166666667,0,0xBF2E,
0.621262875000000,0,0xE5D4,
0.621270750000000,0,0xC02E,
0.621301333333333,0,0x000A,
0.621309000000000,0,0x4121,
0.621325208333333,0,0xDB2D,
0.621333083333333,0,0xC12E,
0.621348791666667,0,0xDC2C,
0.621356666666667,0,0xC22E,
0.621372375000000,0,0xDF33,
0.621380208333333,0,0xC32E,
0.621395916666667,0,0xE125,
0.621403791666667,0,0xC42E,
0.621419500000000,0,0xA980,
0.621427333333333,0,0xC52E,
0.621443041666667,0,0xFF49,
0.621450916666667,0,0xC62E,
0.621466625000000,0,0xC014,
0.621474458333333,0,0xC72E,
0.621490166666667,0,0xA3BF,
0.621498041666667,0,0xC82E,
0.621513750000000,0,0x9E3A,
0.621521625000000,0,0xC92E,
0.621537333333333,0,0x9E3E,
0.621545166666667,0,0xCA2E,
0.629044791666667,0,0xFC3F,
0.629052500000000,0,0x0607,
0.629079958333333,0,0x0004,
0.629087666666667,0,0x0319,
0.629103916666667,0,0x0A01,
0.629111833333333,0,0x8319,
0.629127666666667,0,0x0F00,
0.629135583333333,0,0x8419,
0.629151416666667,0,0x0000,
0.629159333333333,0,0x851F,
0.629175166666667,0,0xFF3F,
0.629183083333333,0,0x8619,
0.629213833333333,0,0x0004,
0.629221541666667,0,0x031D,
0.629238000000000,0,0x0A01,
0.629245916666667,0,0x831D,
0.629261750000000,0,0x0F00,
0.629269666666667,0,0x841D,
0.629285500000000,0,0x0000,
0.629293416666667,0,0x851F,
0.629309250000000,0,0xFF3F,
0.629317166666667,0,0x861D,
0.629347791666667,0,0x0004,
0.629355500000000,0,0x0311,
0.629371625000000,0,0x0A01,
0.629379541666667,0,0x8311,
0.629395375000000,0,0x0F00,
0.629403291666667,0,0x8411,
0.629419125000000,0,0x0000,
0.629427041666667,0,0x851F,
0.629442875000000,0,0xFF3F,
0.629450791666667,0,0x8611,
0.629482041666667,0,0x0004,
0.629489750000000,0,0x0315,
0.629506208333333,0,0x0A01,
0.629514125000000,0,0x8315,
0.629529958333333,0,0x0F00,
0.629537875000000,0,0x8415,
0.629553708333333,0,0x0000,
0.629561625000000,0,0x851F,
0.629577458333333,0,0xFF3F,
0.629585375000000,0,0x8615,
0.629616166666667,0,0x0004,
0.629623833333333,0,0x0319,
0.629640291666667,0,0x0A01,
0.629648208333333,0,0x8319,
0.629664000000000,0,0x0F00,
0.629671916666667,0,0x8419,
0.629687750000000,0,0x0000,
0.629695666666667,0,0x851F,
0.629711500000000,0,0xF73F,
0.629719416666667,0,0x8619,
0.629750041666667,0,0x0001,
0.629757708333333,0,0x1D1D,
0.629773833333333,0,0x1551,
0.629781750000000,0,0x9D1D,
0.629810250000000,0,0x0003,
0.629817916666667,0,0x2411,
0.629834166666667,0,0x0048,
0.629842083333333,0,0xA41F,
0.629857916666667,0,0x0040,
0.629865833333333,0,0xA51F,
0.629881666666667,0,0x8000,
0.629889583333333,0,0xA61F,
0.629919291666667,0,0x0005,
0.629926958333333,0,0x2D15,
0.629943000000000,0,0xCD6B,
0.629950916666667,0,0xAD1F,
0.629966750000000,0,0xFFF3,
0.629974666666667,0,0xAE1F,
0.629990500000000,0,0x6D3B,
0.629998416666667,0,0xAF1F,
0.630014250000000,0,0xFFFF,
0.630022166666667,0,0xB01F,
0.630038000000000,0,0x8309,
0.630045916666667,0,0xB11F,
0.630075958333333,0,0x0006,
0.630083666666667,0,0x3B19,
0.630099833333333,0,0xB3E1,
0.630107750000000,0,0xBB1F,
0.630123541666667,0,0xB32A,
0.630131458333333,0,0xBC1F,
0.630147291666667,0,0xB2BB,
0.630155208333333,0,0xBD1F,
0.630171083333333,0,0xB1FD,
0.630178958333333,0,0xBE1F,
0.630194791666667,0,0xB200,
0.630202708333333,0,0xBF1F,
0.630218541666667,0,0xB26F,
0.630226458333333,0,0xC01F,
0.630256416666667,0,0x000A,
0.630264083333333,0,0x411D,
0.630280375000000,0,0xC0C3,
0.630288291666667,0,0xC11F,
0.630304125000000,0,0xC0C2,
0.630312041666667,0,0xC21F,
0.630327875000000,0,0xC0C3,
0.630335791666667,0,0xC31F,
0.630351583333333,0,0xC0C2,
0.630359541666667,0,0xC41F,
0.630375375000000,0,0xC0C2,
0.630383250000000,0,0xC51F,
0.630399083333333,0,0xDCD4,
0.630407000000000,0,0xC61F,
0.630422833333333,0,0x800A,
0.630430750000000,0,0xC71F,
0.630446583333333,0,0xA3DC,
0.630454500000000,0,0xC81F,
0.630470333333333,0,0x9E36,
0.630478250000000,0,0xC91F,
0.630494083333333,0,0x9E3D,
0.630502000000000,0,0xCA1F,
0.630533958333333,0,0x0004,
0.630541625000000,0,0x0321,
0.630557666666667,0,0x0A01,
0.630565500000000,0,0x8321,
0.630581208333333,0,0x0F00,
0.630589083333333,0,0x8421,
0.630604791666667,0,0x0000,
0.630612625000000,0,0x852F,
0.630628333333333,0,0xF73F,
0.630636208333333,0,0x8621,
0.630666750000000,0,0x0001,
0.630674458333333,0,0x1D25,
0.630690708333333,0,0x0055,
0.630698583333333,0,0x9D25,
0.630725875000000,0,0x0003,
0.630733541666667,0,0x2429,
0.630749625000000,0,0x004C,
0.630757500000000,0,0xA42F,
0.630773208333333,0,0x0040,
0.630781041666667,0,0xA52F,
0.630796791666667,0,0x8000,
0.630804625000000,0,0xA62F,
0.630834166666667,0,0x0005,
0.630841875000000,0,0x2D2D,
0.630858166666667,0,0xD6BF,
0.630866000000000,0,0xAD2F,
0.630881708333333,0,0xFFF5,
0.630889583333333,0,0xAE2F,
0.630905291666667,0,0x14D8,
0.630913125000000,0,0xAF2F,
0.630928833333333,0,0x8000,
0.630936708333333,0,0xB02F,
0.630952416666667,0,0x8305,
0.630960291666667,0,0xB12F,
0.630989708333333,0,0x0006,
0.630997416666667,0,0x3B21,
0.631013833333333,0,0xE517,
0.631021666666667,0,0xBB2F,
0.631037375000000,0,0x8000,
0.631045250000000,0,0xBC2F,
0.631060958333333,0,0x8000,
0.631068791666667,0,0xBD2F,
0.631084541666667,0,0x8000,
0.631092375000000,0,0xBE2F,
0.631108083333333,0,0xE5B9,
0.631115958333333,0,0xBF2F,
0.631131666666667,0,0xE5D1,
0.631139500000000,0,0xC02F,
0.631170291666667,0,0x000A,
0.631178000000000,0,0x4125,
0.631194041666667,0,0xDB2E,
0.631201875000000,0,0xC12F,
0.631217583333333,0,0xDC2A,
0.631225458333333,0,0xC22F,
0.631241166666667,0,0xDF36,
0.631249041666667,0,0xC32F,
0.631264750000000,0,0xE11E,
0.631272583333333,0,0xC42F,
0.631288291666667,0,0xA97A,
0.631296166666667,0,0xC52F,
0.631311833333333,0,0xFF4A,
0.631319708333333,0,0xC62F,
0.631335416666667,0,0xC011,
0.631343291666667,0,0xC72F,
0.631359000000000,0,0xA3BF,
0.631366875000000,0,0xC82F,
0.631382583333333,0,0x9E3C,
0.631390416666667,0,0xC92F,
0.631406125000000,0,0x9E3A,
0.631414000000000,0,0xCA2F,
0.639054666666667,0,0x0C3F,
0.639062333333333,0,0x060B,
0.639089708333333,0,0x0004,
0.639097416666667,0,0x031D,
0.639113791666667,0,0x0A01,
0.639121708333333,0,0x831D,
0.639137541666667,0,0x0F00,
0.639145458333333,0,0x841D,
0.639161291666667,0,0x0000,
0.639169208333333,0,0x8510,
0.639185083333333,0,0x0F3F,
0.639192958333333,0,0x861D,
0.639223291666667,0,0x0004,
0.639230958333333,0,0x0311,
0.639247416666667,0,0x0A01,
0.639255333333333,0,0x8311,
0.639271166666667,0,0x0F00,
0.639279083333333,0,0x8411,
0.639294916666667,0,0x0000,
0.639302833333333,0,0x8510,
0.639318708333333,0,0x0F3F,
0.639326583333333,0,0x8611,
0.639357666666667,0,0x0004,
0.639365375000000,0,0x0315,
0.639381541666667,0,0x0A01,
0.639389458333333,0,0x8315,
0.639405291666667,0,0x0F00,
0.639413208333333,0,0x8415,
0.639429041666667,0,0x0000,
0.639436958333333,0,0x8510,
0.639452791666667,0,0x0F3F,
0.639460708333333,0,0x8615,
0.639491833333333,0,0x0004,
0.639499500000000,0,0x0319,
0.639515666666667,0,0x0A01,
0.639523583333333,0,0x8319,
0.639539416666667,0,0x0F00,
0.639547333333333,0,0x8419,
0.639563166666667,0,0x0000,
0.639571083333333,0,0x8510,
0.639586916666667,0,0x0F3F,
0.639594833333333,0,0x8619,
0.639624416666667,0,0x0004,
0.639632083333333,0,0x031D,
0.639648250000000,0,0x0A01,
0.639656166666667,0,0x831D,
0.639672000000000,0,0x0F00,
0.639679916666667,0,0x841D,
0.639695750000000,0,0x0000,
0.639703666666667,0,0x8510,
0.639719500000000,0,0x073F,
0.639727416666667,0,0x861D,
0.639758000000000,0,0x0001,
0.639765666666667,0,0x1D11,
0.639781833333333,0,0x1551,
0.639789750000000,0,0x9D11,
0.639817708333333,0,0x0003,
0.639825375000000,0,0x2415,
0.639841666666667,0,0x0048,
0.639849583333333,0,0xA410,
0.639865416666667,0,0x0040,
0.639873333333333,0,0xA510,
0.639889166666667,0,0x8000,
0.639897083333333,0,0xA610,
0.639925583333333,0,0x0005,
0.639933250000000,0,0x2D19,
0.639949541666667,0,0xCE75,
0.639957458333333,0,0xAD10,
0.639973291666667,0,0xFFF3,
0.639981208333333,0,0xAE10,
0.639997041666667,0,0x6A87,
0.640004958333333,0,0xAF10,
0.640020791666667,0,0xFFFF,
0.640028666666667,0,0xB010,
0.640044541666667,0,0x830C,
0.640052416666667,0,0xB110,
0.640082166666667,0,0x0006,
0.640089833333333,0,0x3B1D,
0.640105875000000,0,0xB3DE,
0.640113750000000,0,0xBB10,
0.640129583333333,0,0xB329,
0.640137500000000,0,0xBC10,
0.640153333333333,0,0xB2BE,
0.640161250000000,0,0xBD10,
0.640177083333333,0,0xB1FF,
0.640185000000000,0,0xBE10,
0.640200833333333,0,0xB202,
0.640208750000000,0,0xBF10,
0.640224583333333,0,0xB273,
0.640232500000000,0,0xC010,
0.640262000000000,0,0x000A,
0.640269708333333,0,0x4111,
0.640285916666667,0,0xC0C3,
0.640293791666667,0,0xC110,
0.640309625000000,0,0xC0C5,
0.640317541666667,0,0xC210,
0.640333375000000,0,0xC0C6,
0.640341291666667,0,0xC310,
0.640357125000000,0,0xC0C5,
0.640365041666667,0,0xC410,
0.640380875000000,0,0xC0C8,
0.640388791666667,0,0xC510,
0.640404625000000,0,0xDCCF,
0.640412541666667,0,0xC610,
0.640428375000000,0,0x8010,
0.640436250000000,0,0xC710,
0.640452083333333,0,0xA3DB,
0.640460000000000,0,0xC810,
0.640475833333333,0,0x9E39,
0.640483750000000,0,0xC910,
0.640499583333333,0,0x9E3C,
0.640507500000000,0,0xCA10,
0.640539708333333,0,0x0004,
0.640547416666667,0,0x0325,
0.640563583333333,0,0x0A01,
0.640571458333333,0,0x8325,
0.640587208333333,0,0x0F00,
0.640595041666667,0,0x8425,
0.640610750000000,0,0x0000,
0.640618583333333,0,0x8520,
0.640634291666667,0,0x073F,
0.640642166666667,0,0x8625,
0.640672458333333,0,0x0001,
0.640680125000000,0,0x1D29,
0.640696166666667,0,0x0055,
0.640704000000000,0,0x9D29,
0.640732416666667,0,0x0003,
0.640740083333333,0,0x242D,
0.640756083333333,0,0x004C,
0.640763958333333,0,0xA420,
0.640779666666667,0,0x0040,
0.640787500000000,0,0xA520,
0.640803208333333,0,0x8000,
0.640811083333333,0,0xA620,
0.640840125000000,0,0x0005,
0.640847791666667,0,0x2D21,
0.640864083333333,0,0xD7CB,
0.640871958333333,0,0xAD20,
0.640887666666667,0,0xFFF5,
0.640895500000000,0,0xAE20,
0.640911208333333,0,0x12C9,
0.640919083333333,0,0xAF20,
0.640934791666667,0,0xFFFF,
0.640942625000000,0,0xB020,
0.640958333333333,0,0x830A,
0.640966208333333,0,0xB120,
0.640996125000000,0,0x0006,
0.641003791666667,0,0x3B25,
0.641020208333333,0,0xE511,
0.641028083333333,0,0xBB20,
0.641043750000000,0,0x8000,
0.641051625000000,0,0xBC20,
0.641067333333333,0,0x8000,
0.641075208333333,0,0xBD20,
0.641090916666667,0,0x8000,
0.641098750000000,0,0xBE20,
0.641114458333333,0,0xE5B9,
0.641122333333333,0,0xBF20,
0.641138041666667,0,0xE5D1,
0.641145916666667,0,0xC020,
0.641176541666667,0,0x000A,
0.641184208333333,0,0x4129,
0.641200416666667,0,0xDB2B,
0.641208250000000,0,0xC120,
0.641224000000000,0,0xDC2C,
0.641231833333333,0,0xC220,
0.641247541666667,0,0xDF32,
0.641255416666667,0,0xC320,
0.641271125000000,0,0xE11F,
0.641278958333333,0,0xC420,
0.641294666666667,0,0xA976,
0.641302541666667,0,0xC520,
0.641318250000000,0,0xFF49,
0.641326083333333,0,0xC620,
0.641341791666667,0,0xC010,
0.641349666666667,0,0xC720,
0.641365375000000,0,0xA3C0,
0.641373208333333,0,0xC820,
0.641388916666667,0,0x9E36,
0.641396791666667,0,0xC920,
0.641412500000000,0,0x9E41,
0.641420333333333,0,0xCA20,
0.649072666666667,0,0x1C3F,
0.649080333333333,0,0x060F,
0.649107666666667,0,0x0004,
0.649115333333333,0,0x0311,
0.649131708333333,0,0x0A01,
0.649139625000000,0,0x8311,
0.649155458333333,0,0x0F00,
0.649163375000000,0,0x8411,
0.649179208333333,0,0x0000,
0.649187125000000,0,0x8511,
0.649202958333333,0,0x1F3F,
0.649210875000000,0,0x8611,
0.649241458333333,0,0x0004,
0.649249125000000,0,0x0315,
0.649265291666667,0,0x0A01,
0.649273208333333,0,0x8315,
0.649289041666667,0,0x0F00,
0.649296958333333,0,0x8415,
0.649312791666667,0,0x0000,
0.649320708333333,0,0x8511,
0.649336541666667,0,0x1F3F,
0.649344458333333,0,0x8615,
0.649375208333333,0,0x0004,
0.649382916666667,0,0x0319,
0.649398875000000,0,0x0A01,
0.649406791666667,0,0x8319,
0.649422625000000,0,0x0F00,
0.649430541666667,0,0x8419,
0.649446416666667,0,0x0000,
0.649454333333333,0,0x8511,
0.649470125000000,0,0x1F3F,
0.649478083333333,0,0x8619,
0.649509125000000,0,0x0004,
0.649516791666667,0,0x031D,
0.649533000000000,0,0x0A01,
0.649540916666667,0,0x831D,
0.649556750000000,0,0x0F00,
0.649564666666667,0,0x841D,
0.649580541666667,0,0x0000,
0.649588458333333,0,0x8511,
0.649604291666667,0,0x1F3F,
0.649612208333333,0,0x861D,
0.649643541666667,0,0x0004,
0.649651208333333,0,0x0311,
0.649667625000000,0,0x0A01,
0.649675541666667,0,0x8311,
0.649691333333333,0,0x0F00,
0.649699291666667,0,0x8411,
0.649715125000000,0,0x0000,
0.649723041666667,0,0x8511,
0.649738875000000,0,0x173F,
0.649746791666667,0,0x8611,
0.649777500000000,0,0x0001,
0.649785166666667,0,0x1D15,
0.649801208333333,0,0x1551,
0.649809125000000,0,0x9D15,
0.649837500000000,0,0x0003,
0.649845208333333,0,0x2419,
0.649861583333333,0,0x0048,
0.649869500000000,0,0xA411,
0.649885333333333,0,0x0040,
0.649893250000000,0,0xA511,
0.649909083333333,0,0x8000,
0.649917000000000,0,0xA611,
0.649945583333333,0,0x0005,
0.649953291666667,0,0x2D1D,
0.649969416666667,0,0xCF80,
0.649977333333333,0,0xAD11,
0.649993166666667,0,0xFFF3,
0.650001083333333,0,0xAE11,
0.650016916666667,0,0x67B9,
0.650024875000000,0,0xAF11,
0.650040708333333,0,0xFFFF,
0.650048625000000,0,0xB011,
0.650064458333333,0,0x830F,
0.650072375000000,0,0xB111,
0.650102250000000,0,0x0006,
0.650109916666667,0,0x3B11,
0.650126291666667,0,0xB3E1,
0.650134208333333,0,0xBB11,
0.650150041666667,0,0xB32C,
0.650157958333333,0,0xBC11,
0.650173791666667,0,0xB2BD,
0.650181750000000,0,0xBD11,
0.650197583333333,0,0xB202,
0.650205458333333,0,0xBE11,
0.650221291666667,0,0xB201,
0.650229208333333,0,0xBF11,
0.650245041666667,0,0xB270,
0.650252958333333,0,0xC011,
0.650283083333333,0,0x000A,
0.650290750000000,0,0x4115,
0.650306916666667,0,0xC0C3,
0.650314833333333,0,0xC111,
0.650330666666667,0,0xC0C3,
0.650338583333333,0,0xC211,
0.650354416666667,0,0xC0C3,
0.650362333333333,0,0xC311,
0.650378166666667,0,0xC0C2,
0.650386083333333,0,0xC411,
0.650401916666667,0,0xC0C3,
0.650409833333333,0,0xC511,
0.650425708333333,0,0xDCD1,
0.650433583333333,0,0xC611,
0.650449458333333,0,0x800B,
0.650457375000000,0,0xC711,
0.650473208333333,0,0xA3DA,
0.650481125000000,0,0xC811,
0.650496958333333,0,0x9E38,
0.650504875000000,0,0xC911,
0.650520708333333,0,0x9E3B,
0.650528625000000,0,0xCA11,
0.650561250000000,0,0x0004,
0.650568916666667,0,0x0329,
0.650585333333333,0,0x0A01,
0.650593166666667,0,0x8329,
0.650608875000000,0,0x0F00,
0.650616750000000,0,0x8429,
0.650632458333333,0,0x0000,
0.650640333333333,0,0x8521,
0.650656041666667,0,0x173F,
0.650663875000000,0,0x8629,
0.650694375000000,0,0x0001,
0.650702083333333,0,0x1D2D,
0.650718375000000,0,0x0055,
0.650726208333333,0,0x9D2D,
0.650754000000000,0,0x0003,
0.650761708333333,0,0x2421,
0.650777750000000,0,0x004C,
0.650785625000000,0,0xA421,
0.650801333333333,0,0x0040,
0.650809166666667,0,0xA521,
0.650824875000000,0,0x8000,
0.650832750000000,0,0xA621,
0.650861708333333,0,0x0005,
0.650869375000000,0,0x2D25,
0.650885750000000,0,0xD8D8,
0.650893625000000,0,0xAD21,
0.650909333333333,0,0xFFF5,
0.650917166666667,0,0xAE21,
0.650932875000000,0,0x10CF,
0.650940750000000,0,0xAF21,
0.650956458333333,0,0x8000,
0.650964333333333,0,0xB021,
0.650980041666667,0,0x8300,
0.650987916666667,0,0xB121,
0.651018916666667,0,0x0006,
0.651026583333333,0,0x3B29,
0.651042875000000,0,0xE517,
0.651050750000000,0,0xBB21,
0.651066458333333,0,0x8000,
0.651074291666667,0,0xBC21,
0.651090000000000,0,0x8000,
0.651097875000000,0,0xBD21,
0.651113583333333,0,0x8000,
0.651121416666667,0,0xBE21,
0.651137166666667,0,0xE5BC,
0.651145000000000,0,0xBF21,
0.651160708333333,0,0xE5D1,
0.651168583333333,0,0xC021,
0.651199125000000,0,0x000A,
0.651206791666667,0,0x412D,
0.651223083333333,0,0xDB2B,
0.651230916666667,0,0xC121,
0.651246625000000,0,0xDC2D,
0.651254500000000,0,0xC221,
0.651270208333333,0,0xDF36,
0.651278041666667,0,0xC321,
0.651293791666667,0,0xE121,
0.651301625000000,0,0xC421,
0.651317333333333,0,0xA97C,
0.651325208333333,0,0xC521,
0.651340916666667,0,0xFF4A,
0.651348791666667,0,0xC621,
0.651364500000000,0,0xC016,
0.651372333333333,0,0xC721,
0.651388041666667,0,0xA3BC,
0.651395916666667,0,0xC821,
0.651411625000000,0,0x9E3A,
0.651419500000000,0,0xC921,
0.651435208333333,0,0x9E3B,
0.651443041666667,0,0xCA21,
0.659003416666667,0,0x2C3F,
0.659011125000000,0,0x0603,
0.659038666666667,0,0x0004,
0.659046333333333,0,0x0315,
0.659062458333333,0,0x0A01,
0.659070333333333,0,0x8315,
0.659086166666667,0,0x0F00,
0.659094083333333,0,0x8415,
0.659109916666667,0,0x0000,
0.659117833333333,0,0x8512,
0.659133666666667,0,0x2F3F,
0.659141583333333,0,0x8615,
0.659171916666667,0,0x0004,
0.659179625000000,0,0x0319,
0.659196000000000,0,0x0A01,
0.659203916666667,0,0x8319,
0.659219750000000,0,0x0F00,
0.659227666666667,0,0x8419,
0.659243541666667,0,0x0000,
0.659251458333333,0,0x8512,
0.659267250000000,0,0x2F3F,
0.659275208333333,0,0x8619,
0.659305916666667,0,0x0004,
0.659313625000000,0,0x031D,
0.659329625000000,0,0x0A01,
0.659337541666667,0,0x831D,
0.659353375000000,0,0x0F00,
0.659361291666667,0,0x841D,
0.659377125000000,0,0x0000,
0.659385041666667,0,0x8512,
0.659400875000000,0,0x2F3F,
0.659408791666667,0,0x861D,
0.659438708333333,0,0x0004,
0.659446375000000,0,0x0311,
0.659462750000000,0,0x0A01,
0.659470666666667,0,0x8311,
0.659486500000000,0,0x0F00,
0.659494416666667,0,0x8411,
0.659510250000000,0,0x0000,
0.659518166666667,0,0x8512,
0.659534000000000,0,0x2F3F,
0.659541916666667,0,0x8611,
0.659572375000000,0,0x0004,
0.659580083333333,0,0x0315,
0.659596333333333,0,0x0A01,
0.659604250000000,0,0x8315,
0.659620041666667,0,0x0F00,
0.659627958333333,0,0x8415,
0.659643833333333,0,0x0000,
0.659651750000000,0,0x8512,
0.659667583333333,0,0x273F,
0.659675500000000,0,0x8615,
0.659706791666667,0,0x0001,
0.659714500000000,0,0x1D19,
0.659730875000000,0,0x1551,
0.659738791666667,0,0x9D19,
0.659766708333333,0,0x0003,
0.659774375000000,0,0x241D,
0.659790750000000,0,0x0048,
0.659798666666667,0,0xA412,
0.659814500000000,0,0x0040,
0.659822416666667,0,0xA512,
0.659838250000000,0,0x8000,
0.659846166666667,0,0xA612,
0.659874208333333,0,0x0005,
0.659881916666667,0,0x2D11,
0.659898083333333,0,0xD088,
0.659906000000000,0,0xAD12,
0.659921833333333,0,0xFFF3,
0.659929750000000,0,0xAE12,
0.659945583333333,0,0x64A5,
0.659953500000000,0,0xAF12,
0.659969291666667,0,0x8000,
0.659977250000000,0,0xB012,
0.659993041666667,0,0x8302,
0.660001000000000,0,0xB112,
0.660030708333333,0,0x0006,
0.660038416666667,0,0x3B15,
0.660054416666667,0,0xB3E0,
0.660062333333333,0,0xBB12,
0.660078166666667,0,0xB32F,
0.660086041666667,0,0xBC12,
0.660101916666667,0,0xB2BA,
0.660109791666667,0,0xBD12,
0.660125625000000,0,0xB1FE,
0.660133583333333,0,0xBE12,
0.660149375000000,0,0xB200,
0.660157291666667,0,0xBF12,
0.660173125000000,0,0xB272,
0.660181041666667,0,0xC012,
0.660211250000000,0,0x000A,
0.660218916666667,0,0x4119,
0.660234958333333,0,0xC0C2,
0.660242875000000,0,0xC112,
0.660258708333333,0,0xC0C6,
0.660266625000000,0,0xC212,
0.660282458333333,0,0xC0C1,
0.660290375000000,0,0xC312,
0.660306208333333,0,0xC0C4,
0.660314125000000,0,0xC412,
0.660329958333333,0,0xC0C2,
0.660337875000000,0,0xC512,
0.660353708333333,0,0xDCD3,
0.660361625000000,0,0xC612,
0.660377416666667,0,0x800A,
0.660385333333333,0,0xC712,
0.660401166666667,0,0xA3DA,
0.660409083333333,0,0xC812,
0.660424958333333,0,0x9E39,
0.660432833333333,0,0xC912,
0.660448666666667,0,0x9E3B,
0.660456583333333,0,0xCA12,
0.660488333333333,0,0x0004,
0.660496000000000,0,0x032D,
0.660512000000000,0,0x0A01,
0.660519875000000,0,0x832D,
0.660535583333333,0,0x0F00,
0.660543458333333,0,0x842D,
0.660559166666667,0,0x0000,
0.660567000000000,0,0x8522,
0.660582708333333,0,0x273F,
0.660590583333333,0,0x862D,
0.660620333333333,0,0x0001,
0.660628000000000,0,0x1D21,
0.660644125000000,0,0x0055,
0.660651958333333,0,0x9D21,
0.660680208333333,0,0x0003,
0.660687875000000,0,0x2425,
0.660704000000000,0,0x004C,
0.660711875000000,0,0xA422,
0.660727583333333,0,0x0040,
0.660735416666667,0,0xA522,
0.660751125000000,0,0x8000,
0.660759000000000,0,0xA622,
0.660787500000000,0,0x0005,
0.660795166666667,0,0x2D29,
0.660811541666667,0,0xD9E2,
0.660819416666667,0,0xAD22,
0.660835083333333,0,0xFFF5,
0.660842958333333,0,0xAE22,
0.660858666666667,0,0x0E73,
0.660866500000000,0,0xAF22,
0.660882208333333,0,0xFFFF,
0.660890083333333,0,0xB022,
0.660905791666667,0,0x830A,
0.660913666666667,0,0xB122,
0.660944041666667,0,0x0006,
0.660951750000000,0,0x3B2D,
0.660968166666667,0,0xE517,
0.660976000000000,0,0xBB22,
0.660991708333333,0,0x8000,
0.660999583333333,0,0xBC22,
0.661015291666667,0,0x8000,
0.661023125000000,0,0xBD22,
0.661038833333333,0,0x8001,
0.661046708333333,0,0xBE22,
0.661062416666667,0,0xE5BC,
0.661070291666667,0,0xBF22,
0.661085958333333,0,0xE5D5,
0.661093833333333,0,0xC022,
0.661124833333333,0,0x000A,
0.661132500000000,0,0x4121,
0.661148791666667,0,0xDB30,
0.661156666666667,0,0xC122,
0.661172375000000,0,0xDC2E,
0.661180208333333,0,0xC222,
0.661195916666667,0,0xDF34,
0.661203791666667,0,0xC322,
0.661219500000000,0,0xE11E,
0.661227375000000,0,0xC422,
0.661243041666667,0,0xA97D,
0.661250916666667,0,0xC522,
0.661266625000000,0,0xFF45,
0.661274458333333,0,0xC622,
0.661290208333333,0,0xC016,
0.661298041666667,0,0xC722,
0.661313791666667,0,0xA3BE,
0.661321625000000,0,0xC822,
0.661337333333333,0,0x9E36,
0.661345208333333,0,0xC922,
0.661360916666667,0,0x9E40,
0.661368750000000,0,0xCA22,
0.669064458333333,0,0x3C3F,
0.669072166666667,0,0x0607,
0.669099791666667,0,0x0004,
0.669107500000000,0,0x0319,
0.669123500000000,0,0x0A01,
0.669131416666667,0,0x8319,
0.669147250000000,0,0x0F00,
0.669155166666667,0,0x8419,
0.669171000000000,0,0x0000,
0.669178916666667,0,0x8513,
0.669194708333333,0,0x3F3F,
0.669202666666667,0,0x8619,
0.669234041666667,0,0x0004,
0.669241708333333,0,0x031D,
0.669258041666667,0,0x0A01,
0.669266000000000,0,0x831D,
0.669281791666667,0,0x0F00,
0.669289750000000,0,0x841D,
0.669305583333333,0,0x0000,
0.669313500000000,0,0x8513,
0.669329333333333,0,0x3F3F,
0.669337250000000,0,0x861D,
0.669367791666667,0,0x0004,
0.669375458333333,0,0x0311,
0.669391666666667,0,0x0A01,
0.669399583333333,0,0x8311,
0.669415458333333,0,0x0F00,
0.669423375000000,0,0x8411,
0.669439208333333,0,0x0000,
0.669447125000000,0,0x8513,
0.669462958333333,0,0x3F3F,
0.669470875000000,0,0x8611,
0.669502083333333,0,0x0004,
0.669509791666667,0,0x0315,
0.669525791666667,0,0x0A01,
0.669533708333333,0,0x8315,
0.669549541666667,0,0x0F00,
0.669557458333333,0,0x8415,
0.669573291666667,0,0x0000,
0.669581208333333,0,0x8513,
0.669597041666667,0,0x3F3F,
0.669604958333333,0,0x8615,
0.669636500000000,0,0x0004,
0.669644166666667,0,0x0319,
0.669660375000000,0,0x0A01,
0.669668291666667,0,0x8319,
0.669684125000000,0,0x0F00,
0.669692041666667,0,0x8419,
0.669707875000000,0,0x0000,
0.669715791666667,0,0x8513,
0.669731625000000,0,0x373F,
0.669739541666667,0,0x8619,
0.669770250000000,0,0x0001,
0.669777916666667,0,0x1D1D,
0.669793916666667,0,0x1551,
0.669801833333333,0,0x9D1D,
0.669830125000000,0,0x0003,
0.669837833333333,0,0x2411,
0.669854250000000,0,0x0048,
0.669862166666667,0,0xA413,
0.669878000000000,0,0x0040,
0.669885916666667,0,0xA513,
0.669901750000000,0,0x8000,
0.669909666666667,0,0xA613,
0.669938500000000,0,0x0005,
0.669946166666667,0,0x2D15,
0.669962583333333,0,0xD194,
0.669970500000000,0,0xAD13,
0.669986333333333,0,0xFFF3,
0.669994250000000,0,0xAE13,
0.670010041666667,0,0x621A,
0.670017958333333,0,0xAF13,
0.670033791666667,0,0xFFFF,
0.670041708333333,0,0xB013,
0.670057541666667,0,0x8309,
0.670065458333333,0,0xB113,
0.670095000000000,0,0x0006,
0.670102666666667,0,0x3B19,
0.670118875000000,0,0xB3E5,
0.670126791666667,0,0xBB13,
0.670142583333333,0,0xB32E,
0.670150541666667,0,0xBC13,
0.670166375000000,0,0xB2BC,
0.670174250000000,0,0xBD13,
0.670190083333333,0,0xB1FE,
0.670198041666667,0,0xBE13,
0.670213833333333,0,0xB202,
0.670221750000000,0,0xBF13,
0.670237583333333,0,0xB272,
0.670245500000000,0,0xC013,
0.670275541666667,0,0x000A,
0.670283208333333,0,0x411D,
0.670299416666667,0,0xC0C4,
0.670307333333333,0,0xC113,
0.670323166666667,0,0xC0C1,
0.670331083333333,0,0xC213,
0.670346875000000,0,0xC0C4,
0.670354791666667,0,0xC313,
0.670370625000000,0,0xC0C0,
0.670378541666667,0,0xC413,
0.670394375000000,0,0xC0C2,
0.670402250000000,0,0xC513,
0.670418083333333,0,0xDCD5,
0.670426000000000,0,0xC613,
0.670441833333333,0,0x800C,
0.670449750000000,0,0xC713,
0.670465541666667,0,0xA3DE,
0.670473458333333,0,0xC813,
0.670489291666667,0,0x9E37,
0.670497208333333,0,0xC913,
0.670513041666667,0,0x9E3C,
0.670520958333333,0,0xCA13,
0.670552958333333,0,0x0004,
0.670560625000000,0,0x0321,
0.670576916666667,0,0x0A01,
0.670584750000000,0,0x8321,
0.670600458333333,0,0x0F00,
0.670608333333333,0,0x8421,
0.670624000000000,0,0x0000,
0.670631875000000,0,0x8523,
0.670647583333333,0,0x373F,
0.670655458333333,0,0x8621,
0.670686166666667,0,0x0001,
0.670693833333333,0,0x1D25,
0.670709916666667,0,0x0055,
0.670717791666667,0,0x9D25,
0.670745958333333,0,0x0003,
0.670753625000000,0,0x2429,
0.670769833333333,0,0x004C,
0.670777666666667,0,0xA423,
0.670793375000000,0,0x0040,
0.670801250000000,0,0xA523,
0.670816958333333,0,0x8000,
0.670824791666667,0,0xA623,
0.670853541666667,0,0x0005,
0.670861208333333,0,0x2D2D,
0.670877333333333,0,0xDAF0,
0.670885208333333,0,0xAD23,
0.670900916666667,0,0xFFF5,
0.670908791666667,0,0xAE23,
0.670924500000000,0,0x0C30,
0.670932333333333,0,0xAF23,
0.670948041666667,0,0x8000,
0.670955875000000,0,0xB023,
0.670971583333333,0,0x8302,
0.670979458333333,0,0xB123,
0.671010083333333,0,0x0006,
0.671017750000000,0,0x3B21,
0.671033958333333,0,0xE51C,
0.671041833333333,0,0xBB23,
0.671057500000000,0,0x8000,
0.671065375000000,0,0xBC23,
0.671081083333333,0,0x8000,
0.671088916666667,0,0xBD23,
0.671104625000000,0,0x8001,
0.671112500000000,0,0xBE23,
0.671128208333333,0,0xE5B6,
0.671136083333333,0,0xBF23,
0.671151791666667,0,0xE5D1,
0.671159625000000,0,0xC023,
0.671190500000000,0,0x000A,
0.671198166666667,0,0x4125,
0.671214166666667,0,0xDB2B,
0.671222000000000,0,0xC123,
0.671237708333333,0,0xDC2C,
0.671245583333333,0,0xC223,
0.671261291666667,0,0xDF39,
0.671269125000000,0,0xC323,
0.671284875000000,0,0xE121,
0.671292708333333,0,0xC423,
0.671308416666667,0,0xA97E,
0.671316291666667,0,0xC523,
0.671332000000000,0,0xFF4B,
0.671339833333333,0,0xC623,
0.671355541666667,0,0xC012,
0.671363416666667,0,0xC723,
0.671379125000000,0,0xA3BE,
0.671386958333333,0,0xC823,
0.671402666666667,0,0x9E37,
0.671410541666667,0,0xC923,
0.671426250000000,0,0x9E41,
0.671434083333333,0,0xCA23,
0.679177708333333,0,0x4C3F,
0.679185375000000,0,0x060B,
0.679212666666667,0,0x0004,
0.679220333333333,0,0x031D,
0.679236375000000,0,0x0A01,
0.679244291666667,0,0x831D,
0.679260125000000,0,0x0F00,
0.679268000000000,0,0x841D,
0.679283875000000,0,0x0000,
0.679291791666667,0,0x8514,
0.679307625000000,0,0x4F3F,
0.679315541666667,0,0x861D,
0.679347583333333,0,0x0004,
0.679355250000000,0,0x0311,
0.679371458333333,0,0x0A01,
0.679379375000000,0,0x8311,
0.679395166666667,0,0x0F00,
0.679403083333333,0,0x8411,
0.679418916666667,0,0x0000,
0.679426875000000,0,0x8514,
0.679442666666667,0,0x4F3F,
0.679450625000000,0,0x8611,
0.679481458333333,0,0x0004,
0.679489125000000,0,0x0315,
0.679505541666667,0,0x0A01,
0.679513458333333,0,0x8315,
0.679529291666667,0,0x0F00,
0.679537250000000,0,0x8415,
0.679553083333333,0,0x0000,
0.679561000000000,0,0x8514,
0.679576833333333,0,0x4F3F,
0.679584750000000,0,0x8615,
0.679615250000000,0,0x0004,
0.679622916666667,0,0x0319,
0.679639208333333,0,0x0A01,
0.679647125000000,0,0x8319,
0.679662958333333,0,0x0F00,
0.679670875000000,0,0x8419,
0.679686708333333,0,0x0000,
0.679694625000000,0,0x8514,
0.679710458333333,0,0x4F3F,
0.679718375000000,0,0x8619,
0.679748875000000,0,0x0004,
0.679756541666667,0,0x031D,
0.679772833333333,0,0x0A01,
0.679780750000000,0,0x831D,
0.679796583333333,0,0x0F00,
0.679804500000000,0,0x841D,
0.679820333333333,0,0x0000,
0.679828208333333,0,0x8514,
0.679844041666667,0,0x473F,
0.679851958333333,0,0x861D,
0.679881875000000,0,0x0001,
0.679889541666667,0,0x1D11,
0.679905875000000,0,0x1551,
0.679913791666667,0,0x9D11,
0.679941833333333,0,0x0003,
0.679949500000000,0,0x2415,
0.679965750000000,0,0x0048,
0.679973666666667,0,0xA414,
0.679989458333333,0,0x0040,
0.679997416666667,0,0xA514,
0.680013208333333,0,0x8000,
0.680021125000000,0,0xA614,
0.680050208333333,0,0x0005,
0.680057916666667,0,0x2D19,
0.680074083333333,0,0xD2A1,
0.680082000000000,0,0xAD14,
0.680097791666667,0,0xFFF3,
0.680105708333333,0,0xAE14,
0.680121541666667,0,0x5EFE,
0.680129458333333,0,0xAF14,
0.680145291666667,0,0xFFFF,
0.680153208333333,0,0xB014,
0.680169041666667,0,0x830B,
0.680176958333333,0,0xB114,
0.680207250000000,0,0x0006,
0.680214916666667,0,0x3B1D,
0.680231375000000,0,0xB3E1,
0.680239291666667,0,0xBB14,
0.680255125000000,0,0xB330,
0.680263041666667,0,0xBC14,
0.680278875000000,0,0xB2C2,
0.680286791666667,0,0xBD14,
0.680302625000000,0,0xB201,
0.680310500000000,0,0xBE14,
0.680326333333333,0,0xB1FF,
0.680334291666667,0,0xBF14,
0.680350125000000,0,0xB271,
0.680358041666667,0,0xC014,
0.680388083333333,0,0x000A,
0.680395791666667,0,0x4111,
0.680411958333333,0,0xC0C6,
0.680419875000000,0,0xC114,
0.680435708333333,0,0xC0C4,
0.680443625000000,0,0xC214,
0.680459458333333,0,0xC0C3,
0.680467375000000,0,0xC314,
0.680483208333333,0,0xC0C3,
0.680491125000000,0,0xC414,
0.680506958333333,0,0xC0C6,
0.680514875000000,0,0xC514,
0.680530708333333,0,0xDCD2,
0.680538666666667,0,0xC614,
0.680554500000000,0,0x800D,
0.680562416666667,0,0xC714,
0.680578250000000,0,0xA3DD,
0.680586166666667,0,0xC814,
0.680602000000000,0,0x9E39,
0.680609916666667,0,0xC914,
0.680625750000000,0,0x9E3B,
0.680633666666667,0,0xCA14,
0.680665458333333,0,0x0004,
0.680673125000000,0,0x0325,
0.680689166666667,0,0x0A01,
0.680697000000000,0,0x8325,
0.680712708333333,0,0x0F00,
0.680720583333333,0,0x8425,
0.680736250000000,0,0x0000,
0.680744125000000,0,0x8524,
0.680759833333333,0,0x473F,
0.680767708333333,0,0x8625,
0.680798416666667,0,0x0001,
0.680806083333333,0,0x1D29,
0.680822208333333,0,0x0055,
0.680830041666667,0,0x9D29,
0.680858083333333,0,0x0003,
0.680865750000000,0,0x242D,
0.680882125000000,0,0x004C,
0.680889958333333,0,0xA424,
0.680905666666667,0,0x0040,
0.680913500000000,0,0xA524,
0.680929208333333,0,0x8000,
0.680937083333333,0,0xA624,
0.680965750000000,0,0x0005,
0.680973416666667,0,0x2D21,
0.680989625000000,0,0xDBFF,
0.680997458333333,0,0xAD24,
0.681013166666667,0,0xFFF5,
0.681021041666667,0,0xAE24,
0.681036750000000,0,0x09D9,
0.681044583333333,0,0xAF24,
0.681060291666667,0,0xFFFF,
0.681068166666667,0,0xB024,
0.681083875000000,0,0x830F,
0.681091750000000,0,0xB124,
0.681121750000000,0,0x0006,
0.681129416666667,0,0x3B25,
0.681145750000000,0,0xE518,
0.681153583333333,0,0xBB24,
0.681169291666667,0,0x8000,
0.681177166666667,0,0xBC24,
0.681192875000000,0,0x8000,
0.681200708333333,0,0xBD24,
0.681216416666667,0,0x8000,
0.681224291666667,0,0xBE24,
0.681240000000000,0,0xE5BD,
0.681247875000000,0,0xBF24,
0.681263583333333,0,0xE5D1,
0.681271416666667,0,0xC024,
0.681301500000000,0,0x000A,
0.681309166666667,0,0x4129,
0.681325416666667,0,0xDB2D,
0.681333291666667,0,0xC124,
0.681349000000000,0,0xDC2C,
0.681356875000000,0,0xC224,
0.681372583333333,0,0xDF37,
0.681380416666667,0,0xC324,
0.681396125000000,0,0xE125,
0.681404000000000,0,0xC424,
0.681419708333333,0,0xA97E,
0.681427583333333,0,0xC524,
0.681443250000000,0,0xFF4C,
0.681451125000000,0,0xC624,
0.681466833333333,0,0xC012,
0.681474666666667,0,0xC724,
0.681490375000000,0,0xA3BE,
0.681498250000000,0,0xC824,
0.681513958333333,0,0x9E38,
0.681521833333333,0,0xC924,
0.681537541666667,0,0x9E3D,
0.681545416666667,0,0xCA24,
0.689313125000000,0,0x5C3F,
0.689320791666667,0,0x060F,
0.689349083333333,0,0x0004,
0.689356750000000,0,0x0311,
0.689372833333333,0,0x0A01,
0.689380750000000,0,0x8311,
0.689396583333333,0,0x0F00,
0.689404500000000,0,0x8411,
0.689420333333333,0,0x0000,
0.689428250000000,0,0x8515,
0.689444041666667,0,0x5F3F,
0.689452000000000,0,0x8611,
0.689482250000000,0,0x0004,
0.689489958333333,0,0x0315,
0.689505916666667,0,0x0A01,
0.689513833333333,0,0x8315,
0.689529666666667,0,0x0F00,
0.689537583333333,0,0x8415,
0.689553416666667,0,0x0000,
0.689561333333333,0,0x8515,
0.689577166666667,0,0x5F3F,
0.689585125000000,0,0x8615,
0.689615541666667,0,0x0004,
0.689623208333333,0,0x0319,
0.689639541666667,0,0x0A01,
0.689647500000000,0,0x8319,
0.689663333333333,0,0x0F00,
0.689671250000000,0,0x8419,
0.689687083333333,0,0x0000,
0.689695000000000,0,0x8515,
0.689710833333333,0,0x5F3F,
0.689718750000000,0,0x8619,
0.689748916666667,0,0x0004,
0.689756583333333,0,0x031D,
0.689772708333333,0,0x0A01,
0.689780625000000,0,0x831D,
0.689796458333333,0,0x0F00,
0.689804375000000,0,0x841D,
0.689820208333333,0,0x0000,
0.689828125000000,0,0x8515,
0.689843958333333,0,0x5F3F,
0.689851875000000,0,0x861D,
0.689881916666667,0,0x0004,
0.689889583333333,0,0x0311,
0.689905833333333,0,0x0A01,
0.689913750000000,0,0x8311,
0.689929583333333,0,0x0F00,
0.689937500000000,0,0x8411,
0.689953333333333,0,0x0000,
0.689961250000000,0,0x8515,
0.689977083333333,0,0x573F,
0.689985000000000,0,0x8611,
0.690016041666667,0,0x0001,
0.690023708333333,0,0x1D15,
0.690039916666667,0,0x1551,
0.690047833333333,0,0x9D15,
0.690076250000000,0,0x0003,
0.690083916666667,0,0x2419,
0.690100291666667,0,0x0048,
0.690108208333333,0,0xA415,
0.690124041666667,0,0x0040,
0.690131958333333,0,0xA515,
0.690147791666667,0,0x8000,
0.690155708333333,0,0xA615,
0.690184541666667,0,0x0005,
0.690192208333333,0,0x2D1D,
0.690208666666667,0,0xD3AE,
0.690216583333333,0,0xAD15,
0.690232416666667,0,0xFFF3,
0.690240333333333,0,0xAE15,
0.690256166666667,0,0x5C00,
0.690264083333333,0,0xAF15,
0.690279916666667,0,0x8000,
0.690287875000000,0,0xB015,
0.690303666666667,0,0x8300,
0.690311625000000,0,0xB115,
0.690341958333333,0,0x0006,
0.690349625000000,0,0x3B11,
0.690366000000000,0,0xB3E2,
0.690373916666667,0,0xBB15,
0.690389750000000,0,0xB32E,
0.690397666666667,0,0xBC15,
0.690413500000000,0,0xB2BB,
0.690421416666667,0,0xBD15,
0.690437250000000,0,0xB200,
0.690445166666667,0,0xBE15,
0.690461000000000,0,0xB203,
0.690468916666667,0,0xBF15,
0.690484750000000,0,0xB275,
0.690492666666667,0,0xC015,
0.690523333333333,0,0x000A,
0.690531000000000,0,0x4115,
0.690547083333333,0,0xC0C3,
0.690555000000000,0,0xC115,
0.690570833333333,0,0xC0C3,
0.690578750000000,0,0xC215,
0.690594583333333,0,0xC0C4,
0.690602500000000,0,0xC315,
0.690618333333333,0,0xC0C2,
0.690626250000000,0,0xC415,
0.690642083333333,0,0xC0C4,
0.690650000000000,0,0xC515,
0.690665833333333,0,0xDCD1,
0.690673750000000,0,0xC615,
0.690689583333333,0,0x8009,
0.690697500000000,0,0xC715,
0.690713333333333,0,0xA3DB,
0.690721208333333,0,0xC815,
0.690737083333333,0,0x9E39,
0.690744958333333,0,0xC915,
0.690760791666667,0,0x9E39,
0.690768750000000,0,0xCA15,
0.690800666666667,0,0x0004,
0.690808375000000,0,0x0329,
0.690824416666667,0,0x0A01,
0.690832291666667,0,0x8329,
0.690848000000000,0,0x0F00,
0.690855833333333,0,0x8429,
0.690871541666667,0,0x0000,
0.690879416666667,0,0x8525,
0.690895125000000,0,0x573F,
0.690903000000000,0,0x8629,
0.690933458333333,0,0x0001,
0.690941125000000,0,0x1D2D,
0.690957458333333,0,0x0055,
0.690965333333333,0,0x9D2D,
0.690993291666667,0,0x0003,
0.691000958333333,0,0x2421,
0.691017375000000,0,0x004C,
0.691025250000000,0,0xA425,
0.691040958333333,0,0x0040,
0.691048833333333,0,0xA525,
0.691064541666667,0,0x8000,
0.691072375000000,0,0xA625,
0.691101458333333,0,0x0005,
0.691109125000000,0,0x2D25,
0.691125416666667,0,0xDD0F,
0.691133250000000,0,0xAD25,
0.691148958333333,0,0xFFF5,
0.691156833333333,0,0xAE25,
0.691172541666667,0,0x0750,
0.691180416666667,0,0xAF25,
0.691196125000000,0,0xFFFF,
0.691203958333333,0,0xB025,
0.691219666666667,0,0x830F,
0.691227541666667,0,0xB125,
0.691256875000000,0,0x0006,
0.691264541666667,0,0x3B29,
0.691280541666667,0,0xE516,
0.691288416666667,0,0xBB25,
0.691304125000000,0,0x8000,
0.691311958333333,0,0xBC25,
0.691327708333333,0,0x8003,
0.691335541666667,0,0xBD25,
0.691351250000000,0,0x8003,
0.691359083333333,0,0xBE25,
0.691374791666667,0,0xE5BC,
0.691382666666667,0,0xBF25,
0.691398375000000,0,0xE5D4,
0.691406208333333,0,0xC025,
0.691436166666667,0,0x000A,
0.691443833333333,0,0x412D,
0.691460208333333,0,0xDB2B,
0.691468083333333,0,0xC125,
0.691483791666667,0,0xDC2F,
0.691491666666667,0,0xC225,
0.691507375000000,0,0xDF39,
0.691515208333333,0,0xC325,
0.691530916666667,0,0xE127,
0.691538791666667,0,0xC425,
0.691554500000000,0,0xA982,
0.691562333333333,0,0xC525,
0.691578041666667,0,0xFF4A,
0.691585916666667,0,0xC625,
0.691601625000000,0,0xC017,
0.691609500000000,0,0xC725,
0.691625208333333,0,0xA3BF,
0.691633041666667,0,0xC825,
0.691648750000000,0,0x9E3B,
0.691656625000000,0,0xC925,
0.691672333333333,0,0x9E3C,
0.691680208333333,0,0xCA25,
0.699021333333333,0,0x6C3F,
0.699028958333333,0,0x0603,
0.699056791666667,0,0x0004,
0.699064458333333,0,0x0315,
0.699080583333333,0,0x0A01,
0.699088500000000,0,0x8315,
0.699104333333333,0,0x0F00,
0.699112250000000,0,0x8415,
0.699128083333333,0,0x0000,
0.699136000000000,0,0x8516,
0.699151833333333,0,0x6F3F,
0.699159750000000,0,0x8615,
0.699190916666667,0,0x0004,
0.699198625000000,0,0x0319,
0.699214666666667,0,0x0A01,
0.699222583333333,0,0x8319,
0.699238416666667,0,0x0F00,
0.699246333333333,0,0x8419,
0.699262166666667,0,0x0000,
0.699270125000000,0,0x8516,
0.699285958333333,0,0x6F3F,
0.699293833333333,0,0x8619,
0.699325000000000,0,0x0004,
0.699332708333333,0,0x031D,
0.699348791666667,0,0x0A01,
0.699356708333333,0,0x831D,
0.699372541666667,0,0x0F00,
0.699380458333333,0,0x841D,
0.699396291666667,0,0x0000,
0.699404250000000,0,0x8516,
0.699420083333333,0,0x6F3F,
0.699428000000000,0,0x861D,
0.699458166666667,0,0x0004,
0.699465833333333,0,0x0311,
0.699481958333333,0,0x0A01,
0.699489875000000,0,0x8311,
0.699505708333333,0,0x0F00,
0.699513625000000,0,0x8411,
0.699529458333333,0,0x0000,
0.699537375000000,0,0x8516,
0.699553208333333,0,0x6F3F,
0.699561125000000,0,0x8611,
0.699591666666667,0,0x0004,
0.699599375000000,0,0x0315,
0.699615541666667,0,0x0A01,
0.699623500000000,0,0x8315,
0.699639333333333,0,0x0F00,
0.699647208333333,0,0x8415,
0.699663041666667,0,0x0000,
0.699671000000000,0,0x8516,
0.699686833333333,0,0x673F,
0.699694750000000,0,0x8615,
0.699724583333333,0,0x0001,
0.699732291666667,0,0x1D19,
0.699748666666667,0,0x1551,
0.699756583333333,0,0x9D19,
0.699785583333333,0,0x0003,
0.699793291666667,0,0x241D,
0.699809500000000,0,0x0048,
0.699817416666667,0,0xA416,
0.699833250000000,0,0x0040,
0.699841166666667,0,0xA516,
0.699857000000000,0,0x8000,
0.699864958333333,0,0xA616,
0.699893708333333,0,0x0005,
0.699901416666667,0,0x2D11,
0.699917875000000,0,0xD4B1,
0.699925791666667,0,0xAD16,
0.699941625000000,0,0xFFF3,
0.699949541666667,0,0xAE16,
0.699965375000000,0,0x5916,
0.699973291666667,0,0xAF16,
0.699989125000000,0,0xFFFF,
0.699997041666667,0,0xB016,
0.700012875000000,0,0x830B,
0.700020791666667,0,0xB116,
0.700050291666667,0,0x0006,
0.700057958333333,0,0x3B15,
0.700074208333333,0,0xB3DD,
0.700082125000000,0,0xBB16,
0.700098000000000,0,0xB325,
0.700105916666667,0,0xBC16,
0.700121750000000,0,0xB2C0,
0.700129666666667,0,0xBD16,
0.700145500000000,0,0xB203,
0.700153416666667,0,0xBE16,
0.700169250000000,0,0xB201,
0.700177166666667,0,0xBF16,
0.700193000000000,0,0xB272,
0.700200875000000,0,0xC016,
0.700231541666667,0,0x000A,
0.700239208333333,0,0x4119,
0.700255333333333,0,0xC0C3,
0.700263208333333,0,0xC116,
0.700279041666667,0,0xC0C2,
0.700287000000000,0,0xC216,
0.700302791666667,0,0xC0C4,
0.700310708333333,0,0xC316,
0.700326583333333,0,0xC0C3,
0.700334500000000,0,0xC416,
0.700350291666667,0,0xC0C6,
0.700358208333333,0,0xC516,
0.700374041666667,0,0xDCD2,
0.700381958333333,0,0xC616,
0.700397833333333,0,0x800A,
0.700405750000000,0,0xC716,
0.700421541666667,0,0xA3DE,
0.700429500000000,0,0xC816,
0.700445291666667,0,0x9E37,
0.700453208333333,0,0xC916,
0.700469041666667,0,0x9E3B,
0.700476958333333,0,0xCA16,
0.700508416666667,0,0x0004,
0.700516125000000,0,0x032D,
0.700532250000000,0,0x0A01,
0.700540083333333,0,0x832D,
0.700555833333333,0,0x0F00,
0.700563666666667,0,0x842D,
0.700579375000000,0,0x0000,
0.700587250000000,0,0x8526,
0.700602958333333,0,0x673F,
0.700610833333333,0,0x862D,
0.700641333333333,0,0x0001,
0.700649000000000,0,0x1D21,
0.700665333333333,0,0x0055,
0.700673166666667,0,0x9D21,
0.700701333333333,0,0x0003,
0.700709000000000,0,0x2425,
0.700725208333333,0,0x004C,
0.700733083333333,0,0xA426,
0.700748791666667,0,0x0040,
0.700756625000000,0,0xA526,
0.700772333333333,0,0x8000,
0.700780208333333,0,0xA626,
0.700808333333333,0,0x0005,
0.700816041666667,0,0x2D29,
0.700832250000000,0,0xDE13,
0.700840083333333,0,0xAD26,
0.700855791666667,0,0xFFF5,
0.700863666666667,0,0xAE26,
0.700879375000000,0,0x0439,
0.700887250000000,0,0xAF26,
0.700902958333333,0,0xFFFF,
0.700910791666667,0,0xB026,
0.700926541666667,0,0x830A,
0.700934375000000,0,0xB126,
0.700963708333333,0,0x0006,
0.700971375000000,0,0x3B2D,
0.700987416666667,0,0xE516,
0.700995250000000,0,0xBB26,
0.701010958333333,0,0x8000,
0.701018833333333,0,0xBC26,
0.701034541666667,0,0x8000,
0.701042416666667,0,0xBD26,
0.701058125000000,0,0x8000,
0.701065958333333,0,0xBE26,
0.701081666666667,0,0xE5BE,
0.701089541666667,0,0xBF26,
0.701105250000000,0,0xE5D5,
0.701113083333333,0,0xC026,
0.701143041666667,0,0x000A,
0.701150708333333,0,0x4121,
0.701167083333333,0,0xDB30,
0.701174958333333,0,0xC126,
0.701190666666667,0,0xDC2F,
0.701198541666667,0,0xC226,
0.701214250000000,0,0xDF35,
0.701222083333333,0,0xC326,
0.701237791666667,0,0xE124,
0.701245625000000,0,0xC426,
0.701261375000000,0,0xA983,
0.701269208333333,0,0xC526,
0.701284916666667,0,0xFF4D,
0.701292791666667,0,0xC626,
0.701308500000000,0,0xC016,
0.701316333333333,0,0xC726,
0.701332041666667,0,0xA3BE,
0.701339916666667,0,0xC826,
0.701355625000000,0,0x9E3C,
0.701363458333333,0,0xC926,
0.701379166666667,0,0x9E3B,
0.701387041666667,0,0xCA26,
0.709115500000000,0,0x7C3F,
0.709123208333333,0,0x0607,
0.709151250000000,0,0x0004,
0.709158916666667,0,0x0319,
0.709174958333333,0,0x0A01,
0.709182875000000,0,0x8319,
0.709198750000000,0,0x0F00,
0.709206666666667,0,0x8419,
0.709222500000000,0,0x0000,
0.709230416666667,0,0x8517,
0.709246250000000,0,0x7F3F,
0.709254166666667,0,0x8619,
0.709284541666667,0,0x0004,
0.709292208333333,0,0x031D,
0.709308583333333,0,0x0A01,
0.709316500000000,0,0x831D,
0.709332333333333,0,0x0F00,
0.709340250000000,0,0x841D,
0.709356083333333,0,0x0000,
0.709364000000000,0,0x8517,
0.709379833333333,0,0x7F3F,
0.709387750000000,0,0x861D,
0.709418458333333,0,0x0004,
0.709426125000000,0,0x0311,
0.709442208333333,0,0x0A01,
0.709450125000000,0,0x8311,
0.709465958333333,0,0x0F00,
0.709473875000000,0,0x8411,
0.709489750000000,0,0x0000,
0.709497666666667,0,0x8517,
0.709513500000000,0,0x7F3F,
0.709521416666667,0,0x8611,
0.709551708333333,0,0x0004,
0.709559375000000,0,0x0315,
0.709575833333333,0,0x0A01,
0.709583750000000,0,0x8315,
0.709599583333333,0,0x0F00,
0.709607500000000,0,0x8415,
0.709623333333333,0,0x0000,
0.709631250000000,0,0x8517,
0.709647083333333,0,0x7F3F,
0.709655000000000,0,0x8615,
0.709685041666667,0,0x0004,
0.709692708333333,0,0x0319,
0.709708916666667,0,0x0A01,
0.709716875000000,0,0x8319,
0.709732666666667,0,0x0F00,
0.709740583333333,0,0x8419,
0.709756416666667,0,0x0000,
0.709764333333333,0,0x8517,
0.709780166666667,0,0x773F,
0.709788083333333,0,0x8619,
0.709818458333333,0,0x0001,
0.709826125000000,0,0x1D1D,
0.709842500000000,0,0x1551,
0.709850416666667,0,0x9D1D,
0.709877833333333,0,0x0003,
0.709885500000000,0,0x2411,
0.709901875000000,0,0x0048,
0.709909791666667,0,0xA417,
0.709925625000000,0,0x0040,
0.709933500000000,0,0xA517,
0.709949333333333,0,0x8000,
0.709957291666667,0,0xA617,
0.709986208333333,0,0x0005,
0.709993916666667,0,0x2D15,
0.710010208333333,0,0xD5BD,
0.710018125000000,0,0xAD17,
0.710033958333333,0,0xFFF3,
0.710041875000000,0,0xAE17,
0.710057708333333,0,0x564E,
0.710065625000000,0,0xAF17,
0.710081458333333,0,0xFFFF,
0.710089375000000,0,0xB017,
0.710105208333333,0,0x8307,
0.710113125000000,0,0xB117,
0.710143333333333,0,0x0006,
0.710151000000000,0,0x3B19,
0.710167041666667,0,0xB3E3,
0.710174958333333,0,0xBB17,
0.710190791666667,0,0xB329,
0.710198708333333,0,0xBC17,
0.710214541666667,0,0xB2BF,
0.710222458333333,0,0xBD17,
0.710238291666667,0,0xB200,
0.710246208333333,0,0xBE17,
0.710262041666667,0,0xB200,
0.710269958333333,0,0xBF17,
0.710285791666667,0,0xB272,
0.710293708333333,0,0xC017,
0.710324541666667,0,0x000A,
0.710332250000000,0,0x411D,
0.710348583333333,0,0xC0C3,
0.710356500000000,0,0xC117,
0.710372333333333,0,0xC0C3,
0.710380291666667,0,0xC217,
0.710396083333333,0,0xC0C6,
0.710404041666667,0,0xC317,
0.710419833333333,0,0xC0C4,
0.710427750000000,0,0xC417,
0.710443625000000,0,0xC0C5,
0.710451541666667,0,0xC517,
0.710467333333333,0,0xDCD3,
0.710475250000000,0,0xC617,
0.710491125000000,0,0x800C,
0.710499041666667,0,0xC717,
0.710514875000000,0,0xA3DA,
0.710522791666667,0,0xC817,
0.710538583333333,0,0x9E38,
0.710546500000000,0,0xC917,
0.710562333333333,0,0x9E3E,
0.710570250000000,0,0xCA17,
0.710602833333333,0,0x0004,
0.710610541666667,0,0x0321,
0.710626708333333,0,0x0A01,
0.710634541666667,0,0x8321,
0.710650250000000,0,0x0F00,
0.710658125000000,0,0x8421,
0.710673833333333,0,0x0000,
0.710681666666667,0,0x8527,
0.710697375000000,0,0x773F,
0.710705250000000,0,0x8621,
0.710735166666667,0,0x0001,
0.710742833333333,0,0x1D25,
0.710759250000000,0,0x0055,
0.710767125000000,0,0x9D25,
0.710795333333333,0,0x0003,
0.710803000000000,0,0x2429,
0.710819166666667,0,0x004C,
0.710827041666667,0,0xA427,
0.710842750000000,0,0x0040,
0.710850583333333,0,0xA527,
0.710866291666667,0,0x8000,
0.710874166666667,0,0xA627,
0.710902583333333,0,0x0005,
0.710910291666667,0,0x2D2D,
0.710926666666667,0,0xDF21,
0.710934541666667,0,0xAD27,
0.710950250000000,0,0xFFF5,
0.710958125000000,0,0xAE27,
0.710973833333333,0,0x01BF,
0.710981666666667,0,0xAF27,
0.710997375000000,0,0xFFFF,
0.711005250000000,0,0xB027,
0.711020958333333,0,0x8308,
0.711028833333333,0,0xB127,
0.711058250000000,0,0x0006,
0.711065916666667,0,0x3B21,
0.711082333333333,0,0xE517,
0.711090166666667,0,0xBB27,
0.711105875000000,0,0x8000,
0.711113750000000,0,0xBC27,
0.711129458333333,0,0x8000,
0.711137333333333,0,0xBD27,
0.711153000000000,0,0x8000,
0.711160875000000,0,0xBE27,
0.711176583333333,0,0xE5BB,
0.711184458333333,0,0xBF27,
0.711200166666667,0,0xE5D6,
0.711208000000000,0,0xC027,
0.711237958333333,0,0x000A,
0.711245625000000,0,0x4125,
0.711262000000000,0,0xDB2B,
0.711269875000000,0,0xC127,
0.711285583333333,0,0xDC30,
0.711293416666667,0,0xC227,
0.711309125000000,0,0xDF3A,
0.711317000000000,0,0xC327,
0.711332708333333,0,0xE120,
0.711340541666667,0,0xC427,
0.711356291666667,0,0xA97E,
0.711364125000000,0,0xC527,
0.711379833333333,0,0xFF4A,
0.711387708333333,0,0xC627,
0.711403416666667,0,0xC016,
0.711411291666667,0,0xC727,
0.711427000000000,0,0xA3BD,
0.711434833333333,0,0xC827,
0.711450541666667,0,0x9E3B,
0.711458416666667,0,0xC927,
0.711474125000000,0,0x9E3D,
0.711482000000000,0,0xCA27,
0.719066958333333,0,0x8C3F,
0.719074625000000,0,0x060B,
0.719102291666667,0,0x0004,
0.719110000000000,0,0x031D,
0.719126291666667,0,0x0A01,
0.719134166666667,0,0x831D,
0.719150000000000,0,0x0F00,
0.719157916666667,0,0x841D,
0.719173750000000,0,0x0000,
0.719181666666667,0,0x8518,
0.719197500000000,0,0x8F3F,
0.719205416666667,0,0x861D,
0.719237041666667,0,0x0004,
0.719244708333333,0,0x0311,
0.719260833333333,0,0x0A01,
0.719268791666667,0,0x8311,
0.719284583333333,0,0x0F00,
0.719292500000000,0,0x8411,
0.719308333333333,0,0x0000,
0.719316250000000,0,0x8518,
0.719332125000000,0,0x8F3F,
0.719340041666667,0,0x8611,
0.719370291666667,0,0x0004,
0.719377958333333,0,0x0315,
0.719393958333333,0,0x0A01,
0.719401875000000,0,0x8315,
0.719417708333333,0,0x0F00,
0.719425625000000,0,0x8415,
0.719441458333333,0,0x0000,
0.719449375000000,0,0x8518,
0.719465208333333,0,0x8F3F,
0.719473125000000,0,0x8615,
0.719504041666667,0,0x0004,
0.719511750000000,0,0x0319,
0.719528041666667,0,0x0A01,
0.719535958333333,0,0x8319,
0.719551791666667,0,0x0F00,
0.719559708333333,0,0x8419,
0.719575541666667,0,0x0000,
0.719583458333333,0,0x8518,
0.719599291666667,0,0x8F3F,
0.719607208333333,0,0x8619,
0.719637208333333,0,0x0004,
0.719644875000000,0,0x031D,
0.719661125000000,0,0x0A01,
0.719669041666667,0,0x831D,
0.719684875000000,0,0x0F00,
0.719692791666667,0,0x841D,
0.719708625000000,0,0x0000,
0.719716541666667,0,0x8518,
0.719732375000000,0,0x873F,
0.719740291666667,0,0x861D,
0.719771041666667,0,0x0001,
0.719778750000000,0,0x1D11,
0.719794708333333,0,0x1551,
0.719802625000000,0,0x9D11,
0.719830625000000,0,0x0003,
0.719838333333333,0,0x2415,
0.719854541666667,0,0x0048,
0.719862458333333,0,0xA418,
0.719878291666667,0,0x0040,
0.719886208333333,0,0xA518,
0.719902041666667,0,0x8000,
0.719909958333333,0,0xA618,
0.719938916666667,0,0x0005,
0.719946583333333,0,0x2D19,
0.719962875000000,0,0xD6C6,
0.719970791666667,0,0xAD18,
0.719986625000000,0,0xFFF3,
0.719994541666667,0,0xAE18,
0.720010375000000,0,0x5301,
0.720018291666667,0,0xAF18,
0.720034125000000,0,0xFFFF,
0.720042041666667,0,0xB018,
0.720057833333333,0,0x830C,
0.720065750000000,0,0xB118,
0.720096500000000,0,0x0006,
0.720104208333333,0,0x3B1D,
0.720120666666667,0,0xB3DC,
0.720128583333333,0,0xBB18,
0.720144416666667,0,0xB326,
0.720152333333333,0,0xBC18,
0.720168166666667,0,0xB2BB,
0.720176083333333,0,0xBD18,
0.720191916666667,0,0xB1FE,
0.720199833333333,0,0xBE18,
0.720215666666667,0,0xB201,
0.720223583333333,0,0xBF18,
0.720239416666667,0,0xB272,
0.720247333333333,0,0xC018,
0.720278125000000,0,0x000A,
0.720285833333333,0,0x4111,
0.720302208333333,0,0xC0C3,
0.720310125000000,0,0xC118,
0.720325958333333,0,0xC0C7,
0.720333875000000,0,0xC218,
0.720349708333333,0,0xC0C5,
0.720357625000000,0,0xC318,
0.720373458333333,0,0xC0C7,
0.720381333333333,0,0xC418,
0.720397166666667,0,0xC0C7,
0.720405125000000,0,0xC518,
0.720420916666667,0,0xDCD5,
0.720428875000000,0,0xC618,
0.720444708333333,0,0x8011,
0.720452625000000,0,0xC718,
0.720468416666667,0,0xA3DB,
0.720476333333333,0,0xC818,
0.720492166666667,0,0x9E3B,
0.720500083333333,0,0xC918,
0.720515916666667,0,0x9E3C,
0.720523833333333,0,0xCA18,
0.720555375000000,0,0x0004,
0.720563041666667,0,0x0325,
0.720579041666667,0,0x0A01,
0.720586875000000,0,0x8325,
0.720602583333333,0,0x0F00,
0.720610458333333,0,0x8425,
0.720626208333333,0,0x0000,
0.720634041666667,0,0x8528,
0.720649750000000,0,0x873F,
0.720657625000000,0,0x8625,
0.720688125000000,0,0x0001,
0.720695791666667,0,0x1D29,
0.720712125000000,0,0x0055,
0.720719958333333,0,0x9D29,
0.720748041666667,0,0x0003,
0.720755708333333,0,0x242D,
0.720772000000000,0,0x004C,
0.720779875000000,0,0xA428,
0.720795583333333,0,0x0040,
0.720803416666667,0,0xA528,
0.720819166666667,0,0x8000,
0.720827000000000,0,0xA628,
0.720855750000000,0,0x0005,
0.720863416666667,0,0x2D21,
0.720879541666667,0,0xE02C,
0.720887416666667,0,0xAD28,
0.720903083333333,0,0xFFF4,
0.720910958333333,0,0xAE28,
0.720926666666667,0,0xFF9A,
0.720934500000000,0,0xAF28,
0.720950250000000,0,0x8000,
0.720958083333333,0,0xB028,
0.720973791666667,0,0x8303,
0.720981625000000,0,0xB128,
0.721012500000000,0,0x0006,
0.721020208333333,0,0x3B25,
0.721036625000000,0,0xE51A,
0.721044500000000,0,0xBB28,
0.721060208333333,0,0x8001,
0.721068083333333,0,0xBC28,
0.721083791666667,0,0x8000,
0.721091625000000,0,0xBD28,
0.721107333333333,0,0x8002,
0.721115208333333,0,0xBE28,
0.721130916666667,0,0xE5B9,
0.721138750000000,0,0xBF28,
0.721154458333333,0,0xE5D0,
0.721162333333333,0,0xC028,
0.721192958333333,0,0x000A,
0.721200666666667,0,0x4129,
0.721216833333333,0,0xDB2B,
0.721224666666667,0,0xC128,
0.721240375000000,0,0xDC2D,
0.721248250000000,0,0xC228,
0.721263958333333,0,0xDF3A,
0.721271791666667,0,0xC328,
0.721287500000000,0,0xE120,
0.721295375000000,0,0xC428,
0.721311083333333,0,0xA979,
0.721318916666667,0,0xC528,
0.721334666666667,0,0xFF48,
0.721342500000000,0,0xC628,
0.721358208333333,0,0xC014,
0.721366083333333,0,0xC728,
0.721381791666667,0,0xA3BF,
0.721389666666667,0,0xC828,
0.721405333333333,0,0x9E37,
0.721413208333333,0,0xC928,
0.721428916666667,0,0x9E41,
0.721436791666667,0,0xCA28,
0.729077916666667,0,0x9C3F,
0.729085583333333,0,0x060F,
0.729112458333333,0,0x0004,
0.729120125000000,0,0x0311,
0.729136375000000,0,0x0A01,
0.729144291666667,0,0x8311,
0.729160125000000,0,0x0F00,
0.729168041666667,0,0x8411,
0.729183875000000,0,0x0000,
0.729191791666667,0,0x8519,
0.729207625000000,0,0x9F3F,
0.729215541666667,0,0x8611,
0.729246750000000,0,0x0004,
0.729254416666667,0,0x0315,
0.729270458333333,0,0x0A01,
0.729278375000000,0,0x8315,
0.729294208333333,0,0x0F00,
0.729302125000000,0,0x8415,
0.729317958333333,0,0x0000,
0.729325916666667,0,0x8519,
0.729341708333333,0,0x9F3F,
0.729349666666667,0,0x8615,
0.729380625000000,0,0x0004,
0.729388291666667,0,0x0319,
0.729404541666667,0,0x0A01,
0.729412500000000,0,0x8319,
0.729428291666667,0,0x0F00,
0.729436250000000,0,0x8419,
0.729452083333333,0,0x0000,
0.729460000000000,0,0x8519,
0.729475833333333,0,0x9F3F,
0.729483708333333,0,0x8619,
0.729514333333333,0,0x0004,
0.729522000000000,0,0x031D,
0.729538166666667,0,0x0A01,
0.729546083333333,0,0x831D,
0.729561916666667,0,0x0F00,
0.729569833333333,0,0x841D,
0.729585666666667,0,0x0000,
0.729593583333333,0,0x8519,
0.729609416666667,0,0x9F3F,
0.729617333333333,0,0x861D,
0.729647500000000,0,0x0004,
0.729655166666667,0,0x0311,
0.729671250000000,0,0x0A01,
0.729679166666667,0,0x8311,
0.729695000000000,0,0x0F00,
0.729702916666667,0,0x8411,
0.729718750000000,0,0x0000,
0.729726666666667,0,0x8519,
0.729742458333333,0,0x973F,
0.729750375000000,0,0x8611,
0.729781041666667,0,0x0001,
0.729788708333333,0,0x1D15,
0.729804791666667,0,0x1551,
0.729812708333333,0,0x9D15,
0.729840875000000,0,0x0003,
0.729848583333333,0,0x2419,
0.729864666666667,0,0x0048,
0.729872583333333,0,0xA419,
0.729888416666667,0,0x0040,
0.729896333333333,0,0xA519,
0.729912125000000,0,0x8000,
0.729920041666667,0,0xA619,
0.729948791666667,0,0x0005,
0.729956458333333,0,0x2D1D,
0.729972500000000,0,0xD7D0,
0.729980416666667,0,0xAD19,
0.729996250000000,0,0xFFF3,
0.730004166666667,0,0xAE19,
0.730020000000000,0,0x5050,
0.730027958333333,0,0xAF19,
0.730043750000000,0,0xFFFF,
0.730051708333333,0,0xB019,
0.730067500000000,0,0x830F,
0.730075458333333,0,0xB119,
0.730105833333333,0,0x0006,
0.730113500000000,0,0x3B11,
0.730129875000000,0,0xB3E1,
0.730137791666667,0,0xBB19,
0.730153625000000,0,0xB32A,
0.730161541666667,0,0xBC19,
0.730177375000000,0,0xB2BC,
0.730185291666667,0,0xBD19,
0.730201125000000,0,0xB200,
0.730209041666667,0,0xBE19,
0.730224875000000,0,0xB201,
0.730232791666667,0,0xBF19,
0.730248625000000,0,0xB26F,
0.730256541666667,0,0xC019,
0.730287125000000,0,0x000A,
0.730294791666667,0,0x4115,
0.730310958333333,0,0xC0C3,
0.730318875000000,0,0xC119,
0.730334708333333,0,0xC0C6,
0.730342625000000,0,0xC219,
0.730358458333333,0,0xC0C3,
0.730366375000000,0,0xC319,
0.730382208333333,0,0xC0C6,
0.730390125000000,0,0xC419,
0.730405958333333,0,0xC0C6,
0.730413875000000,0,0xC519,
0.730429708333333,0,0xDCD2,
0.730437625000000,0,0xC619,
0.730453458333333,0,0x800C,
0.730461375000000,0,0xC719,
0.730477208333333,0,0xA3DC,
0.730485125000000,0,0xC819,
0.730500916666667,0,0x9E36,
0.730508833333333,0,0xC919,
0.730524666666667,0,0x9E3B,
0.730532583333333,0,0xCA19,
0.730565166666667,0,0x0004,
0.730572875000000,0,0x0329,
0.730589000000000,0,0x0A01,
0.730596875000000,0,0x8329,
0.730612541666667,0,0x0F00,
0.730620416666667,0,0x8429,
0.730636125000000,0,0x0000,
0.730644000000000,0,0x8529,
0.730659708333333,0,0x973F,
0.730667541666667,0,0x8629,
0.730697500000000,0,0x0001,
0.730705166666667,0,0x1D2D,
0.730721583333333,0,0x0055,
0.730729416666667,0,0x9D2D,
0.730757375000000,0,0x0003,
0.730765083333333,0,0x2421,
0.730781458333333,0,0x004C,
0.730789333333333,0,0xA429,
0.730805041666667,0,0x0040,
0.730812875000000,0,0xA529,
0.730828583333333,0,0x8000,
0.730836458333333,0,0xA629,
0.730865375000000,0,0x0005,
0.730873041666667,0,0x2D25,
0.730889000000000,0,0xE138,
0.730896875000000,0,0xAD29,
0.730912541666667,0,0xFFF4,
0.730920416666667,0,0xAE29,
0.730936125000000,0,0xFD33,
0.730944000000000,0,0xAF29,
0.730959708333333,0,0xFFFF,
0.730967541666667,0,0xB029,
0.730983250000000,0,0x830F,
0.730991125000000,0,0xB129,
0.731021791666667,0,0x0006,
0.731029500000000,0,0x3B29,
0.731045625000000,0,0xE51B,
0.731053500000000,0,0xBB29,
0.731069208333333,0,0x8001,
0.731077041666667,0,0xBC29,
0.731092750000000,0,0x8003,
0.731100625000000,0,0xBD29,
0.731116333333333,0,0x8000,
0.731124208333333,0,0xBE29,
0.731139916666667,0,0xE5B9,
0.731147750000000,0,0xBF29,
0.731163458333333,0,0xE5D5,
0.731171333333333,0,0xC029,
0.731202666666667,0,0x000A,
0.731210333333333,0,0x412D,
0.731226333333333,0,0xDB28,
0.731234166666667,0,0xC129,
0.731249875000000,0,0xDC27,
0.731257750000000,0,0xC229,
0.731273458333333,0,0xDF32,
0.731281333333333,0,0xC329,
0.731297041666667,0,0xE11E,
0.731304875000000,0,0xC429,
0.731320583333333,0,0xA979,
0.731328458333333,0,0xC529,
0.731344125000000,0,0xFF45,
0.731352000000000,0,0xC629,
0.731367708333333,0,0xC00F,
0.731375541666667,0,0xC729,
0.731391291666667,0,0xA3BE,
0.731399125000000,0,0xC829,
0.731414833333333,0,0x9E37,
0.731422708333333,0,0xC929,
0.731438416666667,0,0x9E3B,
0.731446291666667,0,0xCA29,
0.739186125000000,0,0xAC3F,
0.739193791666667,0,0x0603,
0.739222041666667,0,0x0004,
0.739229750000000,0,0x0315,
0.739245875000000,0,0x0A01,
0.739253791666667,0,0x8315,
0.739269625000000,0,0x0F00,
0.739277541666667,0,0x8415,
0.739293375000000,0,0x0000,
0.739301333333333,0,0x851A,
0.739317166666667,0,0xAF3F,
0.739325083333333,0,0x8615,
0.739356583333333,0,0x0004,
0.739364291666667,0,0x0319,
0.739380541666667,0,0x0A01,
0.739388458333333,0,0x8319,
0.739404291666667,0,0x0F00,
0.739412166666667,0,0x8419,
0.739428041666667,0,0x0000,
0.739435958333333,0,0x851A,
0.739451791666667,0,0xAF3F,
0.739459708333333,0,0x8619,
0.739490583333333,0,0x0004,
0.739498250000000,0,0x031D,
0.739514666666667,0,0x0A01,
0.739522583333333,0,0x831D,
0.739538416666667,0,0x0F00,
0.739546333333333,0,0x841D,
0.739562166666667,0,0x0000,
0.739570083333333,0,0x851A,
0.739585916666667,0,0xAF3F,
0.739593875000000,0,0x861D,
0.739625291666667,0,0x0004,
0.739632958333333,0,0x0311,
0.739649291666667,0,0x0A01,
0.739657208333333,0,0x8311,
0.739673041666667,0,0x0F00,
0.739680958333333,0,0x8411,
0.739696791666667,0,0x0000,
0.739704708333333,0,0x851A,
0.739720541666667,0,0xAF3F,
0.739728458333333,0,0x8611,
0.739759166666667,0,0x0004,
0.739766833333333,0,0x0315,
0.739782875000000,0,0x0A01,
0.739790791666667,0,0x8315,
0.739806625000000,0,0x0F00,
0.739814541666667,0,0x8415,
0.739830375000000,0,0x0000,
0.739838291666667,0,0x851A,
0.739854125000000,0,0xA73F,
0.739862041666667,0,0x8615,
0.739892750000000,0,0x0001,
0.739900416666667,0,0x1D19,
0.739916458333333,0,0x1551,
0.739924375000000,0,0x9D19,
0.739952708333333,0,0x0003,
0.739960416666667,0,0x241D,
0.739976791666667,0,0x0048,
0.739984708333333,0,0xA41A,
0.740000541666667,0,0x0040,
0.740008458333333,0,0xA51A,
0.740024291666667,0,0x8000,
0.740032208333333,0,0xA61A,
0.740061500000000,0,0x0005,
0.740069208333333,0,0x2D11,
0.740085625000000,0,0xD8DD,
0.740093541666667,0,0xAD1A,
0.740109375000000,0,0xFFF3,
0.740117291666667,0,0xAE1A,
0.740133125000000,0,0x4DA1,
0.740141041666667,0,0xAF1A,
0.740156875000000,0,0x8000,
0.740164791666667,0,0xB01A,
0.740180625000000,0,0x8303,
0.740188541666667,0,0xB11A,
0.740219041666667,0,0x0006,
0.740226708333333,0,0x3B15,
0.740242958333333,0,0xB3DF,
0.740250875000000,0,0xBB1A,
0.740266666666667,0,0xB32A,
0.740274583333333,0,0xBC1A,
0.740290416666667,0,0xB2C1,
0.740298333333333,0,0xBD1A,
0.740314166666667,0,0xB204,
0.740322083333333,0,0xBE1A,
0.740337916666667,0,0xB1FD,
0.740345833333333,0,0xBF1A,
0.740361666666667,0,0xB272,
0.740369541666667,0,0xC01A,
0.740400458333333,0,0x000A,
0.740408166666667,0,0x4119,
0.740424500000000,0,0xC0C0,
0.740432375000000,0,0xC11A,
0.740448208333333,0,0xC0C1,
0.740456125000000,0,0xC21A,
0.740471958333333,0,0xC0C0,
0.740479875000000,0,0xC31A,
0.740495708333333,0,0xC0C2,
0.740503625000000,0,0xC41A,
0.740519458333333,0,0xC0C2,
0.740527375000000,0,0xC51A,
0.740543208333333,0,0xDCCE,
0.740551125000000,0,0xC61A,
0.740566958333333,0,0x800E,
0.740574875000000,0,0xC71A,
0.740590708333333,0,0xA3DC,
0.740598625000000,0,0xC81A,
0.740614416666667,0,0x9E37,
0.740622375000000,0,0xC91A,
0.740638166666667,0,0x9E3C,
0.740646083333333,0,0xCA1A,
0.740677208333333,0,0x0004,
0.740684875000000,0,0x032D,
0.740701291666667,0,0x0A01,
0.740709125000000,0,0x832D,
0.740724833333333,0,0x0F00,
0.740732708333333,0,0x842D,
0.740748416666667,0,0x0000,
0.740756250000000,0,0x852A,
0.740771958333333,0,0xA73F,
0.740779833333333,0,0x862D,
0.740809666666667,0,0x0001,
0.740817333333333,0,0x1D21,
0.740833333333333,0,0x0055,
0.740841208333333,0,0x9D21,
0.740869125000000,0,0x0003,
0.740876791666667,0,0x2425,
0.740893250000000,0,0x004C,
0.740901083333333,0,0xA42A,
0.740916833333333,0,0x0040,
0.740924666666667,0,0xA52A,
0.740940375000000,0,0x8000,
0.740948250000000,0,0xA62A,
0.740977291666667,0,0x0005,
0.740984958333333,0,0x2D29,
0.741001291666667,0,0xE247,
0.741009125000000,0,0xAD2A,
0.741024833333333,0,0xFFF4,
0.741032708333333,0,0xAE2A,
0.741048416666667,0,0xFAA3,
0.741056291666667,0,0xAF2A,
0.741072000000000,0,0xFFFF,
0.741079875000000,0,0xB02A,
0.741095583333333,0,0x830D,
0.741103416666667,0,0xB12A,
0.741134125000000,0,0x0006,
0.741141791666667,0,0x3B2D,
0.741157958333333,0,0xE51A,
0.741165791666667,0,0xBB2A,
0.741181500000000,0,0x8002,
0.741189375000000,0,0xBC2A,
0.741205083333333,0,0x8003,
0.741212958333333,0,0xBD2A,
0.741228666666667,0,0x8001,
0.741236500000000,0,0xBE2A,
0.741252208333333,0,0xE5BA,
0.741260083333333,0,0xBF2A,
0.741275791666667,0,0xE5D1,
0.741283666666667,0,0xC02A,
0.741313500000000,0,0x000A,
0.741321166666667,0,0x4121,
0.741337166666667,0,0xDB2A,
0.741345000000000,0,0xC12A,
0.741360750000000,0,0xDC2A,
0.741368583333333,0,0xC22A,
0.741384291666667,0,0xDF36,
0.741392166666667,0,0xC32A,
0.741407875000000,0,0xE11E,
0.741415750000000,0,0xC42A,
0.741431458333333,0,0xA97C,
0.741439333333333,0,0xC52A,
0.741455041666667,0,0xFF49,
0.741462875000000,0,0xC62A,
0.741478583333333,0,0xC015,
0.741486458333333,0,0xC72A,
0.741502166666667,0,0xA3C0,
0.741510041666667,0,0xC82A,
0.741525750000000,0,0x9E38,
0.741533625000000,0,0xC92A,
0.741549333333333,0,0x9E3B,
0.741557166666667,0,0xCA2A,
0.749072750000000,0,0xBC3F,
0.749080416666667,0,0x0607,
0.749107750000000,0,0x0004,
0.749115416666667,0,0x0319,
0.749131583333333,0,0x0A01,
0.749139500000000,0,0x8319,
0.749155333333333,0,0x0F00,
0.749163208333333,0,0x8419,
0.749179083333333,0,0x0000,
0.749187000000000,0,0x851B,
0.749202833333333,0,0xBF3F,
0.749210750000000,0,0x8619,
0.749241458333333,0,0x0004,
0.749249166666667,0,0x031D,
0.749265166666667,0,0x0A01,
0.749273083333333,0,0x831D,
0.749288916666667,0,0x0F00,
0.749296833333333,0,0x841D,
0.749312666666667,0,0x0000,
0.749320583333333,0,0x851B,
0.749336416666667,0,0xBF3F,
0.749344375000000,0,0x861D,
0.749374750000000,0,0x0004,
0.749382416666667,0,0x0311,
0.749398791666667,0,0x0A01,
0.749406708333333,0,0x8311,
0.749422541666667,0,0x0F00,
0.749430458333333,0,0x8411,
0.749446291666667,0,0x0000,
0.749454208333333,0,0x851B,
0.749470041666667,0,0xBF3F,
0.749477958333333,0,0x8611,
0.749509833333333,0,0x0004,
0.749517500000000,0,0x0315,
0.749533916666667,0,0x0A01,
0.749541833333333,0,0x8315,
0.749557666666667,0,0x0F00,
0.749565583333333,0,0x8415,
0.749581416666667,0,0x0000,
0.749589333333333,0,0x851B,
0.749605166666667,0,0xBF3F,
0.749613083333333,0,0x8615,
0.749643125000000,0,0x0004,
0.749650833333333,0,0x0319,
0.749667000000000,0,0x0A01,
0.749674916666667,0,0x8319,
0.749690750000000,0,0x0F00,
0.749698666666667,0,0x8419,
0.749714500000000,0,0x0000,
0.749722416666667,0,0x851B,
0.749738250000000,0,0xB73F,
0.749746166666667,0,0x8619,
0.749776500000000,0,0x0001,
0.749784166666667,0,0x1D1D,
0.749800583333333,0,0x1551,
0.749808500000000,0,0x9D1D,
0.749836750000000,0,0x0003,
0.749844458333333,0,0x2411,
0.749860500000000,0,0x0048,
0.749868416666667,0,0xA41B,
0.749884208333333,0,0x0040,
0.749892125000000,0,0xA51B,
0.749907958333333,0,0x8000,
0.749915875000000,0,0xA61B,
0.749944875000000,0,0x0005,
0.749952583333333,0,0x2D15,
0.749968833333333,0,0xD9E4,
0.749976750000000,0,0xAD1B,
0.749992583333333,0,0xFFF3,
0.750000500000000,0,0xAE1B,
0.750016333333333,0,0x4AF8,
0.750024250000000,0,0xAF1B,
0.750040083333333,0,0x8000,
0.750048000000000,0,0xB01B,
0.750063833333333,0,0x8301,
0.750071750000000,0,0xB11B,
0.750102375000000,0,0x0006,
0.750110041666667,0,0x3B19,
0.750126166666667,0,0xB3DD,
0.750134125000000,0,0xBB1B,
0.750149916666667,0,0xB328,
0.750157833333333,0,0xBC1B,
0.750173708333333,0,0xB2B6,
0.750181625000000,0,0xBD1B,
0.750197416666667,0,0xB1F9,
0.750205375000000,0,0xBE1B,
0.750221208333333,0,0xB1FF,
0.750229125000000,0,0xBF1B,
0.750244916666667,0,0xB26E,
0.750252833333333,0,0xC01B,
0.750283708333333,0,0x000A,
0.750291375000000,0,0x411D,
0.750307750000000,0,0xC0C7,
0.750315666666667,0,0xC11B,
0.750331500000000,0,0xC0C0,
0.750339458333333,0,0xC21B,
0.750355291666667,0,0xC0C5,
0.750363166666667,0,0xC31B,
0.750379041666667,0,0xC0C3,
0.750386958333333,0,0xC41B,
0.750402791666667,0,0xC0C1,
0.750410708333333,0,0xC51B,
0.750426541666667,0,0xDCD3,
0.750434458333333,0,0xC61B,
0.750450291666667,0,0x800B,
0.750458208333333,0,0xC71B,
0.750474041666667,0,0xA3DA,
0.750481958333333,0,0xC81B,
0.750497791666667,0,0x9E37,
0.750505708333333,0,0xC91B,
0.750521541666667,0,0x9E3C,
0.750529458333333,0,0xCA1B,
0.750560750000000,0,0x0004,
0.750568458333333,0,0x0321,
0.750584791666667,0,0x0A01,
0.750592666666667,0,0x8321,
0.750608375000000,0,0x0F00,
0.750616208333333,0,0x8421,
0.750631916666667,0,0x0000,
0.750639791666667,0,0x852B,
0.750655500000000,0,0xB73F,
0.750663333333333,0,0x8621,
0.750693708333333,0,0x0001,
0.750701416666667,0,0x1D25,
0.750717833333333,0,0x0055,
0.750725708333333,0,0x9D25,
0.750753333333333,0,0x0003,
0.750761041666667,0,0x2429,
0.750777250000000,0,0x004C,
0.750785083333333,0,0xA42B,
0.750800833333333,0,0x0040,
0.750808666666667,0,0xA52B,
0.750824375000000,0,0x8000,
0.750832250000000,0,0xA62B,
0.750861083333333,0,0x0005,
0.750868791666667,0,0x2D2D,
0.750884791666667,0,0xE350,
0.750892625000000,0,0xAD2B,
0.750908333333333,0,0xFFF4,
0.750916208333333,0,0xAE2B,
0.750931916666667,0,0xF8BE,
0.750939750000000,0,0xAF2B,
0.750955458333333,0,0x8000,
0.750963333333333,0,0xB02B,
0.750979041666667,0,0x8306,
0.750986875000000,0,0xB12B,
0.751017166666667,0,0x0006,
0.751024875000000,0,0x3B21,
0.751040916666667,0,0xE517,
0.751048750000000,0,0xBB2B,
0.751064458333333,0,0x8000,
0.751072333333333,0,0xBC2B,
0.751088041666667,0,0x8000,
0.751095916666667,0,0xBD2B,
0.751111625000000,0,0x8002,
0.751119458333333,0,0xBE2B,
0.751135166666667,0,0xE5B9,
0.751143041666667,0,0xBF2B,
0.751158750000000,0,0xE5D2,
0.751166625000000,0,0xC02B,
0.751197208333333,0,0x000A,
0.751204875000000,0,0x4125,
0.751221125000000,0,0xDB2B,
0.751228958333333,0,0xC12B,
0.751244666666667,0,0xDC27,
0.751252541666667,0,0xC22B,
0.751268250000000,0,0xDF33,
0.751276083333333,0,0xC32B,
0.751291791666667,0,0xE11D,
0.751299666666667,0,0xC42B,
0.751315375000000,0,0xA976,
0.751323250000000,0,0xC52B,
0.751338916666667,0,0xFF46,
0.751346791666667,0,0xC62B,
0.751362500000000,0,0xC013,
0.751370375000000,0,0xC72B,
0.751386083333333,0,0xA3BE,
0.751393916666667,0,0xC82B,
0.751409625000000,0,0x9E35,
0.751417500000000,0,0xC92B,
0.751433208333333,0,0x9E3F,
0.751441041666667,0,0xCA2B,
0.759027083333333,0,0xCC3F,
0.759034791666667,0,0x060B,
0.759062416666667,0,0x0004,
0.759070083333333,0,0x031D,
0.759086375000000,0,0x0A01,
0.759094291666667,0,0x831D,
0.759110125000000,0,0x0F00,
0.759118041666667,0,0x841D,
0.759133875000000,0,0x0000,
0.759141791666667,0,0x851C,
0.759157625000000,0,0xCF3F,
0.759165541666667,0,0x861D,
0.759196041666667,0,0x0004,
0.759203708333333,0,0x0311,
0.759219958333333,0,0x0A01,
0.759227875000000,0,0x8311,
0.759243750000000,0,0x0F00,
0.759251666666667,0,0x8411,
0.759267500000000,0,0x0000,
0.759275416666667,0,0x851C,
0.759291250000000,0,0xCF3F,
0.759299166666667,0,0x8611,
0.759330583333333,0,0x0004,
0.759338291666667,0,0x0315,
0.759354583333333,0,0x0A01,
0.759362500000000,0,0x8315,
0.759378333333333,0,0x0F00,
0.759386291666667,0,0x8415,
0.759402125000000,0,0x0000,
0.759410041666667,0,0x851C,
0.759425875000000,0,0xCF3F,
0.759433791666667,0,0x8615,
0.759464208333333,0,0x0004,
0.759471875000000,0,0x0319,
0.759488250000000,0,0x0A01,
0.759496125000000,0,0x8319,
0.759512000000000,0,0x0F00,
0.759519875000000,0,0x8419,
0.759535750000000,0,0x0000,
0.759543666666667,0,0x851C,
0.759559500000000,0,0xCF3F,
0.759567416666667,0,0x8619,
0.759597958333333,0,0x0004,
0.759605666666667,0,0x031D,
0.759621833333333,0,0x0A01,
0.759629750000000,0,0x831D,
0.759645583333333,0,0x0F00,
0.759653500000000,0,0x841D,
0.759669333333333,0,0x0000,
0.759677250000000,0,0x851C,
0.759693083333333,0,0xC73F,
0.759701000000000,0,0x861D,
0.759731833333333,0,0x0001,
0.759739500000000,0,0x1D11,
0.759755916666667,0,0x1551,
0.759763875000000,0,0x9D11,
0.759792250000000,0,0x0003,
0.759799958333333,0,0x2415,
0.759816291666667,0,0x0048,
0.759824208333333,0,0xA41C,
0.759840041666667,0,0x0040,
0.759847958333333,0,0xA51C,
0.759863791666667,0,0x8000,
0.759871666666667,0,0xA61C,
0.759900416666667,0,0x0005,
0.759908083333333,0,0x2D19,
0.759924125000000,0,0xDAED,
0.759932041666667,0,0xAD1C,
0.759947875000000,0,0xFFF3,
0.759955791666667,0,0xAE1C,
0.759971583333333,0,0x4828,
0.759979541666667,0,0xAF1C,
0.759995333333333,0,0xFFFF,
0.760003250000000,0,0xB01C,
0.760019083333333,0,0x8309,
0.760027000000000,0,0xB11C,
0.760056708333333,0,0x0006,
0.760064375000000,0,0x3B1D,
0.760080416666667,0,0xB3DD,
0.760088333333333,0,0xBB1C,
0.760104125000000,0,0xB328,
0.760112083333333,0,0xBC1C,
0.760127916666667,0,0xB2C0,
0.760135833333333,0,0xBD1C,
0.760151625000000,0,0xB200,
0.760159583333333,0,0xBE1C,
0.760175375000000,0,0xB200,
0.760183291666667,0,0xBF1C,
0.760199125000000,0,0xB26E,
0.760207041666667,0,0xC01C,
0.760236916666667,0,0x000A,
0.760244583333333,0,0x4111,
0.760260958333333,0,0xC0C0,
0.760268875000000,0,0xC11C,
0.760284708333333,0,0xC0C1,
0.760292625000000,0,0xC21C,
0.760308458333333,0,0xC0C2,
0.760316375000000,0,0xC31C,
0.760332208333333,0,0xC0C3,
0.760340083333333,0,0xC41C,
0.760355916666667,0,0xC0C2,
0.760363833333333,0,0xC51C,
0.760379666666667,0,0xDCCF,
0.760387583333333,0,0xC61C,
0.760403416666667,0,0x800A,
0.760411333333333,0,0xC71C,
0.760427166666667,0,0xA3DC,
0.760435083333333,0,0xC81C,
0.760450916666667,0,0x9E36,
0.760458833333333,0,0xC91C,
0.760474666666667,0,0x9E3C,
0.760482583333333,0,0xCA1C,
0.760514833333333,0,0x0004,
0.760522541666667,0,0x0325,
0.760538458333333,0,0x0A01,
0.760546333333333,0,0x8325,
0.760562041666667,0,0x0F00,
0.760569875000000,0,0x8425,
0.760585625000000,0,0x0000,
0.760593458333333,0,0x852C,
0.760609166666667,0,0xC73F,
0.760617041666667,0,0x8625,
0.760647375000000,0,0x0001,
0.760655083333333,0,0x1D29,
0.760671041666667,0,0x0055,
0.760678875000000,0,0x9D29,
0.760707500000000,0,0x0003,
0.760715208333333,0,0x242D,
0.760731416666667,0,0x004C,
0.760739291666667,0,0xA42C,
0.760755000000000,0,0x0040,
0.760762875000000,0,0xA52C,
0.760778583333333,0,0x8000,
0.760786416666667,0,0xA62C,
0.760815250000000,0,0x0005,
0.760822958333333,0,0x2D21,
0.760838958333333,0,0xE45B,
0.760846833333333,0,0xAD2C,
0.760862541666667,0,0xFFF4,
0.760870416666667,0,0xAE2C,
0.760886125000000,0,0xF6A2,
0.760893958333333,0,0xAF2C,
0.760909666666667,0,0x8000,
0.760917541666667,0,0xB02C,
0.760933250000000,0,0x8300,
0.760941125000000,0,0xB12C,
0.760970541666667,0,0x0006,
0.760978250000000,0,0x3B25,
0.760994625000000,0,0xE515,
0.761002458333333,0,0xBB2C,
0.761018208333333,0,0x8001,
0.761026041666667,0,0xBC2C,
0.761041750000000,0,0x8000,
0.761049625000000,0,0xBD2C,
0.761065333333333,0,0x8000,
0.761073208333333,0,0xBE2C,
0.761088916666667,0,0xE5BA,
0.761096750000000,0,0xBF2C,
0.761112500000000,0,0xE5D3,
0.761120375000000,0,0xC02C,
0.761151416666667,0,0x000A,
0.761159083333333,0,0x4129,
0.761175333333333,0,0xDB2C,
0.761183208333333,0,0xC12C,
0.761198916666667,0,0xDC2C,
0.761206791666667,0,0xC22C,
0.761222500000000,0,0xDF32,
0.761230375000000,0,0xC32C,
0.761246083333333,0,0xE122,
0.761253916666667,0,0xC42C,
0.761269625000000,0,0xA97C,
0.761277500000000,0,0xC52C,
0.761293208333333,0,0xFF4A,
0.761301041666667,0,0xC62C,
0.761316750000000,0,0xC015,
0.761324625000000,0,0xC72C,
0.761340333333333,0,0xA3BC,
0.761348208333333,0,0xC82C,
0.761363916666667,0,0x9E37,
0.761371750000000,0,0xC92C,
0.761387500000000,0,0x9E42,
0.761395333333333,0,0xCA2C,
0.769080625000000,0,0xDC3F,
0.769088291666667,0,0x060F,
0.769115416666667,0,0x0004,
0.769123083333333,0,0x0311,
0.769139333333333,0,0x0A01,
0.769147250000000,0,0x8311,
0.769163083333333,0,0x0F00,
0.769171000000000,0,0x8411,
0.769186833333333,0,0x0000,
0.769194750000000,0,0x851D,
0.769210583333333,0,0xDF3F,
0.769218500000000,0,0x8611,
0.769249958333333,0,0x0004,
0.769257625000000,0,0x0315,
0.769273916666667,0,0x0A01,
0.769281833333333,0,0x8315,
0.769297666666667,0,0x0F00,
0.769305583333333,0,0x8415,
0.769321416666667,0,0x0000,
0.769329333333333,0,0x851D,
0.769345166666667,0,0xDF3F,
0.769353083333333,0,0x8615,
0.769383250000000,0,0x0004,
0.769390916666667,0,0x0319,
0.769407041666667,0,0x0A01,
0.769414916666667,0,0x8319,
0.769430791666667,0,0x0F00,
0.769438708333333,0,0x8419,
0.769454541666667,0,0x0000,
0.769462458333333,0,0x851D,
0.769478291666667,0,0xDF3F,
0.769486208333333,0,0x8619,
0.769517666666667,0,0x0004,
0.769525333333333,0,0x031D,
0.769541625000000,0,0x0A01,
0.769549541666667,0,0x831D,
0.769565375000000,0,0x0F00,
0.769573291666667,0,0x841D,
0.769589125000000,0,0x0000,
0.769597041666667,0,0x851D,
0.769612875000000,0,0xDF3F,
0.769620791666667,0,0x861D,
0.769651916666667,0,0x0004,
0.769659625000000,0,0x0311,
0.769675708333333,0,0x0A01,
0.769683625000000,0,0x8311,
0.769699458333333,0,0x0F00,
0.769707375000000,0,0x8411,
0.769723208333333,0,0x0000,
0.769731125000000,0,0x851D,
0.769746958333333,0,0xD73F,
0.769754875000000,0,0x8611,
0.769785458333333,0,0x0001,
0.769793166666667,0,0x1D15,
0.769809250000000,0,0x1551,
0.769817166666667,0,0x9D15,
0.769845500000000,0,0x0003,
0.769853166666667,0,0x2419,
0.769869625000000,0,0x0048,
0.769877541666667,0,0xA41D,
0.769893375000000,0,0x0040,
0.769901291666667,0,0xA51D,
0.769917125000000,0,0x8000,
0.769925041666667,0,0xA61D,
0.769953791666667,0,0x0005,
0.769961458333333,0,0x2D1D,
0.769977458333333,0,0xDBF8,
0.769985375000000,0,0xAD1D,
0.770001208333333,0,0xFFF3,
0.770009166666667,0,0xAE1D,
0.770025000000000,0,0x4616,
0.770032916666667,0,0xAF1D,
0.770048750000000,0,0x8000,
0.770056666666667,0,0xB01D,
0.770072500000000,0,0x8302,
0.770080416666667,0,0xB11D,
0.770110083333333,0,0x0006,
0.770117791666667,0,0x3B11,
0.770133833333333,0,0xB3DE,
0.770141791666667,0,0xBB1D,
0.770157583333333,0,0xB326,
0.770165500000000,0,0xBC1D,
0.770181333333333,0,0xB2BC,
0.770189250000000,0,0xBD1D,
0.770205083333333,0,0xB203,
0.770213000000000,0,0xBE1D,
0.770228833333333,0,0xB202,
0.770236750000000,0,0xBF1D,
0.770252583333333,0,0xB26F,
0.770260500000000,0,0xC01D,
0.770290875000000,0,0x000A,
0.770298541666667,0,0x4115,
0.770314916666667,0,0xC0C6,
0.770322833333333,0,0xC11D,
0.770338666666667,0,0xC0C6,
0.770346583333333,0,0xC21D,
0.770362416666667,0,0xC0C4,
0.770370375000000,0,0xC31D,
0.770386208333333,0,0xC0C4,
0.770394125000000,0,0xC41D,
0.770409958333333,0,0xC0C9,
0.770417875000000,0,0xC51D,
0.770433708333333,0,0xDCD1,
0.770441625000000,0,0xC61D,
0.770457458333333,0,0x800F,
0.770465375000000,0,0xC71D,
0.770481208333333,0,0xA3DE,
0.770489125000000,0,0xC81D,
0.770504958333333,0,0x9E39,
0.770512875000000,0,0xC91D,
0.770528666666667,0,0x9E3A,
0.770536625000000,0,0xCA1D,
0.770568750000000,0,0x0004,
0.770576416666667,0,0x0329,
0.770592708333333,0,0x0A01,
0.770600541666667,0,0x8329,
0.770616250000000,0,0x0F00,
0.770624125000000,0,0x8429,
0.770639833333333,0,0x0000,
0.770647666666667,0,0x852D,
0.770663375000000,0,0xD73F,
0.770671250000000,0,0x8629,
0.770701583333333,0,0x0001,
0.770709250000000,0,0x1D2D,
0.770725250000000,0,0x0055,
0.770733083333333,0,0x9D2D,
0.770760833333333,0,0x0003,
0.770768541666667,0,0x2421,
0.770784666666667,0,0x004C,
0.770792500000000,0,0xA42D,
0.770808208333333,0,0x0040,
0.770816083333333,0,0xA52D,
0.770831750000000,0,0x8000,
0.770839625000000,0,0xA62D,
0.770868500000000,0,0x0005,
0.770876166666667,0,0x2D25,
0.770892166666667,0,0xE568,
0.770900000000000,0,0xAD2D,
0.770915708333333,0,0xFFF4,
0.770923583333333,0,0xAE2D,
0.770939250000000,0,0xF4DC,
0.770947125000000,0,0xAF2D,
0.770962875000000,0,0xFFFF,
0.770970708333333,0,0xB02D,
0.770986416666667,0,0x830D,
0.770994291666667,0,0xB12D,
0.771024958333333,0,0x0006,
0.771032625000000,0,0x3B29,
0.771048791666667,0,0xE51B,
0.771056625000000,0,0xBB2D,
0.771072333333333,0,0x8000,
0.771080208333333,0,0xBC2D,
0.771095875000000,0,0x8000,
0.771103750000000,0,0xBD2D,
0.771119458333333,0,0x8000,
0.771127291666667,0,0xBE2D,
0.771143041666667,0,0xE5B8,
0.771150875000000,0,0xBF2D,
0.771166583333333,0,0xE5D1,
0.771174458333333,0,0xC02D,
0.771205250000000,0,0x000A,
0.771212916666667,0,0x412D,
0.771228958333333,0,0xDB2F,
0.771236833333333,0,0xC12D,
0.771252541666667,0,0xDC2F,
0.771260375000000,0,0xC22D,
0.771276083333333,0,0xDF38,
0.771283958333333,0,0xC32D,
0.771299666666667,0,0xE120,
0.771307541666667,0,0xC42D,
0.771323250000000,0,0xA97D,
0.771331125000000,0,0xC52D,
0.771346833333333,0,0xFF47,
0.771354666666667,0,0xC62D,
0.771370375000000,0,0xC014,
0.771378250000000,0,0xC72D,
0.771393958333333,0,0xA3BF,
0.771401791666667,0,0xC82D,
0.771417500000000,0,0x9E3A,
0.771425375000000,0,0xC92D,
0.771441083333333,0,0x9E3D,
0.771448916666667,0,0xCA2D,
0.779032958333333,0,0xEC3F,
0.779040666666667,0,0x0603,
0.779067666666667,0,0x0004,
0.779075333333333,0,0x0315,
0.779091458333333,0,0x0A01,
0.779099375000000,0,0x8315,
0.779115208333333,0,0x0F00,
0.779123125000000,0,0x8415,
0.779138958333333,0,0x0000,
0.779146875000000,0,0x851E,
0.779162708333333,0,0xEF3F,
0.779170625000000,0,0x8615,
0.779201166666667,0,0x0004,
0.779208833333333,0,0x0319,
0.779225083333333,0,0x0A01,
0.779233000000000,0,0x8319,
0.779248833333333,0,0x0F00,
0.779256750000000,0,0x8419,
0.779272583333333,0,0x0000,
0.779280541666667,0,0x851E,
0.779296333333333,0,0xEF3F,
0.779304291666667,0,0x8619,
0.779335041666667,0,0x0004,
0.779342666666667,0,0x031D,
0.779358708333333,0,0x0A01,
0.779366625000000,0,0x831D,
0.779382458333333,0,0x0F00,
0.779390375000000,0,0x841D,
0.779406208333333,0,0x0000,
0.779414125000000,0,0x851E,
0.779429958333333,0,0xEF3F,
0.779437875000000,0,0x861D,
0.779468375000000,0,0x0004,
0.779476041666667,0,0x0311,
0.779492291666667,0,0x0A01,
0.779500250000000,0,0x8311,
0.779516083333333,0,0x0F00,
0.779524000000000,0,0x8411,
0.779539791666667,0,0x0000,
0.779547750000000,0,0x851E,
0.779563583333333,0,0xEF3F,
0.779571500000000,0,0x8611,
0.779601875000000,0,0x0004,
0.779609541666667,0,0x0315,
0.779625916666667,0,0x0A01,
0.779633833333333,0,0x8315,
0.779649666666667,0,0x0F00,
0.779657583333333,0,0x8415,
0.779673416666667,0,0x0000,
0.779681333333333,0,0x851E,
0.779697166666667,0,0xE73F,
0.779705083333333,0,0x8615,
0.779735833333333,0,0x0001,
0.779743500000000,0,0x1D19,
0.779759500000000,0,0x1551,
0.779767416666667,0,0x9D19,
0.779795958333333,0,0x0003,
0.779803666666667,0,0x241D,
0.779819833333333,0,0x0048,
0.779827791666667,0,0xA41E,
0.779843583333333,0,0x0040,
0.779851500000000,0,0xA51E,
0.779867375000000,0,0x8000,
0.779875250000000,0,0xA61E,
0.779903958333333,0,0x0005,
0.779911666666667,0,0x2D11,
0.779927708333333,0,0xDD01,
0.779935625000000,0,0xAD1E,
0.779951458333333,0,0xFFF3,
0.779959375000000,0,0xAE1E,
0.779975208333333,0,0x43C8,
0.779983125000000,0,0xAF1E,
0.779998958333333,0,0xFFFF,
0.780006833333333,0,0xB01E,
0.780022666666667,0,0x830C,
0.780030583333333,0,0xB11E,
0.780060625000000,0,0x0006,
0.780068291666667,0,0x3B15,
0.780084500000000,0,0xB3E1,
0.780092416666667,0,0xBB1E,
0.780108250000000,0,0xB32B,
0.780116166666667,0,0xBC1E,
0.780132000000000,0,0xB2B9,
0.780139916666667,0,0xBD1E,
0.780155750000000,0,0xB1FF,
0.780163666666667,0,0xBE1E,
0.780179500000000,0,0xB201,
0.780187416666667,0,0xBF1E,
0.780203291666667,0,0xB271,
0.780211208333333,0,0xC01E,
0.780240958333333,0,0x000A,
0.780248625000000,0,0x4119,
0.780264583333333,0,0xC0C7,
0.780272500000000,0,0xC11E,
0.780288375000000,0,0xC0C8,
0.780296250000000,0,0xC21E,
0.780312083333333,0,0xC0C3,
0.780320000000000,0,0xC31E,
0.780335833333333,0,0xC0C5,
0.780343750000000,0,0xC41E,
0.780359583333333,0,0xC0C5,
0.780367500000000,0,0xC51E,
0.780383333333333,0,0xDCD4,
0.780391250000000,0,0xC61E,
0.780407041666667,0,0x800D,
0.780415000000000,0,0xC71E,
0.780430833333333,0,0xA3DE,
0.780438750000000,0,0xC81E,
0.780454583333333,0,0x9E3A,
0.780462500000000,0,0xC91E,
0.780478333333333,0,0x9E39,
0.780486250000000,0,0xCA1E,
0.780518500000000,0,0x0004,
0.780526166666667,0,0x032D,
0.780542208333333,0,0x0A01,
0.780550083333333,0,0x832D,
0.780565791666667,0,0x0F00,
0.780573666666667,0,0x842D,
0.780589375000000,0,0x0000,
0.780597208333333,0,0x852E,
0.780612916666667,0,0xE73F,
0.780620750000000,0,0x862D,
0.780651125000000,0,0x0001,
0.780658791666667,0,0x1D21,
0.780674791666667,0,0x0055,
0.780682625000000,0,0x9D21,
0.780711125000000,0,0x0003,
0.780718833333333,0,0x2425,
0.780735166666667,0,0x004C,
0.780743041666667,0,0xA42E,
0.780758750000000,0,0x0040,
0.780766583333333,0,0xA52E,
0.780782291666667,0,0x8000,
0.780790166666667,0,0xA62E,
0.780818958333333,0,0x0005,
0.780826625000000,0,0x2D29,
0.780842708333333,0,0xE673,
0.780850541666667,0,0xAD2E,
0.780866250000000,0,0xFFF4,
0.780874125000000,0,0xAE2E,
0.780889833333333,0,0xF182,
0.780897666666667,0,0xAF2E,
0.780913416666667,0,0x8000,
0.780921250000000,0,0xB02E,
0.780936958333333,0,0x8300,
0.780944833333333,0,0xB12E,
0.780974875000000,0,0x0006,
0.780982583333333,0,0x3B2D,
0.780998833333333,0,0xE51A,
0.781006666666667,0,0xBB2E,
0.781022375000000,0,0x8003,
0.781030250000000,0,0xBC2E,
0.781045958333333,0,0x8002,
0.781053791666667,0,0xBD2E,
0.781069541666667,0,0x8002,
0.781077375000000,0,0xBE2E,
0.781093083333333,0,0xE5BA,
0.781100958333333,0,0xBF2E,
0.781116666666667,0,0xE5D4,
0.781124541666667,0,0xC02E,
0.7811547083333