Time [s],Packet ID,MOSI,MISO
0.000004083333333,0,0xCC3F,
0.000011750000000,0,0x060B,
0.000039416666667,0,0x0004,
0.000047083333333,0,0x031D,
0.000063541666667,0,0x0A01,
0.000071458333333,0,0x831D,
0.000087291666667,0,0x0F00,
0.000095250000000,0,0x841D,
0.000111083333333,0,0x0000,
0.000119000000000,0,0x851C,
0.000134833333333,0,0xCF3F,
0.000142750000000,0,0x861D,
0.000173666666667,0,0x0004,
0.000181375000000,0,0x0311,
0.000197708333333,0,0x0A01,
0.000205625000000,0,0x8311,
0.000221458333333,0,0x0F00,
0.000229375000000,0,0x8411,
0.000245250000000,0,0x0000,
0.000253166666667,0,0x851C,
0.000269000000000,0,0xCF3F,
0.000276916666667,0,0x8611,
0.000307833333333,0,0x0004,
0.000315541666667,0,0x0315,
0.000331875000000,0,0x0A01,
0.000339791666667,0,0x8315,
0.000355625000000,0,0x0F00,
0.000363541666667,0,0x8415,
0.000379375000000,0,0x0000,
0.000387291666667,0,0x851C,
0.000403166666667,0,0xCF3F,
0.000411083333333,0,0x8615,
0.000442500000000,0,0x0004,
0.000450208333333,0,0x0319,
0.000466500000000,0,0x0A01,
0.000474416666667,0,0x8319,
0.000490250000000,0,0x0F00,
0.000498166666667,0,0x8419,
0.000514041666667,0,0x0000,
0.000521916666667,0,0x851C,
0.000537791666667,0,0xCF3F,
0.000545708333333,0,0x8619,
0.000576958333333,0,0x0004,
0.000584625000000,0,0x031D,
0.000600625000000,0,0x0A01,
0.000608541666667,0,0x831D,
0.000624375000000,0,0x0F00,
0.000632291666667,0,0x841D,
0.000648125000000,0,0x0000,
0.000656041666667,0,0x851C,
0.000671875000000,0,0xC73F,
0.000679791666667,0,0x861D,
0.000710333333333,0,0x0001,
0.000718000000000,0,0x1D11,
0.000734250000000,0,0x1551,
0.000742166666667,0,0x9D11,
0.000770291666667,0,0x0003,
0.000778000000000,0,0x2415,
0.000794125000000,0,0x0048,
0.000802041666667,0,0xA41C,
0.000817916666667,0,0x0040,
0.000825791666667,0,0xA51C,
0.000841666666667,0,0x0000,
0.000849583333333,0,0xA61C,
0.000879000000000,0,0x0005,
0.000886666666667,0,0x2D19,
0.000903000000000,0,0xC38A,
0.000910916666667,0,0xAD1C,
0.000926750000000,0,0xFFFD,
0.000934666666667,0,0xAE1C,
0.000950500000000,0,0xEDC2,
0.000958416666667,0,0xAF1C,
0.000974250000000,0,0xFFFF,
0.000982166666667,0,0xB01C,
0.000998000000000,0,0x8308,
0.001005916666667,0,0xB11C,
0.001036750000000,0,0x0006,
0.001044416666667,0,0x3B1D,
0.001060833333333,0,0xB3E3,
0.001068750000000,0,0xBB1C,
0.001084583333333,0,0xB32E,
0.001092541666667,0,0xBC1C,
0.001108375000000,0,0xB2C1,
0.001116291666667,0,0xBD1C,
0.001132125000000,0,0xB201,
0.001140041666667,0,0xBE1C,
0.001155875000000,0,0xB205,
0.001163791666667,0,0xBF1C,
0.001179625000000,0,0xB275,
0.001187541666667,0,0xC01C,
0.001217875000000,0,0x000A,
0.001225541666667,0,0x4111,
0.001242000000000,0,0xC0C3,
0.001249916666667,0,0xC11C,
0.001265750000000,0,0xC0C5,
0.001273666666667,0,0xC21C,
0.001289541666667,0,0xC0C4,
0.001297458333333,0,0xC31C,
0.001313291666667,0,0xC086,
0.001321208333333,0,0xC41C,
0.001337041666667,0,0xC0A3,
0.001344958333333,0,0xC51C,
0.001360791666667,0,0xDD4A,
0.001368708333333,0,0xC61C,
0.001384583333333,0,0x803A,
0.001392458333333,0,0xC71C,
0.001408333333333,0,0xA3CD,
0.001416250000000,0,0xC81C,
0.001432083333333,0,0x9E39,
0.001440000000000,0,0xC91C,
0.001455833333333,0,0x9E3C,
0.001463750000000,0,0xCA1C,
0.001495791666667,0,0x0004,
0.001503458333333,0,0x0325,
0.001519458333333,0,0x0A01,
0.001527333333333,0,0x8325,
0.001543041666667,0,0x0F00,
0.001550875000000,0,0x8425,
0.001566625000000,0,0x0000,
0.001574500000000,0,0x852C,
0.001590208333333,0,0xC73F,
0.001598083333333,0,0x8625,
0.001627625000000,0,0x0001,
0.001635333333333,0,0x1D29,
0.001651625000000,0,0x0055,
0.001659500000000,0,0x9D29,
0.001687500000000,0,0x0003,
0.001695166666667,0,0x242D,
0.001711083333333,0,0x004C,
0.001718958333333,0,0xA42C,
0.001734666666667,0,0x0040,
0.001742541666667,0,0xA52C,
0.001758250000000,0,0x8000,
0.001766125000000,0,0xA62C,
0.001794500000000,0,0x0005,
0.001802166666667,0,0x2D21,
0.001818208333333,0,0xC50A,
0.001826083333333,0,0xAD2C,
0.001841791666667,0,0xFFFE,
0.001849666666667,0,0xAE2C,
0.001865375000000,0,0x3C82,
0.001873250000000,0,0xAF2C,
0.001888958333333,0,0xFFFF,
0.001896791666667,0,0xB02C,
0.001912541666667,0,0x830E,
0.001920375000000,0,0xB12C,
0.001950750000000,0,0x0006,
0.001958458333333,0,0x3B25,
0.001974458333333,0,0xE51C,
0.001982291666667,0,0xBB2C,
0.001998041666667,0,0x8001,
0.002005875000000,0,0xBC2C,
0.002021583333333,0,0x8001,
0.002029458333333,0,0xBD2C,
0.002045166666667,0,0x8000,
0.002053041666667,0,0xBE2C,
0.002068750000000,0,0xE5BB,
0.002076625000000,0,0xBF2C,
0.002092375000000,0,0xE5D6,
0.002100208333333,0,0xC02C,
0.002130000000000,0,0x000A,
0.002137666666667,0,0x4129,
0.002153750000000,0,0xDB99,
0.002161625000000,0,0xC12C,
0.002177333333333,0,0xDCA5,
0.002185208333333,0,0xC22C,
0.002200916666667,0,0xDF4D,
0.002208750000000,0,0xC32C,
0.002224500000000,0,0xE126,
0.002232333333333,0,0xC42C,
0.002248083333333,0,0xA980,
0.002255916666667,0,0xC52C,
0.002271666666667,0,0xFF4A,
0.002279541666667,0,0xC62C,
0.002295250000000,0,0xC015,
0.002303125000000,0,0xC72C,
0.002318833333333,0,0xA3B0,
0.002326708333333,0,0xC82C,
0.002342416666667,0,0x9E39,
0.002350291666667,0,0xC92C,
0.002366000000000,0,0x9E40,
0.002373875000000,0,0xCA2C,
0.010272625000000,0,0xDC3F,
0.010280291666667,0,0x060F,
0.010307666666667,0,0x0004,
0.010315333333333,0,0x0311,
0.010331666666667,0,0x0A01,
0.010339583333333,0,0x8311,
0.010355416666667,0,0x0F00,
0.010363333333333,0,0x8411,
0.010379166666667,0,0x0000,
0.010387083333333,0,0x851D,
0.010402958333333,0,0xDF3F,
0.010410875000000,0,0x8611,
0.010442791666667,0,0x0004,
0.010450500000000,0,0x0315,
0.010466791666667,0,0x0A01,
0.010474708333333,0,0x8315,
0.010490583333333,0,0x0F00,
0.010498458333333,0,0x8415,
0.010514291666667,0,0x0000,
0.010522250000000,0,0x851D,
0.010538041666667,0,0xDF3F,
0.010546000000000,0,0x8615,
0.010576541666667,0,0x0004,
0.010584208333333,0,0x0319,
0.010600458333333,0,0x0A01,
0.010608375000000,0,0x8319,
0.010624208333333,0,0x0F00,
0.010632125000000,0,0x8419,
0.010647958333333,0,0x0000,
0.010655916666667,0,0x851D,
0.010671750000000,0,0xDF3F,
0.010679666666667,0,0x8619,
0.010710333333333,0,0x0004,
0.010718000000000,0,0x031D,
0.010734125000000,0,0x0A01,
0.010742041666667,0,0x831D,
0.010757916666667,0,0x0F00,
0.010765833333333,0,0x841D,
0.010781666666667,0,0x0000,
0.010789583333333,0,0x851D,
0.010805416666667,0,0xDF3F,
0.010813333333333,0,0x861D,
0.010843875000000,0,0x0004,
0.010851583333333,0,0x0311,
0.010867791666667,0,0x0A01,
0.010875708333333,0,0x8311,
0.010891541666667,0,0x0F00,
0.010899458333333,0,0x8411,
0.010915291666667,0,0x0000,
0.010923208333333,0,0x851D,
0.010939083333333,0,0xD73F,
0.010947000000000,0,0x8611,
0.010977208333333,0,0x0001,
0.010984875000000,0,0x1D15,
0.011000916666667,0,0x1551,
0.011008875000000,0,0x9D15,
0.011036958333333,0,0x0003,
0.011044666666667,0,0x2419,
0.011060791666667,0,0x0048,
0.011068708333333,0,0xA41D,
0.011084541666667,0,0x0040,
0.011092500000000,0,0xA51D,
0.011108333333333,0,0x0000,
0.011116250000000,0,0xA61D,
0.011145041666667,0,0x0005,
0.011152750000000,0,0x2D1D,
0.011169166666667,0,0xC49B,
0.011177083333333,0,0xAD1D,
0.011192916666667,0,0xFFFD,
0.011200875000000,0,0xAE1D,
0.011216666666667,0,0xEABD,
0.011224625000000,0,0xAF1D,
0.011240458333333,0,0xFFFF,
0.011248375000000,0,0xB01D,
0.011264208333333,0,0x830C,
0.011272125000000,0,0xB11D,
0.011302625000000,0,0x0006,
0.011310291666667,0,0x3B11,
0.011326541666667,0,0xB3E7,
0.011334458333333,0,0xBB1D,
0.011350291666667,0,0xB332,
0.011358208333333,0,0xBC1D,
0.011374041666667,0,0xB2BF,
0.011381958333333,0,0xBD1D,
0.011397791666667,0,0xB205,
0.011405708333333,0,0xBE1D,
0.011421541666667,0,0xB203,
0.011429458333333,0,0xBF1D,
0.011445291666667,0,0xB27B,
0.011453208333333,0,0xC01D,
0.011483500000000,0,0x000A,
0.011491166666667,0,0x4115,
0.011507166666667,0,0xC0C3,
0.011515083333333,0,0xC11D,
0.011530916666667,0,0xC0C1,
0.011538833333333,0,0xC21D,
0.011554666666667,0,0xC0C3,
0.011562583333333,0,0xC31D,
0.011578416666667,0,0xC082,
0.011586375000000,0,0xC41D,
0.011602208333333,0,0xC0A1,
0.011610125000000,0,0xC51D,
0.011625958333333,0,0xDD48,
0.011633916666667,0,0xC61D,
0.011649750000000,0,0x8039,
0.011657666666667,0,0xC71D,
0.011673500000000,0,0xA3CC,
0.011681416666667,0,0xC81D,
0.011697250000000,0,0x9E37,
0.011705166666667,0,0xC91D,
0.011721000000000,0,0x9E3D,
0.011728916666667,0,0xCA1D,
0.011760708333333,0,0x0004,
0.011768375000000,0,0x0329,
0.011784625000000,0,0x0A01,
0.011792458333333,0,0x8329,
0.011808208333333,0,0x0F00,
0.011816083333333,0,0x8429,
0.011831791666667,0,0x0000,
0.011839666666667,0,0x852D,
0.011855375000000,0,0xD73F,
0.011863250000000,0,0x8629,
0.011892666666667,0,0x0001,
0.011900333333333,0,0x1D2D,
0.011916791666667,0,0x0055,
0.011924625000000,0,0x9D2D,
0.011953500000000,0,0x0003,
0.011961208333333,0,0x2421,
0.011977208333333,0,0x004C,
0.011985041666667,0,0xA42D,
0.012000750000000,0,0x0040,
0.012008625000000,0,0xA52D,
0.012024375000000,0,0x8000,
0.012032208333333,0,0xA62D,
0.012061750000000,0,0x0005,
0.012069458333333,0,0x2D25,
0.012085791666667,0,0xC61D,
0.012093625000000,0,0xAD2D,
0.012109333333333,0,0xFFFE,
0.012117208333333,0,0xAE2D,
0.012132916666667,0,0x39FC,
0.012140791666667,0,0xAF2D,
0.012156500000000,0,0xFFFF,
0.012164375000000,0,0xB02D,
0.012180125000000,0,0x830F,
0.012187958333333,0,0xB12D,
0.012217750000000,0,0x0006,
0.012225416666667,0,0x3B29,
0.012241541666667,0,0xE520,
0.012249375000000,0,0xBB2D,
0.012265125000000,0,0x8000,
0.012272958333333,0,0xBC2D,
0.012288708333333,0,0x8000,
0.012296541666667,0,0xBD2D,
0.012312291666667,0,0x8001,
0.012320125000000,0,0xBE2D,
0.012335875000000,0,0xE5BF,
0.012343708333333,0,0xBF2D,
0.012359458333333,0,0xE5D8,
0.012367291666667,0,0xC02D,
0.012396791666667,0,0x000A,
0.012404500000000,0,0x412D,
0.012420833333333,0,0xDB98,
0.012428708333333,0,0xC12D,
0.012444458333333,0,0xDCA0,
0.012452291666667,0,0xC22D,
0.012468000000000,0,0xDF45,
0.012475875000000,0,0xC32D,
0.012491583333333,0,0xE122,
0.012499458333333,0,0xC42D,
0.012515166666667,0,0xA97C,
0.012523041666667,0,0xC52D,
0.012538750000000,0,0xFF4B,
0.012546625000000,0,0xC62D,
0.012562333333333,0,0xC013,
0.012570208333333,0,0xC72D,
0.012585958333333,0,0xA3B0,
0.012593791666667,0,0xC82D,
0.012609500000000,0,0x9E36,
0.012617375000000,0,0xC92D,
0.012633083333333,0,0x9E41,
0.012640958333333,0,0xCA2D,
0.020018583333333,0,0xEC3F,
0.020026250000000,0,0x0603,
0.020053375000000,0,0x0004,
0.020061083333333,0,0x0315,
0.020077250000000,0,0x0A01,
0.020085166666667,0,0x8315,
0.020101000000000,0,0x0F00,
0.020108916666667,0,0x8415,
0.020124750000000,0,0x0000,
0.020132708333333,0,0x851E,
0.020148500000000,0,0xEF3F,
0.020156458333333,0,0x8615,
0.020187833333333,0,0x0004,
0.020195500000000,0,0x0319,
0.020211875000000,0,0x0A01,
0.020219833333333,0,0x8319,
0.020235625000000,0,0x0F00,
0.020243583333333,0,0x8419,
0.020259416666667,0,0x0000,
0.020267333333333,0,0x851E,
0.020283166666667,0,0xEF3F,
0.020291083333333,0,0x8619,
0.020322000000000,0,0x0004,
0.020329666666667,0,0x031D,
0.020346041666667,0,0x0A01,
0.020353958333333,0,0x831D,
0.020369833333333,0,0x0F00,
0.020377708333333,0,0x841D,
0.020393583333333,0,0x0000,
0.020401500000000,0,0x851E,
0.020417333333333,0,0xEF3F,
0.020425250000000,0,0x861D,
0.020456083333333,0,0x0004,
0.020463791666667,0,0x0311,
0.020480208333333,0,0x0A01,
0.020488125000000,0,0x8311,
0.020503958333333,0,0x0F00,
0.020511875000000,0,0x8411,
0.020527750000000,0,0x0000,
0.020535666666667,0,0x851E,
0.020551500000000,0,0xEF3F,
0.020559416666667,0,0x8611,
0.020590791666667,0,0x0004,
0.020598500000000,0,0x0315,
0.020614833333333,0,0x0A01,
0.020622750000000,0,0x8315,
0.020638541666667,0,0x0F00,
0.020646458333333,0,0x8415,
0.020662291666667,0,0x0000,
0.020670208333333,0,0x851E,
0.020686041666667,0,0xE73F,
0.020693958333333,0,0x8615,
0.020725000000000,0,0x0001,
0.020732708333333,0,0x1D19,
0.020748875000000,0,0x1551,
0.020756791666667,0,0x9D19,
0.020785250000000,0,0x0003,
0.020792916666667,0,0x241D,
0.020809208333333,0,0x0048,
0.020817125000000,0,0xA41E,
0.020832958333333,0,0x0040,
0.020840875000000,0,0xA51E,
0.020856708333333,0,0x0000,
0.020864625000000,0,0xA61E,
0.020893541666667,0,0x0005,
0.020901208333333,0,0x2D11,
0.020917541666667,0,0xC59E,
0.020925416666667,0,0xAD1E,
0.020941291666667,0,0xFFFD,
0.020949166666667,0,0xAE1E,
0.020965041666667,0,0xE859,
0.020972958333333,0,0xAF1E,
0.020988791666667,0,0xFFFF,
0.020996708333333,0,0xB01E,
0.021012541666667,0,0x830B,
0.021020458333333,0,0xB11E,
0.021050375000000,0,0x0006,
0.021058041666667,0,0x3B15,
0.021074375000000,0,0xB3E3,
0.021082291666667,0,0xBB1E,
0.021098125000000,0,0xB330,
0.021106041666667,0,0xBC1E,
0.021121875000000,0,0xB2BD,
0.021129791666667,0,0xBD1E,
0.021145625000000,0,0xB201,
0.021153541666667,0,0xBE1E,
0.021169375000000,0,0xB1FF,
0.021177291666667,0,0xBF1E,
0.021193125000000,0,0xB272,
0.021201041666667,0,0xC01E,
0.021231000000000,0,0x000A,
0.021238666666667,0,0x4119,
0.021254958333333,0,0xC0C3,
0.021262875000000,0,0xC11E,
0.021278708333333,0,0xC0CB,
0.021286625000000,0,0xC21E,
0.021302458333333,0,0xC0C5,
0.021310375000000,0,0xC31E,
0.021326208333333,0,0xC085,
0.021334125000000,0,0xC41E,
0.021349958333333,0,0xC0A8,
0.021357875000000,0,0xC51E,
0.021373708333333,0,0xDD4C,
0.021381625000000,0,0xC61E,
0.021397458333333,0,0x8039,
0.021405375000000,0,0xC71E,
0.021421208333333,0,0xA3CD,
0.021429125000000,0,0xC81E,
0.021444958333333,0,0x9E3D,
0.021452875000000,0,0xC91E,
0.021468708333333,0,0x9E39,
0.021476625000000,0,0xCA1E,
0.021509416666667,0,0x0004,
0.021517083333333,0,0x032D,
0.021533416666667,0,0x0A01,
0.021541291666667,0,0x832D,
0.021557000000000,0,0x0F00,
0.021564875000000,0,0x842D,
0.021580583333333,0,0x0000,
0.021588416666667,0,0x852E,
0.021604166666667,0,0xE73F,
0.021612000000000,0,0x862D,
0.021642541666667,0,0x0001,
0.021650208333333,0,0x1D21,
0.021666541666667,0,0x0055,
0.021674416666667,0,0x9D21,
0.021701833333333,0,0x0003,
0.021709500000000,0,0x2425,
0.021725500000000,0,0x004C,
0.021733375000000,0,0xA42E,
0.021749083333333,0,0x0040,
0.021756958333333,0,0xA52E,
0.021772666666667,0,0x8000,
0.021780500000000,0,0xA62E,
0.021810041666667,0,0x0005,
0.021817750000000,0,0x2D29,
0.021834083333333,0,0xC722,
0.021841916666667,0,0xAD2E,
0.021857666666667,0,0xFFFE,
0.021865500000000,0,0xAE2E,
0.021881250000000,0,0x37C2,
0.021889083333333,0,0xAF2E,
0.021904833333333,0,0xFFFF,
0.021912666666667,0,0xB02E,
0.021928416666667,0,0x8308,
0.021936250000000,0,0xB12E,
0.021965625000000,0,0x0006,
0.021973291666667,0,0x3B2D,
0.021989333333333,0,0xE51A,
0.021997166666667,0,0xBB2E,
0.022012916666667,0,0x8002,
0.022020750000000,0,0xBC2E,
0.022036500000000,0,0x8000,
0.022044333333333,0,0xBD2E,
0.022060041666667,0,0x8000,
0.022067916666667,0,0xBE2E,
0.022083625000000,0,0xE5BC,
0.022091500000000,0,0xBF2E,
0.022107208333333,0,0xE5D8,
0.022115083333333,0,0xC02E,
0.022145416666667,0,0x000A,
0.022153083333333,0,0x4121,
0.022169125000000,0,0xDB9D,
0.022176958333333,0,0xC12E,
0.022192666666667,0,0xDCA6,
0.022200541666667,0,0xC22E,
0.022216250000000,0,0xDF4C,
0.022224125000000,0,0xC32E,
0.022239833333333,0,0xE126,
0.022247708333333,0,0xC42E,
0.022263416666667,0,0xA984,
0.022271291666667,0,0xC52E,
0.022287000000000,0,0xFF4F,
0.022294875000000,0,0xC62E,
0.022310625000000,0,0xC018,
0.022318458333333,0,0xC72E,
0.022334166666667,0,0xA3B1,
0.022342041666667,0,0xC82E,
0.022357750000000,0,0x9E3C,
0.022365625000000,0,0xC92E,
0.022381333333333,0,0x9E40,
0.022389208333333,0,0xCA2E,
0.030032083333333,0,0xFC3F,
0.030039791666667,0,0x0607,
0.030067416666667,0,0x0004,
0.030075083333333,0,0x0319,
0.030091500000000,0,0x0A01,
0.030099458333333,0,0x8319,
0.030115291666667,0,0x0F00,
0.030123208333333,0,0x8419,
0.030139041666667,0,0x0000,
0.030146958333333,0,0x851F,
0.030162791666667,0,0xFF3F,
0.030170708333333,0,0x8619,
0.030201708333333,0,0x0004,
0.030209375000000,0,0x031D,
0.030225666666667,0,0x0A01,
0.030233583333333,0,0x831D,
0.030249416666667,0,0x0F00,
0.030257333333333,0,0x841D,
0.030273166666667,0,0x0000,
0.030281125000000,0,0x851F,
0.030296958333333,0,0xFF3F,
0.030304875000000,0,0x861D,
0.030335708333333,0,0x0004,
0.030343416666667,0,0x0311,
0.030359833333333,0,0x0A01,
0.030367708333333,0,0x8311,
0.030383583333333,0,0x0F00,
0.030391500000000,0,0x8411,
0.030407333333333,0,0x0000,
0.030415250000000,0,0x851F,
0.030431083333333,0,0xFF3F,
0.030439000000000,0,0x8611,
0.030470250000000,0,0x0004,
0.030477916666667,0,0x0315,
0.030493916666667,0,0x0A01,
0.030501833333333,0,0x8315,
0.030517708333333,0,0x0F00,
0.030525583333333,0,0x8415,
0.030541458333333,0,0x0000,
0.030549375000000,0,0x851F,
0.030565208333333,0,0xFF3F,
0.030573125000000,0,0x8615,
0.030603750000000,0,0x0004,
0.030611416666667,0,0x0319,
0.030627541666667,0,0x0A01,
0.030635458333333,0,0x8319,
0.030651291666667,0,0x0F00,
0.030659250000000,0,0x8419,
0.030675083333333,0,0x0000,
0.030683000000000,0,0x851F,
0.030698791666667,0,0xF73F,
0.030706750000000,0,0x8619,
0.030737541666667,0,0x0001,
0.030745208333333,0,0x1D1D,
0.030761625000000,0,0x1551,
0.030769583333333,0,0x9D1D,
0.030797333333333,0,0x0003,
0.030805000000000,0,0x2411,
0.030821000000000,0,0x0048,
0.030828958333333,0,0xA41F,
0.030844791666667,0,0x0040,
0.030852708333333,0,0xA51F,
0.030868541666667,0,0x0000,
0.030876458333333,0,0xA61F,
0.030905333333333,0,0x0005,
0.030913000000000,0,0x2D15,
0.030929416666667,0,0xC6A8,
0.030937333333333,0,0xAD1F,
0.030953166666667,0,0xFFFD,
0.030961083333333,0,0xAE1F,
0.030976916666667,0,0xE5B9,
0.030984833333333,0,0xAF1F,
0.031000666666667,0,0xFFFF,
0.031008583333333,0,0xB01F,
0.031024416666667,0,0x830C,
0.031032375000000,0,0xB11F,
0.031062416666667,0,0x0006,
0.031070083333333,0,0x3B19,
0.031086291666667,0,0xB3E2,
0.031094208333333,0,0xBB1F,
0.031110041666667,0,0xB32D,
0.031117958333333,0,0xBC1F,
0.031133833333333,0,0xB2BD,
0.031141708333333,0,0xBD1F,
0.031157583333333,0,0xB1FE,
0.031165500000000,0,0xBE1F,
0.031181333333333,0,0xB201,
0.031189250000000,0,0xBF1F,
0.031205083333333,0,0xB273,
0.031213000000000,0,0xC01F,
0.031243041666667,0,0x000A,
0.031250750000000,0,0x411D,
0.031266916666667,0,0xC0C4,
0.031274833333333,0,0xC11F,
0.031290708333333,0,0xC0C3,
0.031298583333333,0,0xC21F,
0.031314416666667,0,0xC0C5,
0.031322333333333,0,0xC31F,
0.031338166666667,0,0xC086,
0.031346125000000,0,0xC41F,
0.031361958333333,0,0xC0A4,
0.031369875000000,0,0xC51F,
0.031385666666667,0,0xDD4A,
0.031393625000000,0,0xC61F,
0.031409458333333,0,0x803A,
0.031417333333333,0,0xC71F,
0.031433208333333,0,0xA3D0,
0.031441125000000,0,0xC81F,
0.031456958333333,0,0x9E3A,
0.031464875000000,0,0xC91F,
0.031480708333333,0,0x9E3C,
0.031488625000000,0,0xCA1F,
0.031520916666667,0,0x0004,
0.031528583333333,0,0x0321,
0.031544708333333,0,0x0A01,
0.031552583333333,0,0x8321,
0.031568291666667,0,0x0F00,
0.031576166666667,0,0x8421,
0.031591875000000,0,0x0000,
0.031599750000000,0,0x852F,
0.031615458333333,0,0xF73F,
0.031623333333333,0,0x8621,
0.031653750000000,0,0x0001,
0.031661458333333,0,0x1D25,
0.031677875000000,0,0x0055,
0.031685708333333,0,0x9D25,
0.031714041666667,0,0x0003,
0.031721708333333,0,0x2429,
0.031737791666667,0,0x004C,
0.031745666666667,0,0xA42F,
0.031761375000000,0,0x0040,
0.031769250000000,0,0xA52F,
0.031784958333333,0,0x8000,
0.031792833333333,0,0xA62F,
0.031821416666667,0,0x0005,
0.031829125000000,0,0x2D2D,
0.031845375000000,0,0xC82E,
0.031853250000000,0,0xAD2F,
0.031868958333333,0,0xFFFE,
0.031876833333333,0,0xAE2F,
0.031892541666667,0,0x3652,
0.031900416666667,0,0xAF2F,
0.031916125000000,0,0xFFFF,
0.031924000000000,0,0xB02F,
0.031939708333333,0,0x830E,
0.031947583333333,0,0xB12F,
0.031977083333333,0,0x0006,
0.031984750000000,0,0x3B21,
0.032001125000000,0,0xE51E,
0.032009000000000,0,0xBB2F,
0.032024708333333,0,0x8006,
0.032032541666667,0,0xBC2F,
0.032048250000000,0,0x8000,
0.032056125000000,0,0xBD2F,
0.032071833333333,0,0x8001,
0.032079708333333,0,0xBE2F,
0.032095458333333,0,0xE5C0,
0.032103291666667,0,0xBF2F,
0.032119000000000,0,0xE5D6,
0.032126875000000,0,0xC02F,
0.032157083333333,0,0x000A,
0.032164750000000,0,0x4125,
0.032180958333333,0,0xDB9A,
0.032188791666667,0,0xC12F,
0.032204541666667,0,0xDCA5,
0.032212375000000,0,0xC22F,
0.032228083333333,0,0xDF4A,
0.032235958333333,0,0xC32F,
0.032251708333333,0,0xE121,
0.032259583333333,0,0xC42F,
0.032275291666667,0,0xA97F,
0.032283125000000,0,0xC52F,
0.032298875000000,0,0xFF4A,
0.032306708333333,0,0xC62F,
0.032322458333333,0,0xC016,
0.032330291666667,0,0xC72F,
0.032346041666667,0,0xA3B2,
0.032353875000000,0,0xC82F,
0.032369625000000,0,0x9E3A,
0.032377458333333,0,0xC92F,
0.032393166666667,0,0x9E3F,
0.032401041666667,0,0xCA2F,
0.040013958333333,0,0x0C3F,
0.040021666666667,0,0x060B,
0.040049083333333,0,0x0004,
0.040056750000000,0,0x031D,
0.040073166666667,0,0x0A01,
0.040081125000000,0,0x831D,
0.040096958333333,0,0x0F00,
0.040104875000000,0,0x841D,
0.040120708333333,0,0x0000,
0.040128625000000,0,0x8510,
0.040144458333333,0,0x0F3F,
0.040152375000000,0,0x861D,
0.040183750000000,0,0x0004,
0.040191416666667,0,0x0311,
0.040207833333333,0,0x0A01,
0.040215750000000,0,0x8311,
0.040231583333333,0,0x0F00,
0.040239500000000,0,0x8411,
0.040255333333333,0,0x0000,
0.040263250000000,0,0x8510,
0.040279125000000,0,0x0F3F,
0.040287041666667,0,0x8611,
0.040318083333333,0,0x0004,
0.040325750000000,0,0x0315,
0.040342000000000,0,0x0A01,
0.040349916666667,0,0x8315,
0.040365750000000,0,0x0F00,
0.040373666666667,0,0x8415,
0.040389541666667,0,0x0000,
0.040397458333333,0,0x8510,
0.040413291666667,0,0x0F3F,
0.040421208333333,0,0x8615,
0.040452000000000,0,0x0004,
0.040459666666667,0,0x0319,
0.040475666666667,0,0x0A01,
0.040483583333333,0,0x8319,
0.040499416666667,0,0x0F00,
0.040507333333333,0,0x8419,
0.040523166666667,0,0x0000,
0.040531125000000,0,0x8510,
0.040546958333333,0,0x0F3F,
0.040554833333333,0,0x8619,
0.040585750000000,0,0x0004,
0.040593416666667,0,0x031D,
0.040609791666667,0,0x0A01,
0.040617666666667,0,0x831D,
0.040633541666667,0,0x0F00,
0.040641458333333,0,0x841D,
0.040657291666667,0,0x0000,
0.040665166666667,0,0x8510,
0.040681000000000,0,0x073F,
0.040688958333333,0,0x861D,
0.040720000000000,0,0x0001,
0.040727708333333,0,0x1D11,
0.040743875000000,0,0x1551,
0.040751791666667,0,0x9D11,
0.040779958333333,0,0x0003,
0.040787666666667,0,0x2415,
0.040803750000000,0,0x0048,
0.040811666666667,0,0xA410,
0.040827500000000,0,0x0040,
0.040835416666667,0,0xA510,
0.040851250000000,0,0x0000,
0.040859166666667,0,0xA610,
0.040887166666667,0,0x0005,
0.040894875000000,0,0x2D19,
0.040911125000000,0,0xC7B2,
0.040919041666667,0,0xAD10,
0.040934875000000,0,0xFFFD,
0.040942791666667,0,0xAE10,
0.040958625000000,0,0xE388,
0.040966541666667,0,0xAF10,
0.040982375000000,0,0xFFFF,
0.040990291666667,0,0xB010,
0.041006125000000,0,0x830D,
0.041014041666667,0,0xB110,
0.041043291666667,0,0x0006,
0.041050958333333,0,0x3B1D,
0.041067000000000,0,0xB3E1,
0.041074916666667,0,0xBB10,
0.041090750000000,0,0xB32A,
0.041098666666667,0,0xBC10,
0.041114500000000,0,0xB2BC,
0.041122416666667,0,0xBD10,
0.041138250000000,0,0xB1FF,
0.041146166666667,0,0xBE10,
0.041162000000000,0,0xB1FF,
0.041169916666667,0,0xBF10,
0.041185750000000,0,0xB271,
0.041193666666667,0,0xC010,
0.041223458333333,0,0x000A,
0.041231166666667,0,0x4111,
0.041247083333333,0,0xC0C0,
0.041255041666667,0,0xC110,
0.041270875000000,0,0xC0C4,
0.041278791666667,0,0xC210,
0.041294625000000,0,0xC0C2,
0.041302500000000,0,0xC310,
0.041318333333333,0,0xC085,
0.041326291666667,0,0xC410,
0.041342125000000,0,0xC09F,
0.041350000000000,0,0xC510,
0.041365833333333,0,0xDD49,
0.041373791666667,0,0xC610,
0.041389625000000,0,0x8038,
0.041397541666667,0,0xC710,
0.041413375000000,0,0xA3CE,
0.041421291666667,0,0xC810,
0.041437125000000,0,0x9E3A,
0.041445041666667,0,0xC910,
0.041460875000000,0,0x9E3C,
0.041468791666667,0,0xCA10,
0.041500958333333,0,0x0004,
0.041508625000000,0,0x0325,
0.041524916666667,0,0x0A01,
0.041532750000000,0,0x8325,
0.041548458333333,0,0x0F00,
0.041556333333333,0,0x8425,
0.041572041666667,0,0x0000,
0.041579916666667,0,0x8520,
0.041595625000000,0,0x073F,
0.041603500000000,0,0x8625,
0.041634291666667,0,0x0001,
0.041641958333333,0,0x1D29,
0.041658000000000,0,0x0055,
0.041665875000000,0,0x9D29,
0.041693166666667,0,0x0003,
0.041700833333333,0,0x242D,
0.041716958333333,0,0x004C,
0.041724833333333,0,0xA420,
0.041740541666667,0,0x0040,
0.041748416666667,0,0xA520,
0.041764125000000,0,0x8000,
0.041771958333333,0,0xA620,
0.041800916666667,0,0x0005,
0.041808583333333,0,0x2D21,
0.041824541666667,0,0xC93A,
0.041832416666667,0,0xAD20,
0.041848125000000,0,0xFFFE,
0.041856000000000,0,0xAE20,
0.041871708333333,0,0x33A8,
0.041879583333333,0,0xAF20,
0.041895291666667,0,0xFFFF,
0.041903166666667,0,0xB020,
0.041918875000000,0,0x830D,
0.041926750000000,0,0xB120,
0.041958166666667,0,0x0006,
0.041965875000000,0,0x3B25,
0.041982250000000,0,0xE51C,
0.041990125000000,0,0xBB20,
0.042005833333333,0,0x8001,
0.042013708333333,0,0xBC20,
0.042029416666667,0,0x8000,
0.042037291666667,0,0xBD20,
0.042053000000000,0,0x8002,
0.042060875000000,0,0xBE20,
0.042076583333333,0,0xE5BC,
0.042084458333333,0,0xBF20,
0.042100166666667,0,0xE5D5,
0.042108041666667,0,0xC020,
0.042137541666667,0,0x000A,
0.042145208333333,0,0x4129,
0.042161583333333,0,0xDB95,
0.042169458333333,0,0xC120,
0.042185166666667,0,0xDCA1,
0.042193000000000,0,0xC220,
0.042208750000000,0,0xDF46,
0.042216583333333,0,0xC320,
0.042232291666667,0,0xE120,
0.042240166666667,0,0xC420,
0.042255875000000,0,0xA97B,
0.042263750000000,0,0xC520,
0.042279458333333,0,0xFF4B,
0.042287333333333,0,0xC620,
0.042303041666667,0,0xC011,
0.042310916666667,0,0xC720,
0.042326625000000,0,0xA3AF,
0.042334500000000,0,0xC820,
0.042350208333333,0,0x9E35,
0.042358083333333,0,0xC920,
0.042373791666667,0,0x9E3E,
0.042381666666667,0,0xCA20,
0.050067375000000,0,0x1C3F,
0.050075083333333,0,0x060F,
0.050103333333333,0,0x0004,
0.050111041666667,0,0x0311,
0.050127333333333,0,0x0A01,
0.050135250000000,0,0x8311,
0.050151083333333,0,0x0F00,
0.050159000000000,0,0x8411,
0.050174875000000,0,0x0000,
0.050182791666667,0,0x8511,
0.050198625000000,0,0x1F3F,
0.050206541666667,0,0x8611,
0.050237416666667,0,0x0004,
0.050245083333333,0,0x0315,
0.050261500000000,0,0x0A01,
0.050269416666667,0,0x8315,
0.050285250000000,0,0x0F00,
0.050293208333333,0,0x8415,
0.050309041666667,0,0x0000,
0.050316958333333,0,0x8511,
0.050332791666667,0,0x1F3F,
0.050340708333333,0,0x8615,
0.050370791666667,0,0x0004,
0.050378458333333,0,0x0319,
0.050394666666667,0,0x0A01,
0.050402625000000,0,0x8319,
0.050418458333333,0,0x0F00,
0.050426375000000,0,0x8419,
0.050442208333333,0,0x0000,
0.050450125000000,0,0x8511,
0.050465958333333,0,0x1F3F,
0.050473875000000,0,0x8619,
0.050504083333333,0,0x0004,
0.050511750000000,0,0x031D,
0.050527875000000,0,0x0A01,
0.050535791666667,0,0x831D,
0.050551625000000,0,0x0F00,
0.050559541666667,0,0x841D,
0.050575375000000,0,0x0000,
0.050583333333333,0,0x8511,
0.050599166666667,0,0x1F3F,
0.050607083333333,0,0x861D,
0.050638125000000,0,0x0004,
0.050645791666667,0,0x0311,
0.050662041666667,0,0x0A01,
0.050669916666667,0,0x8311,
0.050685750000000,0,0x0F00,
0.050693666666667,0,0x8411,
0.050709500000000,0,0x0000,
0.050717416666667,0,0x8511,
0.050733250000000,0,0x173F,
0.050741166666667,0,0x8611,
0.050771916666667,0,0x0001,
0.050779583333333,0,0x1D15,
0.050795583333333,0,0x1551,
0.050803500000000,0,0x9D15,
0.050832166666667,0,0x0003,
0.050839833333333,0,0x2419,
0.050855958333333,0,0x0048,
0.050863875000000,0,0xA411,
0.050879708333333,0,0x0040,
0.050887583333333,0,0xA511,
0.050903458333333,0,0x0000,
0.050911333333333,0,0xA611,
0.050940208333333,0,0x0005,
0.050947916666667,0,0x2D1D,
0.050964291666667,0,0xC8BD,
0.050972166666667,0,0xAD11,
0.050988000000000,0,0xFFFD,
0.050995916666667,0,0xAE11,
0.051011750000000,0,0xE136,
0.051019666666667,0,0xAF11,
0.051035500000000,0,0x8000,
0.051043416666667,0,0xB011,
0.051059250000000,0,0x8301,
0.051067166666667,0,0xB111,
0.051096750000000,0,0x0006,
0.051104416666667,0,0x3B11,
0.051120541666667,0,0xB3E4,
0.051128500000000,0,0xBB11,
0.051144291666667,0,0xB32E,
0.051152208333333,0,0xBC11,
0.051168041666667,0,0xB2B8,
0.051175958333333,0,0xBD11,
0.051191791666667,0,0xB1FB,
0.051199708333333,0,0xBE11,
0.051215541666667,0,0xB201,
0.051223458333333,0,0xBF11,
0.051239291666667,0,0xB270,
0.051247208333333,0,0xC011,
0.051277500000000,0,0x000A,
0.051285166666667,0,0x4115,
0.051301125000000,0,0xC0C2,
0.051309041666667,0,0xC111,
0.051324875000000,0,0xC0C5,
0.051332791666667,0,0xC211,
0.051348625000000,0,0xC0C5,
0.051356541666667,0,0xC311,
0.051372333333333,0,0xC083,
0.051380291666667,0,0xC411,
0.051396083333333,0,0xC0A3,
0.051404041666667,0,0xC511,
0.051419833333333,0,0xDD4C,
0.051427750000000,0,0xC611,
0.051443583333333,0,0x803B,
0.051451500000000,0,0xC711,
0.051467333333333,0,0xA3CD,
0.051475250000000,0,0xC811,
0.051491083333333,0,0x9E36,
0.051499000000000,0,0xC911,
0.051514833333333,0,0x9E3F,
0.051522750000000,0,0xCA11,
0.051554666666667,0,0x0004,
0.051562333333333,0,0x0329,
0.051578416666667,0,0x0A01,
0.051586250000000,0,0x8329,
0.051601958333333,0,0x0F00,
0.051609833333333,0,0x8429,
0.051625583333333,0,0x0000,
0.051633416666667,0,0x8521,
0.051649125000000,0,0x173F,
0.051657000000000,0,0x8629,
0.051687333333333,0,0x0001,
0.051695000000000,0,0x1D2D,
0.051711041666667,0,0x0055,
0.051718875000000,0,0x9D2D,
0.051746791666667,0,0x0003,
0.051754500000000,0,0x2421,
0.051770500000000,0,0x004C,
0.051778333333333,0,0xA421,
0.051794041666667,0,0x0040,
0.051801916666667,0,0xA521,
0.051817625000000,0,0x8000,
0.051825500000000,0,0xA621,
0.051854041666667,0,0x0005,
0.051861708333333,0,0x2D25,
0.051878083333333,0,0xCA47,
0.051885958333333,0,0xAD21,
0.051901666666667,0,0xFFFE,
0.051909541666667,0,0xAE21,
0.051925250000000,0,0x3098,
0.051933125000000,0,0xAF21,
0.051948833333333,0,0xFFFF,
0.051956708333333,0,0xB021,
0.051972416666667,0,0x830F,
0.051980250000000,0,0xB121,
0.052011083333333,0,0x0006,
0.052018750000000,0,0x3B29,
0.052034791666667,0,0xE51C,
0.052042666666667,0,0xBB21,
0.052058375000000,0,0x8003,
0.052066250000000,0,0xBC21,
0.052081958333333,0,0x8000,
0.052089833333333,0,0xBD21,
0.052105541666667,0,0x8000,
0.052113416666667,0,0xBE21,
0.052129125000000,0,0xE5C0,
0.052137000000000,0,0xBF21,
0.052152708333333,0,0xE5DB,
0.052160583333333,0,0xC021,
0.052191833333333,0,0x000A,
0.052199500000000,0,0x412D,
0.052215583333333,0,0xDB98,
0.052223458333333,0,0xC121,
0.052239166666667,0,0xDCA4,
0.052247041666667,0,0xC221,
0.052262750000000,0,0xDF48,
0.052270625000000,0,0xC321,
0.052286333333333,0,0xE122,
0.052294208333333,0,0xC421,
0.052309916666667,0,0xA97F,
0.052317791666667,0,0xC521,
0.052333500000000,0,0xFF4C,
0.052341375000000,0,0xC621,
0.052357083333333,0,0xC017,
0.052364916666667,0,0xC721,
0.052380666666667,0,0xA3B0,
0.052388500000000,0,0xC821,
0.052404250000000,0,0x9E3E,
0.052412083333333,0,0xC921,
0.052427833333333,0,0x9E3D,
0.052435666666667,0,0xCA21,
0.060008125000000,0,0x2C3F,
0.060015833333333,0,0x0603,
0.060043500000000,0,0x0004,
0.060051166666667,0,0x0315,
0.060067291666667,0,0x0A01,
0.060075208333333,0,0x8315,
0.060091041666667,0,0x0F00,
0.060098958333333,0,0x8415,
0.060114833333333,0,0x0000,
0.060122750000000,0,0x8512,
0.060138583333333,0,0x2F3F,
0.060146500000000,0,0x8615,
0.060176750000000,0,0x0004,
0.060184416666667,0,0x0319,
0.060200458333333,0,0x0A01,
0.060208375000000,0,0x8319,
0.060224208333333,0,0x0F00,
0.060232125000000,0,0x8419,
0.060248000000000,0,0x0000,
0.060255916666667,0,0x8512,
0.060271750000000,0,0x2F3F,
0.060279666666667,0,0x8619,
0.060310875000000,0,0x0004,
0.060318583333333,0,0x031D,
0.060334625000000,0,0x0A01,
0.060342541666667,0,0x831D,
0.060358375000000,0,0x0F00,
0.060366291666667,0,0x841D,
0.060382125000000,0,0x0000,
0.060390041666667,0,0x8512,
0.060405875000000,0,0x2F3F,
0.060413791666667,0,0x861D,
0.060445166666667,0,0x0004,
0.060452833333333,0,0x0311,
0.060469250000000,0,0x0A01,
0.060477166666667,0,0x8311,
0.060493000000000,0,0x0F00,
0.060500916666667,0,0x8411,
0.060516750000000,0,0x0000,
0.060524708333333,0,0x8512,
0.060540541666667,0,0x2F3F,
0.060548458333333,0,0x8611,
0.060579291666667,0,0x0004,
0.060586958333333,0,0x0315,
0.060603333333333,0,0x0A01,
0.060611291666667,0,0x8315,
0.060627125000000,0,0x0F00,
0.060635000000000,0,0x8415,
0.060650833333333,0,0x0000,
0.060658750000000,0,0x8512,
0.060674625000000,0,0x273F,
0.060682541666667,0,0x8615,
0.060712708333333,0,0x0001,
0.060720375000000,0,0x1D19,
0.060736458333333,0,0x1551,
0.060744375000000,0,0x9D19,
0.060772708333333,0,0x0003,
0.060780375000000,0,0x241D,
0.060796833333333,0,0x0048,
0.060804750000000,0,0xA412,
0.060820583333333,0,0x0040,
0.060828500000000,0,0xA512,
0.060844333333333,0,0x0000,
0.060852250000000,0,0xA612,
0.060881375000000,0,0x0005,
0.060889041666667,0,0x2D11,
0.060905208333333,0,0xC9C5,
0.060913125000000,0,0xAD12,
0.060928958333333,0,0xFFFD,
0.060936875000000,0,0xAE12,
0.060952708333333,0,0xDE27,
0.060960625000000,0,0xAF12,
0.060976458333333,0,0xFFFF,
0.060984375000000,0,0xB012,
0.061000208333333,0,0x8309,
0.061008125000000,0,0xB112,
0.061038791666667,0,0x0006,
0.061046458333333,0,0x3B15,
0.061062583333333,0,0xB3E2,
0.061070500000000,0,0xBB12,
0.061086333333333,0,0xB331,
0.061094250000000,0,0xBC12,
0.061110041666667,0,0xB2BA,
0.061117958333333,0,0xBD12,
0.061133833333333,0,0xB200,
0.061141750000000,0,0xBE12,
0.061157583333333,0,0xB202,
0.061165500000000,0,0xBF12,
0.061181333333333,0,0xB276,
0.061189250000000,0,0xC012,
0.061220000000000,0,0x000A,
0.061227666666667,0,0x4119,
0.061243666666667,0,0xC0BD,
0.061251583333333,0,0xC112,
0.061267416666667,0,0xC0C4,
0.061275333333333,0,0xC212,
0.061291208333333,0,0xC0C0,
0.061299083333333,0,0xC312,
0.061314958333333,0,0xC085,
0.061322875000000,0,0xC412,
0.061338708333333,0,0xC09E,
0.061346625000000,0,0xC512,
0.061362458333333,0,0xDD4B,
0.061370375000000,0,0xC612,
0.061386208333333,0,0x8036,
0.061394125000000,0,0xC712,
0.061409958333333,0,0xA3CF,
0.061417875000000,0,0xC812,
0.061433708333333,0,0x9E35,
0.061441625000000,0,0xC912,
0.061457458333333,0,0x9E38,
0.061465375000000,0,0xCA12,
0.061497625000000,0,0x0004,
0.061505291666667,0,0x032D,
0.061521375000000,0,0x0A01,
0.061529208333333,0,0x832D,
0.061544916666667,0,0x0F00,
0.061552791666667,0,0x842D,
0.061568500000000,0,0x0000,
0.061576375000000,0,0x8522,
0.061592083333333,0,0x273F,
0.061599958333333,0,0x862D,
0.061630708333333,0,0x0001,
0.061638416666667,0,0x1D21,
0.061654500000000,0,0x0055,
0.061662375000000,0,0x9D21,
0.061690083333333,0,0x0003,
0.061697791666667,0,0x2425,
0.061713916666667,0,0x004C,
0.061721791666667,0,0xA422,
0.061737541666667,0,0x0040,
0.061745375000000,0,0xA522,
0.061761125000000,0,0x8000,
0.061768958333333,0,0xA622,
0.061797875000000,0,0x0005,
0.061805583333333,0,0x2D29,
0.061821541666667,0,0xCB51,
0.061829416666667,0,0xAD22,
0.061845125000000,0,0xFFFE,
0.061853000000000,0,0xAE22,
0.061868708333333,0,0x2EE2,
0.061876583333333,0,0xAF22,
0.061892291666667,0,0xFFFF,
0.061900166666667,0,0xB022,
0.061915875000000,0,0x830B,
0.061923750000000,0,0xB122,
0.061954750000000,0,0x0006,
0.061962458333333,0,0x3B2D,
0.061978750000000,0,0xE518,
0.061986625000000,0,0xBB22,
0.062002333333333,0,0x8002,
0.062010208333333,0,0xBC22,
0.062025958333333,0,0x8000,
0.062033791666667,0,0xBD22,
0.062049541666667,0,0x8005,
0.062057375000000,0,0xBE22,
0.062073083333333,0,0xE5BB,
0.062080958333333,0,0xBF22,
0.062096666666667,0,0xE5D3,
0.062104541666667,0,0xC022,
0.062134541666667,0,0x000A,
0.062142208333333,0,0x4121,
0.062158583333333,0,0xDB9A,
0.062166458333333,0,0xC122,
0.062182208333333,0,0xDCA7,
0.062190041666667,0,0xC222,
0.062205750000000,0,0xDF4B,
0.062213625000000,0,0xC322,
0.062229375000000,0,0xE124,
0.062237208333333,0,0xC422,
0.062252916666667,0,0xA97F,
0.062260791666667,0,0xC522,
0.062276541666667,0,0xFF4C,
0.062284375000000,0,0xC622,
0.062300125000000,0,0xC019,
0.062307958333333,0,0xC722,
0.062323708333333,0,0xA3AF,
0.062331541666667,0,0xC822,
0.062347250000000,0,0x9E3D,
0.062355125000000,0,0xC922,
0.062370833333333,0,0x9E3D,
0.062378708333333,0,0xCA22,
0.070028083333333,0,0x3C3F,
0.070035791666667,0,0x0607,
0.070062750000000,0,0x0004,
0.070070416666667,0,0x0319,
0.070086791666667,0,0x0A01,
0.070094708333333,0,0x8319,
0.070110541666667,0,0x0F00,
0.070118458333333,0,0x8419,
0.070134333333333,0,0x0000,
0.070142250000000,0,0x8513,
0.070158083333333,0,0x3F3F,
0.070166000000000,0,0x8619,
0.070197291666667,0,0x0004,
0.070205000000000,0,0x031D,
0.070221458333333,0,0x0A01,
0.070229375000000,0,0x831D,
0.070245208333333,0,0x0F00,
0.070253125000000,0,0x841D,
0.070268958333333,0,0x0000,
0.070276916666667,0,0x8513,
0.070292750000000,0,0x3F3F,
0.070300666666667,0,0x861D,
0.070331416666667,0,0x0004,
0.070339083333333,0,0x0311,
0.070355125000000,0,0x0A01,
0.070363041666667,0,0x8311,
0.070378916666667,0,0x0F00,
0.070386791666667,0,0x8411,
0.070402666666667,0,0x0000,
0.070410583333333,0,0x8513,
0.070426416666667,0,0x3F3F,
0.070434333333333,0,0x8611,
0.070465500000000,0,0x0004,
0.070473166666667,0,0x0315,
0.070489291666667,0,0x0A01,
0.070497208333333,0,0x8315,
0.070513041666667,0,0x0F00,
0.070520958333333,0,0x8415,
0.070536791666667,0,0x0000,
0.070544750000000,0,0x8513,
0.070560583333333,0,0x3F3F,
0.070568500000000,0,0x8615,
0.070599291666667,0,0x0004,
0.070606958333333,0,0x0319,
0.070623416666667,0,0x0A01,
0.070631333333333,0,0x8319,
0.070647166666667,0,0x0F00,
0.070655083333333,0,0x8419,
0.070670916666667,0,0x0000,
0.070678875000000,0,0x8513,
0.070694708333333,0,0x373F,
0.070702625000000,0,0x8619,
0.070733208333333,0,0x0001,
0.070740875000000,0,0x1D1D,
0.070757041666667,0,0x1551,
0.070764958333333,0,0x9D1D,
0.070793166666667,0,0x0003,
0.070800875000000,0,0x2411,
0.070816958333333,0,0x0048,
0.070824875000000,0,0xA413,
0.070840708333333,0,0x0040,
0.070848625000000,0,0xA513,
0.070864458333333,0,0x0000,
0.070872375000000,0,0xA613,
0.070900708333333,0,0x0005,
0.070908416666667,0,0x2D15,
0.070924833333333,0,0xCAD0,
0.070932750000000,0,0xAD13,
0.070948583333333,0,0xFFFD,
0.070956500000000,0,0xAE13,
0.070972333333333,0,0xDBD6,
0.070980250000000,0,0xAF13,
0.070996083333333,0,0xFFFF,
0.071004000000000,0,0xB013,
0.071019833333333,0,0x830E,
0.071027791666667,0,0xB113,
0.071057958333333,0,0x0006,
0.071065625000000,0,0x3B19,
0.071081708333333,0,0xB3E1,
0.071089666666667,0,0xBB13,
0.071105500000000,0,0xB32B,
0.071113375000000,0,0xBC13,
0.071129250000000,0,0xB2BE,
0.071137166666667,0,0xBD13,
0.071153000000000,0,0xB201,
0.071160916666667,0,0xBE13,
0.071176750000000,0,0xB202,
0.071184666666667,0,0xBF13,
0.071200541666667,0,0xB272,
0.071208458333333,0,0xC013,
0.071238291666667,0,0x000A,
0.071246000000000,0,0x411D,
0.071262375000000,0,0xC0C0,
0.071270333333333,0,0xC113,
0.071286125000000,0,0xC0C4,
0.071294083333333,0,0xC213,
0.071309916666667,0,0xC0C3,
0.071317833333333,0,0xC313,
0.071333666666667,0,0xC082,
0.071341583333333,0,0xC413,
0.071357416666667,0,0xC0A0,
0.071365333333333,0,0xC513,
0.071381166666667,0,0xDD49,
0.071389125000000,0,0xC613,
0.071404958333333,0,0x8037,
0.071412875000000,0,0xC713,
0.071428708333333,0,0xA3CD,
0.071436625000000,0,0xC813,
0.071452458333333,0,0x9E36,
0.071460375000000,0,0xC913,
0.071476250000000,0,0x9E3E,
0.071484125000000,0,0xCA13,
0.071516500000000,0,0x0004,
0.071524166666667,0,0x0321,
0.071540125000000,0,0x0A01,
0.071548000000000,0,0x8321,
0.071563708333333,0,0x0F00,
0.071571583333333,0,0x8421,
0.071587291666667,0,0x0000,
0.071595166666667,0,0x8523,
0.071610875000000,0,0x373F,
0.071618750000000,0,0x8621,
0.071648750000000,0,0x0001,
0.071656458333333,0,0x1D25,
0.071672791666667,0,0x0055,
0.071680666666667,0,0x9D25,
0.071709541666667,0,0x0003,
0.071717208333333,0,0x2429,
0.071733250000000,0,0x004C,
0.071741125000000,0,0xA423,
0.071756833333333,0,0x0040,
0.071764708333333,0,0xA523,
0.071780416666667,0,0x8000,
0.071788291666667,0,0xA623,
0.071817458333333,0,0x0005,
0.071825166666667,0,0x2D2D,
0.071841333333333,0,0xCC5E,
0.071849208333333,0,0xAD23,
0.071864916666667,0,0xFFFE,
0.071872791666667,0,0xAE23,
0.071888500000000,0,0x2CDB,
0.071896375000000,0,0xAF23,
0.071912083333333,0,0xFFFF,
0.071919958333333,0,0xB023,
0.071935666666667,0,0x8308,
0.071943541666667,0,0xB123,
0.071973625000000,0,0x0006,
0.071981291666667,0,0x3B21,
0.071997583333333,0,0xE51B,
0.072005416666667,0,0xBB23,
0.072021166666667,0,0x8000,
0.072029000000000,0,0xBC23,
0.072044750000000,0,0x8000,
0.072052583333333,0,0xBD23,
0.072068291666667,0,0x8000,
0.072076166666667,0,0xBE23,
0.072091916666667,0,0xE5BD,
0.072099750000000,0,0xBF23,
0.072115500000000,0,0xE5DA,
0.072123375000000,0,0xC023,
0.072153208333333,0,0x000A,
0.072160875000000,0,0x4125,
0.072176916666667,0,0xDB97,
0.072184750000000,0,0xC123,
0.072200500000000,0,0xDCA3,
0.072208333333333,0,0xC223,
0.072224083333333,0,0xDF43,
0.072231916666667,0,0xC323,
0.072247666666667,0,0xE122,
0.072255500000000,0,0xC423,
0.072271250000000,0,0xA97D,
0.072279083333333,0,0xC523,
0.072294833333333,0,0xFF48,
0.072302708333333,0,0xC623,
0.072318416666667,0,0xC012,
0.072326291666667,0,0xC723,
0.072342000000000,0,0xA3B1,
0.072349875000000,0,0xC823,
0.072365583333333,0,0x9E38,
0.072373458333333,0,0xC923,
0.072389166666667,0,0x9E3D,
0.072397041666667,0,0xCA23,
0.079983000000000,0,0x4C3F,
0.079990666666667,0,0x060B,
0.080017958333333,0,0x0004,
0.080025625000000,0,0x031D,
0.080042083333333,0,0x0A01,
0.080050000000000,0,0x831D,
0.080065791666667,0,0x0F00,
0.080073750000000,0,0x841D,
0.080089583333333,0,0x0000,
0.080097500000000,0,0x8514,
0.080113333333333,0,0x4F3F,
0.080121250000000,0,0x861D,
0.080152166666667,0,0x0004,
0.080159833333333,0,0x0311,
0.080176208333333,0,0x0A01,
0.080184125000000,0,0x8311,
0.080199958333333,0,0x0F00,
0.080207875000000,0,0x8411,
0.080223708333333,0,0x0000,
0.080231666666667,0,0x8514,
0.080247500000000,0,0x4F3F,
0.080255416666667,0,0x8611,
0.080286500000000,0,0x0004,
0.080294166666667,0,0x0315,
0.080310375000000,0,0x0A01,
0.080318291666667,0,0x8315,
0.080334125000000,0,0x0F00,
0.080342041666667,0,0x8415,
0.080357875000000,0,0x0000,
0.080365833333333,0,0x8514,
0.080381666666667,0,0x4F3F,
0.080389583333333,0,0x8615,
0.080419583333333,0,0x0004,
0.080427250000000,0,0x0319,
0.080443500000000,0,0x0A01,
0.080451458333333,0,0x8319,
0.080467291666667,0,0x0F00,
0.080475208333333,0,0x8419,
0.080491041666667,0,0x0000,
0.080498958333333,0,0x8514,
0.080514833333333,0,0x4F3F,
0.080522750000000,0,0x8619,
0.080553500000000,0,0x0004,
0.080561208333333,0,0x031D,
0.080577208333333,0,0x0A01,
0.080585125000000,0,0x831D,
0.080600958333333,0,0x0F00,
0.080608875000000,0,0x841D,
0.080624708333333,0,0x0000,
0.080632625000000,0,0x8514,
0.080648458333333,0,0x473F,
0.080656375000000,0,0x861D,
0.080686708333333,0,0x0001,
0.080694375000000,0,0x1D11,
0.080710833333333,0,0x1551,
0.080718750000000,0,0x9D11,
0.080746916666667,0,0x0003,
0.080754583333333,0,0x2415,
0.080770708333333,0,0x0048,
0.080778625000000,0,0xA414,
0.080794500000000,0,0x0040,
0.080802416666667,0,0xA514,
0.080818250000000,0,0x0000,
0.080826166666667,0,0xA614,
0.080854458333333,0,0x0005,
0.080862125000000,0,0x2D19,
0.080878125000000,0,0xCBD8,
0.080886041666667,0,0xAD14,
0.080901875000000,0,0xFFFD,
0.080909791666667,0,0xAE14,
0.080925666666667,0,0xD95F,
0.080933541666667,0,0xAF14,
0.080949416666667,0,0xFFFF,
0.080957333333333,0,0xB014,
0.080973166666667,0,0x830B,
0.080981083333333,0,0xB114,
0.081011166666667,0,0x0006,
0.081018875000000,0,0x3B1D,
0.081035000000000,0,0xB3E1,
0.081042916666667,0,0xBB14,
0.081058750000000,0,0xB32B,
0.081066666666667,0,0xBC14,
0.081082500000000,0,0xB2BB,
0.081090416666667,0,0xBD14,
0.081106291666667,0,0xB1FE,
0.081114166666667,0,0xBE14,
0.081130000000000,0,0xB201,
0.081137958333333,0,0xBF14,
0.081153791666667,0,0xB276,
0.081161708333333,0,0xC014,
0.081192083333333,0,0x000A,
0.081199791666667,0,0x4111,
0.081216125000000,0,0xC0C4,
0.081224041666667,0,0xC114,
0.081239875000000,0,0xC0C3,
0.081247791666667,0,0xC214,
0.081263625000000,0,0xC0C5,
0.081271541666667,0,0xC314,
0.081287375000000,0,0xC088,
0.081295291666667,0,0xC414,
0.081311125000000,0,0xC0A1,
0.081319083333333,0,0xC514,
0.081334875000000,0,0xDD4A,
0.081342791666667,0,0xC614,
0.081358625000000,0,0x8039,
0.081366541666667,0,0xC714,
0.081382375000000,0,0xA3CD,
0.081390333333333,0,0xC814,
0.081406125000000,0,0x9E3D,
0.081414083333333,0,0xC914,
0.081429916666667,0,0x9E3A,
0.081437833333333,0,0xCA14,
0.081470708333333,0,0x0004,
0.081478416666667,0,0x0325,
0.081494375000000,0,0x0A01,
0.081502208333333,0,0x8325,
0.081517958333333,0,0x0F00,
0.081525791666667,0,0x8425,
0.081541541666667,0,0x0000,
0.081549375000000,0,0x8524,
0.081565125000000,0,0x473F,
0.081572958333333,0,0x8625,
0.081603291666667,0,0x0001,
0.081610958333333,0,0x1D29,
0.081627000000000,0,0x0055,
0.081634875000000,0,0x9D29,
0.081663000000000,0,0x0003,
0.081670708333333,0,0x242D,
0.081686958333333,0,0x004C,
0.081694791666667,0,0xA424,
0.081710541666667,0,0x0040,
0.081718375000000,0,0xA524,
0.081734125000000,0,0x8000,
0.081741958333333,0,0xA624,
0.081771125000000,0,0x0005,
0.081778791666667,0,0x2D21,
0.081795041666667,0,0xCD68,
0.081802916666667,0,0xAD24,
0.081818625000000,0,0xFFFE,
0.081826500000000,0,0xAE24,
0.081842208333333,0,0x2A54,
0.081850083333333,0,0xAF24,
0.081865791666667,0,0xFFFF,
0.081873625000000,0,0xB024,
0.081889333333333,0,0x830E,
0.081897208333333,0,0xB124,
0.081929000000000,0,0x0006,
0.081936708333333,0,0x3B25,
0.081952750000000,0,0xE51D,
0.081960583333333,0,0xBB24,
0.081976291666667,0,0x8000,
0.081984166666667,0,0xBC24,
0.081999875000000,0,0x8000,
0.082007750000000,0,0xBD24,
0.082023500000000,0,0x8004,
0.082031333333333,0,0xBE24,
0.082047083333333,0,0xE5BD,
0.082054916666667,0,0xBF24,
0.082070666666667,0,0xE5D5,
0.082078500000000,0,0xC024,
0.082109458333333,0,0x000A,
0.082117125000000,0,0x4129,
0.082133041666667,0,0xDB98,
0.082140916666667,0,0xC124,
0.082156625000000,0,0xDCA0,
0.082164500000000,0,0xC224,
0.082180208333333,0,0xDF49,
0.082188041666667,0,0xC324,
0.082203791666667,0,0xE122,
0.082211666666667,0,0xC424,
0.082227375000000,0,0xA97D,
0.082235208333333,0,0xC524,
0.082250958333333,0,0xFF48,
0.082258791666667,0,0xC624,
0.082274541666667,0,0xC015,
0.082282416666667,0,0xC724,
0.082298125000000,0,0xA3B3,
0.082306000000000,0,0xC824,
0.082321708333333,0,0x9E36,
0.082329541666667,0,0xC924,
0.082345291666667,0,0x9E3D,
0.082353125000000,0,0xCA24,
0.090026250000000,0,0x5C3F,
0.090033958333333,0,0x060F,
0.090060916666667,0,0x0004,
0.090068625000000,0,0x0311,
0.090084750000000,0,0x0A01,
0.090092666666667,0,0x8311,
0.090108500000000,0,0x0F00,
0.090116416666667,0,0x8411,
0.090132250000000,0,0x0000,
0.090140166666667,0,0x8515,
0.090156041666667,0,0x5F3F,
0.090163958333333,0,0x8611,
0.090194916666667,0,0x0004,
0.090202583333333,0,0x0315,
0.090218875000000,0,0x0A01,
0.090226791666667,0,0x8315,
0.090242666666667,0,0x0F00,
0.090250583333333,0,0x8415,
0.090266416666667,0,0x0000,
0.090274333333333,0,0x8515,
0.090290166666667,0,0x5F3F,
0.090298083333333,0,0x8615,
0.090328333333333,0,0x0004,
0.090336000000000,0,0x0319,
0.090352041666667,0,0x0A01,
0.090360000000000,0,0x8319,
0.090375833333333,0,0x0F00,
0.090383750000000,0,0x8419,
0.090399583333333,0,0x0000,
0.090407541666667,0,0x8515,
0.090423375000000,0,0x5F3F,
0.090431291666667,0,0x8619,
0.090462250000000,0,0x0004,
0.090469916666667,0,0x031D,
0.090486291666667,0,0x0A01,
0.090494166666667,0,0x831D,
0.090510041666667,0,0x0F00,
0.090517958333333,0,0x841D,
0.090533791666667,0,0x0000,
0.090541708333333,0,0x8515,
0.090557541666667,0,0x5F3F,
0.090565458333333,0,0x861D,
0.090595875000000,0,0x0004,
0.090603541666667,0,0x0311,
0.090619916666667,0,0x0A01,
0.090627833333333,0,0x8311,
0.090643666666667,0,0x0F00,
0.090651583333333,0,0x8411,
0.090667416666667,0,0x0000,
0.090675333333333,0,0x8515,
0.090691166666667,0,0x573F,
0.090699125000000,0,0x8611,
0.090729375000000,0,0x0001,
0.090737041666667,0,0x1D15,
0.090753083333333,0,0x1551,
0.090761000000000,0,0x9D15,
0.090788916666667,0,0x0003,
0.090796625000000,0,0x2419,
0.090812958333333,0,0x0048,
0.090820875000000,0,0xA415,
0.090836708333333,0,0x0040,
0.090844625000000,0,0xA515,
0.090860458333333,0,0x0000,
0.090868375000000,0,0xA615,
0.090897583333333,0,0x0005,
0.090905291666667,0,0x2D1D,
0.090921333333333,0,0xCCE4,
0.090929250000000,0,0xAD15,
0.090945083333333,0,0xFFFD,
0.090953000000000,0,0xAE15,
0.090968833333333,0,0xD62F,
0.090976750000000,0,0xAF15,
0.090992583333333,0,0xFFFF,
0.091000541666667,0,0xB015,
0.091016375000000,0,0x830D,
0.091024291666667,0,0xB115,
0.091055000000000,0,0x0006,
0.091062666666667,0,0x3B11,
0.091078708333333,0,0xB3E5,
0.091086625000000,0,0xBB15,
0.091102500000000,0,0xB330,
0.091110416666667,0,0xBC15,
0.091126250000000,0,0xB2BC,
0.091134166666667,0,0xBD15,
0.091149958333333,0,0xB200,
0.091157875000000,0,0xBE15,
0.091173708333333,0,0xB201,
0.091181666666667,0,0xBF15,
0.091197500000000,0,0xB272,
0.091205416666667,0,0xC015,
0.091235500000000,0,0x000A,
0.091243166666667,0,0x4115,
0.091259333333333,0,0xC0C3,
0.091267250000000,0,0xC115,
0.091283083333333,0,0xC0C5,
0.091291000000000,0,0xC215,
0.091306875000000,0,0xC0C1,
0.091314791666667,0,0xC315,
0.091330625000000,0,0xC08A,
0.091338541666667,0,0xC415,
0.091354375000000,0,0xC0A3,
0.091362291666667,0,0xC515,
0.091378125000000,0,0xDD4D,
0.091386041666667,0,0xC615,
0.091401875000000,0,0x8037,
0.091409791666667,0,0xC715,
0.091425625000000,0,0xA3CE,
0.091433541666667,0,0xC815,
0.091449416666667,0,0x9E37,
0.091457333333333,0,0xC915,
0.091473166666667,0,0x9E3B,
0.091481083333333,0,0xCA15,
0.091514125000000,0,0x0004,
0.091521791666667,0,0x0329,
0.091537750000000,0,0x0A01,
0.091545625000000,0,0x8329,
0.091561333333333,0,0x0F00,
0.091569208333333,0,0x8429,
0.091584916666667,0,0x0000,
0.091592791666667,0,0x8525,
0.091608500000000,0,0x573F,
0.091616375000000,0,0x8629,
0.091646041666667,0,0x0001,
0.091653708333333,0,0x1D2D,
0.091669916666667,0,0x0055,
0.091677791666667,0,0x9D2D,
0.091706250000000,0,0x0003,
0.091713916666667,0,0x2421,
0.091730333333333,0,0x004C,
0.091738208333333,0,0xA425,
0.091753916666667,0,0x0040,
0.091761791666667,0,0xA525,
0.091777500000000,0,0x8000,
0.091785375000000,0,0xA625,
0.091814583333333,0,0x0005,
0.091822250000000,0,0x2D25,
0.091838416666667,0,0xCE75,
0.091846250000000,0,0xAD25,
0.091862000000000,0,0xFFFE,
0.091869833333333,0,0xAE25,
0.091885541666667,0,0x2846,
0.091893416666667,0,0xAF25,
0.091909125000000,0,0x8000,
0.091917000000000,0,0xB025,
0.091932708333333,0,0x8300,
0.091940583333333,0,0xB125,
0.091970791666667,0,0x0006,
0.091978458333333,0,0x3B29,
0.091994625000000,0,0xE51C,
0.092002500000000,0,0xBB25,
0.092018208333333,0,0x8001,
0.092026041666667,0,0xBC25,
0.092041791666667,0,0x8000,
0.092049625000000,0,0xBD25,
0.092065333333333,0,0x8000,
0.092073208333333,0,0xBE25,
0.092088916666667,0,0xE5C0,
0.092096791666667,0,0xBF25,
0.092112500000000,0,0xE5D9,
0.092120375000000,0,0xC025,
0.092150458333333,0,0x000A,
0.092158125000000,0,0x412D,
0.092174416666667,0,0xDB97,
0.092182250000000,0,0xC125,
0.092198000000000,0,0xDCA4,
0.092205833333333,0,0xC225,
0.092221541666667,0,0xDF47,
0.092229416666667,0,0xC325,
0.092245125000000,0,0xE123,
0.092253000000000,0,0xC425,
0.092268708333333,0,0xA97D,
0.092276583333333,0,0xC525,
0.092292291666667,0,0xFF4B,
0.092300166666667,0,0xC625,
0.092315875000000,0,0xC014,
0.092323750000000,0,0xC725,
0.092339458333333,0,0xA3B2,
0.092347291666667,0,0xC825,
0.092363041666667,0,0x9E39,
0.092370875000000,0,0xC925,
0.092386625000000,0,0x9E3E,
0.092394458333333,0,0xCA25,
0.099972541666667,0,0x6C3F,
0.099980208333333,0,0x0603,
0.100008125000000,0,0x0004,
0.100015791666667,0,0x0315,
0.100032250000000,0,0x0A01,
0.100040166666667,0,0x8315,
0.100056000000000,0,0x0F00,
0.100063916666667,0,0x8415,
0.100079750000000,0,0x0000,
0.100087666666667,0,0x8516,
0.100103541666667,0,0x6F3F,
0.100111458333333,0,0x8615,
0.100142791666667,0,0x0004,
0.100150458333333,0,0x0319,
0.100166916666667,0,0x0A01,
0.100174833333333,0,0x8319,
0.100190666666667,0,0x0F00,
0.100198583333333,0,0x8419,
0.100214416666667,0,0x0000,
0.100222333333333,0,0x8516,
0.100238208333333,0,0x6F3F,
0.100246125000000,0,0x8619,
0.100278041666667,0,0x0004,
0.100285708333333,0,0x031D,
0.100302083333333,0,0x0A01,
0.100310000000000,0,0x831D,
0.100325833333333,0,0x0F00,
0.100333750000000,0,0x841D,
0.100349583333333,0,0x0000,
0.100357500000000,0,0x8516,
0.100373375000000,0,0x6F3F,
0.100381291666667,0,0x861D,
0.100412333333333,0,0x0004,
0.100420041666667,0,0x0311,
0.100436250000000,0,0x0A01,
0.100444166666667,0,0x8311,
0.100460000000000,0,0x0F00,
0.100467916666667,0,0x8411,
0.100483750000000,0,0x0000,
0.100491666666667,0,0x8516,
0.100507500000000,0,0x6F3F,
0.100515458333333,0,0x8611,
0.100545375000000,0,0x0004,
0.100553083333333,0,0x0315,
0.100569375000000,0,0x0A01,
0.100577291666667,0,0x8315,
0.100593125000000,0,0x0F00,
0.100601041666667,0,0x8415,
0.100616875000000,0,0x0000,
0.100624791666667,0,0x8516,
0.100640625000000,0,0x673F,
0.100648541666667,0,0x8615,
0.100678916666667,0,0x0001,
0.100686583333333,0,0x1D19,
0.100702958333333,0,0x1551,
0.100710916666667,0,0x9D19,
0.100738750000000,0,0x0003,
0.100746416666667,0,0x241D,
0.100762875000000,0,0x0048,
0.100770750000000,0,0xA416,
0.100786625000000,0,0x0040,
0.100794541666667,0,0xA516,
0.100810375000000,0,0x0000,
0.100818291666667,0,0xA616,
0.100847333333333,0,0x0005,
0.100855000000000,0,0x2D11,
0.100871208333333,0,0xCDEC,
0.100879166666667,0,0xAD16,
0.100895000000000,0,0xFFFD,
0.100902916666667,0,0xAE16,
0.100918750000000,0,0xD363,
0.100926666666667,0,0xAF16,
0.100942500000000,0,0xFFFF,
0.100950416666667,0,0xB016,
0.100966250000000,0,0x8306,
0.100974166666667,0,0xB116,
0.101003916666667,0,0x0006,
0.101011583333333,0,0x3B15,
0.101027583333333,0,0xB3E2,
0.101035541666667,0,0xBB16,
0.101051375000000,0,0xB32D,
0.101059291666667,0,0xBC16,
0.101075125000000,0,0xB2B8,
0.101083041666667,0,0xBD16,
0.101098875000000,0,0xB1FF,
0.101106791666667,0,0xBE16,
0.101122625000000,0,0xB1FF,
0.101130541666667,0,0xBF16,
0.101146375000000,0,0xB271,
0.101154291666667,0,0xC016,
0.101184541666667,0,0x000A,
0.101192208333333,0,0x4119,
0.101208250000000,0,0xC0C7,
0.101216125000000,0,0xC116,
0.101231958333333,0,0xC0C3,
0.101239916666667,0,0xC216,
0.101255750000000,0,0xC0C3,
0.101263666666667,0,0xC316,
0.101279500000000,0,0xC086,
0.101287416666667,0,0xC416,
0.101303250000000,0,0xC0A2,
0.101311166666667,0,0xC516,
0.101327000000000,0,0xDD4E,
0.101334958333333,0,0xC616,
0.101350750000000,0,0x803C,
0.101358708333333,0,0xC716,
0.101374541666667,0,0xA3D0,
0.101382458333333,0,0xC816,
0.101398291666667,0,0x9E38,
0.101406208333333,0,0xC916,
0.101422041666667,0,0x9E3B,
0.101429958333333,0,0xCA16,
0.101461833333333,0,0x0004,
0.101469500000000,0,0x032D,
0.101485750000000,0,0x0A01,
0.101493583333333,0,0x832D,
0.101509291666667,0,0x0F00,
0.101517166666667,0,0x842D,
0.101532875000000,0,0x0000,
0.101540750000000,0,0x8526,
0.101556458333333,0,0x673F,
0.101564333333333,0,0x862D,
0.101594458333333,0,0x0001,
0.101602166666667,0,0x1D21,
0.101618375000000,0,0x0055,
0.101626250000000,0,0x9D21,
0.101654958333333,0,0x0003,
0.101662625000000,0,0x2425,
0.101678791666667,0,0x004C,
0.101686666666667,0,0xA426,
0.101702375000000,0,0x0040,
0.101710250000000,0,0xA526,
0.101725958333333,0,0x8000,
0.101733833333333,0,0xA626,
0.101762958333333,0,0x0005,
0.101770666666667,0,0x2D29,
0.101786875000000,0,0xCF80,
0.101794750000000,0,0xAD26,
0.101810416666667,0,0xFFFE,
0.101818291666667,0,0xAE26,
0.101834041666667,0,0x2596,
0.101841875000000,0,0xAF26,
0.101857625000000,0,0xFFFF,
0.101865458333333,0,0xB026,
0.101881166666667,0,0x830D,
0.101889041666667,0,0xB126,
0.101919166666667,0,0x0006,
0.101926833333333,0,0x3B2D,
0.101943083333333,0,0xE51E,
0.101950958333333,0,0xBB26,
0.101966625000000,0,0x8000,
0.101974500000000,0,0xBC26,
0.101990208333333,0,0x8000,
0.101998083333333,0,0xBD26,
0.102013791666667,0,0x8000,
0.102021666666667,0,0xBE26,
0.102037375000000,0,0xE5BE,
0.102045250000000,0,0xBF26,
0.102060958333333,0,0xE5D9,
0.102068833333333,0,0xC026,
0.102099125000000,0,0x000A,
0.102106791666667,0,0x4121,
0.102122833333333,0,0xDB99,
0.102130708333333,0,0xC126,
0.102146416666667,0,0xDCA5,
0.102154291666667,0,0xC226,
0.102170000000000,0,0xDF49,
0.102177875000000,0,0xC326,
0.102193583333333,0,0xE126,
0.102201458333333,0,0xC426,
0.102217166666667,0,0xA982,
0.102225041666667,0,0xC526,
0.102240750000000,0,0xFF51,
0.102248625000000,0,0xC626,
0.102264333333333,0,0xC017,
0.102272208333333,0,0xC726,
0.102287916666667,0,0xA3B1,
0.102295791666667,0,0xC826,
0.102311500000000,0,0x9E3C,
0.102319333333333,0,0xC926,
0.102335083333333,0,0x9E38,
0.102342916666667,0,0xCA26,
0.110165833333333,0,0x7C3F,
0.110173500000000,0,0x0607,
0.110201250000000,0,0x0004,
0.110208916666667,0,0x0319,
0.110225041666667,0,0x0A01,
0.110232916666667,0,0x8319,
0.110248791666667,0,0x0F00,
0.110256708333333,0,0x8419,
0.110272541666667,0,0x0000,
0.110280458333333,0,0x8517,
0.110296291666667,0,0x7F3F,
0.110304208333333,0,0x8619,
0.110334583333333,0,0x0004,
0.110342250000000,0,0x031D,
0.110358666666667,0,0x0A01,
0.110366583333333,0,0x831D,
0.110382416666667,0,0x0F00,
0.110390333333333,0,0x841D,
0.110406166666667,0,0x0000,
0.110414083333333,0,0x8517,
0.110429958333333,0,0x7F3F,
0.110437833333333,0,0x861D,
0.110469166666667,0,0x0004,
0.110476833333333,0,0x0311,
0.110493291666667,0,0x0A01,
0.110501208333333,0,0x8311,
0.110517041666667,0,0x0F00,
0.110525000000000,0,0x8411,
0.110540833333333,0,0x0000,
0.110548750000000,0,0x8517,
0.110564625000000,0,0x7F3F,
0.110572541666667,0,0x8611,
0.110603291666667,0,0x0004,
0.110610958333333,0,0x0315,
0.110627000000000,0,0x0A01,
0.110634916666667,0,0x8315,
0.110650750000000,0,0x0F00,
0.110658666666667,0,0x8415,
0.110674500000000,0,0x0000,
0.110682416666667,0,0x8517,
0.110698250000000,0,0x7F3F,
0.110706166666667,0,0x8615,
0.110735958333333,0,0x0004,
0.110743625000000,0,0x0319,
0.110759625000000,0,0x0A01,
0.110767541666667,0,0x8319,
0.110783375000000,0,0x0F00,
0.110791291666667,0,0x8419,
0.110807125000000,0,0x0000,
0.110815041666667,0,0x8517,
0.110830875000000,0,0x773F,
0.110838791666667,0,0x8619,
0.110869500000000,0,0x0001,
0.110877208333333,0,0x1D1D,
0.110893208333333,0,0x1551,
0.110901125000000,0,0x9D1D,
0.110928833333333,0,0x0003,
0.110936500000000,0,0x2411,
0.110952625000000,0,0x0048,
0.110960541666667,0,0xA417,
0.110976375000000,0,0x0040,
0.110984291666667,0,0xA517,
0.111000125000000,0,0x0000,
0.111008083333333,0,0xA617,
0.111036666666667,0,0x0005,
0.111044333333333,0,0x2D15,
0.111060541666667,0,0xCEFB,
0.111068458333333,0,0xAD17,
0.111084291666667,0,0xFFFD,
0.111092208333333,0,0xAE17,
0.111108041666667,0,0xD090,
0.111115958333333,0,0xAF17,
0.111131833333333,0,0xFFFF,
0.111139750000000,0,0xB017,
0.111155583333333,0,0x8308,
0.111163500000000,0,0xB117,
0.111193291666667,0,0x0006,
0.111200958333333,0,0x3B19,
0.111216958333333,0,0xB3E3,
0.111224875000000,0,0xBB17,
0.111240708333333,0,0xB32D,
0.111248625000000,0,0xBC17,
0.111264458333333,0,0xB2BE,
0.111272375000000,0,0xBD17,
0.111288250000000,0,0xB202,
0.111296166666667,0,0xBE17,
0.111312000000000,0,0xB200,
0.111319916666667,0,0xBF17,
0.111335750000000,0,0xB270,
0.111343666666667,0,0xC017,
0.111373875000000,0,0x000A,
0.111381541666667,0,0x411D,
0.111397625000000,0,0xC0C2,
0.111405541666667,0,0xC117,
0.111421375000000,0,0xC0C2,
0.111429291666667,0,0xC217,
0.111445125000000,0,0xC0C4,
0.111453041666667,0,0xC317,
0.111468875000000,0,0xC084,
0.111476833333333,0,0xC417,
0.111492625000000,0,0xC0A2,
0.111500583333333,0,0xC517,
0.111516416666667,0,0xDD48,
0.111524333333333,0,0xC617,
0.111540166666667,0,0x8037,
0.111548083333333,0,0xC717,
0.111563958333333,0,0xA3CE,
0.111571875000000,0,0xC817,
0.111587708333333,0,0x9E37,
0.111595625000000,0,0xC917,
0.111611458333333,0,0x9E3D,
0.111619375000000,0,0xCA17,
0.111650833333333,0,0x0004,
0.111658500000000,0,0x0321,
0.111674583333333,0,0x0A01,
0.111682458333333,0,0x8321,
0.111698166666667,0,0x0F00,
0.111706041666667,0,0x8421,
0.111721750000000,0,0x0000,
0.111729625000000,0,0x8527,
0.111745333333333,0,0x773F,
0.111753208333333,0,0x8621,
0.111783375000000,0,0x0001,
0.111791041666667,0,0x1D25,
0.111807250000000,0,0x0055,
0.111815083333333,0,0x9D25,
0.111842708333333,0,0x0003,
0.111850416666667,0,0x2429,
0.111866708333333,0,0x004C,
0.111874541666667,0,0xA427,
0.111890291666667,0,0x0040,
0.111898125000000,0,0xA527,
0.111913833333333,0,0x8000,
0.111921708333333,0,0xA627,
0.111951625000000,0,0x0005,
0.111959291666667,0,0x2D2D,
0.111975291666667,0,0xD090,
0.111983125000000,0,0xAD27,
0.111998833333333,0,0xFFFE,
0.112006708333333,0,0xAE27,
0.112022416666667,0,0x2275,
0.112030291666667,0,0xAF27,
0.112046000000000,0,0x8000,
0.112053875000000,0,0xB027,
0.112069583333333,0,0x8303,
0.112077458333333,0,0xB127,
0.112107500000000,0,0x0006,
0.112115166666667,0,0x3B21,
0.112131458333333,0,0xE51B,
0.112139333333333,0,0xBB27,
0.112155041666667,0,0x8000,
0.112162916666667,0,0xBC27,
0.112178625000000,0,0x8000,
0.112186500000000,0,0xBD27,
0.112202208333333,0,0x8002,
0.112210083333333,0,0xBE27,
0.112225791666667,0,0xE5C0,
0.112233666666667,0,0xBF27,
0.112249375000000,0,0xE5DA,
0.112257250000000,0,0xC027,
0.112287000000000,0,0x000A,
0.112294708333333,0,0x4125,
0.112310750000000,0,0xDB97,
0.112318625000000,0,0xC127,
0.112334333333333,0,0xDCA6,
0.112342208333333,0,0xC227,
0.112357916666667,0,0xDF47,
0.112365791666667,0,0xC327,
0.112381541666667,0,0xE124,
0.112389375000000,0,0xC427,
0.112405083333333,0,0xA97D,
0.112412958333333,0,0xC527,
0.112428666666667,0,0xFF4D,
0.112436541666667,0,0xC627,
0.112452250000000,0,0xC015,
0.112460125000000,0,0xC727,
0.112475833333333,0,0xA3AF,
0.112483708333333,0,0xC827,
0.112499416666667,0,0x9E39,
0.112507291666667,0,0xC927,
0.112523000000000,0,0x9E40,
0.112530833333333,0,0xCA27,
0.120033250000000,0,0x8C3F,
0.120040916666667,0,0x060B,
0.120068375000000,0,0x0004,
0.120076041666667,0,0x031D,
0.120092250000000,0,0x0A01,
0.120100166666667,0,0x831D,
0.120116000000000,0,0x0F00,
0.120123916666667,0,0x841D,
0.120139750000000,0,0x0000,
0.120147666666667,0,0x8518,
0.120163500000000,0,0x8F3F,
0.120171416666667,0,0x861D,
0.120202958333333,0,0x0004,
0.120210625000000,0,0x0311,
0.120226875000000,0,0x0A01,
0.120234791666667,0,0x8311,
0.120250625000000,0,0x0F00,
0.120258541666667,0,0x8411,
0.120274375000000,0,0x0000,
0.120282291666667,0,0x8518,
0.120298125000000,0,0x8F3F,
0.120306083333333,0,0x8611,
0.120336833333333,0,0x0004,
0.120344541666667,0,0x0315,
0.120360500000000,0,0x0A01,
0.120368416666667,0,0x8315,
0.120384250000000,0,0x0F00,
0.120392208333333,0,0x8415,
0.120408041666667,0,0x0000,
0.120415958333333,0,0x8518,
0.120431791666667,0,0x8F3F,
0.120439708333333,0,0x8615,
0.120470791666667,0,0x0004,
0.120478458333333,0,0x0319,
0.120494666666667,0,0x0A01,
0.120502583333333,0,0x8319,
0.120518416666667,0,0x0F00,
0.120526333333333,0,0x8419,
0.120542166666667,0,0x0000,
0.120550125000000,0,0x8518,
0.120565958333333,0,0x8F3F,
0.120573875000000,0,0x8619,
0.120605041666667,0,0x0004,
0.120612708333333,0,0x031D,
0.120628791666667,0,0x0A01,
0.120636708333333,0,0x831D,
0.120652541666667,0,0x0F00,
0.120660458333333,0,0x841D,
0.120676291666667,0,0x0000,
0.120684208333333,0,0x8518,
0.120700041666667,0,0x873F,
0.120707958333333,0,0x861D,
0.120738416666667,0,0x0001,
0.120746125000000,0,0x1D11,
0.120762375000000,0,0x1551,
0.120770333333333,0,0x9D11,
0.120798000000000,0,0x0003,
0.120805666666667,0,0x2415,
0.120821791666667,0,0x0048,
0.120829708333333,0,0xA418,
0.120845541666667,0,0x0040,
0.120853458333333,0,0xA518,
0.120869291666667,0,0x0000,
0.120877208333333,0,0xA618,
0.120906750000000,0,0x0005,
0.120914458333333,0,0x2D19,
0.120930666666667,0,0xD002,
0.120938583333333,0,0xAD18,
0.120954416666667,0,0xFFFD,
0.120962333333333,0,0xAE18,
0.120978166666667,0,0xCDEA,
0.120986083333333,0,0xAF18,
0.121001916666667,0,0xFFFF,
0.121009833333333,0,0xB018,
0.121025666666667,0,0x830E,
0.121033625000000,0,0xB118,
0.121064250000000,0,0x0006,
0.121071916666667,0,0x3B1D,
0.121088083333333,0,0xB3DD,
0.121095958333333,0,0xBB18,
0.121111833333333,0,0xB32B,
0.121119750000000,0,0xBC18,
0.121135583333333,0,0xB2BC,
0.121143500000000,0,0xBD18,
0.121159333333333,0,0xB1FD,
0.121167250000000,0,0xBE18,
0.121183083333333,0,0xB1FD,
0.121191000000000,0,0xBF18,
0.121206833333333,0,0xB270,
0.121214750000000,0,0xC018,
0.121244708333333,0,0x000A,
0.121252375000000,0,0x4111,
0.121268666666667,0,0xC0C6,
0.121276583333333,0,0xC118,
0.121292416666667,0,0xC0C5,
0.121300333333333,0,0xC218,
0.121316166666667,0,0xC0C6,
0.121324083333333,0,0xC318,
0.121339916666667,0,0xC083,
0.121347833333333,0,0xC418,
0.121363708333333,0,0xC0A3,
0.121371583333333,0,0xC518,
0.121387458333333,0,0xDD4C,
0.121395375000000,0,0xC618,
0.121411208333333,0,0x803A,
0.121419125000000,0,0xC718,
0.121434958333333,0,0xA3CD,
0.121442916666667,0,0xC818,
0.121458750000000,0,0x9E39,
0.121466666666667,0,0xC918,
0.121482500000000,0,0x9E39,
0.121490416666667,0,0xCA18,
0.121522916666667,0,0x0004,
0.121530583333333,0,0x0325,
0.121546583333333,0,0x0A01,
0.121554416666667,0,0x8325,
0.121570166666667,0,0x0F00,
0.121578041666667,0,0x8425,
0.121593750000000,0,0x0000,
0.121601625000000,0,0x8528,
0.121617333333333,0,0x873F,
0.121625208333333,0,0x8625,
0.121655083333333,0,0x0001,
0.121662750000000,0,0x1D29,
0.121678750000000,0,0x0055,
0.121686625000000,0,0x9D29,
0.121714791666667,0,0x0003,
0.121722458333333,0,0x242D,
0.121738666666667,0,0x004C,
0.121746541666667,0,0xA428,
0.121762250000000,0,0x0040,
0.121770125000000,0,0xA528,
0.121785833333333,0,0x8000,
0.121793708333333,0,0xA628,
0.121822750000000,0,0x0005,
0.121830416666667,0,0x2D21,
0.121846750000000,0,0xD199,
0.121854625000000,0,0xAD28,
0.121870375000000,0,0xFFFE,
0.121878208333333,0,0xAE28,
0.121893958333333,0,0x1F0A,
0.121901791666667,0,0xAF28,
0.121917541666667,0,0x8000,
0.121925375000000,0,0xB028,
0.121941125000000,0,0x8303,
0.121948958333333,0,0xB128,
0.121979833333333,0,0x0006,
0.121987500000000,0,0x3B25,
0.122003500000000,0,0xE519,
0.122011375000000,0,0xBB28,
0.122027083333333,0,0x8000,
0.122034958333333,0,0xBC28,
0.122050666666667,0,0x8000,
0.122058541666667,0,0xBD28,
0.122074250000000,0,0x8000,
0.122082125000000,0,0xBE28,
0.122097833333333,0,0xE5B8,
0.122105708333333,0,0xBF28,
0.122121416666667,0,0xE5D1,
0.122129291666667,0,0xC028,
0.122158666666667,0,0x000A,
0.122166375000000,0,0x4129,
0.122182333333333,0,0xDB96,
0.122190208333333,0,0xC128,
0.122205916666667,0,0xDCA1,
0.122213791666667,0,0xC228,
0.122229500000000,0,0xDF43,
0.122237375000000,0,0xC328,
0.122253125000000,0,0xE121,
0.122260958333333,0,0xC428,
0.122276666666667,0,0xA97C,
0.122284541666667,0,0xC528,
0.122300250000000,0,0xFF49,
0.122308125000000,0,0xC628,
0.122323833333333,0,0xC011,
0.122331708333333,0,0xC728,
0.122347416666667,0,0xA3B1,
0.122355291666667,0,0xC828,
0.122371000000000,0,0x9E36,
0.122378875000000,0,0xC928,
0.122394583333333,0,0x9E3E,
0.122402458333333,0,0xCA28,
0.130032041666667,0,0x9C3F,
0.130039708333333,0,0x060F,
0.130067541666667,0,0x0004,
0.130075250000000,0,0x0311,
0.130091666666667,0,0x0A01,
0.130099583333333,0,0x8311,
0.130115416666667,0,0x0F00,
0.130123333333333,0,0x8411,
0.130139166666667,0,0x0000,
0.130147083333333,0,0x8519,
0.130162916666667,0,0x9F3F,
0.130170875000000,0,0x8611,
0.130202375000000,0,0x0004,
0.130210083333333,0,0x0315,
0.130226291666667,0,0x0A01,
0.130234208333333,0,0x8315,
0.130250041666667,0,0x0F00,
0.130258000000000,0,0x8415,
0.130273791666667,0,0x0000,
0.130281750000000,0,0x8519,
0.130297583333333,0,0x9F3F,
0.130305500000000,0,0x8615,
0.130335833333333,0,0x0004,
0.130343500000000,0,0x0319,
0.130359958333333,0,0x0A01,
0.130367875000000,0,0x8319,
0.130383708333333,0,0x0F00,
0.130391625000000,0,0x8419,
0.130407500000000,0,0x0000,
0.130415416666667,0,0x8519,
0.130431250000000,0,0x9F3F,
0.130439166666667,0,0x8619,
0.130470416666667,0,0x0004,
0.130478125000000,0,0x031D,
0.130494125000000,0,0x0A01,
0.130502041666667,0,0x831D,
0.130517875000000,0,0x0F00,
0.130525791666667,0,0x841D,
0.130541666666667,0,0x0000,
0.130549583333333,0,0x8519,
0.130565416666667,0,0x9F3F,
0.130573333333333,0,0x861D,
0.130603791666667,0,0x0004,
0.130611500000000,0,0x0311,
0.130627750000000,0,0x0A01,
0.130635666666667,0,0x8311,
0.130651500000000,0,0x0F00,
0.130659416666667,0,0x8411,
0.130675250000000,0,0x0000,
0.130683208333333,0,0x8519,
0.130699041666667,0,0x973F,
0.130706958333333,0,0x8611,
0.130736750000000,0,0x0001,
0.130744416666667,0,0x1D15,
0.130760375000000,0,0x1551,
0.130768333333333,0,0x9D15,
0.130796458333333,0,0x0003,
0.130804125000000,0,0x2419,
0.130820291666667,0,0x0048,
0.130828208333333,0,0xA419,
0.130844041666667,0,0x0040,
0.130851958333333,0,0xA519,
0.130867791666667,0,0x0000,
0.130875708333333,0,0xA619,
0.130904708333333,0,0x0005,
0.130912375000000,0,0x2D1D,
0.130928666666667,0,0xD10B,
0.130936625000000,0,0xAD19,
0.130952458333333,0,0xFFFD,
0.130960333333333,0,0xAE19,
0.130976166666667,0,0xCB31,
0.130984125000000,0,0xAF19,
0.130999958333333,0,0x8000,
0.131007875000000,0,0xB019,
0.131023708333333,0,0x8305,
0.131031625000000,0,0xB119,
0.131062291666667,0,0x0006,
0.131069958333333,0,0x3B11,
0.131086041666667,0,0xB3E0,
0.131094000000000,0,0xBB19,
0.131109833333333,0,0xB32D,
0.131117750000000,0,0xBC19,
0.131133583333333,0,0xB2BE,
0.131141500000000,0,0xBD19,
0.131157375000000,0,0xB203,
0.131165291666667,0,0xBE19,
0.131181125000000,0,0xB203,
0.131189041666667,0,0xBF19,
0.131204875000000,0,0xB276,
0.131212791666667,0,0xC019,
0.131243500000000,0,0x000A,
0.131251166666667,0,0x4115,
0.131267250000000,0,0xC0C1,
0.131275166666667,0,0xC119,
0.131291000000000,0,0xC0C0,
0.131298916666667,0,0xC219,
0.131314708333333,0,0xC0C0,
0.131322625000000,0,0xC319,
0.131338458333333,0,0xC081,
0.131346375000000,0,0xC419,
0.131362208333333,0,0xC0A0,
0.131370166666667,0,0xC519,
0.131386000000000,0,0xDD48,
0.131393875000000,0,0xC619,
0.131409708333333,0,0x8038,
0.131417666666667,0,0xC719,
0.131433500000000,0,0xA3CC,
0.131441416666667,0,0xC819,
0.131457250000000,0,0x9E36,
0.131465166666667,0,0xC919,
0.131481000000000,0,0x9E38,
0.131488916666667,0,0xCA19,
0.131521000000000,0,0x0004,
0.131528708333333,0,0x0329,
0.131544708333333,0,0x0A01,
0.131552541666667,0,0x8329,
0.131568291666667,0,0x0F00,
0.131576125000000,0,0x8429,
0.131591833333333,0,0x0000,
0.131599708333333,0,0x8529,
0.131615458333333,0,0x973F,
0.131623291666667,0,0x8629,
0.131653666666667,0,0x0001,
0.131661333333333,0,0x1D2D,
0.131677375000000,0,0x0055,
0.131685208333333,0,0x9D2D,
0.131713583333333,0,0x0003,
0.131721250000000,0,0x2421,
0.131737333333333,0,0x004C,
0.131745208333333,0,0xA429,
0.131760875000000,0,0x0040,
0.131768750000000,0,0xA529,
0.131784458333333,0,0x8000,
0.131792333333333,0,0xA629,
0.131821041666667,0,0x0005,
0.131828708333333,0,0x2D25,
0.131844916666667,0,0xD2A5,
0.131852791666667,0,0xAD29,
0.131868500000000,0,0xFFFE,
0.131876333333333,0,0xAE29,
0.131892083333333,0,0x1C07,
0.131899958333333,0,0xAF29,
0.131915666666667,0,0x8000,
0.131923541666667,0,0xB029,
0.131939250000000,0,0x8300,
0.131947125000000,0,0xB129,
0.131977833333333,0,0x0006,
0.131985500000000,0,0x3B29,
0.132001666666667,0,0xE51C,
0.132009500000000,0,0xBB29,
0.132025250000000,0,0x8000,
0.132033125000000,0,0xBC29,
0.132048833333333,0,0x8000,
0.132056708333333,0,0xBD29,
0.132072416666667,0,0x8000,
0.132080291666667,0,0xBE29,
0.132096000000000,0,0xE5BB,
0.132103875000000,0,0xBF29,
0.132119583333333,0,0xE5D4,
0.132127458333333,0,0xC029,
0.132157333333333,0,0x000A,
0.132165000000000,0,0x412D,
0.132181000000000,0,0xDB98,
0.132188875000000,0,0xC129,
0.132204583333333,0,0xDCA1,
0.132212458333333,0,0xC229,
0.132228208333333,0,0xDF48,
0.132236083333333,0,0xC329,
0.132251791666667,0,0xE121,
0.132259625000000,0,0xC429,
0.132275375000000,0,0xA97C,
0.132283208333333,0,0xC529,
0.132298958333333,0,0xFF4B,
0.132306791666667,0,0xC629,
0.132322541666667,0,0xC012,
0.132330375000000,0,0xC729,
0.132346125000000,0,0xA3B0,
0.132353958333333,0,0xC829,
0.132369708333333,0,0x9E37,
0.132377541666667,0,0xC929,
0.132393291666667,0,0x9E3C,
0.132401166666667,0,0xCA29,
0.139984208333333,0,0xAC3F,
0.139991875000000,0,0x0603,
0.140019666666667,0,0x0004,
0.140027333333333,0,0x0315,
0.140043416666667,0,0x0A01,
0.140051333333333,0,0x8315,
0.140067166666667,0,0x0F00,
0.140075083333333,0,0x8415,
0.140090916666667,0,0x0000,
0.140098875000000,0,0x851A,
0.140114666666667,0,0xAF3F,
0.140122583333333,0,0x8615,
0.140153666666667,0,0x0004,
0.140161375000000,0,0x0319,
0.140177541666667,0,0x0A01,
0.140185458333333,0,0x8319,
0.140201291666667,0,0x0F00,
0.140209208333333,0,0x8419,
0.140225083333333,0,0x0000,
0.140233000000000,0,0x851A,
0.140248833333333,0,0xAF3F,
0.140256750000000,0,0x8619,
0.140287875000000,0,0x0004,
0.140295541666667,0,0x031D,
0.140311708333333,0,0x0A01,
0.140319625000000,0,0x831D,
0.140335458333333,0,0x0F00,
0.140343416666667,0,0x841D,
0.140359208333333,0,0x0000,
0.140367166666667,0,0x851A,
0.140383000000000,0,0xAF3F,
0.140390916666667,0,0x861D,
0.140421916666667,0,0x0004,
0.140429583333333,0,0x0311,
0.140445875000000,0,0x0A01,
0.140453791666667,0,0x8311,
0.140469625000000,0,0x0F00,
0.140477541666667,0,0x8411,
0.140493375000000,0,0x0000,
0.140501291666667,0,0x851A,
0.140517125000000,0,0xAF3F,
0.140525041666667,0,0x8611,
0.140556166666667,0,0x0004,
0.140563875000000,0,0x0315,
0.140580000000000,0,0x0A01,
0.140587916666667,0,0x8315,
0.140603750000000,0,0x0F00,
0.140611666666667,0,0x8415,
0.140627500000000,0,0x0000,
0.140635458333333,0,0x851A,
0.140651291666667,0,0xA73F,
0.140659208333333,0,0x8615,
0.140690250000000,0,0x0001,
0.140697916666667,0,0x1D19,
0.140714125000000,0,0x1551,
0.140722041666667,0,0x9D19,
0.140751250000000,0,0x0003,
0.140758916666667,0,0x241D,
0.140775000000000,0,0x0048,
0.140782916666667,0,0xA41A,
0.140798750000000,0,0x0040,
0.140806666666667,0,0xA51A,
0.140822541666667,0,0x0000,
0.140830458333333,0,0xA61A,
0.140859250000000,0,0x0005,
0.140866958333333,0,0x2D11,
0.140882916666667,0,0xD214,
0.140890833333333,0,0xAD1A,
0.140906666666667,0,0xFFFD,
0.140914583333333,0,0xAE1A,
0.140930375000000,0,0xC846,
0.140938333333333,0,0xAF1A,
0.140954166666667,0,0x8000,
0.140962083333333,0,0xB01A,
0.140977916666667,0,0x8308,
0.140985833333333,0,0xB11A,
0.141015875000000,0,0x0006,
0.141023583333333,0,0x3B15,
0.141039750000000,0,0xB3E1,
0.141047666666667,0,0xBB1A,
0.141063500000000,0,0xB32E,
0.141071416666667,0,0xBC1A,
0.141087250000000,0,0xB2BC,
0.141095166666667,0,0xBD1A,
0.141111000000000,0,0xB200,
0.141118958333333,0,0xBE1A,
0.141134750000000,0,0xB202,
0.141142708333333,0,0xBF1A,
0.141158541666667,0,0xB275,
0.141166458333333,0,0xC01A,
0.141196416666667,0,0x000A,
0.141204083333333,0,0x4119,
0.141220416666667,0,0xC0C1,
0.141228333333333,0,0xC11A,
0.141244166666667,0,0xC0C0,
0.141252083333333,0,0xC21A,
0.141267916666667,0,0xC0C2,
0.141275833333333,0,0xC31A,
0.141291666666667,0,0xC086,
0.141299625000000,0,0xC41A,
0.141315416666667,0,0xC09F,
0.141323375000000,0,0xC51A,
0.141339166666667,0,0xDD48,
0.141347083333333,0,0xC61A,
0.141362916666667,0,0x8034,
0.141370875000000,0,0xC71A,
0.141386666666667,0,0xA3CC,
0.141394625000000,0,0xC81A,
0.141410458333333,0,0x9E35,
0.141418375000000,0,0xC91A,
0.141434208333333,0,0x9E39,
0.141442125000000,0,0xCA1A,
0.141473625000000,0,0x0004,
0.141481333333333,0,0x032D,
0.141497708333333,0,0x0A01,
0.141505583333333,0,0x832D,
0.141521291666667,0,0x0F00,
0.141529125000000,0,0x842D,
0.141544875000000,0,0x0000,
0.141552708333333,0,0x852A,
0.141568458333333,0,0xA73F,
0.141576291666667,0,0x862D,
0.141606583333333,0,0x0001,
0.141614291666667,0,0x1D21,
0.141630333333333,0,0x0055,
0.141638208333333,0,0x9D21,
0.141665833333333,0,0x0003,
0.141673541666667,0,0x2425,
0.141689791666667,0,0x004C,
0.141697666666667,0,0xA42A,
0.141713375000000,0,0x0040,
0.141721250000000,0,0xA52A,
0.141736958333333,0,0x8000,
0.141744791666667,0,0xA62A,
0.141773083333333,0,0x0005,
0.141780750000000,0,0x2D29,
0.141796875000000,0,0xD3AF,
0.141804750000000,0,0xAD2A,
0.141820458333333,0,0xFFFE,
0.141828333333333,0,0xAE2A,
0.141844041666667,0,0x1914,
0.141851916666667,0,0xAF2A,
0.141867625000000,0,0xFFFF,
0.141875500000000,0,0xB02A,
0.141891208333333,0,0x830D,
0.141899083333333,0,0xB12A,
0.141928875000000,0,0x0006,
0.141936583333333,0,0x3B2D,
0.141952625000000,0,0xE51E,
0.141960458333333,0,0xBB2A,
0.141976208333333,0,0x8003,
0.141984041666667,0,0xBC2A,
0.141999791666667,0,0x8000,
0.142007625000000,0,0xBD2A,
0.142023375000000,0,0x8000,
0.142031208333333,0,0xBE2A,
0.142046916666667,0,0xE5BF,
0.142054791666667,0,0xBF2A,
0.142070500000000,0,0xE5D3,
0.142078375000000,0,0xC02A,
0.142108708333333,0,0x000A,
0.142116416666667,0,0x4121,
0.142132458333333,0,0xDB95,
0.142140291666667,0,0xC12A,
0.142156041666667,0,0xDCA1,
0.142163875000000,0,0xC22A,
0.142179625000000,0,0xDF42,
0.142187458333333,0,0xC32A,
0.142203208333333,0,0xE11E,
0.142211041666667,0,0xC42A,
0.142226791666667,0,0xA979,
0.142234666666667,0,0xC52A,
0.142250375000000,0,0xFF48,
0.142258250000000,0,0xC62A,
0.142273958333333,0,0xC014,
0.142281833333333,0,0xC72A,
0.142297541666667,0,0xA3B3,
0.142305416666667,0,0xC82A,
0.142321125000000,0,0x9E36,
0.142329000000000,0,0xC92A,
0.142344708333333,0,0x9E40,
0.142352583333333,0,0xCA2A,
0.150051291666667,0,0xBC3F,
0.150058958333333,0,0x0607,
0.150086208333333,0,0x0004,
0.150093875000000,0,0x0319,
0.150110041666667,0,0x0A01,
0.150118000000000,0,0x8319,
0.150133791666667,0,0x0F00,
0.150141750000000,0,0x8419,
0.150157583333333,0,0x0000,
0.150165500000000,0,0x851B,
0.150181333333333,0,0xBF3F,
0.150189250000000,0,0x8619,
0.150219625000000,0,0x0004,
0.150227291666667,0,0x031D,
0.150243708333333,0,0x0A01,
0.150251625000000,0,0x831D,
0.150267500000000,0,0x0F00,
0.150275416666667,0,0x841D,
0.150291250000000,0,0x0000,
0.150299166666667,0,0x851B,
0.150315000000000,0,0xBF3F,
0.150322916666667,0,0x861D,
0.150353708333333,0,0x0004,
0.150361416666667,0,0x0311,
0.150377375000000,0,0x0A01,
0.150385291666667,0,0x8311,
0.150401125000000,0,0x0F00,
0.150409041666667,0,0x8411,
0.150424875000000,0,0x0000,
0.150432791666667,0,0x851B,
0.150448625000000,0,0xBF3F,
0.150456541666667,0,0x8611,
0.150487458333333,0,0x0004,
0.150495125000000,0,0x0315,
0.150511500000000,0,0x0A01,
0.150519416666667,0,0x8315,
0.150535250000000,0,0x0F00,
0.150543166666667,0,0x8415,
0.150559000000000,0,0x0000,
0.150566916666667,0,0x851B,
0.150582791666667,0,0xBF3F,
0.150590708333333,0,0x8615,
0.150620875000000,0,0x0004,
0.150628583333333,0,0x0319,
0.150644625000000,0,0x0A01,
0.150652541666667,0,0x8319,
0.150668375000000,0,0x0F00,
0.150676291666667,0,0x8419,
0.150692125000000,0,0x0000,
0.150700041666667,0,0x851B,
0.150715875000000,0,0xB73F,
0.150723791666667,0,0x8619,
0.150754416666667,0,0x0001,
0.150762125000000,0,0x1D1D,
0.150778208333333,0,0x1551,
0.150786125000000,0,0x9D1D,
0.150814833333333,0,0x0003,
0.150822500000000,0,0x2411,
0.150838583333333,0,0x0048,
0.150846500000000,0,0xA41B,
0.150862333333333,0,0x0040,
0.150870250000000,0,0xA51B,
0.150886083333333,0,0x0000,
0.150894000000000,0,0xA61B,
0.150922958333333,0,0x0005,
0.150930625000000,0,0x2D15,
0.150946916666667,0,0xD320,
0.150954833333333,0,0xAD1B,
0.150970666666667,0,0xFFFD,
0.150978583333333,0,0xAE1B,
0.150994416666667,0,0xC5E0,
0.151002333333333,0,0xAF1B,
0.151018166666667,0,0xFFFF,
0.151026083333333,0,0xB01B,
0.151041916666667,0,0x8309,
0.151049833333333,0,0xB11B,
0.151079708333333,0,0x0006,
0.151087375000000,0,0x3B19,
0.151103750000000,0,0xB3E4,
0.151111708333333,0,0xBB1B,
0.151127541666667,0,0xB32E,
0.151135458333333,0,0xBC1B,
0.151151291666667,0,0xB2BC,
0.151159208333333,0,0xBD1B,
0.151175041666667,0,0xB1FE,
0.151182958333333,0,0xBE1B,
0.151198791666667,0,0xB206,
0.151206708333333,0,0xBF1B,
0.151222500000000,0,0xB277,
0.151230458333333,0,0xC01B,
0.151260083333333,0,0x000A,
0.151267750000000,0,0x411D,
0.151283875000000,0,0xC0BD,
0.151291791666667,0,0xC11B,
0.151307625000000,0,0xC0C0,
0.151315541666667,0,0xC21B,
0.151331375000000,0,0xC0C2,
0.151339291666667,0,0xC31B,
0.151355125000000,0,0xC081,
0.151363041666667,0,0xC41B,
0.151378875000000,0,0xC09F,
0.151386791666667,0,0xC51B,
0.151402625000000,0,0xDD4A,
0.151410541666667,0,0xC61B,
0.151426375000000,0,0x8038,
0.151434291666667,0,0xC71B,
0.151450166666667,0,0xA3CD,
0.151458041666667,0,0xC81B,
0.151473916666667,0,0x9E38,
0.151481833333333,0,0xC91B,
0.151497625000000,0,0x9E3B,
0.151505583333333,0,0xCA1B,
0.151537541666667,0,0x0004,
0.151545208333333,0,0x0321,
0.151561625000000,0,0x0A01,
0.151569500000000,0,0x8321,
0.151585208333333,0,0x0F00,
0.151593083333333,0,0x8421,
0.151608791666667,0,0x0000,
0.151616666666667,0,0x852B,
0.151632375000000,0,0xB73F,
0.151640250000000,0,0x8621,
0.151670208333333,0,0x0001,
0.151677875000000,0,0x1D25,
0.151694291666667,0,0x0055,
0.151702125000000,0,0x9D25,
0.151730625000000,0,0x0003,
0.151738333333333,0,0x2429,
0.151754708333333,0,0x004C,
0.151762583333333,0,0xA42B,
0.151778291666667,0,0x0040,
0.151786166666667,0,0xA52B,
0.151801875000000,0,0x8000,
0.151809750000000,0,0xA62B,
0.151839041666667,0,0x0005,
0.151846708333333,0,0x2D2D,
0.151862791666667,0,0xD4BD,
0.151870666666667,0,0xAD2B,
0.151886375000000,0,0xFFFE,
0.151894250000000,0,0xAE2B,
0.151909958333333,0,0x1639,
0.151917833333333,0,0xAF2B,
0.151933541666667,0,0xFFFF,
0.151941416666667,0,0xB02B,
0.151957125000000,0,0x8308,
0.151965000000000,0,0xB12B,
0.151995625000000,0,0x0006,
0.152003291666667,0,0x3B21,
0.152019541666667,0,0xE519,
0.152027416666667,0,0xBB2B,
0.152043125000000,0,0x8000,
0.152051000000000,0,0xBC2B,
0.152066708333333,0,0x8000,
0.152074583333333,0,0xBD2B,
0.152090291666667,0,0x8004,
0.152098166666667,0,0xBE2B,
0.152113875000000,0,0xE5B7,
0.152121750000000,0,0xBF2B,
0.152137458333333,0,0xE5D3,
0.152145291666667,0,0xC02B,
0.152175541666667,0,0x000A,
0.152183250000000,0,0x4125,
0.152199333333333,0,0xDB92,
0.152207208333333,0,0xC12B,
0.152222916666667,0,0xDCA3,
0.152230791666667,0,0xC22B,
0.152246500000000,0,0xDF46,
0.152254375000000,0,0xC32B,
0.152270083333333,0,0xE11C,
0.152277958333333,0,0xC42B,
0.152293666666667,0,0xA979,
0.152301541666667,0,0xC52B,
0.152317250000000,0,0xFF46,
0.152325125000000,0,0xC62B,
0.152340833333333,0,0xC00E,
0.152348708333333,0,0xC72B,
0.152364416666667,0,0xA3B1,
0.152372291666667,0,0xC82B,
0.152388000000000,0,0x9E35,
0.152395875000000,0,0xC92B,
0.152411583333333,0,0x9E3D,
0.152419458333333,0,0xCA2B,
0.160018750000000,0,0xCC3F,
0.160026416666667,0,0x060B,
0.160053958333333,0,0x0004,
0.160061625000000,0,0x031D,
0.160077833333333,0,0x0A01,
0.160085750000000,0,0x831D,
0.160101583333333,0,0x0F00,
0.160109500000000,0,0x841D,
0.160125375000000,0,0x0000,
0.160133250000000,0,0x851C,
0.160149125000000,0,0xCF3F,
0.160157041666667,0,0x861D,
0.160187791666667,0,0x0004,
0.160195458333333,0,0x0311,
0.160211500000000,0,0x0A01,
0.160219416666667,0,0x8311,
0.160235250000000,0,0x0F00,
0.160243166666667,0,0x8411,
0.160259041666667,0,0x0000,
0.160266958333333,0,0x851C,
0.160282791666667,0,0xCF3F,
0.160290750000000,0,0x8611,
0.160321833333333,0,0x0004,
0.160329541666667,0,0x0315,
0.160345666666667,0,0x0A01,
0.160353583333333,0,0x8315,
0.160369416666667,0,0x0F00,
0.160377333333333,0,0x8415,
0.160393166666667,0,0x0000,
0.160401083333333,0,0x851C,
0.160416916666667,0,0xCF3F,
0.160424833333333,0,0x8615,
0.160455083333333,0,0x0004,
0.160462750000000,0,0x0319,
0.160478791666667,0,0x0A01,
0.160486708333333,0,0x8319,
0.160502583333333,0,0x0F00,
0.160510458333333,0,0x8419,
0.160526333333333,0,0x0000,
0.160534208333333,0,0x851C,
0.160550083333333,0,0xCF3F,
0.160557958333333,0,0x8619,
0.160588583333333,0,0x0004,
0.160596250000000,0,0x031D,
0.160612416666667,0,0x0A01,
0.160620333333333,0,0x831D,
0.160636166666667,0,0x0F00,
0.160644083333333,0,0x841D,
0.160659916666667,0,0x0000,
0.160667833333333,0,0x851C,
0.160683666666667,0,0xC73F,
0.160691583333333,0,0x861D,
0.160722625000000,0,0x0001,
0.160730291666667,0,0x1D11,
0.160746500000000,0,0x1551,
0.160754416666667,0,0x9D11,
0.160782291666667,0,0x0003,
0.160789958333333,0,0x2415,
0.160806375000000,0,0x0048,
0.160814291666667,0,0xA41C,
0.160830166666667,0,0x0040,
0.160838041666667,0,0xA51C,
0.160853875000000,0,0x0000,
0.160861791666667,0,0xA61C,
0.160890583333333,0,0x0005,
0.160898250000000,0,0x2D19,
0.160914250000000,0,0xD429,
0.160922166666667,0,0xAD1C,
0.160938000000000,0,0xFFFD,
0.160945916666667,0,0xAE1C,
0.160961750000000,0,0xC371,
0.160969666666667,0,0xAF1C,
0.160985500000000,0,0xFFFF,
0.160993416666667,0,0xB01C,
0.161009250000000,0,0x830F,
0.161017166666667,0,0xB11C,
0.161047583333333,0,0x0006,
0.161055250000000,0,0x3B1D,
0.161071583333333,0,0xB3E0,
0.161079541666667,0,0xBB1C,
0.161095375000000,0,0xB32C,
0.161103291666667,0,0xBC1C,
0.161119125000000,0,0xB2B9,
0.161127041666667,0,0xBD1C,
0.161142875000000,0,0xB200,
0.161150791666667,0,0xBE1C,
0.161166625000000,0,0xB200,
0.161174541666667,0,0xBF1C,
0.161190375000000,0,0xB274,
0.161198291666667,0,0xC01C,
0.161229000000000,0,0x000A,
0.161236708333333,0,0x4111,
0.161252750000000,0,0xC0C1,
0.161260625000000,0,0xC11C,
0.161276458333333,0,0xC0BF,
0.161284375000000,0,0xC21C,
0.161300208333333,0,0xC0C3,
0.161308125000000,0,0xC31C,
0.161323958333333,0,0xC085,
0.161331875000000,0,0xC41C,
0.161347708333333,0,0xC0A3,
0.161355625000000,0,0xC51C,
0.161371458333333,0,0xDD49,
0.161379375000000,0,0xC61C,
0.161395208333333,0,0x8039,
0.161403166666667,0,0xC71C,
0.161419000000000,0,0xA3CE,
0.161426916666667,0,0xC81C,
0.161442750000000,0,0x9E39,
0.161450666666667,0,0xC91C,
0.161466500000000,0,0x9E3E,
0.161474416666667,0,0xCA1C,
0.161506333333333,0,0x0004,
0.161514000000000,0,0x0325,
0.161530041666667,0,0x0A01,
0.161537875000000,0,0x8325,
0.161553625000000,0,0x0F00,
0.161561458333333,0,0x8425,
0.161577208333333,0,0x0000,
0.161585041666667,0,0x852C,
0.161600791666667,0,0xC73F,
0.161608625000000,0,0x8625,
0.161639541666667,0,0x0001,
0.161647208333333,0,0x1D29,
0.161663166666667,0,0x0055,
0.161671041666667,0,0x9D29,
0.161699291666667,0,0x0003,
0.161706958333333,0,0x242D,
0.161723125000000,0,0x004C,
0.161730958333333,0,0xA42C,
0.161746666666667,0,0x0040,
0.161754541666667,0,0xA52C,
0.161770291666667,0,0x8000,
0.161778125000000,0,0xA62C,
0.161806833333333,0,0x0005,
0.161814458333333,0,0x2D21,
0.161830708333333,0,0xD5C8,
0.161838541666667,0,0xAD2C,
0.161854250000000,0,0xFFFE,
0.161862125000000,0,0xAE2C,
0.161877833333333,0,0x13DD,
0.161885708333333,0,0xAF2C,
0.161901416666667,0,0xFFFF,
0.161909291666667,0,0xB02C,
0.161925000000000,0,0x8308,
0.161932875000000,0,0xB12C,
0.161963833333333,0,0x0006,
0.161971500000000,0,0x3B25,
0.161987875000000,0,0xE518,
0.161995750000000,0,0xBB2C,
0.162011500000000,0,0x8000,
0.162019333333333,0,0xBC2C,
0.162035041666667,0,0x8000,
0.162042916666667,0,0xBD2C,
0.162058625000000,0,0x8000,
0.162066500000000,0,0xBE2C,
0.162082208333333,0,0xE5BA,
0.162090083333333,0,0xBF2C,
0.162105791666667,0,0xE5D6,
0.162113666666667,0,0xC02C,
0.162144166666667,0,0x000A,
0.162151833333333,0,0x4129,
0.162168166666667,0,0xDB96,
0.162176041666667,0,0xC12C,
0.162191750000000,0,0xDCA1,
0.162199625000000,0,0xC22C,
0.162215333333333,0,0xDF46,
0.162223208333333,0,0xC32C,
0.162238916666667,0,0xE11F,
0.162246791666667,0,0xC42C,
0.162262500000000,0,0xA97C,
0.162270333333333,0,0xC52C,
0.162286083333333,0,0xFF49,
0.162293916666667,0,0xC62C,
0.162309666666667,0,0xC013,
0.162317500000000,0,0xC72C,
0.162333250000000,0,0xA3B1,
0.162341083333333,0,0xC82C,
0.162356833333333,0,0x9E38,
0.162364666666667,0,0xC92C,
0.162380416666667,0,0x9E3C,
0.162388250000000,0,0xCA2C,
0.170038333333333,0,0xDC3F,
0.170046000000000,0,0x060F,
0.170073166666667,0,0x0004,
0.170080875000000,0,0x0311,
0.170097166666667,0,0x0A01,
0.170105083333333,0,0x8311,
0.170120916666667,0,0x0F00,
0.170128833333333,0,0x8411,
0.170144666666667,0,0x0000,
0.170152583333333,0,0x851D,
0.170168458333333,0,0xDF3F,
0.170176375000000,0,0x8611,
0.170207333333333,0,0x0004,
0.170215041666667,0,0x0315,
0.170231291666667,0,0x0A01,
0.170239208333333,0,0x8315,
0.170255000000000,0,0x0F00,
0.170262958333333,0,0x8415,
0.170278791666667,0,0x0000,
0.170286708333333,0,0x851D,
0.170302541666667,0,0xDF3F,
0.170310458333333,0,0x8615,
0.170341083333333,0,0x0004,
0.170348750000000,0,0x0319,
0.170364916666667,0,0x0A01,
0.170372833333333,0,0x8319,
0.170388666666667,0,0x0F00,
0.170396583333333,0,0x8419,
0.170412416666667,0,0x0000,
0.170420375000000,0,0x851D,
0.170436166666667,0,0xDF3F,
0.170444125000000,0,0x8619,
0.170475458333333,0,0x0004,
0.170483125000000,0,0x031D,
0.170499541666667,0,0x0A01,
0.170507458333333,0,0x831D,
0.170523291666667,0,0x0F00,
0.170531208333333,0,0x841D,
0.170547083333333,0,0x0000,
0.170555000000000,0,0x851D,
0.170570833333333,0,0xDF3F,
0.170578708333333,0,0x861D,
0.170609333333333,0,0x0004,
0.170617041666667,0,0x0311,
0.170633166666667,0,0x0A01,
0.170641083333333,0,0x8311,
0.170656958333333,0,0x0F00,
0.170664833333333,0,0x8411,
0.170680666666667,0,0x0000,
0.170688625000000,0,0x851D,
0.170704458333333,0,0xD73F,
0.170712375000000,0,0x8611,
0.170742375000000,0,0x0001,
0.170750041666667,0,0x1D15,
0.170766333333333,0,0x1551,
0.170774250000000,0,0x9D15,
0.170801916666667,0,0x0003,
0.170809583333333,0,0x2419,
0.170825708333333,0,0x0048,
0.170833625000000,0,0xA41D,
0.170849458333333,0,0x0040,
0.170857375000000,0,0xA51D,
0.170873250000000,0,0x0000,
0.170881125000000,0,0xA61D,
0.170910000000000,0,0x0005,
0.170917666666667,0,0x2D1D,
0.170934083333333,0,0xD533,
0.170942000000000,0,0xAD1D,
0.170957833333333,0,0xFFFD,
0.170965750000000,0,0xAE1D,
0.170981625000000,0,0xC0CD,
0.170989500000000,0,0xAF1D,
0.171005333333333,0,0xFFFF,
0.171013291666667,0,0xB01D,
0.171029125000000,0,0x830F,
0.171037041666667,0,0xB11D,
0.171067708333333,0,0x0006,
0.171075375000000,0,0x3B11,
0.171091458333333,0,0xB3E5,
0.171099375000000,0,0xBB1D,
0.171115208333333,0,0xB32F,
0.171123125000000,0,0xBC1D,
0.171138958333333,0,0xB2B6,
0.171146875000000,0,0xBD1D,
0.171162708333333,0,0xB1FE,
0.171170625000000,0,0xBE1D,
0.171186458333333,0,0xB207,
0.171194375000000,0,0xBF1D,
0.171210208333333,0,0xB274,
0.171218125000000,0,0xC01D,
0.171248375000000,0,0x000A,
0.171256041666667,0,0x4115,
0.171272041666667,0,0xC0C4,
0.171279958333333,0,0xC11D,
0.171295791666667,0,0xC0C5,
0.171303708333333,0,0xC21D,
0.171319541666667,0,0xC0C3,
0.171327458333333,0,0xC31D,
0.171343291666667,0,0xC086,
0.171351208333333,0,0xC41D,
0.171367041666667,0,0xC0A4,
0.171375000000000,0,0xC51D,
0.171390833333333,0,0xDD4B,
0.171398708333333,0,0xC61D,
0.171414541666667,0,0x803B,
0.171422458333333,0,0xC71D,
0.171438333333333,0,0xA3CE,
0.171446208333333,0,0xC81D,
0.171462041666667,0,0x9E3B,
0.171469958333333,0,0xC91D,
0.171485791666667,0,0x9E3D,
0.171493708333333,0,0xCA1D,
0.171525958333333,0,0x0004,
0.171533666666667,0,0x0329,
0.171549958333333,0,0x0A01,
0.171557791666667,0,0x8329,
0.171573541666667,0,0x0F00,
0.171581375000000,0,0x8429,
0.171597083333333,0,0x0000,
0.171604958333333,0,0x852D,
0.171620666666667,0,0xD73F,
0.171628541666667,0,0x8629,
0.171658500000000,0,0x0001,
0.171666166666667,0,0x1D2D,
0.171682583333333,0,0x0055,
0.171690416666667,0,0x9D2D,
0.171718750000000,0,0x0003,
0.171726416666667,0,0x2421,
0.171742500000000,0,0x004C,
0.171750375000000,0,0xA42D,
0.171766083333333,0,0x0040,
0.171773958333333,0,0xA52D,
0.171789666666667,0,0x8000,
0.171797541666667,0,0xA62D,
0.171826166666667,0,0x0005,
0.171833833333333,0,0x2D25,
0.171850083333333,0,0xD6D4,
0.171857958333333,0,0xAD2D,
0.171873666666667,0,0xFFFE,
0.171881541666667,0,0xAE2D,
0.171897250000000,0,0x1147,
0.171905125000000,0,0xAF2D,
0.171920833333333,0,0xFFFF,
0.171928708333333,0,0xB02D,
0.171944416666667,0,0x830A,
0.171952291666667,0,0xB12D,
0.171982791666667,0,0x0006,
0.171990500000000,0,0x3B29,
0.172006833333333,0,0xE51E,
0.172014708333333,0,0xBB2D,
0.172030375000000,0,0x8001,
0.172038250000000,0,0xBC2D,
0.172053958333333,0,0x8000,
0.172061833333333,0,0xBD2D,
0.172077583333333,0,0x8000,
0.172085416666667,0,0xBE2D,
0.172101125000000,0,0xE5BF,
0.172109000000000,0,0xBF2D,
0.172124750000000,0,0xE5D5,
0.172132583333333,0,0xC02D,
0.172162416666667,0,0x000A,
0.172170083333333,0,0x412D,
0.172186125000000,0,0xDB97,
0.172194000000000,0,0xC12D,
0.172209708333333,0,0xDCA1,
0.172217583333333,0,0xC22D,
0.172233291666667,0,0xDF47,
0.172241166666667,0,0xC32D,
0.172256875000000,0,0xE124,
0.172264750000000,0,0xC42D,
0.172280458333333,0,0xA97B,
0.172288333333333,0,0xC52D,
0.172304041666667,0,0xFF4A,
0.172311916666667,0,0xC62D,
0.172327625000000,0,0xC010,
0.172335500000000,0,0xC72D,
0.172351250000000,0,0xA3B0,
0.172359083333333,0,0xC82D,
0.172374833333333,0,0x9E3A,
0.172382666666667,0,0xC92D,
0.172398375000000,0,0x9E43,
0.172406250000000,0,0xCA2D,
0.180018708333333,0,0xEC3F,
0.180026416666667,0,0x0603,
0.180053458333333,0,0x0004,
0.180061166666667,0,0x0315,
0.180077125000000,0,0x0A01,
0.180085041666667,0,0x8315,
0.180100875000000,0,0x0F00,
0.180108791666667,0,0x8415,
0.180124666666667,0,0x0000,
0.180132541666667,0,0x851E,
0.180148416666667,0,0xEF3F,
0.180156333333333,0,0x8615,
0.180187458333333,0,0x0004,
0.180195166666667,0,0x0319,
0.180211291666667,0,0x0A01,
0.180219208333333,0,0x8319,
0.180235041666667,0,0x0F00,
0.180243000000000,0,0x8419,
0.180258833333333,0,0x0000,
0.180266750000000,0,0x851E,
0.180282583333333,0,0xEF3F,
0.180290500000000,0,0x8619,
0.180321583333333,0,0x0004,
0.180329250000000,0,0x031D,
0.180345458333333,0,0x0A01,
0.180353416666667,0,0x831D,
0.180369250000000,0,0x0F00,
0.180377166666667,0,0x841D,
0.180393000000000,0,0x0000,
0.180400916666667,0,0x851E,
0.180416791666667,0,0xEF3F,
0.180424708333333,0,0x861D,
0.180455583333333,0,0x0004,
0.180463250000000,0,0x0311,
0.180479666666667,0,0x0A01,
0.180487583333333,0,0x8311,
0.180503416666667,0,0x0F00,
0.180511333333333,0,0x8411,
0.180527208333333,0,0x0000,
0.180535125000000,0,0x851E,
0.180550958333333,0,0xEF3F,
0.180558875000000,0,0x8611,
0.180589583333333,0,0x0004,
0.180597291666667,0,0x0315,
0.180613333333333,0,0x0A01,
0.180621250000000,0,0x8315,
0.180637083333333,0,0x0F00,
0.180645000000000,0,0x8415,
0.180660833333333,0,0x0000,
0.180668750000000,0,0x851E,
0.180684583333333,0,0xE73F,
0.180692500000000,0,0x8615,
0.180723375000000,0,0x0001,
0.180731083333333,0,0x1D19,
0.180747416666667,0,0x1551,
0.180755333333333,0,0x9D19,
0.180783333333333,0,0x0003,
0.180791041666667,0,0x241D,
0.180807291666667,0,0x0048,
0.180815208333333,0,0xA41E,
0.180831000000000,0,0x0040,
0.180838958333333,0,0xA51E,
0.180854791666667,0,0x0000,
0.180862666666667,0,0xA61E,
0.180891750000000,0,0x0005,
0.180899416666667,0,0x2D11,
0.180915625000000,0,0xD63D,
0.180923541666667,0,0xAD1E,
0.180939375000000,0,0xFFFD,
0.180947291666667,0,0xAE1E,
0.180963125000000,0,0xBD97,
0.180971041666667,0,0xAF1E,
0.180986916666667,0,0xFFFF,
0.180994791666667,0,0xB01E,
0.181010666666667,0,0x830A,
0.181018583333333,0,0xB11E,
0.181048083333333,0,0x0006,
0.181055750000000,0,0x3B15,
0.181072000000000,0,0xB3E3,
0.181079916666667,0,0xBB1E,
0.181095750000000,0,0xB32F,
0.181103666666667,0,0xBC1E,
0.181119500000000,0,0xB2BE,
0.181127416666667,0,0xBD1E,
0.181143291666667,0,0xB201,
0.181151166666667,0,0xBE1E,
0.181167000000000,0,0xB201,
0.181174958333333,0,0xBF1E,
0.181190791666667,0,0xB273,
0.181198708333333,0,0xC01E,
0.181229000000000,0,0x000A,
0.181236666666667,0,0x4119,
0.181252625000000,0,0xC0C1,
0.181260541666667,0,0xC11E,
0.181276375000000,0,0xC0C2,
0.181284291666667,0,0xC21E,
0.181300125000000,0,0xC0C1,
0.181308041666667,0,0xC31E,
0.181323875000000,0,0xC086,
0.181331791666667,0,0xC41E,
0.181347625000000,0,0xC0A0,
0.181355541666667,0,0xC51E,
0.181371375000000,0,0xDD48,
0.181379291666667,0,0xC61E,
0.181395166666667,0,0x803B,
0.181403041666667,0,0xC71E,
0.181418875000000,0,0xA3CE,
0.181426791666667,0,0xC81E,
0.181442625000000,0,0x9E37,
0.181450541666667,0,0xC91E,
0.181466375000000,0,0x9E36,
0.181474291666667,0,0xCA1E,
0.181507041666667,0,0x0004,
0.181514708333333,0,0x032D,
0.181530875000000,0,0x0A01,
0.181538708333333,0,0x832D,
0.181554416666667,0,0x0F00,
0.181562291666667,0,0x842D,
0.181578000000000,0,0x0000,
0.181585875000000,0,0x852E,
0.181601583333333,0,0xE73F,
0.181609458333333,0,0x862D,
0.181640041666667,0,0x0001,
0.181647708333333,0,0x1D21,
0.181664000000000,0,0x0055,
0.181671875000000,0,0x9D21,
0.181699625000000,0,0x0003,
0.181707291666667,0,0x2425,
0.181723416666667,0,0x004C,
0.181731291666667,0,0xA42E,
0.181747000000000,0,0x0040,
0.181754875000000,0,0xA52E,
0.181770583333333,0,0x8000,
0.181778458333333,0,0xA62E,
0.181807125000000,0,0x0005,
0.181814791666667,0,0x2D29,
0.181831000000000,0,0xD7DF,
0.181838875000000,0,0xAD2E,
0.181854583333333,0,0xFFFE,
0.181862458333333,0,0xAE2E,
0.181878166666667,0,0x0F41,
0.181886041666667,0,0xAF2E,
0.181901750000000,0,0xFFFF,
0.181909625000000,0,0xB02E,
0.181925333333333,0,0x830C,
0.181933208333333,0,0xB12E,
0.181965083333333,0,0x0006,
0.181972750000000,0,0x3B2D,
0.181988708333333,0,0xE51C,
0.181996583333333,0,0xBB2E,
0.182012291666667,0,0x8002,
0.182020125000000,0,0xBC2E,
0.182035875000000,0,0x8001,
0.182043750000000,0,0xBD2E,
0.182059458333333,0,0x8000,
0.182067333333333,0,0xBE2E,
0.182083041666667,0,0xE5BF,
0.182090875000000,0,0xBF2E,
0.182106625000000,0,0xE5D5,
0.182114458333333,0,0xC02E,
0.182144625000000,0,0x000A,
0.182152291666667,0,0x4121,
0.182168458333333,0,0xDB95,
0.182176333333333,0,0xC12E,
0.182192083333333,0,0xDCA2,
0.182199916666667,0,0xC22E,
0.182215625000000,0,0xDF47,
0.182223500000000,0,0xC32E,
0.182239208333333,0,0xE11F,
0.182247083333333,0,0xC42E,
0.182262791666667,0,0xA97C,
0.182270625000000,0,0xC52E,
0.182286375000000,0,0xFF4A,
0.182294250000000,0,0xC62E,
0.182309958333333,0,0xC010,
0.182317833333333,0,0xC72E,
0.182333541666667,0,0xA3B1,
0.182341375000000,0,0xC82E,
0.182357125000000,0,0x9E34,
0.182365000000000,0,0xC92E,
0.182380708333333,0,0x9E3E,
0.182388583333333,0,0xCA2E,
0.190036833333333,0,0xFC3F,
0.190044541666667,0,0x0607,
0.190071916666667,0,0x0004,
0.190079583333333,0,0x0319,
0.190095875000000,0,0x0A01,
0.190103791666667,0,0x8319,
0.190119625000000,0,0x0F00,
0.190127541666667,0,0x8419,
0.190143375000000,0,0x0000,
0.190151333333333,0,0x851F,
0.190167166666667,0,0xFF3F,
0.190175083333333,0,0x8619,
0.190206125000000,0,0x0004,
0.190213791666667,0,0x031D,
0.190230000000000,0,0x0A01,
0.190237958333333,0,0x831D,
0.190253791666667,0,0x0F00,
0.190261666666667,0,0x841D,
0.190277541666667,0,0x0000,
0.190285458333333,0,0x851F,
0.190301291666667,0,0xFF3F,
0.190309208333333,0,0x861D,
0.190339916666667,0,0x0004,
0.190347583333333,0,0x0311,
0.190363666666667,0,0x0A01,
0.190371583333333,0,0x8311,
0.190387416666667,0,0x0F00,
0.190395333333333,0,0x8411,
0.190411166666667,0,0x0000,
0.190419125000000,0,0x851F,
0.190434958333333,0,0xFF3F,
0.190442875000000,0,0x8611,
0.190473750000000,0,0x0004,
0.190481458333333,0,0x0315,
0.190497791666667,0,0x0A01,
0.190505708333333,0,0x8315,
0.190521541666667,0,0x0F00,
0.190529458333333,0,0x8415,
0.190545291666667,0,0x0000,
0.190553250000000,0,0x851F,
0.190569083333333,0,0xFF3F,
0.190577000000000,0,0x8615,
0.190607541666667,0,0x0004,
0.190615208333333,0,0x0319,
0.190631375000000,0,0x0A01,
0.190639333333333,0,0x8319,
0.190655125000000,0,0x0F00,
0.190663083333333,0,0x8419,
0.190678916666667,0,0x0000,
0.190686791666667,0,0x851F,
0.190702625000000,0,0xF73F,
0.190710583333333,0,0x8619,
0.190740541666667,0,0x0001,
0.190748250000000,0,0x1D1D,
0.190764500000000,0,0x1551,
0.190772416666667,0,0x9D1D,
0.190801208333333,0,0x0003,
0.190808875000000,0,0x2411,
0.190825333333333,0,0x0048,
0.190833250000000,0,0xA41F,
0.190849083333333,0,0x0040,
0.190857000000000,0,0xA51F,
0.190872833333333,0,0x0000,
0.190880750000000,0,0xA61F,
0.190909750000000,0,0x0005,
0.190917416666667,0,0x2D15,
0.190933708333333,0,0xD747,
0.190941625000000,0,0xAD1F,
0.190957458333333,0,0xFFFD,
0.190965375000000,0,0xAE1F,
0.190981208333333,0,0xBB7D,
0.190989125000000,0,0xAF1F,
0.191004958333333,0,0x8000,
0.191012875000000,0,0xB01F,
0.191028708333333,0,0x8302,
0.191036625000000,0,0xB11F,
0.191066666666667,0,0x0006,
0.191074333333333,0,0x3B19,
0.191090583333333,0,0xB3E2,
0.191098500000000,0,0xBB1F,
0.191114333333333,0,0xB32B,
0.191122250000000,0,0xBC1F,
0.191138083333333,0,0xB2BF,
0.191146000000000,0,0xBD1F,
0.191161833333333,0,0xB201,
0.191169750000000,0,0xBE1F,
0.191185583333333,0,0xB202,
0.191193500000000,0,0xBF1F,
0.191209333333333,0,0xB276,
0.191217250000000,0,0xC01F,
0.191247458333333,0,0x000A,
0.191255125000000,0,0x411D,
0.191271166666667,0,0xC0C2,
0.191279083333333,0,0xC11F,
0.191294916666667,0,0xC0C5,
0.191302875000000,0,0xC21F,
0.191318708333333,0,0xC0C3,
0.191326583333333,0,0xC31F,
0.191342416666667,0,0xC084,
0.191350375000000,0,0xC41F,
0.191366208333333,0,0xC0A3,
0.191374125000000,0,0xC51F,
0.191389958333333,0,0xDD49,
0.191397875000000,0,0xC61F,
0.191413708333333,0,0x8038,
0.191421625000000,0,0xC71F,
0.191437458333333,0,0xA3CD,
0.191445375000000,0,0xC81F,
0.191461208333333,0,0x9E37,
0.191469125000000,0,0xC91F,
0.191484958333333,0,0x9E3A,
0.191492875000000,0,0xCA1F,
0.191525041666667,0,0x0004,
0.191532708333333,0,0x0321,
0.191548708333333,0,0x0A01,
0.191556541666667,0,0x8321,
0.191572291666667,0,0x0F00,
0.191580125000000,0,0x8421,
0.191595875000000,0,0x0000,
0.191603750000000,0,0x852F,
0.191619458333333,0,0xF73F,
0.191627291666667,0,0x8621,
0.191657250000000,0,0x0001,
0.191664958333333,0,0x1D25,
0.191681375000000,0,0x0055,
0.191689208333333,0,0x9D25,
0.191717583333333,0,0x0003,
0.191725250000000,0,0x2429,
0.191741291666667,0,0x004C,
0.191749125000000,0,0xA42F,
0.191764875000000,0,0x0040,
0.191772750000000,0,0xA52F,
0.191788416666667,0,0x8000,
0.191796291666667,0,0xA62F,
0.191825083333333,0,0x0005,
0.191832750000000,0,0x2D2D,
0.191848875000000,0,0xD8EC,
0.191856708333333,0,0xAD2F,
0.191872458333333,0,0xFFFE,
0.191880291666667,0,0xAE2F,
0.191896041666667,0,0x0D01,
0.191903875000000,0,0xAF2F,
0.191919625000000,0,0x8000,
0.191927500000000,0,0xB02F,
0.191943208333333,0,0x8300,
0.191951083333333,0,0xB12F,
0.191980916666667,0,0x0006,
0.191988583333333,0,0x3B21,
0.192004625000000,0,0xE51C,
0.192012458333333,0,0xBB2F,
0.192028166666667,0,0x8000,
0.192036041666667,0,0xBC2F,
0.192051750000000,0,0x8000,
0.192059625000000,0,0xBD2F,
0.192075333333333,0,0x8000,
0.192083208333333,0,0xBE2F,
0.192098916666667,0,0xE5BC,
0.192106791666667,0,0xBF2F,
0.192122500000000,0,0xE5D7,
0.192130375000000,0,0xC02F,
0.192159833333333,0,0x000A,
0.192167541666667,0,0x4125,
0.192183416666667,0,0xDB98,
0.192191291666667,0,0xC12F,
0.192207000000000,0,0xDCA2,
0.192214875000000,0,0xC22F,
0.192230583333333,0,0xDF48,
0.192238458333333,0,0xC32F,
0.192254166666667,0,0xE120,
0.192262041666667,0,0xC42F,
0.192277750000000,0,0xA97C,
0.192285625000000,0,0xC52F,
0.192301333333333,0,0xFF49,
0.192309208333333,0,0xC62F,
0.192324916666667,0,0xC013,
0.192332791666667,0,0xC72F,
0.192348500000000,0,0xA3B1,
0.192356375000000,0,0xC82F,
0.192372083333333,0,0x9E3A,
0.192379958333333,0,0xC92F,
0.192395666666667,0,0x9E3E,
0.192403541666667,0,0xCA2F,
0.199994833333333,0,0x0C3F,
0.200002500000000,0,0x060B,
0.200029458333333,0,0x0004,
0.200037125000000,0,0x031D,
0.200053416666667,0,0x0A01,
0.200061375000000,0,0x831D,
0.200077208333333,0,0x0F00,
0.200085125000000,0,0x841D,
0.200100958333333,0,0x0000,
0.200108875000000,0,0x8510,
0.200124708333333,0,0x0F3F,
0.200132625000000,0,0x861D,
0.200163333333333,0,0x0004,
0.200171000000000,0,0x0311,
0.200187083333333,0,0x0A01,
0.200195000000000,0,0x8311,
0.200210833333333,0,0x0F00,
0.200218750000000,0,0x8411,
0.200234625000000,0,0x0000,
0.200242500000000,0,0x8510,
0.200258375000000,0,0x0F3F,
0.200266291666667,0,0x8611,
0.200297416666667,0,0x0004,
0.200305125000000,0,0x0315,
0.200321208333333,0,0x0A01,
0.200329166666667,0,0x8315,
0.200345000000000,0,0x0F00,
0.200352916666667,0,0x8415,
0.200368750000000,0,0x0000,
0.200376666666667,0,0x8510,
0.200392500000000,0,0x0F3F,
0.200400416666667,0,0x8615,
0.200430791666667,0,0x0004,
0.200438458333333,0,0x0319,
0.200454875000000,0,0x0A01,
0.200462791666667,0,0x8319,
0.200478625000000,0,0x0F00,
0.200486541666667,0,0x8419,
0.200502375000000,0,0x0000,
0.200510291666667,0,0x8510,
0.200526125000000,0,0x0F3F,
0.200534083333333,0,0x8619,
0.200564375000000,0,0x0004,
0.200572041666667,0,0x031D,
0.200588500000000,0,0x0A01,
0.200596416666667,0,0x831D,
0.200612250000000,0,0x0F00,
0.200620166666667,0,0x841D,
0.200636000000000,0,0x0000,
0.200643916666667,0,0x8510,
0.200659750000000,0,0x073F,
0.200667666666667,0,0x861D,
0.200698083333333,0,0x0001,
0.200705750000000,0,0x1D11,
0.200722083333333,0,0x1551,
0.200730000000000,0,0x9D11,
0.200757750000000,0,0x0003,
0.200765416666667,0,0x2415,
0.200781458333333,0,0x0048,
0.200789416666667,0,0xA410,
0.200805250000000,0,0x0040,
0.200813125000000,0,0xA510,
0.200829000000000,0,0x0000,
0.200836916666667,0,0xA610,
0.200865541666667,0,0x0005,
0.200873208333333,0,0x2D19,
0.200889375000000,0,0xD850,
0.200897291666667,0,0xAD10,
0.200913125000000,0,0xFFFD,
0.200921041666667,0,0xAE10,
0.200936916666667,0,0xB8B5,
0.200944833333333,0,0xAF10,
0.200960666666667,0,0xFFFF,
0.200968541666667,0,0xB010,
0.200984375000000,0,0x830D,
0.200992333333333,0,0xB110,
0.201022833333333,0,0x0006,
0.201030500000000,0,0x3B1D,
0.201046708333333,0,0xB3E1,
0.201054666666667,0,0xBB10,
0.201070500000000,0,0xB32D,
0.201078416666667,0,0xBC10,
0.201094250000000,0,0xB2B9,
0.201102166666667,0,0xBD10,
0.201118000000000,0,0xB1FC,
0.201125916666667,0,0xBE10,
0.201141750000000,0,0xB201,
0.201149666666667,0,0xBF10,
0.201165500000000,0,0xB273,
0.201173416666667,0,0xC010,
0.201203416666667,0,0x000A,
0.201211083333333,0,0x4111,
0.201227375000000,0,0xC0C3,
0.201235291666667,0,0xC110,
0.201251125000000,0,0xC0C5,
0.201259041666667,0,0xC210,
0.201274875000000,0,0xC0C2,
0.201282791666667,0,0xC310,
0.201298625000000,0,0xC083,
0.201306541666667,0,0xC410,
0.201322375000000,0,0xC0A6,
0.201330291666667,0,0xC510,
0.201346125000000,0,0xDD4C,
0.201354041666667,0,0xC610,
0.201369875000000,0,0x803A,
0.201377791666667,0,0xC710,
0.201393625000000,0,0xA3D0,
0.201401541666667,0,0xC810,
0.201417375000000,0,0x9E3B,
0.201425291666667,0,0xC910,
0.201441125000000,0,0x9E3B,
0.201449041666667,0,0xCA10,
0.201480666666667,0,0x0004,
0.201488333333333,0,0x0325,
0.201504583333333,0,0x0A01,
0.201512416666667,0,0x8325,
0.201528166666667,0,0x0F00,
0.201536000000000,0,0x8425,
0.201551750000000,0,0x0000,
0.201559583333333,0,0x8520,
0.201575333333333,0,0x073F,
0.201583166666667,0,0x8625,
0.201613291666667,0,0x0001,
0.201620958333333,0,0x1D29,
0.201637208333333,0,0x0055,
0.201645083333333,0,0x9D29,
0.201672958333333,0,0x0003,
0.201680625000000,0,0x242D,
0.201696625000000,0,0x004C,
0.201704500000000,0,0xA420,
0.201720250000000,0,0x0040,
0.201728083333333,0,0xA520,
0.201743791666667,0,0x8000,
0.201751666666667,0,0xA620,
0.201780708333333,0,0x0005,
0.201788375000000,0,0x2D21,
0.201804750000000,0,0xD9F6,
0.201812583333333,0,0xAD20,
0.201828291666667,0,0xFFFE,
0.201836166666667,0,0xAE20,
0.201851875000000,0,0x0AE5,
0.201859750000000,0,0xAF20,
0.201875458333333,0,0xFFFF,
0.201883333333333,0,0xB020,
0.201899041666667,0,0x830D,
0.201906916666667,0,0xB120,
0.201938208333333,0,0x0006,
0.201945875000000,0,0x3B25,
0.201961916666667,0,0xE51A,
0.201969791666667,0,0xBB20,
0.201985500000000,0,0x8000,
0.201993375000000,0,0xBC20,
0.202009083333333,0,0x8000,
0.202016958333333,0,0xBD20,
0.202032666666667,0,0x8001,
0.202040541666667,0,0xBE20,
0.202056250000000,0,0xE5BC,
0.202064083333333,0,0xBF20,
0.202079833333333,0,0xE5D4,
0.202087666666667,0,0xC020,
0.202118041666667,0,0x000A,
0.202125708333333,0,0x4129,
0.202141708333333,0,0xDB9E,
0.202149583333333,0,0xC120,
0.202165291666667,0,0xDCA4,
0.202173166666667,0,0xC220,
0.202188875000000,0,0xDF47,
0.202196750000000,0,0xC320,
0.202212458333333,0,0xE125,
0.202220333333333,0,0xC420,
0.202236041666667,0,0xA97F,
0.202243916666667,0,0xC520,
0.202259625000000,0,0xFF4C,
0.202267500000000,0,0xC620,
0.202283208333333,0,0xC01A,
0.202291041666667,0,0xC720,
0.202306791666667,0,0xA3B3,
0.202314625000000,0,0xC820,
0.202330375000000,0,0x9E3B,
0.202338208333333,0,0xC920,
0.202353916666667,0,0x9E43,
0.202361791666667,0,0xCA20,
0.210186666666667,0,0x1C3F,
0.210194333333333,0,0x060F,
0.210221875000000,0,0x0004,
0.210229583333333,0,0x0311,
0.210245625000000,0,0x0A01,
0.210253541666667,0,0x8311,
0.210269375000000,0,0x0F00,
0.210277291666667,0,0x8411,
0.210293125000000,0,0x0000,
0.210301041666667,0,0x8511,
0.210316875000000,0,0x1F3F,
0.210324791666667,0,0x8611,
0.210355291666667,0,0x0004,
0.210362958333333,0,0x0315,
0.210379250000000,0,0x0A01,
0.210387208333333,0,0x8315,
0.210403041666667,0,0x0F00,
0.210410958333333,0,0x8415,
0.210426791666667,0,0x0000,
0.210434708333333,0,0x8511,
0.210450541666667,0,0x1F3F,
0.210458500000000,0,0x8615,
0.210489583333333,0,0x0004,
0.210497250000000,0,0x0319,
0.210513416666667,0,0x0A01,
0.210521375000000,0,0x8319,
0.210537208333333,0,0x0F00,
0.210545125000000,0,0x8419,
0.210560958333333,0,0x0000,
0.210568875000000,0,0x8511,
0.210584708333333,0,0x1F3F,
0.210592625000000,0,0x8619,
0.210623708333333,0,0x0004,
0.210631375000000,0,0x031D,
0.210647583333333,0,0x0A01,
0.210655500000000,0,0x831D,
0.210671333333333,0,0x0F00,
0.210679250000000,0,0x841D,
0.210695083333333,0,0x0000,
0.210703000000000,0,0x8511,
0.210718833333333,0,0x1F3F,
0.210726750000000,0,0x861D,
0.210757166666667,0,0x0004,
0.210764833333333,0,0x0311,
0.210781208333333,0,0x0A01,
0.210789083333333,0,0x8311,
0.210804958333333,0,0x0F00,
0.210812875000000,0,0x8411,
0.210828708333333,0,0x0000,
0.210836625000000,0,0x8511,
0.210852458333333,0,0x173F,
0.210860375000000,0,0x8611,
0.210890750000000,0,0x0001,
0.210898458333333,0,0x1D15,
0.210914791666667,0,0x1551,
0.210922708333333,0,0x9D15,
0.210951500000000,0,0x0003,
0.210959166666667,0,0x2419,
0.210975166666667,0,0x0048,
0.210983083333333,0,0xA411,
0.210998916666667,0,0x0040,
0.211006833333333,0,0xA511,
0.211022666666667,0,0x0000,
0.211030625000000,0,0xA611,
0.211060458333333,0,0x0005,
0.211068125000000,0,0x2D1D,
0.211084541666667,0,0xD95F,
0.211092458333333,0,0xAD11,
0.211108291666667,0,0xFFFD,
0.211116208333333,0,0xAE11,
0.211132041666667,0,0xB584,
0.211140000000000,0,0xAF11,
0.211155833333333,0,0xFFFF,
0.211163708333333,0,0xB011,
0.211179583333333,0,0x830B,
0.211187500000000,0,0xB111,
0.211217541666667,0,0x0006,
0.211225250000000,0,0x3B11,
0.211241416666667,0,0xB3E1,
0.211249333333333,0,0xBB11,
0.211265208333333,0,0xB32D,
0.211273125000000,0,0xBC11,
0.211288958333333,0,0xB2BF,
0.211296875000000,0,0xBD11,
0.211312708333333,0,0xB1FF,
0.211320666666667,0,0xBE11,
0.211336500000000,0,0xB203,
0.211344416666667,0,0xBF11,
0.211360250000000,0,0xB273,
0.211368166666667,0,0xC011,
0.211398500000000,0,0x000A,
0.211406208333333,0,0x4115,
0.211422583333333,0,0xC0C3,
0.211430541666667,0,0xC111,
0.211446375000000,0,0xC0C5,
0.211454291666667,0,0xC211,
0.211470125000000,0,0xC0C6,
0.211478041666667,0,0xC311,
0.211493875000000,0,0xC082,
0.211501791666667,0,0xC411,
0.211517625000000,0,0xC09F,
0.211525541666667,0,0xC511,
0.211541375000000,0,0xDD48,
0.211549291666667,0,0xC611,
0.211565125000000,0,0x803B,
0.211573083333333,0,0xC711,
0.211588875000000,0,0xA3CE,
0.211596833333333,0,0xC811,
0.211612666666667,0,0x9E39,
0.211620583333333,0,0xC911,
0.211636416666667,0,0x9E3B,
0.211644333333333,0,0xCA11,
0.211676541666667,0,0x0004,
0.211684208333333,0,0x0329,
0.211700208333333,0,0x0A01,
0.211708083333333,0,0x8329,
0.211723791666667,0,0x0F00,
0.211731666666667,0,0x8429,
0.211747375000000,0,0x0000,
0.211755250000000,0,0x8521,
0.211770958333333,0,0x173F,
0.211778791666667,0,0x8629,
0.211809958333333,0,0x0001,
0.211817625000000,0,0x1D2D,
0.211833833333333,0,0x0055,
0.211841708333333,0,0x9D2D,
0.211869541666667,0,0x0003,
0.211877208333333,0,0x2421,
0.211893291666667,0,0x004C,
0.211901125000000,0,0xA421,
0.211916875000000,0,0x0040,
0.211924708333333,0,0xA521,
0.211940416666667,0,0x8000,
0.211948291666667,0,0xA621,
0.211977625000000,0,0x0005,
0.211985291666667,0,0x2D25,
0.212001375000000,0,0xDB08,
0.212009208333333,0,0xAD21,
0.212024916666667,0,0xFFFE,
0.212032791666667,0,0xAE21,
0.212048500000000,0,0x0825,
0.212056375000000,0,0xAF21,
0.212072083333333,0,0xFFFF,
0.212079958333333,0,0xB021,
0.212095666666667,0,0x830D,
0.212103541666667,0,0xB121,
0.212132958333333,0,0x0006,
0.212140625000000,0,0x3B29,
0.212156583333333,0,0xE51A,
0.212164458333333,0,0xBB21,
0.212180208333333,0,0x8000,
0.212188041666667,0,0xBC21,
0.212203750000000,0,0x8000,
0.212211625000000,0,0xBD21,
0.212227333333333,0,0x8000,
0.212235208333333,0,0xBE21,
0.212250916666667,0,0xE5BD,
0.212258791666667,0,0xBF21,
0.212274500000000,0,0xE5D9,
0.212282375000000,0,0xC021,
0.212312041666667,0,0x000A,
0.212319708333333,0,0x412D,
0.212335916666667,0,0xDB98,
0.212343750000000,0,0xC121,
0.212359500000000,0,0xDCA6,
0.212367375000000,0,0xC221,
0.212383083333333,0,0xDF4B,
0.212390916666667,0,0xC321,
0.212406666666667,0,0xE123,
0.212414500000000,0,0xC421,
0.212430250000000,0,0xA97F,
0.212438083333333,0,0xC521,
0.212453791666667,0,0xFF4C,
0.212461666666667,0,0xC621,
0.212477375000000,0,0xC014,
0.212485250000000,0,0xC721,
0.212500958333333,0,0xA3B1,
0.212508833333333,0,0xC821,
0.212524541666667,0,0x9E3B,
0.212532375000000,0,0xC921,
0.212548125000000,0,0x9E3F,
0.212555958333333,0,0xCA21,
0.220049833333333,0,0x2C3F,
0.220057541666667,0,0x0603,
0.220085250000000,0,0x0004,
0.220092916666667,0,0x0315,
0.220108958333333,0,0x0A01,
0.220116875000000,0,0x8315,
0.220132708333333,0,0x0F00,
0.220140625000000,0,0x8415,
0.220156458333333,0,0x0000,
0.220164416666667,0,0x8512,
0.220180250000000,0,0x2F3F,
0.220188166666667,0,0x8615,
0.220219458333333,0,0x0004,
0.220227125000000,0,0x0319,
0.220243625000000,0,0x0A01,
0.220251541666667,0,0x8319,
0.220267375000000,0,0x0F00,
0.220275291666667,0,0x8419,
0.220291166666667,0,0x0000,
0.220299083333333,0,0x8512,
0.220314916666667,0,0x2F3F,
0.220322833333333,0,0x8619,
0.220353250000000,0,0x0004,
0.220360916666667,0,0x031D,
0.220377291666667,0,0x0A01,
0.220385208333333,0,0x831D,
0.220401083333333,0,0x0F00,
0.220409000000000,0,0x841D,
0.220424833333333,0,0x0000,
0.220432750000000,0,0x8512,
0.220448583333333,0,0x2F3F,
0.220456500000000,0,0x861D,
0.220487166666667,0,0x0004,
0.220494833333333,0,0x0311,
0.220510958333333,0,0x0A01,
0.220518875000000,0,0x8311,
0.220534708333333,0,0x0F00,
0.220542625000000,0,0x8411,
0.220558500000000,0,0x0000,
0.220566416666667,0,0x8512,
0.220582250000000,0,0x2F3F,
0.220590166666667,0,0x8611,
0.220621291666667,0,0x0004,
0.220628958333333,0,0x0315,
0.220645083333333,0,0x0A01,
0.220653000000000,0,0x8315,
0.220668833333333,0,0x0F00,
0.220676750000000,0,0x8415,
0.220692625000000,0,0x0000,
0.220700541666667,0,0x8512,
0.220716333333333,0,0x273F,
0.220724291666667,0,0x8615,
0.220755250000000,0,0x0001,
0.220762958333333,0,0x1D19,
0.220779208333333,0,0x1551,
0.220787125000000,0,0x9D19,
0.220814958333333,0,0x0003,
0.220822625000000,0,0x241D,
0.220838583333333,0,0x0048,
0.220846500000000,0,0xA412,
0.220862333333333,0,0x0040,
0.220870250000000,0,0xA512,
0.220886083333333,0,0x0000,
0.220894000000000,0,0xA612,
0.220922708333333,0,0x0005,
0.220930375000000,0,0x2D11,
0.220946458333333,0,0xDA65,
0.220954375000000,0,0xAD12,
0.220970208333333,0,0xFFFD,
0.220978125000000,0,0xAE12,
0.220993958333333,0,0xB2E9,
0.221001875000000,0,0xAF12,
0.221017708333333,0,0x8000,
0.221025625000000,0,0xB012,
0.221041458333333,0,0x8309,
0.221049375000000,0,0xB112,
0.221079333333333,0,0x0006,
0.221087000000000,0,0x3B15,
0.221103291666667,0,0xB3E6,
0.221111250000000,0,0xBB12,
0.221127083333333,0,0xB32D,
0.221135000000000,0,0xBC12,
0.221150833333333,0,0xB2BE,
0.221158750000000,0,0xBD12,
0.221174583333333,0,0xB204,
0.221182500000000,0,0xBE12,
0.221198333333333,0,0xB200,
0.221206250000000,0,0xBF12,
0.221222083333333,0,0xB275,
0.221230000000000,0,0xC012,
0.221259791666667,0,0x000A,
0.221267458333333,0,0x4119,
0.221283458333333,0,0xC0C2,
0.221291375000000,0,0xC112,
0.221307208333333,0,0xC0C4,
0.221315125000000,0,0xC212,
0.221330916666667,0,0xC0C2,
0.221338833333333,0,0xC312,
0.221354666666667,0,0xC083,
0.221362583333333,0,0xC412,
0.221378458333333,0,0xC0A0,
0.221386333333333,0,0xC512,
0.221402166666667,0,0xDD4A,
0.221410083333333,0,0xC612,
0.221425916666667,0,0x803C,
0.221433833333333,0,0xC712,
0.221449666666667,0,0xA3D0,
0.221457583333333,0,0xC812,
0.221473416666667,0,0x9E3A,
0.221481375000000,0,0xC912,
0.221497166666667,0,0x9E41,
0.221505125000000,0,0xCA12,
0.221537291666667,0,0x0004,
0.221545000000000,0,0x032D,
0.221561291666667,0,0x0A01,
0.221569166666667,0,0x832D,
0.221584875000000,0,0x0F00,
0.221592750000000,0,0x842D,
0.221608458333333,0,0x0000,
0.221616333333333,0,0x8522,
0.221632041666667,0,0x273F,
0.221639875000000,0,0x862D,
0.221670333333333,0,0x0001,
0.221678000000000,0,0x1D21,
0.221694416666667,0,0x0055,
0.221702250000000,0,0x9D21,
0.221730416666667,0,0x0003,
0.221738083333333,0,0x2425,
0.221754375000000,0,0x004C,
0.221762208333333,0,0xA422,
0.221777916666667,0,0x0040,
0.221785791666667,0,0xA522,
0.221801541666667,0,0x8000,
0.221809375000000,0,0xA622,
0.221838291666667,0,0x0005,
0.221845958333333,0,0x2D29,
0.221861958333333,0,0xDC10,
0.221869833333333,0,0xAD22,
0.221885500000000,0,0xFFFE,
0.221893375000000,0,0xAE22,
0.221909083333333,0,0x0567,
0.221916958333333,0,0xAF22,
0.221932666666667,0,0xFFFF,
0.221940541666667,0,0xB022,
0.221956250000000,0,0x830F,
0.221964125000000,0,0xB122,
0.221993875000000,0,0x0006,
0.222001541666667,0,0x3B2D,
0.222017666666667,0,0xE51C,
0.222025500000000,0,0xBB22,
0.222041250000000,0,0x8002,
0.222049083333333,0,0xBC22,
0.222064791666667,0,0x8000,
0.222072666666667,0,0xBD22,
0.222088375000000,0,0x8000,
0.222096250000000,0,0xBE22,
0.222111958333333,0,0xE5BC,
0.222119833333333,0,0xBF22,
0.222135541666667,0,0xE5D6,
0.222143416666667,0,0xC022,
0.222173000000000,0,0x000A,
0.222180708333333,0,0x4121,
0.222196958333333,0,0xDB99,
0.222204833333333,0,0xC122,
0.222220541666667,0,0xDCA6,
0.222228416666667,0,0xC222,
0.222244083333333,0,0xDF49,
0.222252000000000,0,0xC322,
0.222267708333333,0,0xE122,
0.222275541666667,0,0xC422,
0.222291291666667,0,0xA97E,
0.222299125000000,0,0xC522,
0.222314875000000,0,0xFF4B,
0.222322708333333,0,0xC622,
0.222338416666667,0,0xC016,
0.222346291666667,0,0xC722,
0.222362000000000,0,0xA3B4,
0.222369833333333,0,0xC822,
0.222385583333333,0,0x9E3B,
0.222393458333333,0,0xC922,
0.222409166666667,0,0x9E3C,
0.222417000000000,0,0xCA22,
0.230040750000000,0,0x3C3F,
0.230048416666667,0,0x0607,
0.230075291666667,0,0x0004,
0.230082958333333,0,0x0319,
0.230099250000000,0,0x0A01,
0.230107166666667,0,0x8319,
0.230123000000000,0,0x0F00,
0.230130916666667,0,0x8419,
0.230146750000000,0,0x0000,
0.230154666666667,0,0x8513,
0.230170541666667,0,0x3F3F,
0.230178458333333,0,0x8619,
0.230209125000000,0,0x0004,
0.230216791666667,0,0x031D,
0.230232875000000,0,0x0A01,
0.230240791666667,0,0x831D,
0.230256625000000,0,0x0F00,
0.230264541666667,0,0x841D,
0.230280375000000,0,0x0000,
0.230288291666667,0,0x8513,
0.230304125000000,0,0x3F3F,
0.230312041666667,0,0x861D,
0.230342250000000,0,0x0004,
0.230349916666667,0,0x0311,
0.230366000000000,0,0x0A01,
0.230373916666667,0,0x8311,
0.230389750000000,0,0x0F00,
0.230397666666667,0,0x8411,
0.230413500000000,0,0x0000,
0.230421416666667,0,0x8513,
0.230437291666667,0,0x3F3F,
0.230445208333333,0,0x8611,
0.230476416666667,0,0x0004,
0.230484083333333,0,0x0315,
0.230500125000000,0,0x0A01,
0.230508041666667,0,0x8315,
0.230523875000000,0,0x0F00,
0.230531791666667,0,0x8415,
0.230547625000000,0,0x0000,
0.230555541666667,0,0x8513,
0.230571375000000,0,0x3F3F,
0.230579291666667,0,0x8615,
0.230610250000000,0,0x0004,
0.230617916666667,0,0x0319,
0.230634208333333,0,0x0A01,
0.230642125000000,0,0x8319,
0.230657958333333,0,0x0F00,
0.230665875000000,0,0x8419,
0.230681708333333,0,0x0000,
0.230689625000000,0,0x8513,
0.230705458333333,0,0x373F,
0.230713375000000,0,0x8619,
0.230743666666667,0,0x0001,
0.230751333333333,0,0x1D1D,
0.230767791666667,0,0x1551,
0.230775708333333,0,0x9D1D,
0.230803291666667,0,0x0003,
0.230810958333333,0,0x2411,
0.230827166666667,0,0x0048,
0.230835083333333,0,0xA413,
0.230850916666667,0,0x0040,
0.230858833333333,0,0xA513,
0.230874666666667,0,0x0000,
0.230882583333333,0,0xA613,
0.230911708333333,0,0x0005,
0.230919416666667,0,0x2D15,
0.230935541666667,0,0xDB6F,
0.230943458333333,0,0xAD13,
0.230959291666667,0,0xFFFD,
0.230967208333333,0,0xAE13,
0.230983041666667,0,0xB050,
0.230990958333333,0,0xAF13,
0.231006791666667,0,0xFFFF,
0.231014708333333,0,0xB013,
0.231030541666667,0,0x830B,
0.231038458333333,0,0xB113,
0.231069000000000,0,0x0006,
0.231076666666667,0,0x3B19,
0.231092875000000,0,0xB3E4,
0.231100833333333,0,0xBB13,
0.231116625000000,0,0xB32C,
0.231124541666667,0,0xBC13,
0.231140375000000,0,0xB2B9,
0.231148291666667,0,0xBD13,
0.231164125000000,0,0xB1FD,
0.231172041666667,0,0xBE13,
0.231187875000000,0,0xB200,
0.231195791666667,0,0xBF13,
0.231211625000000,0,0xB271,
0.231219541666667,0,0xC013,
0.231249833333333,0,0x000A,
0.231257541666667,0,0x411D,
0.231273958333333,0,0xC0C9,
0.231281875000000,0,0xC113,
0.231297708333333,0,0xC0C3,
0.231305625000000,0,0xC213,
0.231321458333333,0,0xC0C7,
0.231329375000000,0,0xC313,
0.231345208333333,0,0xC088,
0.231353125000000,0,0xC413,
0.231368958333333,0,0xC0A7,
0.231376875000000,0,0xC513,
0.231392708333333,0,0xDD4F,
0.231400625000000,0,0xC613,
0.231416458333333,0,0x803E,
0.231424375000000,0,0xC713,
0.231440166666667,0,0xA3CC,
0.231448125000000,0,0xC813,
0.231463958333333,0,0x9E3B,
0.231471875000000,0,0xC913,
0.231487666666667,0,0x9E42,
0.231495625000000,0,0xCA13,
0.231527916666667,0,0x0004,
0.231535583333333,0,0x0321,
0.231551708333333,0,0x0A01,
0.231559583333333,0,0x8321,
0.231575291666667,0,0x0F00,
0.231583166666667,0,0x8421,
0.231598875000000,0,0x0000,
0.231606750000000,0,0x8523,
0.231622458333333,0,0x373F,
0.231630333333333,0,0x8621,
0.231660166666667,0,0x0001,
0.231667833333333,0,0x1D25,
0.231683875000000,0,0x0055,
0.231691750000000,0,0x9D25,
0.231719916666667,0,0x0003,
0.231727625000000,0,0x2429,
0.231743791666667,0,0x004C,
0.231751666666667,0,0xA423,
0.231767416666667,0,0x0040,
0.231775250000000,0,0xA523,
0.231791000000000,0,0x8000,
0.231798833333333,0,0xA623,
0.231827458333333,0,0x0005,
0.231835125000000,0,0x2D2D,
0.231851416666667,0,0xDD1B,
0.231859291666667,0,0xAD23,
0.231875000000000,0,0xFFFE,
0.231882875000000,0,0xAE23,
0.231898583333333,0,0x0344,
0.231906458333333,0,0xAF23,
0.231922166666667,0,0xFFFF,
0.231930000000000,0,0xB023,
0.231945750000000,0,0x830D,
0.231953583333333,0,0xB123,
0.231983875000000,0,0x0006,
0.231991541666667,0,0x3B21,
0.232007625000000,0,0xE516,
0.232015500000000,0,0xBB23,
0.232031208333333,0,0x8000,
0.232039083333333,0,0xBC23,
0.232054791666667,0,0x8000,
0.232062625000000,0,0xBD23,
0.232078375000000,0,0x8002,
0.232086208333333,0,0xBE23,
0.232101916666667,0,0xE5BC,
0.232109791666667,0,0xBF23,
0.232125500000000,0,0xE5D5,
0.232133375000000,0,0xC023,
0.232163083333333,0,0x000A,
0.232170750000000,0,0x4125,
0.232186916666667,0,0xDB9D,
0.232194791666667,0,0xC123,
0.232210500000000,0,0xDCA5,
0.232218375000000,0,0xC223,
0.232234083333333,0,0xDF4A,
0.232241958333333,0,0xC323,
0.232257666666667,0,0xE124,
0.232265541666667,0,0xC423,
0.232281250000000,0,0xA97E,
0.232289125000000,0,0xC523,
0.232304833333333,0,0xFF4B,
0.232312666666667,0,0xC623,
0.232328416666667,0,0xC018,
0.232336291666667,0,0xC723,
0.232352000000000,0,0xA3AF,
0.232359875000000,0,0xC823,
0.232375583333333,0,0x9E38,
0.232383458333333,0,0xC923,
0.232399166666667,0,0x9E40,
0.232407041666667,0,0xCA23,
0.240048708333333,0,0x4C3F,
0.240056416666667,0,0x060B,
0.240083875000000,0,0x0004,
0.240091541666667,0,0x031D,
0.240107833333333,0,0x0A01,
0.240115750000000,0,0x831D,
0.240131583333333,0,0x0F00,
0.240139500000000,0,0x841D,
0.240155333333333,0,0x0000,
0.240163250000000,0,0x8514,
0.240179125000000,0,0x4F3F,
0.240187041666667,0,0x861D,
0.240218125000000,0,0x0004,
0.240225833333333,0,0x0311,
0.240241958333333,0,0x0A01,
0.240249916666667,0,0x8311,
0.240265750000000,0,0x0F00,
0.240273666666667,0,0x8411,
0.240289500000000,0,0x0000,
0.240297416666667,0,0x8514,
0.240313250000000,0,0x4F3F,
0.240321208333333,0,0x8611,
0.240351916666667,0,0x0004,
0.240359625000000,0,0x0315,
0.240375625000000,0,0x0A01,
0.240383583333333,0,0x8315,
0.240399416666667,0,0x0F00,
0.240407333333333,0,0x8415,
0.240423166666667,0,0x0000,
0.240431083333333,0,0x8514,
0.240446916666667,0,0x4F3F,
0.240454833333333,0,0x8615,
0.240485916666667,0,0x0004,
0.240493583333333,0,0x0319,
0.240509791666667,0,0x0A01,
0.240517666666667,0,0x8319,
0.240533541666667,0,0x0F00,
0.240541458333333,0,0x8419,
0.240557291666667,0,0x0000,
0.240565208333333,0,0x8514,
0.240581041666667,0,0x4F3F,
0.240588958333333,0,0x8619,
0.240619583333333,0,0x0004,
0.240627250000000,0,0x031D,
0.240643375000000,0,0x0A01,
0.240651291666667,0,0x831D,
0.240667125000000,0,0x0F00,
0.240675041666667,0,0x841D,
0.240690875000000,0,0x0000,
0.240698791666667,0,0x8514,
0.240714625000000,0,0x473F,
0.240722541666667,0,0x861D,
0.240753208333333,0,0x0001,
0.240760875000000,0,0x1D11,
0.240776958333333,0,0x1551,
0.240784875000000,0,0x9D11,
0.240812750000000,0,0x0003,
0.240820458333333,0,0x2415,
0.240836833333333,0,0x0048,
0.240844750000000,0,0xA414,
0.240860583333333,0,0x0040,
0.240868500000000,0,0xA514,
0.240884333333333,0,0x0000,
0.240892250000000,0,0xA614,
0.240920583333333,0,0x0005,
0.240928250000000,0,0x2D19,
0.240944708333333,0,0xDC79,
0.240952625000000,0,0xAD14,
0.240968458333333,0,0xFFFD,
0.240976375000000,0,0xAE14,
0.240992208333333,0,0xAE14,
0.241000125000000,0,0xAF14,
0.241015958333333,0,0xFFFF,
0.241023875000000,0,0xB014,
0.241039708333333,0,0x830E,
0.241047625000000,0,0xB114,
0.241078125000000,0,0x0006,
0.241085833333333,0,0x3B1D,
0.241102041666667,0,0xB3E0,
0.241109958333333,0,0xBB14,
0.241125833333333,0,0xB32C,
0.241133708333333,0,0xBC14,
0.241149583333333,0,0xB2C0,
0.241157458333333,0,0xBD14,
0.241173333333333,0,0xB201,
0.241181250000000,0,0xBE14,
0.241197083333333,0,0xB203,
0.241205000000000,0,0xBF14,
0.241220833333333,0,0xB270,
0.241228791666667,0,0xC014,
0.241258416666667,0,0x000A,
0.241266125000000,0,0x4111,
0.241282208333333,0,0xC0C6,
0.241290125000000,0,0xC114,
0.241305958333333,0,0xC0C6,
0.241313916666667,0,0xC214,
0.241329750000000,0,0xC0C8,
0.241337625000000,0,0xC314,
0.241353458333333,0,0xC086,
0.241361416666667,0,0xC414,
0.241377250000000,0,0xC0A7,
0.241385166666667,0,0xC514,
0.241401000000000,0,0xDD4D,
0.241408916666667,0,0xC614,
0.241424750000000,0,0x8040,
0.241432666666667,0,0xC714,
0.241448500000000,0,0xA3CF,
0.241456416666667,0,0xC814,
0.241472250000000,0,0x9E39,
0.241480208333333,0,0xC914,
0.241496041666667,0,0x9E3C,
0.241503958333333,0,0xCA14,
0.241536875000000,0,0x0004,
0.241544541666667,0,0x0325,
0.241560916666667,0,0x0A01,
0.241568750000000,0,0x8325,
0.241584500000000,0,0x0F00,
0.241592333333333,0,0x8425,
0.241608041666667,0,0x0000,
0.241615916666667,0,0x8524,
0.241631625000000,0,0x473F,
0.241639500000000,0,0x8625,
0.241669625000000,0,0x0001,
0.241677291666667,0,0x1D29,
0.241693541666667,0,0x0055,
0.241701416666667,0,0x9D29,
0.241729166666667,0,0x0003,
0.241736833333333,0,0x242D,
0.241753000000000,0,0x004C,
0.241760875000000,0,0xA424,
0.241776583333333,0,0x0040,
0.241784458333333,0,0xA524,
0.241800166666667,0,0x8000,
0.241808041666667,0,0xA624,
0.241836750000000,0,0x0005,
0.241844458333333,0,0x2D21,
0.241860583333333,0,0xDE27,
0.241868458333333,0,0xAD24,
0.241884166666667,0,0xFFFE,
0.241892041666667,0,0xAE24,
0.241907750000000,0,0x0165,
0.241915625000000,0,0xAF24,
0.241931333333333,0,0xFFFF,
0.241939208333333,0,0xB024,
0.241954916666667,0,0x830E,
0.241962791666667,0,0xB124,
0.241992416666667,0,0x0006,
0.242000125000000,0,0x3B25,
0.242016333333333,0,0xE521,
0.242024208333333,0,0xBB24,
0.242039916666667,0,0x8002,
0.242047791666667,0,0xBC24,
0.242063500000000,0,0x8005,
0.242071375000000,0,0xBD24,
0.242087083333333,0,0x8003,
0.242094958333333,0,0xBE24,
0.242110666666667,0,0xE5BF,
0.242118541666667,0,0xBF24,
0.242134250000000,0,0xE5D6,
0.242142125000000,0,0xC024,
0.242172083333333,0,0x000A,
0.242179750000000,0,0x4129,
0.242196166666667,0,0xDB9B,
0.242204041666667,0,0xC124,
0.242219750000000,0,0xDCA7,
0.242227583333333,0,0xC224,
0.242243333333333,0,0xDF4A,
0.242251208333333,0,0xC324,
0.242266916666667,0,0xE122,
0.242274791666667,0,0xC424,
0.242290500000000,0,0xA97A,
0.242298375000000,0,0xC524,
0.242314083333333,0,0xFF48,
0.242321958333333,0,0xC624,
0.242337666666667,0,0xC017,
0.242345541666667,0,0xC724,
0.242361250000000,0,0xA3B2,
0.242369125000000,0,0xC824,
0.242384833333333,0,0x9E3B,
0.242392708333333,0,0xC924,
0.242408416666667,0,0x9E3C,
0.242416291666667,0,0xCA24,
0.250061333333333,0,0x5C3F,
0.250069041666667,0,0x060F,
0.250096166666667,0,0x0004,
0.250103833333333,0,0x0311,
0.250119875000000,0,0x0A01,
0.250127750000000,0,0x8311,
0.250143625000000,0,0x0F00,
0.250151541666667,0,0x8411,
0.250167375000000,0,0x0000,
0.250175291666667,0,0x8515,
0.250191125000000,0,0x5F3F,
0.250199041666667,0,0x8611,
0.250229958333333,0,0x0004,
0.250237666666667,0,0x0315,
0.250254000000000,0,0x0A01,
0.250261916666667,0,0x8315,
0.250277750000000,0,0x0F00,
0.250285666666667,0,0x8415,
0.250301500000000,0,0x0000,
0.250309416666667,0,0x8515,
0.250325250000000,0,0x5F3F,
0.250333166666667,0,0x8615,
0.250363750000000,0,0x0004,
0.250371458333333,0,0x0319,
0.250387625000000,0,0x0A01,
0.250395583333333,0,0x8319,
0.250411416666667,0,0x0F00,
0.250419333333333,0,0x8419,
0.250435166666667,0,0x0000,
0.250443083333333,0,0x8515,
0.250458916666667,0,0x5F3F,
0.250466875000000,0,0x8619,
0.250497250000000,0,0x0004,
0.250504958333333,0,0x031D,
0.250521291666667,0,0x0A01,
0.250529208333333,0,0x831D,
0.250545041666667,0,0x0F00,
0.250552958333333,0,0x841D,
0.250568791666667,0,0x0000,
0.250576708333333,0,0x8515,
0.250592541666667,0,0x5F3F,
0.250600458333333,0,0x861D,
0.250631166666667,0,0x0004,
0.250638875000000,0,0x0311,
0.250654875000000,0,0x0A01,
0.250662791666667,0,0x8311,
0.250678625000000,0,0x0F00,
0.250686541666667,0,0x8411,
0.250702375000000,0,0x0000,
0.250710291666667,0,0x8515,
0.250726125000000,0,0x573F,
0.250734041666667,0,0x8611,
0.250764666666667,0,0x0001,
0.250772333333333,0,0x1D15,
0.250788500000000,0,0x1551,
0.250796375000000,0,0x9D15,
0.250824416666667,0,0x0003,
0.250832125000000,0,0x2419,
0.250848333333333,0,0x0048,
0.250856250000000,0,0xA415,
0.250872083333333,0,0x0040,
0.250880000000000,0,0xA515,
0.250895833333333,0,0x0000,
0.250903750000000,0,0xA615,
0.250932625000000,0,0x0005,
0.250940291666667,0,0x2D1D,
0.250956666666667,0,0xDD83,
0.250964583333333,0,0xAD15,
0.250980458333333,0,0xFFFD,
0.250988333333333,0,0xAE15,
0.251004208333333,0,0xABD8,
0.251012125000000,0,0xAF15,
0.251027916666667,0,0xFFFF,
0.251035875000000,0,0xB015,
0.251051708333333,0,0x830D,
0.251059583333333,0,0xB115,
0.251089791666667,0,0x0006,
0.251097458333333,0,0x3B11,
0.251113541666667,0,0xB3E4,
0.251121458333333,0,0xBB15,
0.251137291666667,0,0xB330,
0.251145208333333,0,0xBC15,
0.251161041666667,0,0xB2BA,
0.251169000000000,0,0xBD15,
0.251184833333333,0,0xB200,
0.251192750000000,0,0xBE15,
0.251208583333333,0,0xB1FF,
0.251216500000000,0,0xBF15,
0.251232333333333,0,0xB275,
0.251240250000000,0,0xC015,
0.251270291666667,0,0x000A,
0.251277958333333,0,0x4115,
0.251294166666667,0,0xC0C3,
0.251302083333333,0,0xC115,
0.251317916666667,0,0xC0C2,
0.251325875000000,0,0xC215,
0.251341708333333,0,0xC0C4,
0.251349625000000,0,0xC315,
0.251365458333333,0,0xC084,
0.251373375000000,0,0xC415,
0.251389208333333,0,0xC0A2,
0.251397125000000,0,0xC515,
0.251412958333333,0,0xDD4A,
0.251420875000000,0,0xC615,
0.251436708333333,0,0x803B,
0.251444625000000,0,0xC715,
0.251460500000000,0,0xA3CE,
0.251468375000000,0,0xC815,
0.251484208333333,0,0x9E38,
0.251492125000000,0,0xC915,
0.251507958333333,0,0x9E38,
0.251515875000000,0,0xCA15,
0.251548625000000,0,0x0004,
0.251556291666667,0,0x0329,
0.251572541666667,0,0x0A01,
0.251580416666667,0,0x8329,
0.251596125000000,0,0x0F00,
0.251604000000000,0,0x8429,
0.251619708333333,0,0x0000,
0.251627583333333,0,0x8525,
0.251643291666667,0,0x573F,
0.251651166666667,0,0x8629,
0.251681416666667,0,0x0001,
0.251689083333333,0,0x1D2D,
0.251705208333333,0,0x0055,
0.251713041666667,0,0x9D2D,
0.251741458333333,0,0x0003,
0.251749125000000,0,0x2421,
0.251765125000000,0,0x004C,
0.251773000000000,0,0xA425,
0.251788750000000,0,0x0040,
0.251796583333333,0,0xA525,
0.251812291666667,0,0x8000,
0.251820166666667,0,0xA625,
0.251848750000000,0,0x0005,
0.251856458333333,0,0x2D25,
0.251872750000000,0,0xDF34,
0.251880583333333,0,0xAD25,
0.251896291666667,0,0xFFFD,
0.251904166666667,0,0xAE25,
0.251919875000000,0,0xFEEE,
0.251927750000000,0,0xAF25,
0.251943458333333,0,0x8000,
0.251951333333333,0,0xB025,
0.251967041666667,0,0x8300,
0.251974916666667,0,0xB125,
0.252005416666667,0,0x0006,
0.252013083333333,0,0x3B29,
0.252029458333333,0,0xE519,
0.252037291666667,0,0xBB25,
0.252053000000000,0,0x8000,
0.252060875000000,0,0xBC25,
0.252076583333333,0,0x8000,
0.252084458333333,0,0xBD25,
0.252100166666667,0,0x8000,
0.252108041666667,0,0xBE25,
0.252123750000000,0,0xE5C0,
0.252131625000000,0,0xBF25,
0.252147333333333,0,0xE5D7,
0.252155208333333,0,0xC025,
0.252185208333333,0,0x000A,
0.252192875000000,0,0x412D,
0.252209250000000,0,0xDB98,
0.252217083333333,0,0xC125,
0.252232833333333,0,0xDCA4,
0.252240708333333,0,0xC225,
0.252256416666667,0,0xDF4B,
0.252264250000000,0,0xC325,
0.252280000000000,0,0xE124,
0.252287875000000,0,0xC425,
0.252303541666667,0,0xA980,
0.252311416666667,0,0xC525,
0.252327166666667,0,0xFF4B,
0.252335000000000,0,0xC625,
0.252350750000000,0,0xC016,
0.252358625000000,0,0xC725,
0.252374333333333,0,0xA3B1,
0.252382166666667,0,0xC825,
0.252397875000000,0,0x9E3A,
0.252405750000000,0,0xC925,
0.252421458333333,0,0x9E3B,
0.252429333333333,0,0xCA25,
0.260031208333333,0,0x6C3F,
0.260038916666667,0,0x0603,
0.260066666666667,0,0x0004,
0.260074333333333,0,0x0315,
0.260090625000000,0,0x0A01,
0.260098541666667,0,0x8315,
0.260114375000000,0,0x0F00,
0.260122333333333,0,0x8415,
0.260138166666667,0,0x0000,
0.260146083333333,0,0x8516,
0.260161916666667,0,0x6F3F,
0.260169833333333,0,0x8615,
0.260200791666667,0,0x0004,
0.260208500000000,0,0x0319,
0.260224750000000,0,0x0A01,
0.260232666666667,0,0x8319,
0.260248500000000,0,0x0F00,
0.260256458333333,0,0x8419,
0.260272250000000,0,0x0000,
0.260280208333333,0,0x8516,
0.260296041666667,0,0x6F3F,
0.260303958333333,0,0x8619,
0.260334625000000,0,0x0004,
0.260342291666667,0,0x031D,
0.260358416666667,0,0x0A01,
0.260366333333333,0,0x831D,
0.260382166666667,0,0x0F00,
0.260390083333333,0,0x841D,
0.260405916666667,0,0x0000,
0.260413833333333,0,0x8516,
0.260429666666667,0,0x6F3F,
0.260437583333333,0,0x861D,
0.260469250000000,0,0x0004,
0.260476916666667,0,0x0311,
0.260493000000000,0,0x0A01,
0.260500916666667,0,0x8311,
0.260516750000000,0,0x0F00,
0.260524708333333,0,0x8411,
0.260540541666667,0,0x0000,
0.260548458333333,0,0x8516,
0.260564291666667,0,0x6F3F,
0.260572208333333,0,0x8611,
0.260603291666667,0,0x0004,
0.260611000000000,0,0x0315,
0.260627125000000,0,0x0A01,
0.260635041666667,0,0x8315,
0.260650875000000,0,0x0F00,
0.260658791666667,0,0x8415,
0.260674625000000,0,0x0000,
0.260682541666667,0,0x8516,
0.260698375000000,0,0x673F,
0.260706291666667,0,0x8615,
0.260736833333333,0,0x0001,
0.260744541666667,0,0x1D19,
0.260760708333333,0,0x1551,
0.260768625000000,0,0x9D19,
0.260796958333333,0,0x0003,
0.260804666666667,0,0x241D,
0.260821083333333,0,0x0048,
0.260829000000000,0,0xA416,
0.260844833333333,0,0x0040,
0.260852750000000,0,0xA516,
0.260868583333333,0,0x0000,
0.260876500000000,0,0xA616,
0.260906500000000,0,0x0005,
0.260914166666667,0,0x2D11,
0.260930416666667,0,0xDE8D,
0.260938333333333,0,0xAD16,
0.260954166666667,0,0xFFFD,
0.260962083333333,0,0xAE16,
0.260977916666667,0,0xA904,
0.260985833333333,0,0xAF16,
0.261001666666667,0,0xFFFF,
0.261009583333333,0,0xB016,
0.261025416666667,0,0x830F,
0.261033333333333,0,0xB116,
0.261063333333333,0,0x0006,
0.261071041666667,0,0x3B15,
0.261087291666667,0,0xB3E0,
0.261095208333333,0,0xBB16,
0.261111000000000,0,0xB32D,
0.261118958333333,0,0xBC16,
0.261134791666667,0,0xB2C2,
0.261142708333333,0,0xBD16,
0.261158541666667,0,0xB202,
0.261166458333333,0,0xBE16,
0.261182291666667,0,0xB203,
0.261190208333333,0,0xBF16,
0.261206000000000,0,0xB272,
0.261213958333333,0,0xC016,
0.261244208333333,0,0x000A,
0.261251875000000,0,0x4119,
0.261267875000000,0,0xC0C7,
0.261275791666667,0,0xC116,
0.261291625000000,0,0xC0C3,
0.261299541666667,0,0xC216,
0.261315375000000,0,0xC0C5,
0.261323291666667,0,0xC316,
0.261339125000000,0,0xC086,
0.261347041666667,0,0xC416,
0.261362875000000,0,0xC0A3,
0.261370791666667,0,0xC516,
0.261386625000000,0,0xDD4A,
0.261394541666667,0,0xC616,
0.261410375000000,0,0x803A,
0.261418291666667,0,0xC716,
0.261434125000000,0,0xA3CC,
0.261442041666667,0,0xC816,
0.261457875000000,0,0x9E38,
0.261465791666667,0,0xC916,
0.261481625000000,0,0x9E3C,
0.261489541666667,0,0xCA16,
0.261521458333333,0,0x0004,
0.261529125000000,0,0x032D,
0.261545458333333,0,0x0A01,
0.261553333333333,0,0x832D,
0.261569041666667,0,0x0F00,
0.261576916666667,0,0x842D,
0.261592625000000,0,0x0000,
0.261600500000000,0,0x8526,
0.261616208333333,0,0x673F,
0.261624083333333,0,0x862D,
0.261654875000000,0,0x0001,
0.261662541666667,0,0x1D21,
0.261678583333333,0,0x0055,
0.261686458333333,0,0x9D21,
0.261714416666667,0,0x0003,
0.261722083333333,0,0x2425,
0.261738541666667,0,0x004C,
0.261746375000000,0,0xA426,
0.261762125000000,0,0x0040,
0.261769958333333,0,0xA526,
0.261785708333333,0,0x8000,
0.261793541666667,0,0xA626,
0.261822541666667,0,0x0005,
0.261830208333333,0,0x2D29,
0.261846625000000,0,0xE03F,
0.261854458333333,0,0xAD26,
0.261870208333333,0,0xFFFD,
0.261878041666667,0,0xAE26,
0.261893750000000,0,0xFC9F,
0.261901625000000,0,0xAF26,
0.261917333333333,0,0xFFFF,
0.261925208333333,0,0xB026,
0.261940916666667,0,0x830E,
0.261948791666667,0,0xB126,
0.261980958333333,0,0x0006,
0.261988625000000,0,0x3B2D,
0.262004791666667,0,0xE51A,
0.262012666666667,0,0xBB26,
0.262028375000000,0,0x8000,
0.262036208333333,0,0xBC26,
0.262051958333333,0,0x8000,
0.262059791666667,0,0xBD26,
0.262075500000000,0,0x8004,
0.262083375000000,0,0xBE26,
0.262099083333333,0,0xE5BD,
0.262106958333333,0,0xBF26,
0.262122666666667,0,0xE5D9,
0.262130541666667,0,0xC026,
0.262160666666667,0,0x000A,
0.262168333333333,0,0x4121,
0.262184583333333,0,0xDB99,
0.262192458333333,0,0xC126,
0.262208166666667,0,0xDCA8,
0.262216000000000,0,0xC226,
0.262231750000000,0,0xDF48,
0.262239625000000,0,0xC326,
0.262255333333333,0,0xE125,
0.262263208333333,0,0xC426,
0.262278916666667,0,0xA97F,
0.262286750000000,0,0xC526,
0.262302500000000,0,0xFF4B,
0.262310333333333,0,0xC626,
0.262326083333333,0,0xC017,
0.262333916666667,0,0xC726,
0.262349666666667,0,0xA3B2,
0.262357500000000,0,0xC826,
0.262373208333333,0,0x9E3C,
0.262381083333333,0,0xC926,
0.262396791666667,0,0x9E3D,
0.262404666666667,0,0xCA26,
0.270038791666667,0,0x7C3F,
0.270046458333333,0,0x0607,
0.270073458333333,0,0x0004,
0.270081125000000,0,0x0319,
0.270097583333333,0,0x0A01,
0.270105500000000,0,0x8319,
0.270121291666667,0,0x0F00,
0.270129250000000,0,0x8419,
0.270145083333333,0,0x0000,
0.270153000000000,0,0x8517,
0.270168833333333,0,0x7F3F,
0.270176750000000,0,0x8619,
0.270208166666667,0,0x0004,
0.270215833333333,0,0x031D,
0.270232208333333,0,0x0A01,
0.270240083333333,0,0x831D,
0.270255958333333,0,0x0F00,
0.270263875000000,0,0x841D,
0.270279708333333,0,0x0000,
0.270287625000000,0,0x8517,
0.270303458333333,0,0x7F3F,
0.270311375000000,0,0x861D,
0.270341791666667,0,0x0004,
0.270349458333333,0,0x0311,
0.270365833333333,0,0x0A01,
0.270373750000000,0,0x8311,
0.270389583333333,0,0x0F00,
0.270397541666667,0,0x8411,
0.270413375000000,0,0x0000,
0.270421291666667,0,0x8517,
0.270437125000000,0,0x7F3F,
0.270445041666667,0,0x8611,
0.270476041666667,0,0x0004,
0.270483708333333,0,0x0315,
0.270499958333333,0,0x0A01,
0.270507875000000,0,0x8315,
0.270523708333333,0,0x0F00,
0.270531625000000,0,0x8415,
0.270547458333333,0,0x0000,
0.270555416666667,0,0x8517,
0.270571250000000,0,0x7F3F,
0.270579166666667,0,0x8615,
0.270610291666667,0,0x0004,
0.270617958333333,0,0x0319,
0.270634083333333,0,0x0A01,
0.270642000000000,0,0x8319,
0.270657833333333,0,0x0F00,
0.270665750000000,0,0x8419,
0.270681625000000,0,0x0000,
0.270689500000000,0,0x8517,
0.270705333333333,0,0x773F,
0.270713291666667,0,0x8619,
0.270744041666667,0,0x0001,
0.270751708333333,0,0x1D1D,
0.270767708333333,0,0x1551,
0.270775625000000,0,0x9D1D,
0.270803708333333,0,0x0003,
0.270811333333333,0,0x2411,
0.270827583333333,0,0x0048,
0.270835541666667,0,0xA417,
0.270851375000000,0,0x0040,
0.270859291666667,0,0xA517,
0.270875125000000,0,0x0000,
0.270883041666667,0,0xA617,
0.270911833333333,0,0x0005,
0.270919500000000,0,0x2D15,
0.270935500000000,0,0xDF97,
0.270943375000000,0,0xAD17,
0.270959208333333,0,0xFFFD,
0.270967166666667,0,0xAE17,
0.270983000000000,0,0xA6DE,
0.270990916666667,0,0xAF17,
0.271006750000000,0,0xFFFF,
0.271014666666667,0,0xB017,
0.271030500000000,0,0x830F,
0.271038416666667,0,0xB117,
0.271068791666667,0,0x0006,
0.271076500000000,0,0x3B19,
0.271092875000000,0,0xB3E1,
0.271100791666667,0,0xBB17,
0.271116625000000,0,0xB32C,
0.271124541666667,0,0xBC17,
0.271140375000000,0,0xB2BA,
0.271148291666667,0,0xBD17,
0.271164125000000,0,0xB1FF,
0.271172041666667,0,0xBE17,
0.271187875000000,0,0xB204,
0.271195791666667,0,0xBF17,
0.271211625000000,0,0xB272,
0.271219541666667,0,0xC017,
0.271249583333333,0,0x000A,
0.271257291666667,0,0x411D,
0.271273458333333,0,0xC0C7,
0.271281375000000,0,0xC117,
0.271297208333333,0,0xC0C5,
0.271305125000000,0,0xC217,
0.271320958333333,0,0xC0C5,
0.271328875000000,0,0xC317,
0.271344708333333,0,0xC085,
0.271352625000000,0,0xC417,
0.271368458333333,0,0xC0A5,
0.271376375000000,0,0xC517,
0.271392250000000,0,0xDD4C,
0.271400125000000,0,0xC617,
0.271416000000000,0,0x8039,
0.271423916666667,0,0xC717,
0.271439750000000,0,0xA3CD,
0.271447666666667,0,0xC817,
0.271463500000000,0,0x9E3B,
0.271471416666667,0,0xC917,
0.271487250000000,0,0x9E36,
0.271495166666667,0,0xCA17,
0.271528750000000,0,0x0004,
0.271536458333333,0,0x0321,
0.271552583333333,0,0x0A01,
0.271560458333333,0,0x8321,
0.271576166666667,0,0x0F00,
0.271584041666667,0,0x8421,
0.271599750000000,0,0x0000,
0.271607625000000,0,0x8527,
0.271623333333333,0,0x773F,
0.271631208333333,0,0x8621,
0.271662041666667,0,0x0001,
0.271669750000000,0,0x1D25,
0.271685750000000,0,0x0055,
0.271693583333333,0,0x9D25,
0.271721708333333,0,0x0003,
0.271729375000000,0,0x2429,
0.271745666666667,0,0x004C,
0.271753541666667,0,0xA427,
0.271769250000000,0,0x0040,
0.271777125000000,0,0xA527,
0.271792833333333,0,0x8000,
0.271800708333333,0,0xA627,
0.271829666666667,0,0x0005,
0.271837333333333,0,0x2D2D,
0.271853750000000,0,0xE14B,
0.271861625000000,0,0xAD27,
0.271877333333333,0,0xFFFD,
0.271885208333333,0,0xAE27,
0.271900916666667,0,0xF9B4,
0.271908791666667,0,0xAF27,
0.271924500000000,0,0xFFFF,
0.271932333333333,0,0xB027,
0.271948083333333,0,0x830D,
0.271955916666667,0,0xB127,
0.271986291666667,0,0x0006,
0.271994000000000,0,0x3B21,
0.272010000000000,0,0xE51C,
0.272017833333333,0,0xBB27,
0.272033583333333,0,0x8000,
0.272041416666667,0,0xBC27,
0.272057125000000,0,0x8002,
0.272065000000000,0,0xBD27,
0.272080708333333,0,0x8000,
0.272088583333333,0,0xBE27,
0.272104291666667,0,0xE5B9,
0.272112166666667,0,0xBF27,
0.272127875000000,0,0xE5D3,
0.272135750000000,0,0xC027,
0.272166333333333,0,0x000A,
0.272174000000000,0,0x4125,
0.272190291666667,0,0xDB99,
0.272198125000000,0,0xC127,
0.272213833333333,0,0xDCA2,
0.272221708333333,0,0xC227,
0.272237416666667,0,0xDF46,
0.272245291666667,0,0xC327,
0.272261000000000,0,0xE122,
0.272268875000000,0,0xC427,
0.272284583333333,0,0xA97F,
0.272292458333333,0,0xC527,
0.272308166666667,0,0xFF4C,
0.272316041666667,0,0xC627,
0.272331750000000,0,0xC015,
0.272339625000000,0,0xC727,
0.272355333333333,0,0xA3B1,
0.272363208333333,0,0xC827,
0.272378916666667,0,0x9E38,
0.272386791666667,0,0xC927,
0.272402500000000,0,0x9E3F,
0.272410375000000,0,0xCA27,
0.279996166666667,0,0x8C3F,
0.280003833333333,0,0x060B,
0.280030958333333,0,0x0004,
0.280038666666667,0,0x031D,
0.280054666666667,0,0x0A01,
0.280062583333333,0,0x831D,
0.280078416666667,0,0x0F00,
0.280086375000000,0,0x841D,
0.280102208333333,0,0x0000,
0.280110125000000,0,0x8518,
0.280126000000000,0,0x8F3F,
0.280133916666667,0,0x861D,
0.280164416666667,0,0x0004,
0.280172083333333,0,0x0311,
0.280188333333333,0,0x0A01,
0.280196250000000,0,0x8311,
0.280212125000000,0,0x0F00,
0.280220041666667,0,0x8411,
0.280235875000000,0,0x0000,
0.280243791666667,0,0x8518,
0.280259666666667,0,0x8F3F,
0.280267583333333,0,0x8611,
0.280299208333333,0,0x0004,
0.280306875000000,0,0x0315,
0.280323000000000,0,0x0A01,
0.280330958333333,0,0x8315,
0.280346750000000,0,0x0F00,
0.280354708333333,0,0x8415,
0.280370541666667,0,0x0000,
0.280378458333333,0,0x8518,
0.280394291666667,0,0x8F3F,
0.280402208333333,0,0x8615,
0.280432750000000,0,0x0004,
0.280440375000000,0,0x0319,
0.280456666666667,0,0x0A01,
0.280464625000000,0,0x8319,
0.280480416666667,0,0x0F00,
0.280488375000000,0,0x8419,
0.280504208333333,0,0x0000,
0.280512125000000,0,0x8518,
0.280527958333333,0,0x8F3F,
0.280535875000000,0,0x8619,
0.280566750000000,0,0x0004,
0.280574416666667,0,0x031D,
0.280590791666667,0,0x0A01,
0.280598708333333,0,0x831D,
0.280614541666667,0,0x0F00,
0.280622458333333,0,0x841D,
0.280638333333333,0,0x0000,
0.280646250000000,0,0x8518,
0.280662083333333,0,0x873F,
0.280670000000000,0,0x861D,
0.280701333333333,0,0x0001,
0.280709000000000,0,0x1D11,
0.280725416666667,0,0x1551,
0.280733333333333,0,0x9D11,
0.280761958333333,0,0x0003,
0.280769625000000,0,0x2415,
0.280785791666667,0,0x0048,
0.280793708333333,0,0xA418,
0.280809541666667,0,0x0040,
0.280817458333333,0,0xA518,
0.280833291666667,0,0x0000,
0.280841208333333,0,0xA618,
0.280869458333333,0,0x0005,
0.280877125000000,0,0x2D19,
0.280893208333333,0,0xE0A0,
0.280901083333333,0,0xAD18,
0.280916916666667,0,0xFFFD,
0.280924875000000,0,0xAE18,
0.280940708333333,0,0xA49B,
0.280948625000000,0,0xAF18,
0.280964458333333,0,0xFFFF,
0.280972375000000,0,0xB018,
0.280988208333333,0,0x830E,
0.280996125000000,0,0xB118,
0.281026125000000,0,0x0006,
0.281033833333333,0,0x3B1D,
0.281050083333333,0,0xB3E0,
0.281058000000000,0,0xBB18,
0.281073833333333,0,0xB32B,
0.281081750000000,0,0xBC18,
0.281097583333333,0,0xB2BE,
0.281105500000000,0,0xBD18,
0.281121333333333,0,0xB201,
0.281129291666667,0,0xBE18,
0.281145125000000,0,0xB1FF,
0.281153000000000,0,0xBF18,
0.281168875000000,0,0xB271,
0.281176791666667,0,0xC018,
0.281206291666667,0,0x000A,
0.281213958333333,0,0x4111,
0.281230208333333,0,0xC0C4,
0.281238125000000,0,0xC118,
0.281253958333333,0,0xC0C4,
0.281261916666667,0,0xC218,
0.281277750000000,0,0xC0C1,
0.281285666666667,0,0xC318,
0.281301500000000,0,0xC084,
0.281309416666667,0,0xC418,
0.281325250000000,0,0xC0A1,
0.281333208333333,0,0xC518,
0.281349041666667,0,0xDD4C,
0.281356958333333,0,0xC618,
0.281372791666667,0,0x8035,
0.281380708333333,0,0xC718,
0.281396541666667,0,0xA3D0,
0.281404458333333,0,0xC818,
0.281420291666667,0,0x9E37,
0.281428250000000,0,0xC918,
0.281444041666667,0,0x9E3E,
0.281452000000000,0,0xCA18,
0.281483791666667,0,0x0004,
0.281491458333333,0,0x0325,
0.281507708333333,0,0x0A01,
0.281515541666667,0,0x8325,
0.281531291666667,0,0x0F00,
0.281539166666667,0,0x8425,
0.281554875000000,0,0x0000,
0.281562750000000,0,0x8528,
0.281578458333333,0,0x873F,
0.281586291666667,0,0x8625,
0.281616583333333,0,0x0001,
0.281624250000000,0,0x1D29,
0.281640333333333,0,0x0055,
0.281648208333333,0,0x9D29,
0.281676000000000,0,0x0003,
0.281683666666667,0,0x242D,
0.281699791666667,0,0x004C,
0.281707625000000,0,0xA428,
0.281723375000000,0,0x0040,
0.281731250000000,0,0xA528,
0.281746958333333,0,0x8000,
0.281754791666667,0,0xA628,
0.281783625000000,0,0x0005,
0.281791291666667,0,0x2D21,
0.281807375000000,0,0xE255,
0.281815250000000,0,0xAD28,
0.281830958333333,0,0xFFFD,
0.281838833333333,0,0xAE28,
0.281854541666667,0,0xF7E2,
0.281862375000000,0,0xAF28,
0.281878125000000,0,0xFFFF,
0.281885958333333,0,0xB028,
0.281901708333333,0,0x830C,
0.281909541666667,0,0xB128,
0.281939541666667,0,0x0006,
0.281947208333333,0,0x3B25,
0.281963583333333,0,0xE51D,
0.281971458333333,0,0xBB28,
0.281987208333333,0,0x8001,
0.281995041666667,0,0xBC28,
0.282010791666667,0,0x8000,
0.282018625000000,0,0xBD28,
0.282034375000000,0,0x8002,
0.282042250000000,0,0xBE28,
0.282057958333333,0,0xE5BB,
0.282065791666667,0,0xBF28,
0.282081500000000,0,0xE5D5,
0.282089375000000,0,0xC028,
0.282119875000000,0,0x000A,
0.282127583333333,0,0x4129,
0.282143916666667,0,0xDB91,
0.282151750000000,0,0xC128,
0.282167500000000,0,0xDCA1,
0.282175375000000,0,0xC228,
0.282191083333333,0,0xDF45,
0.282198958333333,0,0xC328,
0.282214666666667,0,0xE122,
0.282222541666667,0,0xC428,
0.282238250000000,0,0xA97C,
0.282246125000000,0,0xC528,
0.282261833333333,0,0xFF48,
0.282269708333333,0,0xC628,
0.282285416666667,0,0xC014,
0.282293291666667,0,0xC728,
0.282309000000000,0,0xA3B2,
0.282316875000000,0,0xC828,
0.282332583333333,0,0x9E38,
0.282340416666667,0,0xC928,
0.282356166666667,0,0x9E41,
0.282364000000000,0,0xCA28,
0.290093708333333,0,0x9C3F,
0.290101375000000,0,0x060F,
0.290128541666667,0,0x0004,
0.290136208333333,0,0x0311,
0.290152208333333,0,0x0A01,
0.290160125000000,0,0x8311,
0.290175958333333,0,0x0F00,
0.290183916666667,0,0x8411,
0.290199750000000,0,0x0000,
0.290207666666667,0,0x8519,
0.290223500000000,0,0x9F3F,
0.290231458333333,0,0x8611,
0.290262333333333,0,0x0004,
0.290270041666667,0,0x0315,
0.290286416666667,0,0x0A01,
0.290294333333333,0,0x8315,
0.290310166666667,0,0x0F00,
0.290318083333333,0,0x8415,
0.290333916666667,0,0x0000,
0.290341833333333,0,0x8519,
0.290357666666667,0,0x9F3F,
0.290365625000000,0,0x8615,
0.290395708333333,0,0x0004,
0.290403375000000,0,0x0319,
0.290419583333333,0,0x0A01,
0.290427500000000,0,0x8319,
0.290443333333333,0,0x0F00,
0.290451250000000,0,0x8419,
0.290467125000000,0,0x0000,
0.290475041666667,0,0x8519,
0.290490875000000,0,0x9F3F,
0.290498791666667,0,0x8619,
0.290529166666667,0,0x0004,
0.290536833333333,0,0x031D,
0.290553250000000,0,0x0A01,
0.290561166666667,0,0x831D,
0.290577000000000,0,0x0F00,
0.290584916666667,0,0x841D,
0.290600791666667,0,0x0000,
0.290608666666667,0,0x8519,
0.290624541666667,0,0x9F3F,
0.290632458333333,0,0x861D,
0.290663333333333,0,0x0004,
0.290671000000000,0,0x0311,
0.290687375000000,0,0x0A01,
0.290695250000000,0,0x8311,
0.290711083333333,0,0x0F00,
0.290719041666667,0,0x8411,
0.290734875000000,0,0x0000,
0.290742791666667,0,0x8519,
0.290758625000000,0,0x973F,
0.290766541666667,0,0x8611,
0.290796750000000,0,0x0001,
0.290804458333333,0,0x1D15,
0.290820500000000,0,0x1551,
0.290828416666667,0,0x9D15,
0.290856625000000,0,0x0003,
0.290864333333333,0,0x2419,
0.290880375000000,0,0x0048,
0.290888291666667,0,0xA419,
0.290904125000000,0,0x0040,
0.290912041666667,0,0xA519,
0.290927875000000,0,0x0000,
0.290935833333333,0,0xA619,
0.290965041666667,0,0x0005,
0.290972750000000,0,0x2D1D,
0.290988791666667,0,0xE1AC,
0.290996708333333,0,0xAD19,
0.291012541666667,0,0xFFFD,
0.291020458333333,0,0xAE19,
0.291036291666667,0,0xA1D1,
0.291044208333333,0,0xAF19,
0.291060041666667,0,0xFFFF,
0.291067958333333,0,0xB019,
0.291083791666667,0,0x830E,
0.291091708333333,0,0xB119,
0.291121375000000,0,0x0006,
0.291129041666667,0,0x3B11,
0.291145166666667,0,0xB3E0,
0.291153041666667,0,0xBB19,
0.291168875000000,0,0xB32F,
0.291176833333333,0,0xBC19,
0.291192666666667,0,0xB2BF,
0.291200583333333,0,0xBD19,
0.291216416666667,0,0xB202,
0.291224291666667,0,0xBE19,
0.291240125000000,0,0xB1FA,
0.291248083333333,0,0xBF19,
0.291263875000000,0,0xB26B,
0.291271833333333,0,0xC019,
0.291303041666667,0,0x000A,
0.291310708333333,0,0x4115,
0.291326708333333,0,0xC0C3,
0.291334625000000,0,0xC119,
0.291350458333333,0,0xC0C6,
0.291358416666667,0,0xC219,
0.291374208333333,0,0xC0C3,
0.291382166666667,0,0xC319,
0.291397958333333,0,0xC085,
0.291405916666667,0,0xC419,
0.291421708333333,0,0xC0A2,
0.291429666666667,0,0xC519,
0.291445500000000,0,0xDD4E,
0.291453416666667,0,0xC619,
0.291469250000000,0,0x8038,
0.291477166666667,0,0xC719,
0.291493000000000,0,0xA3CD,
0.291500916666667,0,0xC819,
0.291516750000000,0,0x9E38,
0.291524666666667,0,0xC919,
0.291540500000000,0,0x9E3C,
0.291548416666667,0,0xCA19,
0.291580291666667,0,0x0004,
0.291588000000000,0,0x0329,
0.291604083333333,0,0x0A01,
0.291611958333333,0,0x8329,
0.291627666666667,0,0x0F00,
0.291635541666667,0,0x8429,
0.291651250000000,0,0x0000,
0.291659125000000,0,0x8529,
0.291674833333333,0,0x973F,
0.291682708333333,0,0x8629,
0.291712125000000,0,0x0001,
0.291719833333333,0,0x1D2D,
0.291736250000000,0,0x0055,
0.291744083333333,0,0x9D2D,
0.291772166666667,0,0x0003,
0.291779833333333,0,0x2421,
0.291796166666667,0,0x004C,
0.291804041666667,0,0xA429,
0.291819750000000,0,0x0040,
0.291827625000000,0,0xA529,
0.291843333333333,0,0x8000,
0.291851208333333,0,0xA629,
0.291879458333333,0,0x0005,
0.291887166666667,0,0x2D25,
0.291903291666667,0,0xE364,
0.291911166666667,0,0xAD29,
0.291926875000000,0,0xFFFD,
0.291934750000000,0,0xAE29,
0.291950458333333,0,0xF5B1,
0.291958333333333,0,0xAF29,
0.291974041666667,0,0x8000,
0.291981916666667,0,0xB029,
0.291997625000000,0,0x8308,
0.292005500000000,0,0xB129,
0.292035375000000,0,0x0006,
0.292043041666667,0,0x3B29,
0.292059041666667,0,0xE51A,
0.292066916666667,0,0xBB29,
0.292082625000000,0,0x8000,
0.292090500000000,0,0xBC29,
0.292106208333333,0,0x8000,
0.292114041666667,0,0xBD29,
0.292129791666667,0,0x8000,
0.292137666666667,0,0xBE29,
0.292153375000000,0,0xE5BC,
0.292161250000000,0,0xBF29,
0.292176958333333,0,0xE5D5,
0.292184833333333,0,0xC029,
0.292214666666667,0,0x000A,
0.292222333333333,0,0x412D,
0.292238375000000,0,0xDB97,
0.292246250000000,0,0xC129,
0.292261958333333,0,0xDCA4,
0.292269791666667,0,0xC229,
0.292285541666667,0,0xDF45,
0.292293416666667,0,0xC329,
0.292309125000000,0,0xE123,
0.292317000000000,0,0xC429,
0.292332708333333,0,0xA981,
0.292340583333333,0,0xC529,
0.292356291666667,0,0xFF4A,
0.292364125000000,0,0xC629,
0.292379833333333,0,0xC015,
0.292387708333333,0,0xC729,
0.292403416666667,0,0xA3B0,
0.292411291666667,0,0xC829,
0.292427000000000,0,0x9E36,
0.292434875000000,0,0xC929,
0.292450583333333,0,0x9E40,
0.292458458333333,0,0xCA29,
0.300051541666667,0,0xAC3F,
0.300059208333333,0,0x0603,
0.300086458333333,0,0x0004,
0.300094125000000,0,0x0315,
0.300110416666667,0,0x0A01,
0.300118333333333,0,0x8315,
0.300134166666667,0,0x0F00,
0.300142083333333,0,0x8415,
0.300157958333333,0,0x0000,
0.300165833333333,0,0x851A,
0.300181708333333,0,0xAF3F,
0.300189625000000,0,0x8615,
0.300220208333333,0,0x0004,
0.300227916666667,0,0x0319,
0.300244041666667,0,0x0A01,
0.300251958333333,0,0x8319,
0.300267833333333,0,0x0F00,
0.300275708333333,0,0x8419,
0.300291583333333,0,0x0000,
0.300299500000000,0,0x851A,
0.300315333333333,0,0xAF3F,
0.300323291666667,0,0x8619,
0.300353625000000,0,0x0004,
0.300361291666667,0,0x031D,
0.300377708333333,0,0x0A01,
0.300385625000000,0,0x831D,
0.300401500000000,0,0x0F00,
0.300409416666667,0,0x841D,
0.300425250000000,0,0x0000,
0.300433166666667,0,0x851A,
0.300449000000000,0,0xAF3F,
0.300456916666667,0,0x861D,
0.300487666666667,0,0x0004,
0.300495333333333,0,0x0311,
0.300511375000000,0,0x0A01,
0.300519291666667,0,0x8311,
0.300535125000000,0,0x0F00,
0.300543041666667,0,0x8411,
0.300558875000000,0,0x0000,
0.300566833333333,0,0x851A,
0.300582666666667,0,0xAF3F,
0.300590583333333,0,0x8611,
0.300621083333333,0,0x0004,
0.300628750000000,0,0x0315,
0.300645000000000,0,0x0A01,
0.300652916666667,0,0x8315,
0.300668750000000,0,0x0F00,
0.300676666666667,0,0x8415,
0.300692500000000,0,0x0000,
0.300700416666667,0,0x851A,
0.300716250000000,0,0xA73F,
0.300724166666667,0,0x8615,
0.300754208333333,0,0x0001,
0.300761916666667,0,0x1D19,
0.300778083333333,0,0x1551,
0.300786041666667,0,0x9D19,
0.300814500000000,0,0x0003,
0.300822166666667,0,0x241D,
0.300838458333333,0,0x0048,
0.300846375000000,0,0xA41A,
0.300862208333333,0,0x0040,
0.300870125000000,0,0xA51A,
0.300886000000000,0,0x0000,
0.300893875000000,0,0xA61A,
0.300923125000000,0,0x0005,
0.300930791666667,0,0x2D11,
0.300946833333333,0,0xE2B5,
0.300954750000000,0,0xAD1A,
0.300970583333333,0,0xFFFD,
0.300978500000000,0,0xAE1A,
0.300994333333333,0,0x9EEC,
0.301002250000000,0,0xAF1A,
0.301018083333333,0,0xFFFF,
0.301026000000000,0,0xB01A,
0.301041833333333,0,0x830B,
0.301049750000000,0,0xB11A,
0.301080166666667,0,0x0006,
0.301087833333333,0,0x3B15,
0.301104166666667,0,0xB3DE,
0.301112125000000,0,0xBB1A,
0.301127958333333,0,0xB32C,
0.301135875000000,0,0xBC1A,
0.301151708333333,0,0xB2C0,
0.301159625000000,0,0xBD1A,
0.301175500000000,0,0xB201,
0.301183416666667,0,0xBE1A,
0.301199208333333,0,0xB202,
0.301207166666667,0,0xBF1A,
0.301223000000000,0,0xB272,
0.301230916666667,0,0xC01A,
0.301261625000000,0,0x000A,
0.301269333333333,0,0x4119,
0.301285375000000,0,0xC0C3,
0.301293250000000,0,0xC11A,
0.301309125000000,0,0xC0C1,
0.301317041666667,0,0xC21A,
0.301332875000000,0,0xC0C2,
0.301340791666667,0,0xC31A,
0.301356625000000,0,0xC086,
0.301364541666667,0,0xC41A,
0.301380375000000,0,0xC0A3,
0.301388291666667,0,0xC51A,
0.301404166666667,0,0xDD48,
0.301412083333333,0,0xC61A,
0.301427916666667,0,0x803B,
0.301435833333333,0,0xC71A,
0.301451666666667,0,0xA3CA,
0.301459583333333,0,0xC81A,
0.301475416666667,0,0x9E35,
0.301483375000000,0,0xC91A,
0.301499208333333,0,0x9E3D,
0.301507125000000,0,0xCA1A,
0.301539750000000,0,0x0004,
0.301547416666667,0,0x032D,
0.301563500000000,0,0x0A01,
0.301571333333333,0,0x832D,
0.301587083333333,0,0x0F00,
0.301594916666667,0,0x842D,
0.301610625000000,0,0x0000,
0.301618500000000,0,0x852A,
0.301634208333333,0,0xA73F,
0.301642083333333,0,0x862D,
0.301672125000000,0,0x0001,
0.301679833333333,0,0x1D21,
0.301696125000000,0,0x0055,
0.301704000000000,0,0x9D21,
0.301732291666667,0,0x0003,
0.301739958333333,0,0x2425,
0.301756083333333,0,0x004C,
0.301763916666667,0,0xA42A,
0.301779666666667,0,0x0040,
0.301787500000000,0,0xA52A,
0.301803208333333,0,0x8000,
0.301811083333333,0,0xA62A,
0.301839666666667,0,0x0005,
0.301847375000000,0,0x2D29,
0.301863666666667,0,0xE46E,
0.301871541666667,0,0xAD2A,
0.301887250000000,0,0xFFFD,
0.301895125000000,0,0xAE2A,
0.301910833333333,0,0xF2DF,
0.301918708333333,0,0xAF2A,
0.301934416666667,0,0x8000,
0.301942291666667,0,0xB02A,
0.301958000000000,0,0x8304,
0.301965875000000,0,0xB12A,
0.301996958333333,0,0x0006,
0.302004625000000,0,0x3B2D,
0.302020916666667,0,0xE51A,
0.302028750000000,0,0xBB2A,
0.302044500000000,0,0x8000,
0.302052375000000,0,0xBC2A,
0.302068083333333,0,0x8000,
0.302075916666667,0,0xBD2A,
0.302091666666667,0,0x8001,
0.302099500000000,0,0xBE2A,
0.302115250000000,0,0xE5BB,
0.302123083333333,0,0xBF2A,
0.302138833333333,0,0xE5D2,
0.302146708333333,0,0xC02A,
0.302176583333333,0,0x000A,
0.302184250000000,0,0x4121,
0.302200250000000,0,0xDB97,
0.302208083333333,0,0xC12A,
0.302223833333333,0,0xDCA5,
0.302231708333333,0,0xC22A,
0.302247416666667,0,0xDF48,
0.302255250000000,0,0xC32A,
0.302271000000000,0,0xE125,
0.302278875000000,0,0xC42A,
0.302294583333333,0,0xA97D,
0.302302458333333,0,0xC52A,
0.302318166666667,0,0xFF4A,
0.302326000000000,0,0xC62A,
0.302341708333333,0,0xC012,
0.302349583333333,0,0xC72A,
0.302365333333333,0,0xA3B0,
0.302373208333333,0,0xC82A,
0.302388916666667,0,0x9E38,
0.302396791666667,0,0xC92A,
0.302412500000000,0,0x9E41,
0.302420375000000,0,0xCA2A,
0.310185791666667,0,0xBC3F,
0.310193458333333,0,0x0607,
0.310221458333333,0,0x0004,
0.310229125000000,0,0x0319,
0.310245416666667,0,0x0A01,
0.310253333333333,0,0x8319,
0.310269166666667,0,0x0F00,
0.310277083333333,0,0x8419,
0.310292958333333,0,0x0000,
0.310300833333333,0,0x851B,
0.310316708333333,0,0xBF3F,
0.310324625000000,0,0x8619,
0.310355250000000,0,0x0004,
0.310362958333333,0,0x031D,
0.310379083333333,0,0x0A01,
0.310387000000000,0,0x831D,
0.310402875000000,0,0x0F00,
0.310410750000000,0,0x841D,
0.310426625000000,0,0x0000,
0.310434541666667,0,0x851B,
0.310450375000000,0,0xBF3F,
0.310458333333333,0,0x861D,
0.310488750000000,0,0x0004,
0.310496458333333,0,0x0311,
0.310512750000000,0,0x0A01,
0.310520666666667,0,0x8311,
0.310536541666667,0,0x0F00,
0.310544458333333,0,0x8411,
0.310560291666667,0,0x0000,
0.310568208333333,0,0x851B,
0.310584041666667,0,0xBF3F,
0.310591958333333,0,0x8611,
0.310622583333333,0,0x0004,
0.310630291666667,0,0x0315,
0.310646416666667,0,0x0A01,
0.310654333333333,0,0x8315,
0.310670166666667,0,0x0F00,
0.310678083333333,0,0x8415,
0.310693916666667,0,0x0000,
0.310701833333333,0,0x851B,
0.310717708333333,0,0xBF3F,
0.310725583333333,0,0x8615,
0.310755958333333,0,0x0004,
0.310763625000000,0,0x0319,
0.310780041666667,0,0x0A01,
0.310787958333333,0,0x8319,
0.310803791666667,0,0x0F00,
0.310811708333333,0,0x8419,
0.310827541666667,0,0x0000,
0.310835458333333,0,0x851B,
0.310851291666667,0,0xB73F,
0.310859208333333,0,0x8619,
0.310889625000000,0,0x0001,
0.310897291666667,0,0x1D1D,
0.310913666666667,0,0x1551,
0.310921583333333,0,0x9D1D,
0.310949500000000,0,0x0003,
0.310957208333333,0,0x2411,
0.310973583333333,0,0x0048,
0.310981458333333,0,0xA41B,
0.310997333333333,0,0x0040,
0.311005250000000,0,0xA51B,
0.311021083333333,0,0x0000,
0.311029000000000,0,0xA61B,
0.311057791666667,0,0x0005,
0.311065500000000,0,0x2D15,
0.311081458333333,0,0xE3C2,
0.311089375000000,0,0xAD1B,
0.311105250000000,0,0xFFFD,
0.311113166666667,0,0xAE1B,
0.311129000000000,0,0x9C1A,
0.311136916666667,0,0xAF1B,
0.311152750000000,0,0xFFFF,
0.311160666666667,0,0xB01B,
0.311176500000000,0,0x830A,
0.311184416666667,0,0xB11B,
0.311214166666667,0,0x0006,
0.311221833333333,0,0x3B19,
0.311237875000000,0,0xB3E2,
0.311245791666667,0,0xBB1B,
0.311261625000000,0,0xB32E,
0.311269583333333,0,0xBC1B,
0.311285416666667,0,0xB2BC,
0.311293333333333,0,0xBD1B,
0.311309166666667,0,0xB1FF,
0.311317083333333,0,0xBE1B,
0.311332916666667,0,0xB202,
0.311340833333333,0,0xBF1B,
0.311356666666667,0,0xB26D,
0.311364583333333,0,0xC01B,
0.311394750000000,0,0x000A,
0.311402416666667,0,0x411D,
0.311418541666667,0,0xC0BF,
0.311426458333333,0,0xC11B,
0.311442291666667,0,0xC0C0,
0.311450208333333,0,0xC21B,
0.311466041666667,0,0xC0BF,
0.311473958333333,0,0xC31B,
0.311489791666667,0,0xC07F,
0.311497708333333,0,0xC41B,
0.311513583333333,0,0xC0A2,
0.311521458333333,0,0xC51B,
0.311537291666667,0,0xDD48,
0.311545208333333,0,0xC61B,
0.311561083333333,0,0x8036,
0.311569000000000,0,0xC71B,
0.311584833333333,0,0xA3CD,
0.311592750000000,0,0xC81B,
0.311608583333333,0,0x9E38,
0.311616458333333,0,0xC91B,
0.311632291666667,0,0x9E37,
0.311640250000000,0,0xCA1B,
0.311671875000000,0,0x0004,
0.311679541666667,0,0x0321,
0.311695750000000,0,0x0A01,
0.311703583333333,0,0x8321,
0.311719291666667,0,0x0F00,
0.311727166666667,0,0x8421,
0.311742875000000,0,0x0000,
0.311750750000000,0,0x852B,
0.311766458333333,0,0xB73F,
0.311774333333333,0,0x8621,
0.311804791666667,0,0x0001,
0.311812458333333,0,0x1D25,
0.311828875000000,0,0x0055,
0.311836708333333,0,0x9D25,
0.311864875000000,0,0x0003,
0.311872583333333,0,0x2429,
0.311888750000000,0,0x004C,
0.311896625000000,0,0xA42B,
0.311912333333333,0,0x0040,
0.311920208333333,0,0xA52B,
0.311935916666667,0,0x8000,
0.311943791666667,0,0xA62B,
0.311973500000000,0,0x0005,
0.311981208333333,0,0x2D2D,
0.311997333333333,0,0xE57E,
0.312005166666667,0,0xAD2B,
0.312020916666667,0,0xFFFD,
0.312028750000000,0,0xAE2B,
0.312044458333333,0,0xF085,
0.312052333333333,0,0xAF2B,
0.312068041666667,0,0xFFFF,
0.312075916666667,0,0xB02B,
0.312091625000000,0,0x830E,
0.312099500000000,0,0xB12B,
0.312129458333333,0,0x0006,
0.312137166666667,0,0x3B21,
0.312153500000000,0,0xE51A,
0.312161375000000,0,0xBB2B,
0.312177083333333,0,0x8000,
0.312184916666667,0,0xBC2B,
0.312200625000000,0,0x8000,
0.312208500000000,0,0xBD2B,
0.312224208333333,0,0x8000,
0.312232083333333,0,0xBE2B,
0.312247791666667,0,0xE5C2,
0.312255666666667,0,0xBF2B,
0.312271375000000,0,0xE5D9,
0.312279208333333,0,0xC02B,
0.312309208333333,0,0x000A,
0.312316875000000,0,0x4125,
0.312333250000000,0,0xDB92,
0.312341125000000,0,0xC12B,
0.312356833333333,0,0xDCA1,
0.312364708333333,0,0xC22B,
0.312380416666667,0,0xDF46,
0.312388291666667,0,0xC32B,
0.312404000000000,0,0xE125,
0.312411833333333,0,0xC42B,
0.312427583333333,0,0xA97D,
0.312435416666667,0,0xC52B,
0.312451125000000,0,0xFF49,
0.312459000000000,0,0xC62B,
0.312474750000000,0,0xC011,
0.312482583333333,0,0xC72B,
0.312498291666667,0,0xA3B0,
0.312506166666667,0,0xC82B,
0.312521875000000,0,0x9E3A,
0.312529708333333,0,0xC92B,
0.312545458333333,0,0x9E40,
0.312553291666667,0,0xCA2B,
0.320065666666667,0,0xCC3F,
0.320073333333333,0,0x060B,
0.320101000000000,0,0x0004,
0.320108666666667,0,0x031D,
0.320124708333333,0,0x0A01,
0.320132625000000,0,0x831D,
0.320148458333333,0,0x0F00,
0.320156375000000,0,0x841D,
0.320172208333333,0,0x0000,
0.320180125000000,0,0x851C,
0.320196000000000,0,0xCF3F,
0.320203916666667,0,0x861D,
0.320234416666667,0,0x0004,
0.320242083333333,0,0x0311,
0.320258375000000,0,0x0A01,
0.320266250000000,0,0x8311,
0.320282125000000,0,0x0F00,
0.320290041666667,0,0x8411,
0.320305875000000,0,0x0000,
0.320313791666667,0,0x851C,
0.320329625000000,0,0xCF3F,
0.320337541666667,0,0x8611,
0.320368458333333,0,0x0004,
0.320376125000000,0,0x0315,
0.320392500000000,0,0x0A01,
0.320400416666667,0,0x8315,
0.320416250000000,0,0x0F00,
0.320424166666667,0,0x8415,
0.320440000000000,0,0x0000,
0.320447958333333,0,0x851C,
0.320463791666667,0,0xCF3F,
0.320471708333333,0,0x8615,
0.320502416666667,0,0x0004,
0.320510125000000,0,0x0319,
0.320526166666667,0,0x0A01,
0.320534083333333,0,0x8319,
0.320549916666667,0,0x0F00,
0.320557833333333,0,0x8419,
0.320573666666667,0,0x0000,
0.320581583333333,0,0x851C,
0.320597458333333,0,0xCF3F,
0.320605375000000,0,0x8619,
0.320635125000000,0,0x0004,
0.320642791666667,0,0x031D,
0.320658833333333,0,0x0A01,
0.320666750000000,0,0x831D,
0.320682583333333,0,0x0F00,
0.320690458333333,0,0x841D,
0.320706291666667,0,0x0000,
0.320714250000000,0,0x851C,
0.320730083333333,0,0xC73F,
0.320738000000000,0,0x861D,
0.320768708333333,0,0x0001,
0.320776375000000,0,0x1D11,
0.320792416666667,0,0x1551,
0.320800333333333,0,0x9D11,
0.320828625000000,0,0x0003,
0.320836291666667,0,0x2415,
0.320852291666667,0,0x0048,
0.320860250000000,0,0xA41C,
0.320876083333333,0,0x0040,
0.320883958333333,0,0xA51C,
0.320899833333333,0,0x0000,
0.320907708333333,0,0xA61C,
0.320936291666667,0,0x0005,
0.320943958333333,0,0x2D19,
0.320960208333333,0,0xE4C9,
0.320968125000000,0,0xAD1C,
0.320983958333333,0,0xFFFD,
0.320991875000000,0,0xAE1C,
0.321007708333333,0,0x990F,
0.321015625000000,0,0xAF1C,
0.321031458333333,0,0xFFFF,
0.321039375000000,0,0xB01C,
0.321055208333333,0,0x830C,
0.321063125000000,0,0xB11C,
0.321093125000000,0,0x0006,
0.321100791666667,0,0x3B1D,
0.321117083333333,0,0xB3DF,
0.321125000000000,0,0xBB1C,
0.321140833333333,0,0xB32A,
0.321148750000000,0,0xBC1C,
0.321164625000000,0,0xB2C1,
0.321172541666667,0,0xBD1C,
0.321188375000000,0,0xB205,
0.321196291666667,0,0xBE1C,
0.321212125000000,0,0xB206,
0.321220041666667,0,0xBF1C,
0.321235875000000,0,0xB275,
0.321243833333333,0,0xC01C,
0.321273458333333,0,0x000A,
0.321281166666667,0,0x4111,
0.321297250000000,0,0xC0C4,
0.321305166666667,0,0xC11C,
0.321321000000000,0,0xC0C4,
0.321328916666667,0,0xC21C,
0.321344791666667,0,0xC0C8,
0.321352666666667,0,0xC31C,
0.321368500000000,0,0xC087,
0.321376458333333,0,0xC41C,
0.321392250000000,0,0xC0A2,
0.321400166666667,0,0xC51C,
0.321416041666667,0,0xDD4D,
0.321423916666667,0,0xC61C,
0.321439750000000,0,0x803E,
0.321447666666667,0,0xC71C,
0.321463500000000,0,0xA3CE,
0.321471458333333,0,0xC81C,
0.321487291666667,0,0x9E38,
0.321495208333333,0,0xC91C,
0.321511041666667,0,0x9E38,
0.321518958333333,0,0xCA1C,
0.321551833333333,0,0x0004,
0.321559500000000,0,0x0325,
0.321575791666667,0,0x0A01,
0.321583666666667,0,0x8325,
0.321599375000000,0,0x0F00,
0.321607208333333,0,0x8425,
0.321622958333333,0,0x0000,
0.321630791666667,0,0x852C,
0.321646541666667,0,0xC73F,
0.321654375000000,0,0x8625,
0.321684333333333,0,0x0001,
0.321692000000000,0,0x1D29,
0.321707958333333,0,0x0055,
0.321715791666667,0,0x9D29,
0.321744666666667,0,0x0003,
0.321752333333333,0,0x242D,
0.321768375000000,0,0x004C,
0.321776250000000,0,0xA42C,
0.321791958333333,0,0x0040,
0.321799833333333,0,0xA52C,
0.321815541666667,0,0x8000,
0.321823416666667,0,0xA62C,
0.321852625000000,0,0x0005,
0.321860291666667,0,0x2D21,
0.321876500000000,0,0xE687,
0.321884333333333,0,0xAD2C,
0.321900083333333,0,0xFFFD,
0.321907916666667,0,0xAE2C,
0.321923625000000,0,0xEE68,
0.321931500000000,0,0xAF2C,
0.321947208333333,0,0xFFFF,
0.321955083333333,0,0xB02C,
0.321970791666667,0,0x830A,
0.321978666666667,0,0xB12C,
0.322009750000000,0,0x0006,
0.322017416666667,0,0x3B25,
0.322033708333333,0,0xE51A,
0.322041541666667,0,0xBB2C,
0.322057291666667,0,0x8000,
0.322065125000000,0,0xBC2C,
0.322080875000000,0,0x8000,
0.322088708333333,0,0xBD2C,
0.322104458333333,0,0x8004,
0.322112333333333,0,0xBE2C,
0.322128041666667,0,0xE5BA,
0.322135916666667,0,0xBF2C,
0.322151625000000,0,0xE5D9,
0.322159500000000,0,0xC02C,
0.322189375000000,0,0x000A,
0.322197083333333,0,0x4129,
0.322213041666667,0,0xDB9A,
0.322220875000000,0,0xC12C,
0.322236625000000,0,0xDCA7,
0.322244500000000,0,0xC22C,
0.322260208333333,0,0xDF45,
0.322268083333333,0,0xC32C,
0.322283791666667,0,0xE125,
0.322291625000000,0,0xC42C,
0.322307375000000,0,0xA982,
0.322315208333333,0,0xC52C,
0.322330916666667,0,0xFF4D,
0.322338791666667,0,0xC62C,
0.322354500000000,0,0xC015,
0.322362375000000,0,0xC72C,
0.322378125000000,0,0xA3B0,
0.322385958333333,0,0xC82C,
0.322401708333333,0,0x9E3A,
0.322409541666667,0,0xC92C,
0.322425291666667,0,0x9E3A,
0.322433166666667,0,0xCA2C,
0.330067291666667,0,0xDC3F,
0.330074958333333,0,0x060F,
0.330101625000000,0,0x0004,
0.330109333333333,0,0x0311,
0.330125416666667,0,0x0A01,
0.330133333333333,0,0x8311,
0.330149166666667,0,0x0F00,
0.330157083333333,0,0x8411,
0.330172916666667,0,0x0000,
0.330180875000000,0,0x851D,
0.330196708333333,0,0xDF3F,
0.330204625000000,0,0x8611,
0.330235625000000,0,0x0004,
0.330243291666667,0,0x0315,
0.330259583333333,0,0x0A01,
0.330267500000000,0,0x8315,
0.330283333333333,0,0x0F00,
0.330291291666667,0,0x8415,
0.330307125000000,0,0x0000,
0.330315041666667,0,0x851D,
0.330330875000000,0,0xDF3F,
0.330338791666667,0,0x8615,
0.330368875000000,0,0x0004,
0.330376541666667,0,0x0319,
0.330392791666667,0,0x0A01,
0.330400708333333,0,0x8319,
0.330416541666667,0,0x0F00,
0.330424458333333,0,0x8419,
0.330440291666667,0,0x0000,
0.330448250000000,0,0x851D,
0.330464083333333,0,0xDF3F,
0.330472000000000,0,0x8619,
0.330502666666667,0,0x0004,
0.330510333333333,0,0x031D,
0.330526458333333,0,0x0A01,
0.330534375000000,0,0x831D,
0.330550208333333,0,0x0F00,
0.330558125000000,0,0x841D,
0.330573958333333,0,0x0000,
0.330581875000000,0,0x851D,
0.330597708333333,0,0xDF3F,
0.330605625000000,0,0x861D,
0.330636375000000,0,0x0004,
0.330644041666667,0,0x0311,
0.330660083333333,0,0x0A01,
0.330668000000000,0,0x8311,
0.330683833333333,0,0x0F00,
0.330691750000000,0,0x8411,
0.330707583333333,0,0x0000,
0.330715500000000,0,0x851D,
0.330731333333333,0,0xD73F,
0.330739250000000,0,0x8611,
0.330770000000000,0,0x0001,
0.330777708333333,0,0x1D15,
0.330794166666667,0,0x1551,
0.330802083333333,0,0x9D15,
0.330830000000000,0,0x0003,
0.330837666666667,0,0x2419,
0.330854041666667,0,0x0048,
0.330861958333333,0,0xA41D,
0.330877791666667,0,0x0040,
0.330885708333333,0,0xA51D,
0.330901541666667,0,0x0000,
0.330909458333333,0,0xA61D,
0.330938583333333,0,0x0005,
0.330946250000000,0,0x2D1D,
0.330962416666667,0,0xE5D3,
0.330970333333333,0,0xAD1D,
0.330986166666667,0,0xFFFD,
0.330994083333333,0,0xAE1D,
0.331009916666667,0,0x96DD,
0.331017833333333,0,0xAF1D,
0.331033666666667,0,0xFFFF,
0.331041583333333,0,0xB01D,
0.331057416666667,0,0x8307,
0.331065333333333,0,0xB11D,
0.331095333333333,0,0x0006,
0.331103041666667,0,0x3B11,
0.331119291666667,0,0xB3DF,
0.331127208333333,0,0xBB1D,
0.331143041666667,0,0xB32A,
0.331150958333333,0,0xBC1D,
0.331166791666667,0,0xB2BD,
0.331174708333333,0,0xBD1D,
0.331190541666667,0,0xB201,
0.331198458333333,0,0xBE1D,
0.331214291666667,0,0xB200,
0.331222208333333,0,0xBF1D,
0.331238041666667,0,0xB275,
0.331245958333333,0,0xC01D,
0.331276416666667,0,0x000A,
0.331284083333333,0,0x4115,
0.331300375000000,0,0xC0BF,
0.331308291666667,0,0xC11D,
0.331324125000000,0,0xC0C3,
0.331332041666667,0,0xC21D,
0.331347875000000,0,0xC0BD,
0.331355833333333,0,0xC31D,
0.331371625000000,0,0xC081,
0.331379583333333,0,0xC41D,
0.331395416666667,0,0xC0A0,
0.331403333333333,0,0xC51D,
0.331419166666667,0,0xDD45,
0.331427083333333,0,0xC61D,
0.331442916666667,0,0x8035,
0.331450833333333,0,0xC71D,
0.331466666666667,0,0xA3CD,
0.331474583333333,0,0xC81D,
0.331490416666667,0,0x9E36,
0.331498333333333,0,0xC91D,
0.331514166666667,0,0x9E39,
0.331522083333333,0,0xCA1D,
0.331554416666667,0,0x0004,
0.331562083333333,0,0x0329,
0.331578083333333,0,0x0A01,
0.331585958333333,0,0x8329,
0.331601666666667,0,0x0F00,
0.331609541666667,0,0x8429,
0.331625250000000,0,0x0000,
0.331633125000000,0,0x852D,
0.331648833333333,0,0xD73F,
0.331656708333333,0,0x8629,
0.331686291666667,0,0x0001,
0.331694000000000,0,0x1D2D,
0.331710250000000,0,0x0055,
0.331718125000000,0,0x9D2D,
0.331746375000000,0,0x0003,
0.331754041666667,0,0x2421,
0.331770208333333,0,0x004C,
0.331778041666667,0,0xA42D,
0.331793750000000,0,0x0040,
0.331801625000000,0,0xA52D,
0.331817333333333,0,0x8000,
0.331825208333333,0,0xA62D,
0.331854416666667,0,0x0005,
0.331862125000000,0,0x2D25,
0.331878250000000,0,0xE792,
0.331886125000000,0,0xAD2D,
0.331901833333333,0,0xFFFD,
0.331909708333333,0,0xAE2D,
0.331925416666667,0,0xEC17,
0.331933291666667,0,0xAF2D,
0.331949000000000,0,0xFFFF,
0.331956875000000,0,0xB02D,
0.331972583333333,0,0x830B,
0.331980458333333,0,0xB12D,
0.332010416666667,0,0x0006,
0.332018083333333,0,0x3B29,
0.332034500000000,0,0xE520,
0.332042375000000,0,0xBB2D,
0.332058083333333,0,0x8002,
0.332065958333333,0,0xBC2D,
0.332081666666667,0,0x8000,
0.332089541666667,0,0xBD2D,
0.332105250000000,0,0x8003,
0.332113083333333,0,0xBE2D,
0.332128833333333,0,0xE5BA,
0.332136708333333,0,0xBF2D,
0.332152416666667,0,0xE5CF,
0.332160250000000,0,0xC02D,
0.332189791666667,0,0x000A,
0.332197458333333,0,0x412D,
0.332213833333333,0,0xDB99,
0.332221666666667,0,0xC12D,
0.332237375000000,0,0xDCA7,
0.332245250000000,0,0xC22D,
0.332260958333333,0,0xDF49,
0.332268833333333,0,0xC32D,
0.332284541666667,0,0xE123,
0.332292416666667,0,0xC42D,
0.332308125000000,0,0xA97D,
0.332316000000000,0,0xC52D,
0.332331708333333,0,0xFF4C,
0.332339583333333,0,0xC62D,
0.332355291666667,0,0xC016,
0.332363166666667,0,0xC72D,
0.332378875000000,0,0xA3B0,
0.332386750000000,0,0xC82D,
0.332402458333333,0,0x9E3A,
0.332410333333333,0,0xC92D,
0.332426041666667,0,0x9E3D,
0.332433916666667,0,0xCA2D,
0.340038541666667,0,0xEC3F,
0.340046250000000,0,0x0603,
0.340073583333333,0,0x0004,
0.340081291666667,0,0x0315,
0.340097416666667,0,0x0A01,
0.340105375000000,0,0x8315,
0.340121166666667,0,0x0F00,
0.340129125000000,0,0x8415,
0.340144958333333,0,0x0000,
0.340152875000000,0,0x851E,
0.340168708333333,0,0xEF3F,
0.340176625000000,0,0x8615,
0.340207416666667,0,0x0004,
0.340215083333333,0,0x0319,
0.340231083333333,0,0x0A01,
0.340239000000000,0,0x8319,
0.340254833333333,0,0x0F00,
0.340262750000000,0,0x8419,
0.340278583333333,0,0x0000,
0.340286500000000,0,0x851E,
0.340302375000000,0,0xEF3F,
0.340310250000000,0,0x8619,
0.340341875000000,0,0x0004,
0.340349541666667,0,0x031D,
0.340365708333333,0,0x0A01,
0.340373625000000,0,0x831D,
0.340389458333333,0,0x0F00,
0.340397375000000,0,0x841D,
0.340413208333333,0,0x0000,
0.340421125000000,0,0x851E,
0.340437000000000,0,0xEF3F,
0.340444875000000,0,0x861D,
0.340476125000000,0,0x0004,
0.340483791666667,0,0x0311,
0.340499833333333,0,0x0A01,
0.340507708333333,0,0x8311,
0.340523583333333,0,0x0F00,
0.340531458333333,0,0x8411,
0.340547333333333,0,0x0000,
0.340555250000000,0,0x851E,
0.340571083333333,0,0xEF3F,
0.340579000000000,0,0x8611,
0.340610250000000,0,0x0004,
0.340617958333333,0,0x0315,
0.340634416666667,0,0x0A01,
0.340642333333333,0,0x8315,
0.340658166666667,0,0x0F00,
0.340666083333333,0,0x8415,
0.340681916666667,0,0x0000,
0.340689833333333,0,0x851E,
0.340705666666667,0,0xE73F,
0.340713583333333,0,0x8615,
0.340743750000000,0,0x0001,
0.340751416666667,0,0x1D19,
0.340767541666667,0,0x1551,
0.340775458333333,0,0x9D19,
0.340803583333333,0,0x0003,
0.340811250000000,0,0x241D,
0.340827416666667,0,0x0048,
0.340835333333333,0,0xA41E,
0.340851166666667,0,0x0040,
0.340859083333333,0,0xA51E,
0.340874916666667,0,0x0000,
0.340882833333333,0,0xA61E,
0.340911875000000,0,0x0005,
0.340919541666667,0,0x2D11,
0.340935791666667,0,0xE6DC,
0.340943708333333,0,0xAD1E,
0.340959541666667,0,0xFFFD,
0.340967458333333,0,0xAE1E,
0.340983291666667,0,0x93F7,
0.340991208333333,0,0xAF1E,
0.341007083333333,0,0xFFFF,
0.341014958333333,0,0xB01E,
0.341030833333333,0,0x830F,
0.341038750000000,0,0xB11E,
0.341068250000000,0,0x0006,
0.341075916666667,0,0x3B15,
0.341092166666667,0,0xB3DC,
0.341100083333333,0,0xBB1E,
0.341115916666667,0,0xB329,
0.341123833333333,0,0xBC1E,
0.341139666666667,0,0xB2B9,
0.341147583333333,0,0xBD1E,
0.341163416666667,0,0xB1FB,
0.341171333333333,0,0xBE1E,
0.341187166666667,0,0xB207,
0.341195083333333,0,0xBF1E,
0.341210958333333,0,0xB277,
0.341218833333333,0,0xC01E,
0.341249166666667,0,0x000A,
0.341256833333333,0,0x4119,
0.341273291666667,0,0xC0C1,
0.341281208333333,0,0xC11E,
0.341297041666667,0,0xC0C4,
0.341304958333333,0,0xC21E,
0.341320833333333,0,0xC0C2,
0.341328750000000,0,0xC31E,
0.341344583333333,0,0xC083,
0.341352500000000,0,0xC41E,
0.341368333333333,0,0xC0A1,
0.341376250000000,0,0xC51E,
0.341392083333333,0,0xDD49,
0.341400000000000,0,0xC61E,
0.341415833333333,0,0x8038,
0.341423750000000,0,0xC71E,
0.341439583333333,0,0xA3CC,
0.341447500000000,0,0xC81E,
0.341463333333333,0,0x9E38,
0.341471250000000,0,0xC91E,
0.341487083333333,0,0x9E3D,
0.341495000000000,0,0xCA1E,
0.341526958333333,0,0x0004,
0.341534625000000,0,0x032D,
0.341550750000000,0,0x0A01,
0.341558625000000,0,0x832D,
0.341574333333333,0,0x0F00,
0.341582208333333,0,0x842D,
0.341597916666667,0,0x0000,
0.341605791666667,0,0x852E,
0.341621500000000,0,0xE73F,
0.341629375000000,0,0x862D,
0.341659708333333,0,0x0001,
0.341667375000000,0,0x1D21,
0.341683375000000,0,0x0055,
0.341691250000000,0,0x9D21,
0.341719208333333,0,0x0003,
0.341726875000000,0,0x2425,
0.341742833333333,0,0x004C,
0.341750708333333,0,0xA42E,
0.341766416666667,0,0x0040,
0.341774250000000,0,0xA52E,
0.341789958333333,0,0x8000,
0.341797833333333,0,0xA62E,
0.341826416666667,0,0x0005,
0.341834083333333,0,0x2D29,
0.341850416666667,0,0xE89E,
0.341858250000000,0,0xAD2E,
0.341874000000000,0,0xFFFD,
0.341881833333333,0,0xAE2E,
0.341897583333333,0,0xE969,
0.341905416666667,0,0xAF2E,
0.341921166666667,0,0xFFFF,
0.341929000000000,0,0xB02E,
0.341944750000000,0,0x830D,
0.341952583333333,0,0xB12E,
0.341984000000000,0,0x0006,
0.341991666666667,0,0x3B2D,
0.342008083333333,0,0xE519,
0.342015958333333,0,0xBB2E,
0.342031666666667,0,0x8004,
0.342039541666667,0,0xBC2E,
0.342055250000000,0,0x8000,
0.342063125000000,0,0xBD2E,
0.342078833333333,0,0x8000,
0.342086708333333,0,0xBE2E,
0.342102416666667,0,0xE5BC,
0.342110291666667,0,0xBF2E,
0.342126000000000,0,0xE5D1,
0.342133875000000,0,0xC02E,
0.342164500000000,0,0x000A,
0.342172166666667,0,0x4121,
0.342188416666667,0,0xDB9B,
0.342196250000000,0,0xC12E,
0.342212000000000,0,0xDCA4,
0.342219833333333,0,0xC22E,
0.342235583333333,0,0xDF4D,
0.342243458333333,0,0xC32E,
0.342259166666667,0,0xE126,
0.342267041666667,0,0xC42E,
0.342282750000000,0,0xA980,
0.342290583333333,0,0xC52E,
0.342306333333333,0,0xFF4D,
0.342314166666667,0,0xC62E,
0.342329916666667,0,0xC018,
0.342337791666667,0,0xC72E,
0.342353500000000,0,0xA3B1,
0.342361333333333,0,0xC82E,
0.342377083333333,0,0x9E3C,
0.342384916666667,0,0xC92E,
0.342400666666667,0,0x9E36,
0.342408500000000,0,0xCA2E,
0.350098583333333,0,0xFC3F,
0.350106250000000,0,0x0607,
0.350134041666667,0,0x0004,
0.350141708333333,0,0x0319,
0.350157958333333,0,0x0A01,
0.350165875000000,0,0x8319,
0.350181750000000,0,0x0F00,
0.350189666666667,0,0x8419,
0.350205500000000,0,0x0000,
0.350213416666667,0,0x851F,
0.350229250000000,0,0xFF3F,
0.350237208333333,0,0x8619,
0.350267166666667,0,0x0004,
0.350274833333333,0,0x031D,
0.350291166666667,0,0x0A01,
0.350299083333333,0,0x831D,
0.350314916666667,0,0x0F00,
0.350322833333333,0,0x841D,
0.350338666666667,0,0x0000,
0.350346583333333,0,0x851F,
0.350362458333333,0,0xFF3F,
0.350370375000000,0,0x861D,
0.350400541666667,0,0x0004,
0.350408250000000,0,0x0311,
0.350424333333333,0,0x0A01,
0.350432250000000,0,0x8311,
0.350448083333333,0,0x0F00,
0.350456000000000,0,0x8411,
0.350471833333333,0,0x0000,
0.350479750000000,0,0x851F,
0.350495625000000,0,0xFF3F,
0.350503541666667,0,0x8611,
0.350534000000000,0,0x0004,
0.350541666666667,0,0x0315,
0.350558000000000,0,0x0A01,
0.350565916666667,0,0x8315,
0.350581750000000,0,0x0F00,
0.350589666666667,0,0x8415,
0.350605541666667,0,0x0000,
0.350613458333333,0,0x851F,
0.350629291666667,0,0xFF3F,
0.350637208333333,0,0x8615,
0.350667833333333,0,0x0004,
0.350675541666667,0,0x0319,
0.350691666666667,0,0x0A01,
0.350699541666667,0,0x8319,
0.350715416666667,0,0x0F00,
0.350723333333333,0,0x8419,
0.350739166666667,0,0x0000,
0.350747083333333,0,0x851F,
0.350762916666667,0,0xF73F,
0.350770833333333,0,0x8619,
0.350801125000000,0,0x0001,
0.350808791666667,0,0x1D1D,
0.350825250000000,0,0x1551,
0.350833208333333,0,0x9D1D,
0.350861250000000,0,0x0003,
0.350868916666667,0,0x2411,
0.350885125000000,0,0x0048,
0.350893041666667,0,0xA41F,
0.350908875000000,0,0x0040,
0.350916833333333,0,0xA51F,
0.350932625000000,0,0x0000,
0.350940583333333,0,0xA61F,
0.350969166666667,0,0x0005,
0.350976833333333,0,0x2D15,
0.350993000000000,0,0xE7E8,
0.351000916666667,0,0xAD1F,
0.351016791666667,0,0xFFFD,
0.351024708333333,0,0xAE1F,
0.351040541666667,0,0x916E,
0.351048458333333,0,0xAF1F,
0.351064291666667,0,0x8000,
0.351072208333333,0,0xB01F,
0.351088041666667,0,0x8301,
0.351095958333333,0,0xB11F,
0.351126833333333,0,0x0006,
0.351134500000000,0,0x3B19,
0.351150916666667,0,0xB3E3,
0.351158833333333,0,0xBB1F,
0.351174666666667,0,0xB329,
0.351182583333333,0,0xBC1F,
0.351198416666667,0,0xB2BD,
0.351206333333333,0,0xBD1F,
0.351222166666667,0,0xB200,
0.351230083333333,0,0xBE1F,
0.351245916666667,0,0xB1FF,
0.351253833333333,0,0xBF1F,
0.351269666666667,0,0xB271,
0.351277625000000,0,0xC01F,
0.351307958333333,0,0x000A,
0.351315625000000,0,0x411D,
0.351332041666667,0,0xC0C0,
0.351339958333333,0,0xC11F,
0.351355791666667,0,0xC0C0,
0.351363750000000,0,0xC21F,
0.351379583333333,0,0xC0C1,
0.351387500000000,0,0xC31F,
0.351403333333333,0,0xC086,
0.351411250000000,0,0xC41F,
0.351427125000000,0,0xC0A4,
0.351435041666667,0,0xC51F,
0.351450875000000,0,0xDD4A,
0.351458750000000,0,0xC61F,
0.351474625000000,0,0x8037,
0.351482541666667,0,0xC71F,
0.351498375000000,0,0xA3D1,
0.351506291666667,0,0xC81F,
0.351522125000000,0,0x9E35,
0.351530041666667,0,0xC91F,
0.351545875000000,0,0x9E3B,
0.351553791666667,0,0xCA1F,
0.351585583333333,0,0x0004,
0.351593250000000,0,0x0321,
0.351609416666667,0,0x0A01,
0.351617291666667,0,0x8321,
0.351633000000000,0,0x0F00,
0.351640875000000,0,0x8421,
0.351656583333333,0,0x0000,
0.351664458333333,0,0x852F,
0.351680166666667,0,0xF73F,
0.351688041666667,0,0x8621,
0.351718916666667,0,0x0001,
0.351726541666667,0,0x1D25,
0.351742583333333,0,0x0055,
0.351750416666667,0,0x9D25,
0.351778041666667,0,0x0003,
0.351785750000000,0,0x2429,
0.351802041666667,0,0x004C,
0.351809875000000,0,0xA42F,
0.351825625000000,0,0x0040,
0.351833458333333,0,0xA52F,
0.351849208333333,0,0x8000,
0.351857041666667,0,0xA62F,
0.351885666666667,0,0x0005,
0.351893375000000,0,0x2D2D,
0.351909625000000,0,0xE9AB,
0.351917500000000,0,0xAD2F,
0.351933208333333,0,0xFFFD,
0.351941083333333,0,0xAE2F,
0.351956791666667,0,0xE657,
0.351964666666667,0,0xAF2F,
0.351980375000000,0,0xFFFF,
0.351988250000000,0,0xB02F,
0.352003958333333,0,0x830A,
0.352011833333333,0,0xB12F,
0.352041833333333,0,0x0006,
0.352049500000000,0,0x3B21,
0.352065875000000,0,0xE517,
0.352073750000000,0,0xBB2F,
0.352089458333333,0,0x8000,
0.352097333333333,0,0xBC2F,
0.352113041666667,0,0x8001,
0.352120875000000,0,0xBD2F,
0.352136625000000,0,0x8002,
0.352144500000000,0,0xBE2F,
0.352160208333333,0,0xE5B9,
0.352168083333333,0,0xBF2F,
0.352183791666667,0,0xE5D2,
0.352191666666667,0,0xC02F,
0.352221375000000,0,0x000A,
0.352229041666667,0,0x4125,
0.352245208333333,0,0xDB9B,
0.352253041666667,0,0xC12F,
0.352268791666667,0,0xDCA9,
0.352276625000000,0,0xC22F,
0.352292333333333,0,0xDF49,
0.352300208333333,0,0xC32F,
0.352315916666667,0,0xE124,
0.352323791666667,0,0xC42F,
0.352339500000000,0,0xA982,
0.352347375000000,0,0xC52F,
0.352363083333333,0,0xFF4D,
0.352370958333333,0,0xC62F,
0.352386666666667,0,0xC017,
0.352394541666667,0,0xC72F,
0.352410250000000,0,0xA3B1,
0.352418125000000,0,0xC82F,
0.352433833333333,0,0x9E3B,
0.352441708333333,0,0xC92F,
0.352457416666667,0,0x9E3A,
0.352465291666667,0,0xCA2F,
0.361034541666667,0,0x0C3F,
0.361042250000000,0,0x060B,
0.361070500000000,0,0x0004,
0.361078208333333,0,0x031D,
0.361094333333333,0,0x0A01,
0.361102250000000,0,0x831D,
0.361118083333333,0,0x0F00,
0.361126000000000,0,0x841D,
0.361141875000000,0,0x0000,
0.361149791666667,0,0x8510,
0.361165625000000,0,0x0F3F,
0.361173541666667,0,0x861D,
0.361204000000000,0,0x0004,
0.361211666666667,0,0x0311,
0.361228000000000,0,0x0A01,
0.361235916666667,0,0x8311,
0.361251750000000,0,0x0F00,
0.361259666666667,0,0x8411,
0.361275500000000,0,0x0000,
0.361283416666667,0,0x8510,
0.361299291666667,0,0x0F3F,
0.361307166666667,0,0x8611,
0.361337833333333,0,0x0004,
0.361345541666667,0,0x0315,
0.361361625000000,0,0x0A01,
0.361369583333333,0,0x8315,
0.361385416666667,0,0x0F00,
0.361393333333333,0,0x8415,
0.361409166666667,0,0x0000,
0.361417083333333,0,0x8510,
0.361432916666667,0,0x0F3F,
0.361440833333333,0,0x8615,
0.361470875000000,0,0x0004,
0.361478541666667,0,0x0319,
0.361494791666667,0,0x0A01,
0.361502708333333,0,0x8319,
0.361518541666667,0,0x0F00,
0.361526458333333,0,0x8419,
0.361542291666667,0,0x0000,
0.361550208333333,0,0x8510,
0.361566041666667,0,0x0F3F,
0.361573958333333,0,0x8619,
0.361604250000000,0,0x0004,
0.361611916666667,0,0x031D,
0.361627875000000,0,0x0A01,
0.361635791666667,0,0x831D,
0.361651625000000,0,0x0F00,
0.361659541666667,0,0x841D,
0.361675375000000,0,0x0000,
0.361683291666667,0,0x8510,
0.361699125000000,0,0x073F,
0.361707041666667,0,0x861D,
0.361738416666667,0,0x0001,
0.361746083333333,0,0x1D11,
0.361762458333333,0,0x1551,
0.361770375000000,0,0x9D11,
0.361798083333333,0,0x0003,
0.361805750000000,0,0x2415,
0.361821833333333,0,0x0048,
0.361829750000000,0,0xA410,
0.361845583333333,0,0x0040,
0.361853500000000,0,0xA510,
0.361869333333333,0,0x0000,
0.361877250000000,0,0xA610,
0.361906416666667,0,0x0005,
0.361914083333333,0,0x2D19,
0.361930166666667,0,0xE90B,
0.361938083333333,0,0xAD10,
0.361953958333333,0,0xFFFD,
0.361961833333333,0,0xAE10,
0.361977708333333,0,0x8E33,
0.361985625000000,0,0xAF10,
0.362001416666667,0,0xFFFF,
0.362009375000000,0,0xB010,
0.362025208333333,0,0x8307,
0.362033125000000,0,0xB110,
0.362064208333333,0,0x0006,
0.362071875000000,0,0x3B1D,
0.362088041666667,0,0xB3E2,
0.362095958333333,0,0xBB10,
0.362111791666667,0,0xB32F,
0.362119708333333,0,0xBC10,
0.362135541666667,0,0xB2C0,
0.362143458333333,0,0xBD10,
0.362159291666667,0,0xB206,
0.362167208333333,0,0xBE10,
0.362183000000000,0,0xB200,
0.362190958333333,0,0xBF10,
0.362206791666667,0,0xB275,
0.362214708333333,0,0xC010,
0.362245375000000,0,0x000A,
0.362253041666667,0,0x4111,
0.362269125000000,0,0xC0C1,
0.362277041666667,0,0xC110,
0.362292875000000,0,0xC0C4,
0.362300791666667,0,0xC210,
0.362316625000000,0,0xC0C4,
0.362324541666667,0,0xC310,
0.362340375000000,0,0xC088,
0.362348291666667,0,0xC410,
0.362364125000000,0,0xC0A0,
0.362372041666667,0,0xC510,
0.362387875000000,0,0xDD4B,
0.362395791666667,0,0xC610,
0.362411625000000,0,0x8036,
0.362419541666667,0,0xC710,
0.362435375000000,0,0xA3CC,
0.362443291666667,0,0xC810,
0.362459125000000,0,0x9E3D,
0.362467000000000,0,0xC910,
0.362482833333333,0,0x9E39,
0.362490791666667,0,0xCA10,
0.362522833333333,0,0x0004,
0.362530500000000,0,0x0325,
0.362546666666667,0,0x0A01,
0.362554541666667,0,0x8325,
0.362570250000000,0,0x0F00,
0.362578125000000,0,0x8425,
0.362593833333333,0,0x0000,
0.362601708333333,0,0x8520,
0.362617416666667,0,0x073F,
0.362625291666667,0,0x8625,
0.362655416666667,0,0x0001,
0.362663125000000,0,0x1D29,
0.362679333333333,0,0x0055,
0.362687208333333,0,0x9D29,
0.362715333333333,0,0x0003,
0.362723000000000,0,0x242D,
0.362739250000000,0,0x004C,
0.362747083333333,0,0xA420,
0.362762833333333,0,0x0040,
0.362770708333333,0,0xA520,
0.362786416666667,0,0x8000,
0.362794291666667,0,0xA620,
0.362822958333333,0,0x0005,
0.362830625000000,0,0x2D21,
0.362846833333333,0,0xEAD0,
0.362854708333333,0,0xAD20,
0.362870416666667,0,0xFFFD,
0.362878291666667,0,0xAE20,
0.362894000000000,0,0xE473,
0.362901875000000,0,0xAF20,
0.362917625000000,0,0x8000,
0.362925458333333,0,0xB020,
0.362941166666667,0,0x8303,
0.362949041666667,0,0xB120,
0.362978458333333,0,0x0006,
0.362986125000000,0,0x3B25,
0.363002083333333,0,0xE51E,
0.363009958333333,0,0xBB20,
0.363025666666667,0,0x8001,
0.363033541666667,0,0xBC20,
0.363049250000000,0,0x8000,
0.363057125000000,0,0xBD20,
0.363072833333333,0,0x8000,
0.363080708333333,0,0xBE20,
0.363096416666667,0,0xE5BE,
0.363104291666667,0,0xBF20,
0.363120000000000,0,0xE5D6,
0.363127875000000,0,0xC020,
0.363157250000000,0,0x000A,
0.363164958333333,0,0x4129,
0.363180916666667,0,0xDB92,
0.363188791666667,0,0xC120,
0.363204500000000,0,0xDCA0,
0.363212375000000,0,0xC220,
0.363228083333333,0,0xDF45,
0.363235916666667,0,0xC320,
0.363251666666667,0,0xE129,
0.363259500000000,0,0xC420,
0.363275250000000,0,0xA97E,
0.363283083333333,0,0xC520,
0.363298791666667,0,0xFF46,
0.363306666666667,0,0xC620,
0.363322416666667,0,0xC012,
0.363330250000000,0,0xC720,
0.363346000000000,0,0xA3B0,
0.363353833333333,0,0xC820,
0.363369583333333,0,0x9E35,
0.363377416666667,0,0xC920,
0.363393166666667,0,0x9E40,
0.363401000000000,0,0xCA20,
0.370121916666667,0,0x1C3F,
0.370129583333333,0,0x060F,
0.370157875000000,0,0x0004,
0.370165541666667,0,0x0311,
0.370181791666667,0,0x0A01,
0.370189666666667,0,0x8311,
0.370205500000000,0,0x0F00,
0.370213458333333,0,0x8411,
0.370229291666667,0,0x0000,
0.370237208333333,0,0x8511,
0.370253041666667,0,0x1F3F,
0.370260958333333,0,0x8611,
0.370291958333333,0,0x0004,
0.370299625000000,0,0x0315,
0.370315916666667,0,0x0A01,
0.370323833333333,0,0x8315,
0.370339666666667,0,0x0F00,
0.370347583333333,0,0x8415,
0.370363416666667,0,0x0000,
0.370371333333333,0,0x8511,
0.370387166666667,0,0x1F3F,
0.370395125000000,0,0x8615,
0.370426000000000,0,0x0004,
0.370433708333333,0,0x0319,
0.370450041666667,0,0x0A01,
0.370457958333333,0,0x8319,
0.370473833333333,0,0x0F00,
0.370481708333333,0,0x8419,
0.370497583333333,0,0x0000,
0.370505500000000,0,0x8511,
0.370521333333333,0,0x1F3F,
0.370529250000000,0,0x8619,
0.370560416666667,0,0x0004,
0.370568125000000,0,0x031D,
0.370584166666667,0,0x0A01,
0.370592125000000,0,0x831D,
0.370607958333333,0,0x0F00,
0.370615875000000,0,0x841D,
0.370631708333333,0,0x0000,
0.370639625000000,0,0x8511,
0.370655458333333,0,0x1F3F,
0.370663375000000,0,0x861D,
0.370693958333333,0,0x0004,
0.370701666666667,0,0x0311,
0.370717833333333,0,0x0A01,
0.370725750000000,0,0x8311,
0.370741583333333,0,0x0F00,
0.370749500000000,0,0x8411,
0.370765333333333,0,0x0000,
0.370773250000000,0,0x8511,
0.370789083333333,0,0x173F,
0.370797000000000,0,0x8611,
0.370827166666667,0,0x0001,
0.370834875000000,0,0x1D15,
0.370850958333333,0,0x1551,
0.370858833333333,0,0x9D15,
0.370887291666667,0,0x0003,
0.370895000000000,0,0x2419,
0.370911291666667,0,0x0048,
0.370919208333333,0,0xA411,
0.370935041666667,0,0x0040,
0.370942958333333,0,0xA511,
0.370958791666667,0,0x0000,
0.370966708333333,0,0xA611,
0.370995416666667,0,0x0005,
0.371003083333333,0,0x2D1D,
0.371019166666667,0,0xE9FC,
0.371027083333333,0,0xAD11,
0.371042916666667,0,0xFFFD,
0.371050833333333,0,0xAE11,
0.371066708333333,0,0x8BF7,
0.371074583333333,0,0xAF11,
0.371090416666667,0,0x8000,
0.371098375000000,0,0xB011,
0.371114208333333,0,0x8301,
0.371122125000000,0,0xB111,
0.371152458333333,0,0x0006,
0.371160166666667,0,0x3B11,
0.371176541666667,0,0xB3E1,
0.371184458333333,0,0xBB11,
0.371200291666667,0,0xB32B,
0.371208250000000,0,0xBC11,
0.371224083333333,0,0xB2B9,
0.371232000000000,0,0xBD11,
0.371247833333333,0,0xB1FD,
0.371255750000000,0,0xBE11,
0.371271583333333,0,0xB201,
0.371279500000000,0,0xBF11,
0.371295333333333,0,0xB272,
0.371303250000000,0,0xC011,
0.371333666666667,0,0x000A,
0.371341375000000,0,0x4115,
0.371357708333333,0,0xC0C4,
0.371365625000000,0,0xC111,
0.371381458333333,0,0xC0C7,
0.371389375000000,0,0xC211,
0.371405208333333,0,0xC0C4,
0.371413125000000,0,0xC311,
0.371428958333333,0,0xC086,
0.371436875000000,0,0xC411,
0.371452750000000,0,0xC0A3,
0.371460666666667,0,0xC511,
0.371476500000000,0,0xDD4B,
0.371484416666667,0,0xC611,
0.371500250000000,0,0x803C,
0.371508166666667,0,0xC711,
0.371524000000000,0,0xA3CF,
0.371531916666667,0,0xC811,
0.371547750000000,0,0x9E3A,
0.371555666666667,0,0xC911,
0.371571500000000,0,0x9E3B,
0.371579416666667,0,0xCA11,
0.371611208333333,0,0x0004,
0.371618875000000,0,0x0329,
0.371635041666667,0,0x0A01,
0.371642916666667,0,0x8329,
0.371658625000000,0,0x0F00,
0.371666500000000,0,0x8429,
0.371682208333333,0,0x0000,
0.371690083333333,0,0x8521,
0.371705791666667,0,0x173F,
0.371713666666667,0,0x8629,
0.371745000000000,0,0x0001,
0.371752666666667,0,0x1D2D,
0.371768708333333,0,0x0055,
0.371776541666667,0,0x9D2D,
0.371804583333333,0,0x0003,
0.371812291666667,0,0x2421,
0.371828625000000,0,0x004C,
0.371836500000000,0,0xA421,
0.371852208333333,0,0x0040,
0.371860083333333,0,0xA521,
0.371875791666667,0,0x8000,
0.371883666666667,0,0xA621,
0.371912625000000,0,0x0005,
0.371920291666667,0,0x2D25,
0.371936708333333,0,0xEBC3,
0.371944583333333,0,0xAD21,
0.371960291666667,0,0xFFFD,
0.371968166666667,0,0xAE21,
0.371983875000000,0,0xE256,
0.371991750000000,0,0xAF21,
0.372007458333333,0,0xFFFF,
0.372015333333333,0,0xB021,
0.372031041666667,0,0x830B,
0.372038916666667,0,0xB121,
0.372069333333333,0,0x0006,
0.372077041666667,0,0x3B29,
0.372093458333333,0,0xE51F,
0.372101333333333,0,0xBB21,
0.372117041666667,0,0x8000,
0.372124916666667,0,0xBC21,
0.372140625000000,0,0x8000,
0.372148500000000,0,0xBD21,
0.372164208333333,0,0x8000,
0.372172041666667,0,0xBE21,
0.372187791666667,0,0xE5BD,
0.372195625000000,0,0xBF21,
0.372211375000000,0,0xE5D6,
0.372219250000000,0,0xC021,
0.372249250000000,0,0x000A,
0.372256916666667,0,0x412D,
0.372273250000000,0,0xDB9D,
0.372281125000000,0,0xC121,
0.372296833333333,0,0xDCA2,
0.372304708333333,0,0xC221,
0.372320416666667,0,0xDF49,
0.372328291666667,0,0xC321,
0.372344000000000,0,0xE11F,
0.372351875000000,0,0xC421,
0.372367583333333,0,0xA97D,
0.372375458333333,0,0xC521,
0.372391166666667,0,0xFF4A,
0.372399041666667,0,0xC621,
0.372414750000000,0,0xC014,
0.372422625000000,0,0xC721,
0.372438333333333,0,0xA3B1,
0.372446208333333,0,0xC821,
0.372461916666667,0,0x9E37,
0.372469791666667,0,0xC921,
0.372485500000000,0,0x9E3D,
0.372493375000000,0,0xCA21,
0.380049958333333,0,0x2C3F,
0.380057625000000,0,0x0603,
0.380085125000000,0,0x0004,
0.380092791666667,0,0x0315,
0.380109083333333,0,0x0A01,
0.380117000000000,0,0x8315,
0.380132833333333,0,0x0F00,
0.380140750000000,0,0x8415,
0.380156583333333,0,0x0000,
0.380164500000000,0,0x8512,
0.380180375000000,0,0x2F3F,
0.380188291666667,0,0x8615,
0.380219083333333,0,0x0004,
0.380226791666667,0,0x0319,
0.380242708333333,0,0x0A01,
0.380250666666667,0,0x8319,
0.380266500000000,0,0x0F00,
0.380274416666667,0,0x8419,
0.380290250000000,0,0x0000,
0.380298166666667,0,0x8512,
0.380314000000000,0,0x2F3F,
0.380321916666667,0,0x8619,
0.380352916666667,0,0x0004,
0.380360625000000,0,0x031D,
0.380376875000000,0,0x0A01,
0.380384791666667,0,0x831D,
0.380400666666667,0,0x0F00,
0.380408583333333,0,0x841D,
0.380424416666667,0,0x0000,
0.380432333333333,0,0x8512,
0.380448166666667,0,0x2F3F,
0.380456083333333,0,0x861D,
0.380487375000000,0,0x0004,
0.380495041666667,0,0x0311,
0.380511041666667,0,0x0A01,
0.380518958333333,0,0x8311,
0.380534791666667,0,0x0F00,
0.380542708333333,0,0x8411,
0.380558541666667,0,0x0000,
0.380566458333333,0,0x8512,
0.380582291666667,0,0x2F3F,
0.380590208333333,0,0x8611,
0.380621000000000,0,0x0004,
0.380628708333333,0,0x0315,
0.380645125000000,0,0x0A01,
0.380653041666667,0,0x8315,
0.380668875000000,0,0x0F00,
0.380676791666667,0,0x8415,
0.380692625000000,0,0x0000,
0.380700541666667,0,0x8512,
0.380716375000000,0,0x273F,
0.380724291666667,0,0x8615,
0.380754708333333,0,0x0001,
0.380762375000000,0,0x1D19,
0.380778750000000,0,0x1551,
0.380786666666667,0,0x9D19,
0.380814916666667,0,0x0003,
0.380822625000000,0,0x241D,
0.380838625000000,0,0x0048,
0.380846541666667,0,0xA412,
0.380862375000000,0,0x0040,
0.380870291666667,0,0xA512,
0.380886125000000,0,0x0000,
0.380894041666667,0,0xA612,
0.380922750000000,0,0x0005,
0.380930416666667,0,0x2D11,
0.380946500000000,0,0xEB04,
0.380954375000000,0,0xAD12,
0.380970250000000,0,0xFFFD,
0.380978125000000,0,0xAE12,
0.380993958333333,0,0x897C,
0.381001916666667,0,0xAF12,
0.381017708333333,0,0x8000,
0.381025625000000,0,0xB012,
0.381041458333333,0,0x8304,
0.381049375000000,0,0xB112,
0.381080083333333,0,0x0006,
0.381087750000000,0,0x3B15,
0.381103833333333,0,0xB3DF,
0.381111750000000,0,0xBB12,
0.381127583333333,0,0xB32A,
0.381135500000000,0,0xBC12,
0.381151291666667,0,0xB2BB,
0.381159250000000,0,0xBD12,
0.381175083333333,0,0xB1FE,
0.381183000000000,0,0xBE12,
0.381198833333333,0,0xB202,
0.381206750000000,0,0xBF12,
0.381222583333333,0,0xB275,
0.381230500000000,0,0xC012,
0.381260375000000,0,0x000A,
0.381268083333333,0,0x4119,
0.381284458333333,0,0xC0BE,
0.381292375000000,0,0xC112,
0.381308208333333,0,0xC0C4,
0.381316125000000,0,0xC212,
0.381331958333333,0,0xC0C2,
0.381339916666667,0,0xC312,
0.381355708333333,0,0xC084,
0.381363666666667,0,0xC412,
0.381379500000000,0,0xC0A1,
0.381387416666667,0,0xC512,
0.381403250000000,0,0xDD47,
0.381411166666667,0,0xC612,
0.381427000000000,0,0x8038,
0.381434916666667,0,0xC712,
0.381450750000000,0,0xA3D0,
0.381458666666667,0,0xC812,
0.381474500000000,0,0x9E37,
0.381482416666667,0,0xC912,
0.381498208333333,0,0x9E39,
0.381506166666667,0,0xCA12,
0.381538666666667,0,0x0004,
0.381546333333333,0,0x032D,
0.381562541666667,0,0x0A01,
0.381570375000000,0,0x832D,
0.381586125000000,0,0x0F00,
0.381593958333333,0,0x842D,
0.381609708333333,0,0x0000,
0.381617541666667,0,0x8522,
0.381633291666667,0,0x273F,
0.381641125000000,0,0x862D,
0.381671041666667,0,0x0001,
0.381678750000000,0,0x1D21,
0.381694708333333,0,0x0055,
0.381702541666667,0,0x9D21,
0.381730166666667,0,0x0003,
0.381737875000000,0,0x2425,
0.381754125000000,0,0x004C,
0.381762000000000,0,0xA422,
0.381777708333333,0,0x0040,
0.381785541666667,0,0xA522,
0.381801291666667,0,0x8000,
0.381809166666667,0,0xA622,
0.381837666666667,0,0x0005,
0.381845333333333,0,0x2D29,
0.381861708333333,0,0xECCD,
0.381869583333333,0,0xAD22,
0.381885291666667,0,0xFFFD,
0.381893166666667,0,0xAE22,
0.381908875000000,0,0xDFD8,
0.381916750000000,0,0xAF22,
0.381932458333333,0,0x8000,
0.381940333333333,0,0xB022,
0.381956041666667,0,0x8302,
0.381963916666667,0,0xB122,
0.381993458333333,0,0x0006,
0.382001125000000,0,0x3B2D,
0.382017458333333,0,0xE519,
0.382025333333333,0,0xBB22,
0.382041041666667,0,0x8000,
0.382048916666667,0,0xBC22,
0.382064625000000,0,0x8000,
0.382072458333333,0,0xBD22,
0.382088208333333,0,0x8000,
0.382096041666667,0,0xBE22,
0.382111750000000,0,0xE5BD,
0.382119625000000,0,0xBF22,
0.382135333333333,0,0xE5D8,
0.382143208333333,0,0xC022,
0.382173375000000,0,0x000A,
0.382181041666667,0,0x4121,
0.382197250000000,0,0xDB9D,
0.382205125000000,0,0xC122,
0.382220833333333,0,0xDCA6,
0.382228708333333,0,0xC222,
0.382244416666667,0,0xDF4C,
0.382252291666667,0,0xC322,
0.382268000000000,0,0xE11D,
0.382275833333333,0,0xC422,
0.382291583333333,0,0xA97D,
0.382299416666667,0,0xC522,
0.382315166666667,0,0xFF49,
0.382323000000000,0,0xC622,
0.382338750000000,0,0xC014,
0.382346583333333,0,0xC722,
0.382362333333333,0,0xA3AE,
0.382370166666667,0,0xC822,
0.382385875000000,0,0x9E3C,
0.382393750000000,0,0xC922,
0.382409500000000,0,0x9E3C,
0.382417333333333,0,0xCA22,
0.390067291666667,0,0x3C3F,
0.390074958333333,0,0x0607,
0.390102625000000,0,0x0004,
0.390110291666667,0,0x0319,
0.390126375000000,0,0x0A01,
0.390134291666667,0,0x8319,
0.390150125000000,0,0x0F00,
0.390158041666667,0,0x8419,
0.390173916666667,0,0x0000,
0.390181791666667,0,0x8513,
0.390197625000000,0,0x3F3F,
0.390205583333333,0,0x8619,
0.390236708333333,0,0x0004,
0.390244375000000,0,0x031D,
0.390260500000000,0,0x0A01,
0.390268458333333,0,0x831D,
0.390284291666667,0,0x0F00,
0.390292208333333,0,0x841D,
0.390308041666667,0,0x0000,
0.390315958333333,0,0x8513,
0.390331833333333,0,0x3F3F,
0.390339750000000,0,0x861D,
0.390369958333333,0,0x0004,
0.390377625000000,0,0x0311,
0.390393708333333,0,0x0A01,
0.390401625000000,0,0x8311,
0.390417458333333,0,0x0F00,
0.390425375000000,0,0x8411,
0.390441250000000,0,0x0000,
0.390449166666667,0,0x8513,
0.390465000000000,0,0x3F3F,
0.390472916666667,0,0x8611,
0.390503708333333,0,0x0004,
0.390511416666667,0,0x0315,
0.390527375000000,0,0x0A01,
0.390535291666667,0,0x8315,
0.390551125000000,0,0x0F00,
0.390559041666667,0,0x8415,
0.390574875000000,0,0x0000,
0.390582791666667,0,0x8513,
0.390598625000000,0,0x3F3F,
0.390606541666667,0,0x8615,
0.390637750000000,0,0x0004,
0.390645416666667,0,0x0319,
0.390661458333333,0,0x0A01,
0.390669375000000,0,0x8319,
0.390685208333333,0,0x0F00,
0.390693125000000,0,0x8419,
0.390708958333333,0,0x0000,
0.390716875000000,0,0x8513,
0.390732708333333,0,0x373F,
0.390740625000000,0,0x8619,
0.390771166666667,0,0x0001,
0.390778833333333,0,0x1D1D,
0.390795083333333,0,0x1551,
0.390803000000000,0,0x9D1D,
0.390831166666667,0,0x0003,
0.390838875000000,0,0x2411,
0.390854958333333,0,0x0048,
0.390862875000000,0,0xA413,
0.390878708333333,0,0x0040,
0.390886666666667,0,0xA513,
0.390902458333333,0,0x0000,
0.390910375000000,0,0xA613,
0.390939166666667,0,0x0005,
0.390946875000000,0,0x2D15,
0.390963333333333,0,0xEC0F,
0.390971250000000,0,0xAD13,
0.390987083333333,0,0xFFFD,
0.390995000000000,0,0xAE13,
0.391010833333333,0,0x861D,
0.391018750000000,0,0xAF13,
0.391034583333333,0,0xFFFF,
0.391042500000000,0,0xB013,
0.391058333333333,0,0x830C,
0.391066250000000,0,0xB113,
0.391096291666667,0,0x0006,
0.391103958333333,0,0x3B19,
0.391120166666667,0,0xB3DE,
0.391128083333333,0,0xBB13,
0.391143916666667,0,0xB32A,
0.391151833333333,0,0xBC13,
0.391167666666667,0,0xB2BE,
0.391175583333333,0,0xBD13,
0.391191416666667,0,0xB1FE,
0.391199375000000,0,0xBE13,
0.391215208333333,0,0xB202,
0.391223125000000,0,0xBF13,
0.391238958333333,0,0xB270,
0.391246875000000,0,0xC013,
0.391277208333333,0,0x000A,
0.391284916666667,0,0x411D,
0.391301291666667,0,0xC0C4,
0.391309208333333,0,0xC113,
0.391325041666667,0,0xC0C6,
0.391332958333333,0,0xC213,
0.391348791666667,0,0xC0C2,
0.391356708333333,0,0xC313,
0.391372541666667,0,0xC084,
0.391380458333333,0,0xC413,
0.391396333333333,0,0xC09E,
0.391404250000000,0,0xC513,
0.391420041666667,0,0xDD4C,
0.391427958333333,0,0xC613,
0.391443791666667,0,0x8039,
0.391451708333333,0,0xC713,
0.391467541666667,0,0xA3CA,
0.391475458333333,0,0xC813,
0.391491291666667,0,0x9E36,
0.391499208333333,0,0xC913,
0.391515041666667,0,0x9E37,
0.391522958333333,0,0xCA13,
0.391555333333333,0,0x0004,
0.391563041666667,0,0x0321,
0.391579208333333,0,0x0A01,
0.391587041666667,0,0x8321,
0.391602791666667,0,0x0F00,
0.391610666666667,0,0x8421,
0.391626375000000,0,0x0000,
0.391634250000000,0,0x8523,
0.391649958333333,0,0x373F,
0.391657833333333,0,0x8621,
0.391688041666667,0,0x0001,
0.391695708333333,0,0x1D25,
0.391711875000000,0,0x0055,
0.391719708333333,0,0x9D25,
0.391747833333333,0,0x0003,
0.391755500000000,0,0x2429,
0.391771791666667,0,0x004C,
0.391779666666667,0,0xA423,
0.391795375000000,0,0x0040,
0.391803250000000,0,0xA523,
0.391818958333333,0,0x8000,
0.391826833333333,0,0xA623,
0.391855333333333,0,0x0005,
0.391863041666667,0,0x2D2D,
0.391879375000000,0,0xEDD9,
0.391887250000000,0,0xAD23,
0.391903000000000,0,0xFFFD,
0.391910833333333,0,0xAE23,
0.391926583333333,0,0xDD27,
0.391934416666667,0,0xAF23,
0.391950166666667,0,0xFFFF,
0.391958000000000,0,0xB023,
0.391973750000000,0,0x830D,
0.391981625000000,0,0xB123,
0.392011291666667,0,0x0006,
0.392019000000000,0,0x3B21,
0.392035166666667,0,0xE51A,
0.392043000000000,0,0xBB23,
0.392058750000000,0,0x8000,
0.392066583333333,0,0xBC23,
0.392082291666667,0,0x8002,
0.392090166666667,0,0xBD23,
0.392105875000000,0,0x8002,
0.392113750000000,0,0xBE23,
0.392129458333333,0,0xE5BD,
0.392137333333333,0,0xBF23,
0.392153041666667,0,0xE5D7,
0.392160916666667,0,0xC023,
0.392191250000000,0,0x000A,
0.392198916666667,0,0x4125,
0.392214958333333,0,0xDB99,
0.392222791666667,0,0xC123,
0.392238541666667,0,0xDCA8,
0.392246375000000,0,0xC223,
0.392262125000000,0,0xDF47,
0.392270000000000,0,0xC323,
0.392285708333333,0,0xE120,
0.392293541666667,0,0xC423,
0.392309291666667,0,0xA97F,
0.392317166666667,0,0xC523,
0.392332875000000,0,0xFF4C,
0.392340708333333,0,0xC623,
0.392356458333333,0,0xC016,
0.392364291666667,0,0xC723,
0.392380041666667,0,0xA3B1,
0.392387875000000,0,0xC823,
0.392403625000000,0,0x9E3A,
0.392411458333333,0,0xC923,
0.392427166666667,0,0x9E41,
0.392435041666667,0,0xCA23,
0.400018375000000,0,0x4C3F,
0.400026041666667,0,0x060B,
0.400052833333333,0,0x0004,
0.400060500000000,0,0x031D,
0.400076791666667,0,0x0A01,
0.400084708333333,0,0x831D,
0.400100541666667,0,0x0F00,
0.400108458333333,0,0x841D,
0.400124291666667,0,0x0000,
0.400132208333333,0,0x8514,
0.400148041666667,0,0x4F3F,
0.400155958333333,0,0x861D,
0.400186166666667,0,0x0004,
0.400193833333333,0,0x0311,
0.400209916666667,0,0x0A01,
0.400217833333333,0,0x8311,
0.400233666666667,0,0x0F00,
0.400241583333333,0,0x8411,
0.400257416666667,0,0x0000,
0.400265333333333,0,0x8514,
0.400281166666667,0,0x4F3F,
0.400289083333333,0,0x8611,
0.400320458333333,0,0x0004,
0.400328125000000,0,0x0315,
0.400344500000000,0,0x0A01,
0.400352416666667,0,0x8315,
0.400368250000000,0,0x0F00,
0.400376166666667,0,0x8415,
0.400392000000000,0,0x0000,
0.400399916666667,0,0x8514,
0.400415708333333,0,0x4F3F,
0.400423666666667,0,0x8615,
0.400454041666667,0,0x0004,
0.400461708333333,0,0x0319,
0.400478041666667,0,0x0A01,
0.400485958333333,0,0x8319,
0.400501791666667,0,0x0F00,
0.400509708333333,0,0x8419,
0.400525541666667,0,0x0000,
0.400533500000000,0,0x8514,
0.400549333333333,0,0x4F3F,
0.400557250000000,0,0x8619,
0.400587166666667,0,0x0004,
0.400594875000000,0,0x031D,
0.400611166666667,0,0x0A01,
0.400619083333333,0,0x831D,
0.400634916666667,0,0x0F00,
0.400642833333333,0,0x841D,
0.400658666666667,0,0x0000,
0.400666583333333,0,0x8514,
0.400682416666667,0,0x473F,
0.400690333333333,0,0x861D,
0.400721416666667,0,0x0001,
0.400729125000000,0,0x1D11,
0.400745250000000,0,0x1551,
0.400753166666667,0,0x9D11,
0.400781416666667,0,0x0003,
0.400789125000000,0,0x2415,
0.400805125000000,0,0x0048,
0.400813041666667,0,0xA414,
0.400828875000000,0,0x0040,
0.400836791666667,0,0xA514,
0.400852625000000,0,0x0000,
0.400860541666667,0,0xA614,
0.400889041666667,0,0x0005,
0.400896708333333,0,0x2D19,
0.400913000000000,0,0xED17,
0.400920916666667,0,0xAD14,
0.400936750000000,0,0xFFFD,
0.400944666666667,0,0xAE14,
0.400960500000000,0,0x8367,
0.400968416666667,0,0xAF14,
0.400984250000000,0,0xFFFF,
0.400992166666667,0,0xB014,
0.401008000000000,0,0x8307,
0.401015916666667,0,0xB114,
0.401045000000000,0,0x0006,
0.401052666666667,0,0x3B1D,
0.401068833333333,0,0xB3DD,
0.401076791666667,0,0xBB14,
0.401092625000000,0,0xB326,
0.401100541666667,0,0xBC14,
0.401116375000000,0,0xB2BF,
0.401124250000000,0,0xBD14,
0.401140083333333,0,0xB201,
0.401148041666667,0,0xBE14,
0.401163875000000,0,0xB202,
0.401171791666667,0,0xBF14,
0.401187625000000,0,0xB272,
0.401195541666667,0,0xC014,
0.401225458333333,0,0x000A,
0.401233166666667,0,0x4111,
0.401249458333333,0,0xC0C6,
0.401257375000000,0,0xC114,
0.401273208333333,0,0xC0C6,
0.401281166666667,0,0xC214,
0.401297000000000,0,0xC0C7,
0.401304916666667,0,0xC314,
0.401320708333333,0,0xC087,
0.401328666666667,0,0xC414,
0.401344458333333,0,0xC0A5,
0.401352375000000,0,0xC514,
0.401368208333333,0,0xDD4C,
0.401376125000000,0,0xC614,
0.401391958333333,0,0x803F,
0.401399875000000,0,0xC714,
0.401415708333333,0,0xA3CE,
0.401423625000000,0,0xC814,
0.401439458333333,0,0x9E38,
0.401447375000000,0,0xC914,
0.401463208333333,0,0x9E3C,
0.401471125000000,0,0xCA14,
0.401502875000000,0,0x0004,
0.401510541666667,0,0x0325,
0.401526541666667,0,0x0A01,
0.401534375000000,0,0x8325,
0.401550125000000,0,0x0F00,
0.401557958333333,0,0x8425,
0.401573708333333,0,0x0000,
0.401581541666667,0,0x8524,
0.401597250000000,0,0x473F,
0.401605125000000,0,0x8625,
0.401635416666667,0,0x0001,
0.401643125000000,0,0x1D29,
0.401659166666667,0,0x0055,
0.401667041666667,0,0x9D29,
0.401694875000000,0,0x0003,
0.401702541666667,0,0x242D,
0.401718625000000,0,0x004C,
0.401726500000000,0,0xA424,
0.401742166666667,0,0x0040,
0.401750041666667,0,0xA524,
0.401765791666667,0,0x8000,
0.401773625000000,0,0xA624,
0.401802083333333,0,0x0005,
0.401809750000000,0,0x2D21,
0.401826166666667,0,0xEEE4,
0.401834041666667,0,0xAD24,
0.401849750000000,0,0xFFFD,
0.401857625000000,0,0xAE24,
0.401873375000000,0,0xDB89,
0.401881208333333,0,0xAF24,
0.401896958333333,0,0x8000,
0.401904791666667,0,0xB024,
0.401920500000000,0,0x8302,
0.401928375000000,0,0xB124,
0.401958375000000,0,0x0006,
0.401966041666667,0,0x3B25,
0.401982416666667,0,0xE519,
0.401990291666667,0,0xBB24,
0.402006000000000,0,0x8001,
0.402013833333333,0,0xBC24,
0.402029583333333,0,0x8000,
0.402037416666667,0,0xBD24,
0.402053125000000,0,0x8000,
0.402061000000000,0,0xBE24,
0.402076708333333,0,0xE5BD,
0.402084583333333,0,0xBF24,
0.402100291666667,0,0xE5D8,
0.402108166666667,0,0xC024,
0.402137666666667,0,0x000A,
0.402145333333333,0,0x4129,
0.402161708333333,0,0xDB9A,
0.402169583333333,0,0xC124,
0.402185291666667,0,0xDCAA,
0.402193166666667,0,0xC224,
0.402208875000000,0,0xDF49,
0.402216708333333,0,0xC324,
0.402232458333333,0,0xE124,
0.402240333333333,0,0xC424,
0.402256041666667,0,0xA982,
0.402263916666667,0,0xC524,
0.402279625000000,0,0xFF4D,
0.402287500000000,0,0xC624,
0.402303208333333,0,0xC013,
0.402311083333333,0,0xC724,
0.402326833333333,0,0xA3B2,
0.402334666666667,0,0xC824,
0.402350375000000,0,0x9E3C,
0.402358250000000,0,0xC924,
0.402373958333333,0,0x9E3C,
0.402381833333333,0,0xCA24,
0.410194375000000,0,0x5C3F,
0.410202041666667,0,0x060F,
0.410229958333333,0,0x0004,
0.410237625000000,0,0x0311,
0.410253916666667,0,0x0A01,
0.410261833333333,0,0x8311,
0.410277708333333,0,0x0F00,
0.410285583333333,0,0x8411,
0.410301458333333,0,0x0000,
0.410309333333333,0,0x8515,
0.410325166666667,0,0x5F3F,
0.410333083333333,0,0x8611,
0.410364041666667,0,0x0004,
0.410371708333333,0,0x0315,
0.410388000000000,0,0x0A01,
0.410395916666667,0,0x8315,
0.410411750000000,0,0x0F00,
0.410419666666667,0,0x8415,
0.410435500000000,0,0x0000,
0.410443416666667,0,0x8515,
0.410459250000000,0,0x5F3F,
0.410467166666667,0,0x8615,
0.410497750000000,0,0x0004,
0.410505458333333,0,0x0319,
0.410521583333333,0,0x0A01,
0.410529500000000,0,0x8319,
0.410545333333333,0,0x0F00,
0.410553291666667,0,0x8419,
0.410569125000000,0,0x0000,
0.410577000000000,0,0x8515,
0.410592875000000,0,0x5F3F,
0.410600750000000,0,0x8619,
0.410631916666667,0,0x0004,
0.410639625000000,0,0x031D,
0.410655708333333,0,0x0A01,
0.410663583333333,0,0x831D,
0.410679416666667,0,0x0F00,
0.410687375000000,0,0x841D,
0.410703208333333,0,0x0000,
0.410711083333333,0,0x8515,
0.410726958333333,0,0x5F3F,
0.410734875000000,0,0x861D,
0.410765750000000,0,0x0004,
0.410773416666667,0,0x0311,
0.410789791666667,0,0x0A01,
0.410797708333333,0,0x8311,
0.410813541666667,0,0x0F00,
0.410821458333333,0,0x8411,
0.410837291666667,0,0x0000,
0.410845250000000,0,0x8515,
0.410861041666667,0,0x573F,
0.410868958333333,0,0x8611,
0.410899833333333,0,0x0001,
0.410907500000000,0,0x1D15,
0.410923875000000,0,0x1551,
0.410931791666667,0,0x9D15,
0.410959833333333,0,0x0003,
0.410967541666667,0,0x2419,
0.410983750000000,0,0x0048,
0.410991666666667,0,0xA415,
0.411007500000000,0,0x0040,
0.411015416666667,0,0xA515,
0.411031250000000,0,0x0000,
0.411039166666667,0,0xA615,
0.411068125000000,0,0x0005,
0.411075791666667,0,0x2D1D,
0.411092125000000,0,0xEE26,
0.411100041666667,0,0xAD15,
0.411115833333333,0,0xFFFD,
0.411123791666667,0,0xAE15,
0.411139583333333,0,0x8123,
0.411147541666667,0,0xAF15,
0.411163375000000,0,0xFFFF,
0.411171250000000,0,0xB015,
0.411187125000000,0,0x8309,
0.411195000000000,0,0xB115,
0.411224708333333,0,0x0006,
0.411232375000000,0,0x3B11,
0.411248458333333,0,0xB3E1,
0.411256375000000,0,0xBB15,
0.411272208333333,0,0xB32D,
0.411280125000000,0,0xBC15,
0.411295958333333,0,0xB2BB,
0.411303875000000,0,0xBD15,
0.411319708333333,0,0xB1FE,
0.411327625000000,0,0xBE15,
0.411343458333333,0,0xB202,
0.411351375000000,0,0xBF15,
0.411367208333333,0,0xB277,
0.411375125000000,0,0xC015,
0.411405541666667,0,0x000A,
0.411413250000000,0,0x4115,
0.411429583333333,0,0xC0C4,
0.411437458333333,0,0xC115,
0.411453291666667,0,0xC0C3,
0.411461250000000,0,0xC215,
0.411477083333333,0,0xC0C3,
0.411485000000000,0,0xC315,
0.411500833333333,0,0xC085,
0.411508708333333,0,0xC415,
0.411524583333333,0,0xC0A3,
0.411532458333333,0,0xC515,
0.411548333333333,0,0xDD4B,
0.411556208333333,0,0xC615,
0.411572083333333,0,0x8038,
0.411580000000000,0,0xC715,
0.411595833333333,0,0xA3CD,
0.411603750000000,0,0xC815,
0.411619583333333,0,0x9E39,
0.411627500000000,0,0xC915,
0.411643333333333,0,0x9E39,
0.411651250000000,0,0xCA15,
0.411683500000000,0,0x0004,
0.411691125000000,0,0x0329,
0.411707333333333,0,0x0A01,
0.411715166666667,0,0x8329,
0.411730875000000,0,0x0F00,
0.411738750000000,0,0x8429,
0.411754458333333,0,0x0000,
0.411762333333333,0,0x8525,
0.411778041666667,0,0x573F,
0.411785916666667,0,0x8629,
0.411816750000000,0,0x0001,
0.411824416666667,0,0x1D2D,
0.411840416666667,0,0x0055,
0.411848291666667,0,0x9D2D,
0.411876375000000,0,0x0003,
0.411884041666667,0,0x2421,
0.411900375000000,0,0x004C,
0.411908208333333,0,0xA425,
0.411923958333333,0,0x0040,
0.411931791666667,0,0xA525,
0.411947541666667,0,0x8000,
0.411955416666667,0,0xA625,
0.411985750000000,0,0x0005,
0.411993416666667,0,0x2D25,
0.412009458333333,0,0xEFF5,
0.412017333333333,0,0xAD25,
0.412033041666667,0,0xFFFD,
0.412040875000000,0,0xAE25,
0.412056625000000,0,0xD8E2,
0.412064458333333,0,0xAF25,
0.412080208333333,0,0xFFFF,
0.412088041666667,0,0xB025,
0.412103791666667,0,0x830F,
0.412111625000000,0,0xB125,
0.412141416666667,0,0x0006,
0.412149083333333,0,0x3B29,
0.412165208333333,0,0xE517,
0.412173083333333,0,0xBB25,
0.412188791666667,0,0x8000,
0.412196625000000,0,0xBC25,
0.412212375000000,0,0x8000,
0.412220208333333,0,0xBD25,
0.412235958333333,0,0x8000,
0.412243791666667,0,0xBE25,
0.412259541666667,0,0xE5C0,
0.412267375000000,0,0xBF25,
0.412283125000000,0,0xE5D5,
0.412290958333333,0,0xC025,
0.412322291666667,0,0x000A,
0.412330000000000,0,0x412D,
0.412346000000000,0,0xDB97,
0.412353875000000,0,0xC125,
0.412369583333333,0,0xDCA6,
0.412377458333333,0,0xC225,
0.412393166666667,0,0xDF49,
0.412401041666667,0,0xC325,
0.412416750000000,0,0xE124,
0.412424625000000,0,0xC425,
0.412440333333333,0,0xA97C,
0.412448166666667,0,0xC525,
0.412463916666667,0,0xFF48,
0.412471791666667,0,0xC625,
0.412487500000000,0,0xC012,
0.412495333333333,0,0xC725,
0.412511083333333,0,0xA3B1,
0.412518958333333,0,0xC825,
0.412534666666667,0,0x9E38,
0.412542541666667,0,0xC925,
0.412558250000000,0,0x9E41,
0.412566125000000,0,0xCA25,
0.420066000000000,0,0x6C3F,
0.420073666666667,0,0x0603,
0.420100875000000,0,0x0004,
0.420108541666667,0,0x0315,
0.420124875000000,0,0x0A01,
0.420132791666667,0,0x8315,
0.420148625000000,0,0x0F00,
0.420156583333333,0,0x8415,
0.420172416666667,0,0x0000,
0.420180333333333,0,0x8516,
0.420196166666667,0,0x6F3F,
0.420204125000000,0,0x8615,
0.420235333333333,0,0x0004,
0.420243000000000,0,0x0319,
0.420259041666667,0,0x0A01,
0.420266958333333,0,0x8319,
0.420282791666667,0,0x0F00,
0.420290708333333,0,0x8419,
0.420306583333333,0,0x0000,
0.420314500000000,0,0x8516,
0.420330333333333,0,0x6F3F,
0.420338250000000,0,0x8619,
0.420369208333333,0,0x0004,
0.420376875000000,0,0x031D,
0.420393208333333,0,0x0A01,
0.420401125000000,0,0x831D,
0.420416958333333,0,0x0F00,
0.420424875000000,0,0x841D,
0.420440708333333,0,0x0000,
0.420448666666667,0,0x8516,
0.420464500000000,0,0x6F3F,
0.420472416666667,0,0x861D,
0.420503083333333,0,0x0004,
0.420510750000000,0,0x0311,
0.420526875000000,0,0x0A01,
0.420534791666667,0,0x8311,
0.420550625000000,0,0x0F00,
0.420558583333333,0,0x8411,
0.420574416666667,0,0x0000,
0.420582333333333,0,0x8516,
0.420598166666667,0,0x6F3F,
0.420606083333333,0,0x8611,
0.420637250000000,0,0x0004,
0.420644916666667,0,0x0315,
0.420661000000000,0,0x0A01,
0.420668916666667,0,0x8315,
0.420684750000000,0,0x0F00,
0.420692666666667,0,0x8415,
0.420708500000000,0,0x0000,
0.420716416666667,0,0x8516,
0.420732250000000,0,0x673F,
0.420740166666667,0,0x8615,
0.420771458333333,0,0x0001,
0.420779125000000,0,0x1D19,
0.420795583333333,0,0x1551,
0.420803500000000,0,0x9D19,
0.420831916666667,0,0x0003,
0.420839625000000,0,0x241D,
0.420855958333333,0,0x0048,
0.420863875000000,0,0xA416,
0.420879666666667,0,0x0040,
0.420887625000000,0,0xA516,
0.420903458333333,0,0x0000,
0.420911375000000,0,0xA616,
0.420940250000000,0,0x0005,
0.420947958333333,0,0x2D11,
0.420964291666667,0,0xEF2D,
0.420972208333333,0,0xAD16,
0.420988041666667,0,0xFFFD,
0.420995958333333,0,0xAE16,
0.421011791666667,0,0x7E19,
0.421019708333333,0,0xAF16,
0.421035541666667,0,0xFFFF,
0.421043458333333,0,0xB016,
0.421059333333333,0,0x830E,
0.421067208333333,0,0xB116,
0.421097791666667,0,0x0006,
0.421105458333333,0,0x3B15,
0.421121625000000,0,0xB3DF,
0.421129583333333,0,0xBB16,
0.421145416666667,0,0xB32A,
0.421153291666667,0,0xBC16,
0.421169166666667,0,0xB2BF,
0.421177041666667,0,0xBD16,
0.421192875000000,0,0xB201,
0.421200791666667,0,0xBE16,
0.421216625000000,0,0xB202,
0.421224583333333,0,0xBF16,
0.421240375000000,0,0xB275,
0.421248291666667,0,0xC016,
0.421277625000000,0,0x000A,
0.421285291666667,0,0x4119,
0.421301750000000,0,0xC0C3,
0.421309666666667,0,0xC116,
0.421325500000000,0,0xC0C2,
0.421333416666667,0,0xC216,
0.421349250000000,0,0xC0C3,
0.421357166666667,0,0xC316,
0.421373000000000,0,0xC081,
0.421380916666667,0,0xC416,
0.421396750000000,0,0xC0A1,
0.421404666666667,0,0xC516,
0.421420500000000,0,0xDD49,
0.421428416666667,0,0xC616,
0.421444250000000,0,0x8039,
0.421452166666667,0,0xC716,
0.421468000000000,0,0xA3CD,
0.421475916666667,0,0xC816,
0.421491750000000,0,0x9E38,
0.421499666666667,0,0xC916,
0.421515500000000,0,0x9E3B,
0.421523416666667,0,0xCA16,
0.421555833333333,0,0x0004,
0.421563541666667,0,0x032D,
0.421579875000000,0,0x0A01,
0.421587708333333,0,0x832D,
0.421603458333333,0,0x0F00,
0.421611291666667,0,0x842D,
0.421627041666667,0,0x0000,
0.421634875000000,0,0x8526,
0.421650583333333,0,0x673F,
0.421658458333333,0,0x862D,
0.421688375000000,0,0x0001,
0.421696083333333,0,0x1D21,
0.421712500000000,0,0x0055,
0.421720333333333,0,0x9D21,
0.421747791666667,0,0x0003,
0.421755500000000,0,0x2425,
0.421771458333333,0,0x004C,
0.421779291666667,0,0xA426,
0.421795041666667,0,0x0040,
0.421802875000000,0,0xA526,
0.421818625000000,0,0x8000,
0.421826458333333,0,0xA626,
0.421856208333333,0,0x0005,
0.421863916666667,0,0x2D29,
0.421880041666667,0,0xF0FD,
0.421887875000000,0,0xAD26,
0.421903625000000,0,0xFFFD,
0.421911458333333,0,0xAE26,
0.421927208333333,0,0xD6A0,
0.421935041666667,0,0xAF26,
0.421950750000000,0,0xFFFF,
0.421958625000000,0,0xB026,
0.421974375000000,0,0x830E,
0.421982208333333,0,0xB126,
0.422012625000000,0,0x0006,
0.422020291666667,0,0x3B2D,
0.422036250000000,0,0xE51F,
0.422044125000000,0,0xBB26,
0.422059833333333,0,0x8000,
0.422067708333333,0,0xBC26,
0.422083416666667,0,0x8001,
0.422091291666667,0,0xBD26,
0.422107041666667,0,0x8001,
0.422114875000000,0,0xBE26,
0.422130625000000,0,0xE5BD,
0.422138458333333,0,0xBF26,
0.422154208333333,0,0xE5D6,
0.422162083333333,0,0xC026,
0.422192083333333,0,0x000A,
0.422199791666667,0,0x4121,
0.422216083333333,0,0xDB9A,
0.422223958333333,0,0xC126,
0.422239666666667,0,0xDCA6,
0.422247541666667,0,0xC226,
0.422263250000000,0,0xDF4D,
0.422271125000000,0,0xC326,
0.422286875000000,0,0xE124,
0.422294708333333,0,0xC426,
0.422310458333333,0,0xA982,
0.422318291666667,0,0xC526,
0.422334000000000,0,0xFF4F,
0.422341875000000,0,0xC626,
0.422357583333333,0,0xC015,
0.422365458333333,0,0xC726,
0.422381166666667,0,0xA3B4,
0.422389041666667,0,0xC826,
0.422404750000000,0,0x9E3C,
0.422412625000000,0,0xC926,
0.422428333333333,0,0x9E3F,
0.422436208333333,0,0xCA26,
0.430073333333333,0,0x7C3F,
0.430081041666667,0,0x0607,
0.430109000000000,0,0x0004,
0.430116666666667,0,0x0319,
0.430132750000000,0,0x0A01,
0.430140666666667,0,0x8319,
0.430156500000000,0,0x0F00,
0.430164416666667,0,0x8419,
0.430180250000000,0,0x0000,
0.430188208333333,0,0x8517,
0.430204041666667,0,0x7F3F,
0.430211958333333,0,0x8619,
0.430242916666667,0,0x0004,
0.430250583333333,0,0x031D,
0.430266916666667,0,0x0A01,
0.430274833333333,0,0x831D,
0.430290666666667,0,0x0F00,
0.430298583333333,0,0x841D,
0.430314458333333,0,0x0000,
0.430322375000000,0,0x8517,
0.430338208333333,0,0x7F3F,
0.430346125000000,0,0x861D,
0.430376333333333,0,0x0004,
0.430384041666667,0,0x0311,
0.430400083333333,0,0x0A01,
0.430408000000000,0,0x8311,
0.430423875000000,0,0x0F00,
0.430431750000000,0,0x8411,
0.430447583333333,0,0x0000,
0.430455500000000,0,0x8517,
0.430471375000000,0,0x7F3F,
0.430479291666667,0,0x8611,
0.430509250000000,0,0x0004,
0.430516958333333,0,0x0315,
0.430533208333333,0,0x0A01,
0.430541166666667,0,0x8315,
0.430557000000000,0,0x0F00,
0.430564916666667,0,0x8415,
0.430580750000000,0,0x0000,
0.430588666666667,0,0x8517,
0.430604500000000,0,0x7F3F,
0.430612416666667,0,0x8615,
0.430643583333333,0,0x0004,
0.430651250000000,0,0x0319,
0.430667333333333,0,0x0A01,
0.430675250000000,0,0x8319,
0.430691083333333,0,0x0F00,
0.430699000000000,0,0x8419,
0.430714833333333,0,0x0000,
0.430722750000000,0,0x8517,
0.430738583333333,0,0x773F,
0.430746500000000,0,0x8619,
0.430777375000000,0,0x0001,
0.430785083333333,0,0x1D1D,
0.430801458333333,0,0x1551,
0.430809375000000,0,0x9D1D,
0.430837125000000,0,0x0003,
0.430844791666667,0,0x2411,
0.430860791666667,0,0x0048,
0.430868708333333,0,0xA417,
0.430884583333333,0,0x0040,
0.430892500000000,0,0xA517,
0.430908333333333,0,0x0000,
0.430916250000000,0,0xA617,
0.430944291666667,0,0x0005,
0.430951958333333,0,0x2D15,
0.430968166666667,0,0xF037,
0.430976083333333,0,0xAD17,
0.430991958333333,0,0xFFFD,
0.430999875000000,0,0xAE17,
0.431015708333333,0,0x7B4E,
0.431023583333333,0,0xAF17,
0.431039416666667,0,0xFFFF,
0.431047333333333,0,0xB017,
0.431063208333333,0,0x830F,
0.431071125000000,0,0xB117,
0.431101500000000,0,0x0006,
0.431109166666667,0,0x3B19,
0.431125541666667,0,0xB3E1,
0.431133458333333,0,0xBB17,
0.431149291666667,0,0xB32C,
0.431157208333333,0,0xBC17,
0.431173041666667,0,0xB2B9,
0.431180958333333,0,0xBD17,
0.431196791666667,0,0xB1FC,
0.431204708333333,0,0xBE17,
0.431220541666667,0,0xB1FD,
0.431228458333333,0,0xBF17,
0.431244291666667,0,0xB270,
0.431252208333333,0,0xC017,
0.431282208333333,0,0x000A,
0.431289916666667,0,0x411D,
0.431306166666667,0,0xC0C7,
0.431314083333333,0,0xC117,
0.431329916666667,0,0xC0C5,
0.431337833333333,0,0xC217,
0.431353666666667,0,0xC0C5,
0.431361583333333,0,0xC317,
0.431377416666667,0,0xC087,
0.431385333333333,0,0xC417,
0.431401166666667,0,0xC0A4,
0.431409083333333,0,0xC517,
0.431424916666667,0,0xDD47,
0.431432833333333,0,0xC617,
0.431448666666667,0,0x803D,
0.431456583333333,0,0xC717,
0.431472416666667,0,0xA3CE,
0.431480333333333,0,0xC817,
0.431496166666667,0,0x9E3A,
0.431504083333333,0,0xC917,
0.431519916666667,0,0x9E39,
0.431527833333333,0,0xCA17,
0.431559625000000,0,0x0004,
0.431567291666667,0,0x0321,
0.431583416666667,0,0x0A01,
0.431591291666667,0,0x8321,
0.431607000000000,0,0x0F00,
0.431614875000000,0,0x8421,
0.431630583333333,0,0x0000,
0.431638458333333,0,0x8527,
0.431654166666667,0,0x773F,
0.431662041666667,0,0x8621,
0.431691875000000,0,0x0001,
0.431699583333333,0,0x1D25,
0.431715583333333,0,0x0055,
0.431723458333333,0,0x9D25,
0.431751875000000,0,0x0003,
0.431759583333333,0,0x2429,
0.431776041666667,0,0x004C,
0.431783875000000,0,0xA427,
0.431799583333333,0,0x0040,
0.431807458333333,0,0xA527,
0.431823166666667,0,0x8000,
0.431831041666667,0,0xA627,
0.431860250000000,0,0x0005,
0.431867916666667,0,0x2D2D,
0.431884083333333,0,0xF209,
0.431891958333333,0,0xAD27,
0.431907666666667,0,0xFFFD,
0.431915541666667,0,0xAE27,
0.431931250000000,0,0xD45C,
0.431939125000000,0,0xAF27,
0.431954833333333,0,0x8000,
0.431962708333333,0,0xB027,
0.431978416666667,0,0x8304,
0.431986291666667,0,0xB127,
0.432016833333333,0,0x0006,
0.432024500000000,0,0x3B21,
0.432040791666667,0,0xE51B,
0.432048666666667,0,0xBB27,
0.432064375000000,0,0x8001,
0.432072250000000,0,0xBC27,
0.432087958333333,0,0x8000,
0.432095833333333,0,0xBD27,
0.432111541666667,0,0x8000,
0.432119416666667,0,0xBE27,
0.432135125000000,0,0xE5BA,
0.432142958333333,0,0xBF27,
0.432158708333333,0,0xE5D5,
0.432166583333333,0,0xC027,
0.432196375000000,0,0x000A,
0.432204041666667,0,0x4125,
0.432220125000000,0,0xDB9A,
0.432228000000000,0,0xC127,
0.432243708333333,0,0xDCA2,
0.432251541666667,0,0xC227,
0.432267291666667,0,0xDF44,
0.432275166666667,0,0xC327,
0.432290875000000,0,0xE120,
0.432298708333333,0,0xC427,
0.432314458333333,0,0xA97F,
0.432322291666667,0,0xC527,
0.432338041666667,0,0xFF47,
0.432345875000000,0,0xC627,
0.432361625000000,0,0xC015,
0.432369458333333,0,0xC727,
0.432385208333333,0,0xA3AF,
0.432393041666667,0,0xC827,
0.432408791666667,0,0x9E37,
0.432416666666667,0,0xC927,
0.432432375000000,0,0x9E3D,
0.432440208333333,0,0xCA27,
0.440012083333333,0,0x8C3F,
0.440019750000000,0,0x060B,
0.440047041666667,0,0x0004,
0.440054750000000,0,0x031D,
0.440070708333333,0,0x0A01,
0.440078625000000,0,0x831D,
0.440094458333333,0,0x0F00,
0.440102375000000,0,0x841D,
0.440118250000000,0,0x0000,
0.440126166666667,0,0x8518,
0.440142000000000,0,0x8F3F,
0.440149916666667,0,0x861D,
0.440180750000000,0,0x0004,
0.440188416666667,0,0x0311,
0.440204875000000,0,0x0A01,
0.440212791666667,0,0x8311,
0.440228625000000,0,0x0F00,
0.440236541666667,0,0x8411,
0.440252375000000,0,0x0000,
0.440260333333333,0,0x8518,
0.440276166666667,0,0x8F3F,
0.440284083333333,0,0x8611,
0.440314625000000,0,0x0004,
0.440322291666667,0,0x0315,
0.440338541666667,0,0x0A01,
0.440346458333333,0,0x8315,
0.440362291666667,0,0x0F00,
0.440370208333333,0,0x8415,
0.440386083333333,0,0x0000,
0.440394000000000,0,0x8518,
0.440409833333333,0,0x8F3F,
0.440417750000000,0,0x8615,
0.440448500000000,0,0x0004,
0.440456166666667,0,0x0319,
0.440472208333333,0,0x0A01,
0.440480166666667,0,0x8319,
0.440495958333333,0,0x0F00,
0.440503916666667,0,0x8419,
0.440519750000000,0,0x0000,
0.440527666666667,0,0x8518,
0.440543500000000,0,0x8F3F,
0.440551416666667,0,0x8619,
0.440582166666667,0,0x0004,
0.440589875000000,0,0x031D,
0.440606333333333,0,0x0A01,
0.440614250000000,0,0x831D,
0.440630083333333,0,0x0F00,
0.440638000000000,0,0x841D,
0.440653833333333,0,0x0000,
0.440661750000000,0,0x8518,
0.440677583333333,0,0x873F,
0.440685500000000,0,0x861D,
0.440716250000000,0,0x0001,
0.440723916666667,0,0x1D11,
0.440739958333333,0,0x1551,
0.440747875000000,0,0x9D11,
0.440775875000000,0,0x0003,
0.440783583333333,0,0x2415,
0.440799833333333,0,0x0048,
0.440807750000000,0,0xA418,
0.440823541666667,0,0x0040,
0.440831500000000,0,0xA518,
0.440847333333333,0,0x0000,
0.440855250000000,0,0xA618,
0.440884041666667,0,0x0005,
0.440891708333333,0,0x2D19,
0.440907708333333,0,0xF13F,
0.440915625000000,0,0xAD18,
0.440931458333333,0,0xFFFD,
0.440939375000000,0,0xAE18,
0.440955208333333,0,0x787D,
0.440963125000000,0,0xAF18,
0.440978958333333,0,0x8000,
0.440986916666667,0,0xB018,
0.441002750000000,0,0x8304,
0.441010666666667,0,0xB118,
0.441040583333333,0,0x0006,
0.441048291666667,0,0x3B1D,
0.441064541666667,0,0xB3E0,
0.441072500000000,0,0xBB18,
0.441088291666667,0,0xB32B,
0.441096250000000,0,0xBC18,
0.441112041666667,0,0xB2BC,
0.441120000000000,0,0xBD18,
0.441135833333333,0,0xB1FD,
0.441143708333333,0,0xBE18,
0.441159541666667,0,0xB1FE,
0.441167458333333,0,0xBF18,
0.441183333333333,0,0xB271,
0.441191250000000,0,0xC018,
0.441221333333333,0,0x000A,
0.441229041666667,0,0x4111,
0.441245166666667,0,0xC0C4,
0.441253083333333,0,0xC118,
0.441268916666667,0,0xC0C6,
0.441276833333333,0,0xC218,
0.441292666666667,0,0xC0C4,
0.441300583333333,0,0xC318,
0.441316416666667,0,0xC086,
0.441324333333333,0,0xC418,
0.441340166666667,0,0xC0A8,
0.441348083333333,0,0xC518,
0.441363916666667,0,0xDD4A,
0.441371833333333,0,0xC618,
0.441387708333333,0,0x803E,
0.441395625000000,0,0xC718,
0.441411458333333,0,0xA3D0,
0.441419375000000,0,0xC818,
0.441435208333333,0,0x9E3D,
0.441443125000000,0,0xC918,
0.441458958333333,0,0x9E3B,
0.441466875000000,0,0xCA18,
0.441498458333333,0,0x0004,
0.441506125000000,0,0x0325,
0.441522291666667,0,0x0A01,
0.441530166666667,0,0x8325,
0.441545875000000,0,0x0F00,
0.441553750000000,0,0x8425,
0.441569458333333,0,0x0000,
0.441577333333333,0,0x8528,
0.441593041666667,0,0x873F,
0.441600916666667,0,0x8625,
0.441631250000000,0,0x0001,
0.441638958333333,0,0x1D29,
0.441654958333333,0,0x0055,
0.441662833333333,0,0x9D29,
0.441690125000000,0,0x0003,
0.441697791666667,0,0x242D,
0.441713916666667,0,0x004C,
0.441721750000000,0,0xA428,
0.441737458333333,0,0x0040,
0.441745333333333,0,0xA528,
0.441761041666667,0,0x8000,
0.441768916666667,0,0xA628,
0.441797291666667,0,0x0005,
0.441805000000000,0,0x2D21,
0.441821000000000,0,0xF313,
0.441828833333333,0,0xAD28,
0.441844583333333,0,0xFFFD,
0.441852416666667,0,0xAE28,
0.441868166666667,0,0xD164,
0.441876041666667,0,0xAF28,
0.441891708333333,0,0xFFFF,
0.441899583333333,0,0xB028,
0.441915291666667,0,0x830D,
0.441923166666667,0,0xB128,
0.441952875000000,0,0x0006,
0.441960583333333,0,0x3B25,
0.441976750000000,0,0xE51B,
0.441984583333333,0,0xBB28,
0.442000291666667,0,0x8000,
0.442008166666667,0,0xBC28,
0.442023875000000,0,0x8000,
0.442031750000000,0,0xBD28,
0.442047458333333,0,0x8000,
0.442055333333333,0,0xBE28,
0.442071041666667,0,0xE5BD,
0.442078916666667,0,0xBF28,
0.442094625000000,0,0xE5D6,
0.442102500000000,0,0xC028,
0.442133166666667,0,0x000A,
0.442140833333333,0,0x4129,
0.442157000000000,0,0xDB9A,
0.442164833333333,0,0xC128,
0.442180583333333,0,0xDCA0,
0.442188416666667,0,0xC228,
0.442204125000000,0,0xDF45,
0.442212000000000,0,0xC328,
0.442227708333333,0,0xE11E,
0.442235583333333,0,0xC428,
0.442251291666667,0,0xA97A,
0.442259166666667,0,0xC528,
0.442274875000000,0,0xFF4B,
0.442282750000000,0,0xC628,
0.442298500000000,0,0xC013,
0.442306333333333,0,0xC728,
0.442322041666667,0,0xA3B3,
0.442329916666667,0,0xC828,
0.442345625000000,0,0x9E38,
0.442353500000000,0,0xC928,
0.442369208333333,0,0x9E3A,
0.442377083333333,0,0xCA28,
0.450085875000000,0,0x9C3F,
0.450093541666667,0,0x060F,
0.450120666666667,0,0x0004,
0.450128333333333,0,0x0311,
0.450144625000000,0,0x0A01,
0.450152541666667,0,0x8311,
0.450168375000000,0,0x0F00,
0.450176333333333,0,0x8411,
0.450192166666667,0,0x0000,
0.450200083333333,0,0x8519,
0.450215916666667,0,0x9F3F,
0.450223833333333,0,0x8611,
0.450255000000000,0,0x0004,
0.450262708333333,0,0x0315,
0.450278791666667,0,0x0A01,
0.450286708333333,0,0x8315,
0.450302583333333,0,0x0F00,
0.450310500000000,0,0x8415,
0.450326333333333,0,0x0000,
0.450334250000000,0,0x8519,
0.450350125000000,0,0x9F3F,
0.450358041666667,0,0x8615,
0.450388708333333,0,0x0004,
0.450396416666667,0,0x0319,
0.450412500000000,0,0x0A01,
0.450420416666667,0,0x8319,
0.450436250000000,0,0x0F00,
0.450444208333333,0,0x8419,
0.450460041666667,0,0x0000,
0.450467958333333,0,0x8519,
0.450483791666667,0,0x9F3F,
0.450491750000000,0,0x8619,
0.450522500000000,0,0x0004,
0.450530166666667,0,0x031D,
0.450546166666667,0,0x0A01,
0.450554125000000,0,0x831D,
0.450569958333333,0,0x0F00,
0.450577875000000,0,0x841D,
0.450593708333333,0,0x0000,
0.450601625000000,0,0x8519,
0.450617458333333,0,0x9F3F,
0.450625375000000,0,0x861D,
0.450656291666667,0,0x0004,
0.450663958333333,0,0x0311,
0.450680333333333,0,0x0A01,
0.450688250000000,0,0x8311,
0.450704083333333,0,0x0F00,
0.450712000000000,0,0x8411,
0.450727833333333,0,0x0000,
0.450735750000000,0,0x8519,
0.450751583333333,0,0x973F,
0.450759500000000,0,0x8611,
0.450789958333333,0,0x0001,
0.450797625000000,0,0x1D15,
0.450813916666667,0,0x1551,
0.450821875000000,0,0x9D15,
0.450850333333333,0,0x0003,
0.450858000000000,0,0x2419,
0.450874291666667,0,0x0048,
0.450882208333333,0,0xA419,
0.450898041666667,0,0x0040,
0.450906000000000,0,0xA519,
0.450921791666667,0,0x0000,
0.450929750000000,0,0xA619,
0.450959125000000,0,0x0005,
0.450966791666667,0,0x2D1D,
0.450983166666667,0,0xF24B,
0.450991083333333,0,0xAD19,
0.451006916666667,0,0xFFFD,
0.451014833333333,0,0xAE19,
0.451030666666667,0,0x75ED,
0.451038583333333,0,0xAF19,
0.451054416666667,0,0x8000,
0.451062333333333,0,0xB019,
0.451078166666667,0,0x8300,
0.451086083333333,0,0xB119,
0.451116000000000,0,0x0006,
0.451123666666667,0,0x3B11,
0.451140041666667,0,0xB3E6,
0.451147958333333,0,0xBB19,
0.451163791666667,0,0xB332,
0.451171708333333,0,0xBC19,
0.451187541666667,0,0xB2B9,
0.451195458333333,0,0xBD19,
0.451211291666667,0,0xB201,
0.451219208333333,0,0xBE19,
0.451235041666667,0,0xB1FF,
0.451242958333333,0,0xBF19,
0.451258791666667,0,0xB275,
0.451266708333333,0,0xC019,
0.451296833333333,0,0x000A,
0.451304541666667,0,0x4115,
0.451320625000000,0,0xC0C6,
0.451328583333333,0,0xC119,
0.451344416666667,0,0xC0C3,
0.451352291666667,0,0xC219,
0.451368166666667,0,0xC0C5,
0.451376041666667,0,0xC319,
0.451391916666667,0,0xC085,
0.451399833333333,0,0xC419,
0.451415666666667,0,0xC0A6,
0.451423583333333,0,0xC519,
0.451439416666667,0,0xDD4A,
0.451447333333333,0,0xC619,
0.451463166666667,0,0x803A,
0.451471083333333,0,0xC719,
0.451486916666667,0,0xA3D0,
0.451494833333333,0,0xC819,
0.451510666666667,0,0x9E3A,
0.451518583333333,0,0xC919,
0.451534416666667,0,0x9E36,
0.451542333333333,0,0xCA19,
0.451573833333333,0,0x0004,
0.451581500000000,0,0x0329,
0.451597541666667,0,0x0A01,
0.451605416666667,0,0x8329,
0.451621125000000,0,0x0F00,
0.451628958333333,0,0x8429,
0.451644708333333,0,0x0000,
0.451652541666667,0,0x8529,
0.451668291666667,0,0x973F,
0.451676125000000,0,0x8629,
0.451706416666667,0,0x0001,
0.451714083333333,0,0x1D2D,
0.451730166666667,0,0x0055,
0.451738041666667,0,0x9D2D,
0.451766666666667,0,0x0003,
0.451774375000000,0,0x2421,
0.451790625000000,0,0x004C,
0.451798458333333,0,0xA429,
0.451814166666667,0,0x0040,
0.451822041666667,0,0xA529,
0.451837750000000,0,0x8000,
0.451845625000000,0,0xA629,
0.451874250000000,0,0x0005,
0.451881958333333,0,0x2D25,
0.451898166666667,0,0xF421,
0.451906000000000,0,0xAD29,
0.451921750000000,0,0xFFFD,
0.451929583333333,0,0xAE29,
0.451945333333333,0,0xCDED,
0.451953208333333,0,0xAF29,
0.451968875000000,0,0x8000,
0.451976750000000,0,0xB029,
0.451992500000000,0,0x8301,
0.452000333333333,0,0xB129,
0.452030500000000,0,0x0006,
0.452038208333333,0,0x3B29,
0.452054375000000,0,0xE517,
0.452062208333333,0,0xBB29,
0.452077958333333,0,0x8000,
0.452085833333333,0,0xBC29,
0.452101541666667,0,0x8000,
0.452109416666667,0,0xBD29,
0.452125125000000,0,0x8000,
0.452133000000000,0,0xBE29,
0.452148708333333,0,0xE5B9,
0.452156541666667,0,0xBF29,
0.452172291666667,0,0xE5D0,
0.452180125000000,0,0xC029,
0.452209916666667,0,0x000A,
0.452217583333333,0,0x412D,
0.452233666666667,0,0xDB99,
0.452241541666667,0,0xC129,
0.452257250000000,0,0xDC9F,
0.452265125000000,0,0xC229,
0.452280833333333,0,0xDF46,
0.452288708333333,0,0xC329,
0.452304458333333,0,0xE122,
0.452312291666667,0,0xC429,
0.452328000000000,0,0xA97F,
0.452335875000000,0,0xC529,
0.452351583333333,0,0xFF47,
0.452359458333333,0,0xC629,
0.452375166666667,0,0xC015,
0.452383041666667,0,0xC729,
0.452398750000000,0,0xA3B3,
0.452406625000000,0,0xC829,
0.452422333333333,0,0x9E38,
0.452430208333333,0,0xC929,
0.452445916666667,0,0x9E3D,
0.452453791666667,0,0xCA29,
0.460012708333333,0,0xAC3F,
0.460020375000000,0,0x0603,
0.460047583333333,0,0x0004,
0.460055291666667,0,0x0315,
0.460071375000000,0,0x0A01,
0.460079291666667,0,0x8315,
0.460095125000000,0,0x0F00,
0.460103083333333,0,0x8415,
0.460118916666667,0,0x0000,
0.460126833333333,0,0x851A,
0.460142666666667,0,0xAF3F,
0.460150583333333,0,0x8615,
0.460181458333333,0,0x0004,
0.460189125000000,0,0x0319,
0.460205541666667,0,0x0A01,
0.460213416666667,0,0x8319,
0.460229291666667,0,0x0F00,
0.460237208333333,0,0x8419,
0.460253041666667,0,0x0000,
0.460260958333333,0,0x851A,
0.460276791666667,0,0xAF3F,
0.460284708333333,0,0x8619,
0.460314708333333,0,0x0004,
0.460322375000000,0,0x031D,
0.460338708333333,0,0x0A01,
0.460346583333333,0,0x831D,
0.460362458333333,0,0x0F00,
0.460370375000000,0,0x841D,
0.460386208333333,0,0x0000,
0.460394125000000,0,0x851A,
0.460410000000000,0,0xAF3F,
0.460417916666667,0,0x861D,
0.460448250000000,0,0x0004,
0.460455958333333,0,0x0311,
0.460472333333333,0,0x0A01,
0.460480250000000,0,0x8311,
0.460496083333333,0,0x0F00,
0.460504041666667,0,0x8411,
0.460519875000000,0,0x0000,
0.460527791666667,0,0x851A,
0.460543625000000,0,0xAF3F,
0.460551541666667,0,0x8611,
0.460582166666667,0,0x0004,
0.460589875000000,0,0x0315,
0.460606000000000,0,0x0A01,
0.460613916666667,0,0x8315,
0.460629750000000,0,0x0F00,
0.460637666666667,0,0x8415,
0.460653500000000,0,0x0000,
0.460661416666667,0,0x851A,
0.460677291666667,0,0xA73F,
0.460685166666667,0,0x8615,
0.460715916666667,0,0x0001,
0.460723583333333,0,0x1D19,
0.460739625000000,0,0x1551,
0.460747541666667,0,0x9D19,
0.460775500000000,0,0x0003,
0.460783166666667,0,0x241D,
0.460799500000000,0,0x0048,
0.460807416666667,0,0xA41A,
0.460823250000000,0,0x0040,
0.460831208333333,0,0xA51A,
0.460847041666667,0,0x0000,
0.460854958333333,0,0xA61A,
0.460884375000000,0,0x0005,
0.460892083333333,0,0x2D11,
0.460908416666667,0,0xF353,
0.460916333333333,0,0xAD1A,
0.460932166666667,0,0xFFFD,
0.460940083333333,0,0xAE1A,
0.460955916666667,0,0x72BE,
0.460963875000000,0,0xAF1A,
0.460979708333333,0,0xFFFF,
0.460987625000000,0,0xB01A,
0.461003458333333,0,0x830D,
0.461011375000000,0,0xB11A,
0.461041625000000,0,0x0006,
0.461049291666667,0,0x3B15,
0.461065333333333,0,0xB3E5,
0.461073250000000,0,0xBB1A,
0.461089083333333,0,0xB32F,
0.461097000000000,0,0xBC1A,
0.461112833333333,0,0xB2B9,
0.461120750000000,0,0xBD1A,
0.461136541666667,0,0xB1FE,
0.461144500000000,0,0xBE1A,
0.461160291666667,0,0xB200,
0.461168250000000,0,0xBF1A,
0.461184041666667,0,0xB274,
0.461191958333333,0,0xC01A,
0.461222125000000,0,0x000A,
0.461229833333333,0,0x4119,
0.461245875000000,0,0xC0C9,
0.461253833333333,0,0xC11A,
0.461269666666667,0,0xC0C9,
0.461277583333333,0,0xC21A,
0.461293416666667,0,0xC0CA,
0.461301333333333,0,0xC31A,
0.461317166666667,0,0xC089,
0.461325083333333,0,0xC41A,
0.461340916666667,0,0xC0A7,
0.461348833333333,0,0xC51A,
0.461364666666667,0,0xDD51,
0.461372583333333,0,0xC61A,
0.461388416666667,0,0x803E,
0.461396333333333,0,0xC71A,
0.461412166666667,0,0xA3CF,
0.461420083333333,0,0xC81A,
0.461435958333333,0,0x9E3E,
0.461443833333333,0,0xC91A,
0.461459708333333,0,0x9E3A,
0.461467583333333,0,0xCA1A,
0.461499083333333,0,0x0004,
0.461506791666667,0,0x032D,
0.461523083333333,0,0x0A01,
0.461530958333333,0,0x832D,
0.461546666666667,0,0x0F00,
0.461554541666667,0,0x842D,
0.461570250000000,0,0x0000,
0.461578125000000,0,0x852A,
0.461593833333333,0,0xA73F,
0.461601708333333,0,0x862D,
0.461631333333333,0,0x0001,
0.461639000000000,0,0x1D21,
0.461655250000000,0,0x0055,
0.461663125000000,0,0x9D21,
0.461691083333333,0,0x0003,
0.461698750000000,0,0x2425,
0.461715166666667,0,0x004C,
0.461723041666667,0,0xA42A,
0.461738750000000,0,0x0040,
0.461746625000000,0,0xA52A,
0.461762333333333,0,0x8000,
0.461770208333333,0,0xA62A,
0.461799625000000,0,0x0005,
0.461807333333333,0,0x2D29,
0.461823708333333,0,0xF52B,
0.461831583333333,0,0xAD2A,
0.461847333333333,0,0xFFFD,
0.461855166666667,0,0xAE2A,
0.461870916666667,0,0xCB66,
0.461878750000000,0,0xAF2A,
0.461894500000000,0,0xFFFF,
0.461902375000000,0,0xB02A,
0.461918083333333,0,0x830F,
0.461925916666667,0,0xB12A,
0.461956000000000,0,0x0006,
0.461963666666667,0,0x3B2D,
0.461979958333333,0,0xE51D,
0.461987833333333,0,0xBB2A,
0.462003541666667,0,0x8000,
0.462011416666667,0,0xBC2A,
0.462027125000000,0,0x8002,
0.462035000000000,0,0xBD2A,
0.462050708333333,0,0x8001,
0.462058583333333,0,0xBE2A,
0.462074291666667,0,0xE5B6,
0.462082166666667,0,0xBF2A,
0.462097875000000,0,0xE5CF,
0.462105750000000,0,0xC02A,
0.462135333333333,0,0x000A,
0.462143000000000,0,0x4121,
0.462159291666667,0,0xDB99,
0.462167166666667,0,0xC12A,
0.462182875000000,0,0xDCA6,
0.462190708333333,0,0xC22A,
0.462206416666667,0,0xDF49,
0.462214291666667,0,0xC32A,
0.462230000000000,0,0xE121,
0.462237875000000,0,0xC42A,
0.462253583333333,0,0xA980,
0.462261458333333,0,0xC52A,
0.462277166666667,0,0xFF4B,
0.462285041666667,0,0xC62A,
0.462300750000000,0,0xC016,
0.462308625000000,0,0xC72A,
0.462324333333333,0,0xA3B4,
0.462332208333333,0,0xC82A,
0.462347916666667,0,0x9E35,
0.462355791666667,0,0xC92A,
0.462371500000000,0,0x9E3C,
0.462379375000000,0,0xCA2A,
0.470059458333333,0,0xBC3F,
0.470067166666667,0,0x0607,
0.470094375000000,0,0x0004,
0.470102041666667,0,0x0319,
0.470118041666667,0,0x0A01,
0.470125958333333,0,0x8319,
0.470141833333333,0,0x0F00,
0.470149750000000,0,0x8419,
0.470165583333333,0,0x0000,
0.470173500000000,0,0x851B,
0.470189333333333,0,0xBF3F,
0.470197250000000,0,0x8619,
0.470227708333333,0,0x0004,
0.470235375000000,0,0x031D,
0.470251708333333,0,0x0A01,
0.470259625000000,0,0x831D,
0.470275458333333,0,0x0F00,
0.470283375000000,0,0x841D,
0.470299208333333,0,0x0000,
0.470307125000000,0,0x851B,
0.470323000000000,0,0xBF3F,
0.470330875000000,0,0x861D,
0.470361291666667,0,0x0004,
0.470368958333333,0,0x0311,
0.470385333333333,0,0x0A01,
0.470393250000000,0,0x8311,
0.470409083333333,0,0x0F00,
0.470417041666667,0,0x8411,
0.470432875000000,0,0x0000,
0.470440791666667,0,0x851B,
0.470456625000000,0,0xBF3F,
0.470464541666667,0,0x8611,
0.470495791666667,0,0x0004,
0.470503500000000,0,0x0315,
0.470519500000000,0,0x0A01,
0.470527416666667,0,0x8315,
0.470543250000000,0,0x0F00,
0.470551125000000,0,0x8415,
0.470566958333333,0,0x0000,
0.470574875000000,0,0x851B,
0.470590708333333,0,0xBF3F,
0.470598625000000,0,0x8615,
0.470629666666667,0,0x0004,
0.470637333333333,0,0x0319,
0.470653541666667,0,0x0A01,
0.470661458333333,0,0x8319,
0.470677291666667,0,0x0F00,
0.470685208333333,0,0x8419,
0.470701041666667,0,0x0000,
0.470708958333333,0,0x851B,
0.470724791666667,0,0xB73F,
0.470732708333333,0,0x8619,
0.470763125000000,0,0x0001,
0.470770791666667,0,0x1D1D,
0.470787125000000,0,0x1551,
0.470795041666667,0,0x9D1D,
0.470823458333333,0,0x0003,
0.470831125000000,0,0x2411,
0.470847458333333,0,0x0048,
0.470855375000000,0,0xA41B,
0.470871208333333,0,0x0040,
0.470879125000000,0,0xA51B,
0.470894958333333,0,0x0000,
0.470902875000000,0,0xA61B,
0.470931833333333,0,0x0005,
0.470939500000000,0,0x2D15,
0.470955833333333,0,0xF45E,
0.470963750000000,0,0xAD1B,
0.470979583333333,0,0xFFFD,
0.470987500000000,0,0xAE1B,
0.471003333333333,0,0x7076,
0.471011250000000,0,0xAF1B,
0.471027083333333,0,0x8000,
0.471035000000000,0,0xB01B,
0.471050791666667,0,0x8307,
0.471058708333333,0,0xB11B,
0.471089375000000,0,0x0006,
0.471097041666667,0,0x3B19,
0.471113125000000,0,0xB3E2,
0.471121083333333,0,0xBB1B,
0.471136875000000,0,0xB32C,
0.471144833333333,0,0xBC1B,
0.471160666666667,0,0xB2BD,
0.471168541666667,0,0xBD1B,
0.471184416666667,0,0xB1FF,
0.471192333333333,0,0xBE1B,
0.471208166666667,0,0xB204,
0.471216083333333,0,0xBF1B,
0.471231958333333,0,0xB273,
0.471239833333333,0,0xC01B,
0.471270166666667,0,0x000A,
0.471277875000000,0,0x411D,
0.471294291666667,0,0xC0C5,
0.471302250000000,0,0xC11B,
0.471318041666667,0,0xC0C9,
0.471326000000000,0,0xC21B,
0.471341833333333,0,0xC0C7,
0.471349750000000,0,0xC31B,
0.471365625000000,0,0xC083,
0.471373500000000,0,0xC41B,
0.471389375000000,0,0xC0A2,
0.471397291666667,0,0xC51B,
0.471413125000000,0,0xDD49,
0.471421041666667,0,0xC61B,
0.471436875000000,0,0x8039,
0.471444791666667,0,0xC71B,
0.471460625000000,0,0xA3CD,
0.471468541666667,0,0xC81B,
0.471484375000000,0,0x9E3A,
0.471492291666667,0,0xC91B,
0.471508125000000,0,0x9E3C,
0.471516041666667,0,0xCA1B,
0.471548791666667,0,0x0004,
0.471556458333333,0,0x0321,
0.471572416666667,0,0x0A01,
0.471580291666667,0,0x8321,
0.471596000000000,0,0x0F00,
0.471603875000000,0,0x8421,
0.471619583333333,0,0x0000,
0.471627458333333,0,0x852B,
0.471643166666667,0,0xB73F,
0.471651041666667,0,0x8621,
0.471681333333333,0,0x0001,
0.471688958333333,0,0x1D25,
0.471705083333333,0,0x0055,
0.471712916666667,0,0x9D25,
0.471740791666667,0,0x0003,
0.471748500000000,0,0x2429,
0.471764500000000,0,0x004C,
0.471772375000000,0,0xA42B,
0.471788083333333,0,0x0040,
0.471795958333333,0,0xA52B,
0.471811666666667,0,0x8000,
0.471819541666667,0,0xA62B,
0.471848083333333,0,0x0005,
0.471855791666667,0,0x2D2D,
0.471872125000000,0,0xF638,
0.471879958333333,0,0xAD2B,
0.471895666666667,0,0xFFFD,
0.471903541666667,0,0xAE2B,
0.471919250000000,0,0xC800,
0.471927125000000,0,0xAF2B,
0.471942833333333,0,0xFFFF,
0.471950708333333,0,0xB02B,
0.471966416666667,0,0x8307,
0.471974291666667,0,0xB12B,
0.472004708333333,0,0x0006,
0.472012375000000,0,0x3B21,
0.472028333333333,0,0xE51C,
0.472036208333333,0,0xBB2B,
0.472051916666667,0,0x8000,
0.472059750000000,0,0xBC2B,
0.472075500000000,0,0x8001,
0.472083375000000,0,0xBD2B,
0.472099083333333,0,0x8000,
0.472106916666667,0,0xBE2B,
0.472122625000000,0,0xE5C2,
0.472130500000000,0,0xBF2B,
0.472146208333333,0,0xE5D6,
0.472154083333333,0,0xC02B,
0.472184041666667,0,0x000A,
0.472191708333333,0,0x4125,
0.472208166666667,0,0xDB94,
0.472216000000000,0,0xC12B,
0.472231708333333,0,0xDCA4,
0.472239583333333,0,0xC22B,
0.472255333333333,0,0xDF47,
0.472263166666667,0,0xC32B,
0.472278916666667,0,0xE124,
0.472286750000000,0,0xC42B,
0.472302500000000,0,0xA97F,
0.472310333333333,0,0xC52B,
0.472326083333333,0,0xFF4C,
0.472333916666667,0,0xC62B,
0.472349666666667,0,0xC015,
0.472357500000000,0,0xC72B,
0.472373250000000,0,0xA3AE,
0.472381083333333,0,0xC82B,
0.472396833333333,0,0x9E38,
0.472404666666667,0,0xC92B,
0.472420416666667,0,0x9E41,
0.472428250000000,0,0xCA2B,
0.480059125000000,0,0xCC3F,
0.480066833333333,0,0x060B,
0.480093833333333,0,0x0004,
0.480101500000000,0,0x031D,
0.480117875000000,0,0x0A01,
0.480125791666667,0,0x831D,
0.480141625000000,0,0x0F00,
0.480149541666667,0,0x841D,
0.480165416666667,0,0x0000,
0.480173333333333,0,0x851C,
0.480189166666667,0,0xCF3F,
0.480197083333333,0,0x861D,
0.480227291666667,0,0x0004,
0.480234958333333,0,0x0311,
0.480251083333333,0,0x0A01,
0.480258958333333,0,0x8311,
0.480274833333333,0,0x0F00,
0.480282750000000,0,0x8411,
0.480298583333333,0,0x0000,
0.480306500000000,0,0x851C,
0.480322333333333,0,0xCF3F,
0.480330291666667,0,0x8611,
0.480360958333333,0,0x0004,
0.480368625000000,0,0x0315,
0.480384750000000,0,0x0A01,
0.480392666666667,0,0x8315,
0.480408500000000,0,0x0F00,
0.480416416666667,0,0x8415,
0.480432250000000,0,0x0000,
0.480440208333333,0,0x851C,
0.480456041666667,0,0xCF3F,
0.480463958333333,0,0x8615,
0.480494416666667,0,0x0004,
0.480502083333333,0,0x0319,
0.480518416666667,0,0x0A01,
0.480526333333333,0,0x8319,
0.480542208333333,0,0x0F00,
0.480550125000000,0,0x8419,
0.480565958333333,0,0x0000,
0.480573875000000,0,0x851C,
0.480589750000000,0,0xCF3F,
0.480597666666667,0,0x8619,
0.480628250000000,0,0x0004,
0.480635916666667,0,0x031D,
0.480652083333333,0,0x0A01,
0.480660000000000,0,0x831D,
0.480675875000000,0,0x0F00,
0.480683791666667,0,0x841D,
0.480699583333333,0,0x0000,
0.480707541666667,0,0x851C,
0.480723375000000,0,0xC73F,
0.480731291666667,0,0x861D,
0.480762333333333,0,0x0001,
0.480770000000000,0,0x1D11,
0.480786208333333,0,0x1551,
0.480794125000000,0,0x9D11,
0.480822250000000,0,0x0003,
0.480829916666667,0,0x2415,
0.480846083333333,0,0x0048,
0.480854041666667,0,0xA41C,
0.480869875000000,0,0x0040,
0.480877791666667,0,0xA51C,
0.480893625000000,0,0x0000,
0.480901541666667,0,0xA61C,
0.480930333333333,0,0x0005,
0.480938000000000,0,0x2D19,
0.480954000000000,0,0xF568,
0.480961916666667,0,0xAD1C,
0.480977750000000,0,0xFFFD,
0.480985708333333,0,0xAE1C,
0.481001541666667,0,0x6DF7,
0.481009458333333,0,0xAF1C,
0.481025291666667,0,0xFFFF,
0.481033208333333,0,0xB01C,
0.481049041666667,0,0x8306,
0.481057000000000,0,0xB11C,
0.481087208333333,0,0x0006,
0.481094875000000,0,0x3B1D,
0.481110916666667,0,0xB3E2,
0.481118833333333,0,0xBB1C,
0.481134666666667,0,0xB329,
0.481142583333333,0,0xBC1C,
0.481158416666667,0,0xB2B9,
0.481166333333333,0,0xBD1C,
0.481182166666667,0,0xB1FF,
0.481190083333333,0,0xBE1C,
0.481205916666667,0,0xB204,
0.481213833333333,0,0xBF1C,
0.481229666666667,0,0xB274,
0.481237583333333,0,0xC01C,
0.481266791666667,0,0x000A,
0.481274458333333,0,0x4111,
0.481290541666667,0,0xC0C7,
0.481298458333333,0,0xC11C,
0.481314291666667,0,0xC0C3,
0.481322208333333,0,0xC21C,
0.481338041666667,0,0xC0C5,
0.481345958333333,0,0xC31C,
0.481361791666667,0,0xC085,
0.481369708333333,0,0xC41C,
0.481385541666667,0,0xC0A5,
0.481393458333333,0,0xC51C,
0.481409291666667,0,0xDD49,
0.481417208333333,0,0xC61C,
0.481433041666667,0,0x8039,
0.481440958333333,0,0xC71C,
0.481456791666667,0,0xA3D0,
0.481464708333333,0,0xC81C,
0.481480583333333,0,0x9E3B,
0.481488500000000,0,0xC91C,
0.481504333333333,0,0x9E3C,
0.481512250000000,0,0xCA1C,
0.481544916666667,0,0x0004,
0.481552625000000,0,0x0325,
0.481568666666667,0,0x0A01,
0.481576541666667,0,0x8325,
0.481592250000000,0,0x0F00,
0.481600125000000,0,0x8425,
0.481615833333333,0,0x0000,
0.481623666666667,0,0x852C,
0.481639416666667,0,0xC73F,
0.481647250000000,0,0x8625,
0.481677041666667,0,0x0001,
0.481684708333333,0,0x1D29,
0.481700833333333,0,0x0055,
0.481708666666667,0,0x9D29,
0.481736833333333,0,0x0003,
0.481744500000000,0,0x242D,
0.481760750000000,0,0x004C,
0.481768625000000,0,0xA42C,
0.481784333333333,0,0x0040,
0.481792208333333,0,0xA52C,
0.481807916666667,0,0x8000,
0.481815791666667,0,0xA62C,
0.481845291666667,0,0x0005,
0.481853000000000,0,0x2D21,
0.481869333333333,0,0xF744,
0.481877208333333,0,0xAD2C,
0.481892916666667,0,0xFFFD,
0.481900791666667,0,0xAE2C,
0.481916500000000,0,0xC522,
0.481924375000000,0,0xAF2C,
0.481940083333333,0,0x8000,
0.481947958333333,0,0xB02C,
0.481963666666667,0,0x8308,
0.481971541666667,0,0xB12C,
0.482001625000000,0,0x0006,
0.482009291666667,0,0x3B25,
0.482025541666667,0,0xE515,
0.482033416666667,0,0xBB2C,
0.482049166666667,0,0x8000,
0.482057000000000,0,0xBC2C,
0.482072750000000,0,0x8001,
0.482080583333333,0,0xBD2C,
0.482096333333333,0,0x8000,
0.482104166666667,0,0xBE2C,
0.482119916666667,0,0xE5B9,
0.482127750000000,0,0xBF2C,
0.482143500000000,0,0xE5D5,
0.482151333333333,0,0xC02C,
0.482181916666667,0,0x000A,
0.482189625000000,0,0x4129,
0.482205875000000,0,0xDB97,
0.482213750000000,0,0xC12C,
0.482229458333333,0,0xDCA5,
0.482237291666667,0,0xC22C,
0.482253041666667,0,0xDF47,
0.482260875000000,0,0xC32C,
0.482276583333333,0,0xE120,
0.482284458333333,0,0xC42C,
0.482300208333333,0,0xA97A,
0.482308041666667,0,0xC52C,
0.482323750000000,0,0xFF4A,
0.482331625000000,0,0xC62C,
0.482347333333333,0,0xC017,
0.482355208333333,0,0xC72C,
0.482370916666667,0,0xA3B2,
0.482378791666667,0,0xC82C,
0.482394500000000,0,0x9E36,
0.482402375000000,0,0xC92C,
0.482418083333333,0,0x9E41,
0.482425958333333,0,0xCA2C,
0.490086625000000,0,0xDC3F,
0.490094291666667,0,0x060F,
0.490122000000000,0,0x0004,
0.490129666666667,0,0x0311,
0.490145708333333,0,0x0A01,
0.490153625000000,0,0x8311,
0.490169458333333,0,0x0F00,
0.490177375000000,0,0x8411,
0.490193208333333,0,0x0000,
0.490201166666667,0,0x851D,
0.490217000000000,0,0xDF3F,
0.490224916666667,0,0x8611,
0.490255791666667,0,0x0004,
0.490263458333333,0,0x0315,
0.490279833333333,0,0x0A01,
0.490287791666667,0,0x8315,
0.490303625000000,0,0x0F00,
0.490311541666667,0,0x8415,
0.490327375000000,0,0x0000,
0.490335291666667,0,0x851D,
0.490351125000000,0,0xDF3F,
0.490359083333333,0,0x8615,
0.490389500000000,0,0x0004,
0.490397166666667,0,0x0319,
0.490413500000000,0,0x0A01,
0.490421416666667,0,0x8319,
0.490437291666667,0,0x0F00,
0.490445208333333,0,0x8419,
0.490461000000000,0,0x0000,
0.490468958333333,0,0x851D,
0.490484791666667,0,0xDF3F,
0.490492708333333,0,0x8619,
0.490524291666667,0,0x0004,
0.490531958333333,0,0x031D,
0.490548125000000,0,0x0A01,
0.490556041666667,0,0x831D,
0.490571875000000,0,0x0F00,
0.490579833333333,0,0x841D,
0.490595666666667,0,0x0000,
0.490603583333333,0,0x851D,
0.490619416666667,0,0xDF3F,
0.490627333333333,0,0x861D,
0.490658500000000,0,0x0004,
0.490666166666667,0,0x0311,
0.490682250000000,0,0x0A01,
0.490690166666667,0,0x8311,
0.490706000000000,0,0x0F00,
0.490713958333333,0,0x8411,
0.490729750000000,0,0x0000,
0.490737708333333,0,0x851D,
0.490753541666667,0,0xD73F,
0.490761458333333,0,0x8611,
0.490791791666667,0,0x0001,
0.490799458333333,0,0x1D15,
0.490815875000000,0,0x1551,
0.490823791666667,0,0x9D15,
0.490852458333333,0,0x0003,
0.490860125000000,0,0x2419,
0.490876250000000,0,0x0048,
0.490884166666667,0,0xA41D,
0.490900000000000,0,0x0040,
0.490907916666667,0,0xA51D,
0.490923750000000,0,0x0000,
0.490931666666667,0,0xA61D,
0.490960250000000,0,0x0005,
0.490967916666667,0,0x2D1D,
0.490984125000000,0,0xF673,
0.490992041666667,0,0xAD1D,
0.491007875000000,0,0xFFFD,
0.491015833333333,0,0xAE1D,
0.491031666666667,0,0x6B9E,
0.491039583333333,0,0xAF1D,
0.491055416666667,0,0xFFFF,
0.491063333333333,0,0xB01D,
0.491079166666667,0,0x830B,
0.491087083333333,0,0xB11D,
0.491117666666667,0,0x0006,
0.491125333333333,0,0x3B11,
0.491141541666667,0,0xB3E2,
0.491149458333333,0,0xBB1D,
0.491165291666667,0,0xB32E,
0.491173208333333,0,0xBC1D,
0.491189041666667,0,0xB2BD,
0.491196958333333,0,0xBD1D,
0.491212791666667,0,0xB200,
0.491220750000000,0,0xBE1D,
0.491236583333333,0,0xB204,
0.491244500000000,0,0xBF1D,
0.491260333333333,0,0xB275,
0.491268250000000,0,0xC01D,
0.491298500000000,0,0x000A,
0.491306208333333,0,0x4115,
0.491322208333333,0,0xC0C2,
0.491330125000000,0,0xC11D,
0.491345958333333,0,0xC0C1,
0.491353875000000,0,0xC21D,
0.491369708333333,0,0xC0C5,
0.491377625000000,0,0xC31D,
0.491393458333333,0,0xC084,
0.491401375000000,0,0xC41D,
0.491417208333333,0,0xC0A0,
0.491425125000000,0,0xC51D,
0.491440958333333,0,0xDD45,
0.491448875000000,0,0xC61D,
0.491464708333333,0,0x803A,
0.491472666666667,0,0xC71D,
0.491488458333333,0,0xA3CC,
0.491496416666667,0,0xC81D,
0.491512208333333,0,0x9E35,
0.491520166666667,0,0xC91D,
0.491536000000000,0,0x9E3B,
0.491543916666667,0,0xCA1D,
0.491576250000000,0,0x0004,
0.491583916666667,0,0x0329,
0.491599958333333,0,0x0A01,
0.491607833333333,0,0x8329,
0.491623541666667,0,0x0F00,
0.491631416666667,0,0x8429,
0.491647125000000,0,0x0000,
0.491655000000000,0,0x852D,
0.491670708333333,0,0xD73F,
0.491678541666667,0,0x8629,
0.491709083333333,0,0x0001,
0.491716791666667,0,0x1D2D,
0.491733083333333,0,0x0055,
0.491740958333333,0,0x9D2D,
0.491768750000000,0,0x0003,
0.491776458333333,0,0x2421,
0.491792541666667,0,0x004C,
0.491800375000000,0,0xA42D,
0.491816125000000,0,0x0040,
0.491824000000000,0,0xA52D,
0.491839708333333,0,0x8000,
0.491847541666667,0,0xA62D,
0.491876666666667,0,0x0005,
0.491884333333333,0,0x2D25,
0.491900625000000,0,0xF851,
0.491908458333333,0,0xAD2D,
0.491924208333333,0,0xFFFD,
0.491932041666667,0,0xAE2D,
0.491947750000000,0,0xC28C,
0.491955625000000,0,0xAF2D,
0.491971333333333,0,0xFFFF,
0.491979208333333,0,0xB02D,
0.491994916666667,0,0x830F,
0.492002791666667,0,0xB12D,
0.492033041666667,0,0x0006,
0.492040750000000,0,0x3B29,
0.492056833333333,0,0xE51C,
0.492064708333333,0,0xBB2D,
0.492080416666667,0,0x8002,
0.492088250000000,0,0xBC2D,
0.492104000000000,0,0x8000,
0.492111875000000,0,0xBD2D,
0.492127583333333,0,0x8000,
0.492135458333333,0,0xBE2D,
0.492151166666667,0,0xE5BA,
0.492159000000000,0,0xBF2D,
0.492174750000000,0,0xE5D2,
0.492182583333333,0,0xC02D,
0.492213166666667,0,0x000A,
0.492220833333333,0,0x412D,
0.492237125000000,0,0xDB99,
0.492245000000000,0,0xC12D,
0.492260708333333,0,0xDCA2,
0.492268583333333,0,0xC22D,
0.492284291666667,0,0xDF47,
0.492292166666667,0,0xC32D,
0.492307875000000,0,0xE125,
0.492315708333333,0,0xC42D,
0.492331458333333,0,0xA97E,
0.492339333333333,0,0xC52D,
0.492355041666667,0,0xFF4A,
0.492362875000000,0,0xC62D,
0.492378583333333,0,0xC016,
0.492386458333333,0,0xC72D,
0.492402166666667,0,0xA3B0,
0.492410041666667,0,0xC82D,
0.492425750000000,0,0x9E3C,
0.492433625000000,0,0xC92D,
0.492449375000000,0,0x9E3E,
0.492457208333333,0,0xCA2D,
0.500016375000000,0,0xEC3F,
0.500024041666667,0,0x0603,
0.500051416666667,0,0x0004,
0.500059083333333,0,0x0315,
0.500075291666667,0,0x0A01,
0.500083208333333,0,0x8315,
0.500099041666667,0,0x0F00,
0.500106958333333,0,0x8415,
0.500122791666667,0,0x0000,
0.500130750000000,0,0x851E,
0.500146583333333,0,0xEF3F,
0.500154500000000,0,0x8615,
0.500185541666667,0,0x0004,
0.500193208333333,0,0x0319,
0.500209458333333,0,0x0A01,
0.500217375000000,0,0x8319,
0.500233208333333,0,0x0F00,
0.500241125000000,0,0x8419,
0.500256958333333,0,0x0000,
0.500264916666667,0,0x851E,
0.500280750000000,0,0xEF3F,
0.500288666666667,0,0x8619,
0.500319541666667,0,0x0004,
0.500327250000000,0,0x031D,
0.500343625000000,0,0x0A01,
0.500351541666667,0,0x831D,
0.500367416666667,0,0x0F00,
0.500375333333333,0,0x841D,
0.500391166666667,0,0x0000,
0.500399083333333,0,0x851E,
0.500414958333333,0,0xEF3F,
0.500422875000000,0,0x861D,
0.500453250000000,0,0x0004,
0.500460916666667,0,0x0311,
0.500477333333333,0,0x0A01,
0.500485250000000,0,0x8311,
0.500501083333333,0,0x0F00,
0.500509000000000,0,0x8411,
0.500524875000000,0,0x0000,
0.500532750000000,0,0x851E,
0.500548583333333,0,0xEF3F,
0.500556541666667,0,0x8611,
0.500587541666667,0,0x0004,
0.500595208333333,0,0x0315,
0.500611458333333,0,0x0A01,
0.500619375000000,0,0x8315,
0.500635208333333,0,0x0F00,
0.500643125000000,0,0x8415,
0.500658958333333,0,0x0000,
0.500666875000000,0,0x851E,
0.500682750000000,0,0xE73F,
0.500690666666667,0,0x8615,
0.500722125000000,0,0x0001,
0.500729791666667,0,0x1D19,
0.500746083333333,0,0x1551,
0.500754000000000,0,0x9D19,
0.500782291666667,0,0x0003,
0.500789958333333,0,0x241D,
0.500805958333333,0,0x0048,
0.500813875000000,0,0xA41E,
0.500829708333333,0,0x0040,
0.500837625000000,0,0xA51E,
0.500853458333333,0,0x0000,
0.500861416666667,0,0xA61E,
0.500889750000000,0,0x0005,
0.500897416666667,0,0x2D11,
0.500913833333333,0,0xF77B,
0.500921750000000,0,0xAD1E,
0.500937625000000,0,0xFFFD,
0.500945500000000,0,0xAE1E,
0.500961375000000,0,0x6934,
0.500969250000000,0,0xAF1E,
0.500985083333333,0,0x8000,
0.500993000000000,0,0xB01E,
0.501008833333333,0,0x8302,
0.501016750000000,0,0xB11E,
0.501046125000000,0,0x0006,
0.501053791666667,0,0x3B15,
0.501070208333333,0,0xB3E5,
0.501078125000000,0,0xBB1E,
0.501093958333333,0,0xB32B,
0.501101875000000,0,0xBC1E,
0.501117708333333,0,0xB2BA,
0.501125625000000,0,0xBD1E,
0.501141458333333,0,0xB203,
0.501149375000000,0,0xBE1E,
0.501165208333333,0,0xB1FD,
0.501173166666667,0,0xBF1E,
0.501189000000000,0,0xB272,
0.501196916666667,0,0xC01E,
0.501226666666667,0,0x000A,
0.501234375000000,0,0x4119,
0.501250375000000,0,0xC0C2,
0.501258291666667,0,0xC11E,
0.501274125000000,0,0xC0BF,
0.501282083333333,0,0xC21E,
0.501297916666667,0,0xC0C1,
0.501305833333333,0,0xC31E,
0.501321666666667,0,0xC081,
0.501329583333333,0,0xC41E,
0.501345458333333,0,0xC09F,
0.501353375000000,0,0xC51E,
0.501369208333333,0,0xDD47,
0.501377125000000,0,0xC61E,
0.501392958333333,0,0x8036,
0.501400875000000,0,0xC71E,
0.501416708333333,0,0xA3CD,
0.501424625000000,0,0xC81E,
0.501440458333333,0,0x9E34,
0.501448375000000,0,0xC91E,
0.501464208333333,0,0x9E39,
0.501472125000000,0,0xCA1E,
0.501503458333333,0,0x0004,
0.501511125000000,0,0x032D,
0.501527583333333,0,0x0A01,
0.501535458333333,0,0x832D,
0.501551166666667,0,0x0F00,
0.501559041666667,0,0x842D,
0.501574791666667,0,0x0000,
0.501582625000000,0,0x852E,
0.501598375000000,0,0xE73F,
0.501606250000000,0,0x862D,
0.501636250000000,0,0x0001,
0.501643958333333,0,0x1D21,
0.501660250000000,0,0x0055,
0.501668125000000,0,0x9D21,
0.501695666666667,0,0x0003,
0.501703333333333,0,0x2425,
0.501719708333333,0,0x004C,
0.501727583333333,0,0xA42E,
0.501743291666667,0,0x0040,
0.501751166666667,0,0xA52E,
0.501766875000000,0,0x8000,
0.501774750000000,0,0xA62E,
0.501803333333333,0,0x0005,
0.501811041666667,0,0x2D29,
0.501827333333333,0,0xF95A,
0.501835166666667,0,0xAD2E,
0.501850875000000,0,0xFFFD,
0.501858750000000,0,0xAE2E,
0.501874500000000,0,0xBF99,
0.501882333333333,0,0xAF2E,
0.501898041666667,0,0xFFFF,
0.501905916666667,0,0xB02E,
0.501921625000000,0,0x830B,
0.501929500000000,0,0xB12E,
0.501959500000000,0,0x0006,
0.501967166666667,0,0x3B2D,
0.501983541666667,0,0xE51B,
0.501991416666667,0,0xBB2E,
0.502007125000000,0,0x8000,
0.502015000000000,0,0xBC2E,
0.502030708333333,0,0x8000,
0.502038583333333,0,0xBD2E,
0.502054291666667,0,0x8000,
0.502062166666667,0,0xBE2E,
0.502077875000000,0,0xE5BD,
0.502085750000000,0,0xBF2E,
0.502101458333333,0,0xE5D3,
0.502109333333333,0,0xC02E,
0.502138916666667,0,0x000A,
0.502146625000000,0,0x4121,
0.502162875000000,0,0xDB9C,
0.502170750000000,0,0xC12E,
0.502186458333333,0,0xDCA6,
0.502194291666667,0,0xC22E,
0.502210041666667,0,0xDF49,
0.502217916666667,0,0xC32E,
0.502233625000000,0,0xE121,
0.502241458333333,0,0xC42E,
0.502257208333333,0,0xA97F,
0.502265041666667,0,0xC52E,
0.502280791666667,0,0xFF4A,
0.502288625000000,0,0xC62E,
0.502304375000000,0,0xC019,
0.502312208333333,0,0xC72E,
0.502327916666667,0,0xA3B0,
0.502335791666667,0,0xC82E,
0.502351541666667,0,0x9E38,
0.502359416666667,0,0xC92E,
0.502375125000000,0,0x9E3A,
0.502383000000000,0,0xCA2E,
0.510207916666667,0,0xFC3F,
0.510215583333333,0,0x0607,
0.510243458333333,0,0x0004,
0.510251125000000,0,0x0319,
0.510267333333333,0,0x0A01,
0.510275291666667,0,0x8319,
0.510291125000000,0,0x0F00,
0.510299041666667,0,0x8419,
0.510314875000000,0,0x0000,
0.510322833333333,0,0x851F,
0.510338666666667,0,0xFF3F,
0.510346583333333,0,0x8619,
0.510377500000000,0,0x0004,
0.510385166666667,0,0x031D,
0.510401500000000,0,0x0A01,
0.510409458333333,0,0x831D,
0.510425291666667,0,0x0F00,
0.510433208333333,0,0x841D,
0.510449041666667,0,0x0000,
0.510456958333333,0,0x851F,
0.510472791666667,0,0xFF3F,
0.510480750000000,0,0x861D,
0.510511625000000,0,0x0004,
0.510519291666667,0,0x0311,
0.510535708333333,0,0x0A01,
0.510543625000000,0,0x8311,
0.510559458333333,0,0x0F00,
0.510567375000000,0,0x8411,
0.510583208333333,0,0x0000,
0.510591166666667,0,0x851F,
0.510607000000000,0,0xFF3F,
0.510614916666667,0,0x8611,
0.510645458333333,0,0x0004,
0.510653166666667,0,0x0315,
0.510669375000000,0,0x0A01,
0.510677291666667,0,0x8315,
0.510693166666667,0,0x0F00,
0.510701083333333,0,0x8415,
0.510716916666667,0,0x0000,
0.510724833333333,0,0x851F,
0.510740708333333,0,0xFF3F,
0.510748625000000,0,0x8615,
0.510778916666667,0,0x0004,
0.510786583333333,0,0x0319,
0.510802541666667,0,0x0A01,
0.510810458333333,0,0x8319,
0.510826291666667,0,0x0F00,
0.510834208333333,0,0x8419,
0.510850041666667,0,0x0000,
0.510857958333333,0,0x851F,
0.510873791666667,0,0xF73F,
0.510881750000000,0,0x8619,
0.510912875000000,0,0x0001,
0.510920541666667,0,0x1D1D,
0.510936666666667,0,0x1551,
0.510944583333333,0,0x9D1D,
0.510972666666667,0,0x0003,
0.510980333333333,0,0x2411,
0.510996500000000,0,0x0048,
0.511004416666667,0,0xA41F,
0.511020250000000,0,0x0040,
0.511028166666667,0,0xA51F,
0.511044000000000,0,0x0000,
0.511051916666667,0,0xA61F,
0.511080875000000,0,0x0005,
0.511088541666667,0,0x2D15,
0.511104875000000,0,0xF88A,
0.511112791666667,0,0xAD1F,
0.511128625000000,0,0xFFFD,
0.511136541666667,0,0xAE1F,
0.511152416666667,0,0x66FD,
0.511160333333333,0,0xAF1F,
0.511176166666667,0,0xFFFF,
0.511184083333333,0,0xB01F,
0.511199916666667,0,0x830B,
0.511207833333333,0,0xB11F,
0.511237791666667,0,0x0006,
0.511245500000000,0,0x3B19,
0.511261791666667,0,0xB3DC,
0.511269750000000,0,0xBB1F,
0.511285583333333,0,0xB32C,
0.511293458333333,0,0xBC1F,
0.511309291666667,0,0xB2BF,
0.511317250000000,0,0xBD1F,
0.511333083333333,0,0xB203,
0.511341000000000,0,0xBE1F,
0.511356833333333,0,0xB203,
0.511364750000000,0,0xBF1F,
0.511380583333333,0,0xB273,
0.511388541666667,0,0xC01F,
0.511418875000000,0,0x000A,
0.511426541666667,0,0x411D,
0.511442958333333,0,0xC0C5,
0.511450875000000,0,0xC11F,
0.511466708333333,0,0xC0C5,
0.511474666666667,0,0xC21F,
0.511490500000000,0,0xC0C6,
0.511498416666667,0,0xC31F,
0.511514250000000,0,0xC085,
0.511522166666667,0,0xC41F,
0.511538000000000,0,0xC0A3,
0.511545958333333,0,0xC51F,
0.511561791666667,0,0xDD4C,
0.511569708333333,0,0xC61F,
0.511585541666667,0,0x803B,
0.511593458333333,0,0xC71F,
0.511609291666667,0,0xA3CC,
0.511617208333333,0,0xC81F,
0.511633041666667,0,0x9E36,
0.511640958333333,0,0xC91F,
0.511656791666667,0,0x9E3C,
0.511664750000000,0,0xCA1F,
0.511697166666667,0,0x0004,
0.511704875000000,0,0x0321,
0.511720875000000,0,0x0A01,
0.511728708333333,0,0x8321,
0.511744416666667,0,0x0F00,
0.511752291666667,0,0x8421,
0.511768000000000,0,0x0000,
0.511775875000000,0,0x852F,
0.511791583333333,0,0xF73F,
0.511799458333333,0,0x8621,
0.511830041666667,0,0x0001,
0.511837708333333,0,0x1D25,
0.511853958333333,0,0x0055,
0.511861833333333,0,0x9D25,
0.511890250000000,0,0x0003,
0.511897916666667,0,0x2429,
0.511913875000000,0,0x004C,
0.511921750000000,0,0xA42F,
0.511937458333333,0,0x0040,
0.511945333333333,0,0xA52F,
0.511961041666667,0,0x8000,
0.511968916666667,0,0xA62F,
0.511998458333333,0,0x0005,
0.512006125000000,0,0x2D2D,
0.512022458333333,0,0xFA6B,
0.512030333333333,0,0xAD2F,
0.512046041666667,0,0xFFFD,
0.512053916666667,0,0xAE2F,
0.512069625000000,0,0xBDA4,
0.512077458333333,0,0xAF2F,
0.512093166666667,0,0xFFFF,
0.512101041666667,0,0xB02F,
0.512116750000000,0,0x830E,
0.512124625000000,0,0xB12F,
0.512155083333333,0,0x0006,
0.512162750000000,0,0x3B21,
0.512179166666667,0,0xE51C,
0.512187000000000,0,0xBB2F,
0.512202708333333,0,0x8000,
0.512210583333333,0,0xBC2F,
0.512226291666667,0,0x8000,
0.512234166666667,0,0xBD2F,
0.512249875000000,0,0x8002,
0.512257750000000,0,0xBE2F,
0.512273458333333,0,0xE5C0,
0.512281333333333,0,0xBF2F,
0.512297041666667,0,0xE5DD,
0.512304916666667,0,0xC02F,
0.512335375000000,0,0x000A,
0.512343041666667,0,0x4125,
0.512359458333333,0,0xDB9A,
0.512367291666667,0,0xC12F,
0.512383000000000,0,0xDCA5,
0.512390875000000,0,0xC22F,
0.512406583333333,0,0xDF45,
0.512414458333333,0,0xC32F,
0.512430166666667,0,0xE129,
0.512438041666667,0,0xC42F,
0.512453750000000,0,0xA982,
0.512461625000000,0,0xC52F,
0.512477333333333,0,0xFF4B,
0.512485208333333,0,0xC62F,
0.512500916666667,0,0xC017,
0.512508791666667,0,0xC72F,
0.512524500000000,0,0xA3B0,
0.512532375000000,0,0xC82F,
0.512548083333333,0,0x9E3B,
0.512555958333333,0,0xC92F,
0.512571666666667,0,0x9E3C,
0.512579500000000,0,0xCA2F,
0.520085166666667,0,0x0C3F,
0.520092875000000,0,0x060B,
0.520120333333333,0,0x0004,
0.520128000000000,0,0x031D,
0.520144375000000,0,0x0A01,
0.520152291666667,0,0x831D,
0.520168125000000,0,0x0F00,
0.520176041666667,0,0x841D,
0.520191875000000,0,0x0000,
0.520199791666667,0,0x8510,
0.520215625000000,0,0x0F3F,
0.520223583333333,0,0x861D,
0.520253750000000,0,0x0004,
0.520261416666667,0,0x0311,
0.520277500000000,0,0x0A01,
0.520285416666667,0,0x8311,
0.520301250000000,0,0x0F00,
0.520309166666667,0,0x8411,
0.520325000000000,0,0x0000,
0.520332916666667,0,0x8510,
0.520348791666667,0,0x0F3F,
0.520356708333333,0,0x8611,
0.520387333333333,0,0x0004,
0.520395000000000,0,0x0315,
0.520411166666667,0,0x0A01,
0.520419083333333,0,0x8315,
0.520434916666667,0,0x0F00,
0.520442833333333,0,0x8415,
0.520458666666667,0,0x0000,
0.520466583333333,0,0x8510,
0.520482416666667,0,0x0F3F,
0.520490375000000,0,0x8615,
0.520520916666667,0,0x0004,
0.520528625000000,0,0x0319,
0.520544833333333,0,0x0A01,
0.520552750000000,0,0x8319,
0.520568583333333,0,0x0F00,
0.520576500000000,0,0x8419,
0.520592333333333,0,0x0000,
0.520600291666667,0,0x8510,
0.520616125000000,0,0x0F3F,
0.520624041666667,0,0x8619,
0.520654416666667,0,0x0004,
0.520662125000000,0,0x031D,
0.520678500000000,0,0x0A01,
0.520686416666667,0,0x831D,
0.520702250000000,0,0x0F00,
0.520710166666667,0,0x841D,
0.520726000000000,0,0x0000,
0.520733916666667,0,0x8510,
0.520749750000000,0,0x073F,
0.520757666666667,0,0x861D,
0.520788416666667,0,0x0001,
0.520796083333333,0,0x1D11,
0.520812083333333,0,0x1551,
0.520820041666667,0,0x9D11,
0.520848041666667,0,0x0003,
0.520855750000000,0,0x2415,
0.520872000000000,0,0x0048,
0.520879916666667,0,0xA410,
0.520895750000000,0,0x0040,
0.520903666666667,0,0xA510,
0.520919500000000,0,0x0000,
0.520927416666667,0,0xA610,
0.520955708333333,0,0x0005,
0.520963416666667,0,0x2D19,
0.520979375000000,0,0xF990,
0.520987291666667,0,0xAD10,
0.521003125000000,0,0xFFFD,
0.521011041666667,0,0xAE10,
0.521026833333333,0,0x641A,
0.521034750000000,0,0xAF10,
0.521050583333333,0,0x8000,
0.521058500000000,0,0xB010,
0.521074333333333,0,0x8301,
0.521082250000000,0,0xB110,
0.521112750000000,0,0x0006,
0.521120416666667,0,0x3B1D,
0.521136666666667,0,0xB3E6,
0.521144541666667,0,0xBB10,
0.521160375000000,0,0xB330,
0.521168333333333,0,0xBC10,
0.521184125000000,0,0xB2BD,
0.521192041666667,0,0xBD10,
0.521207875000000,0,0xB1FC,
0.521215791666667,0,0xBE10,
0.521231625000000,0,0xB202,
0.521239541666667,0,0xBF10,
0.521255375000000,0,0xB273,
0.521263291666667,0,0xC010,
0.521292458333333,0,0x000A,
0.521300166666667,0,0x4111,
0.521316208333333,0,0xC0BF,
0.521324125000000,0,0xC110,
0.521339958333333,0,0xC0C2,
0.521347875000000,0,0xC210,
0.521363666666667,0,0xC0C3,
0.521371625000000,0,0xC310,
0.521387416666667,0,0xC083,
0.521395333333333,0,0xC410,
0.521411166666667,0,0xC0A0,
0.521419083333333,0,0xC510,
0.521434916666667,0,0xDD48,
0.521442833333333,0,0xC610,
0.521458666666667,0,0x8036,
0.521466541666667,0,0xC710,
0.521482375000000,0,0xA3CF,
0.521490291666667,0,0xC810,
0.521506125000000,0,0x9E36,
0.521514041666667,0,0xC910,
0.521529875000000,0,0x9E3D,
0.521537791666667,0,0xCA10,
0.521570208333333,0,0x0004,
0.521577875000000,0,0x0325,
0.521594291666667,0,0x0A01,
0.521602125000000,0,0x8325,
0.521617875000000,0,0x0F00,
0.521625750000000,0,0x8425,
0.521641458333333,0,0x0000,
0.521649291666667,0,0x8520,
0.521665041666667,0,0x073F,
0.521672875000000,0,0x8625,
0.521702625000000,0,0x0001,
0.521710291666667,0,0x1D29,
0.521726458333333,0,0x0055,
0.521734333333333,0,0x9D29,
0.521762250000000,0,0x0003,
0.521769916666667,0,0x242D,
0.521785875000000,0,0x004C,
0.521793750000000,0,0xA420,
0.521809458333333,0,0x0040,
0.521817333333333,0,0xA520,
0.521833041666667,0,0x8000,
0.521840916666667,0,0xA620,
0.521870041666667,0,0x0005,
0.521877708333333,0,0x2D21,
0.521893958333333,0,0xFB74,
0.521901833333333,0,0xAD20,
0.521917541666667,0,0xFFFD,
0.521925416666667,0,0xAE20,
0.521941125000000,0,0xBBC1,
0.521949000000000,0,0xAF20,
0.521964708333333,0,0x8000,
0.521972583333333,0,0xB020,
0.521988291666667,0,0x8303,
0.521996166666667,0,0xB120,
0.522026166666667,0,0x0006,
0.522033833333333,0,0x3B25,
0.522050208333333,0,0xE519,
0.522058083333333,0,0xBB20,
0.522073791666667,0,0x8000,
0.522081666666667,0,0xBC20,
0.522097375000000,0,0x8001,
0.522105250000000,0,0xBD20,
0.522120958333333,0,0x8001,
0.522128833333333,0,0xBE20,
0.522144541666667,0,0xE5BB,
0.522152416666667,0,0xBF20,
0.522168166666667,0,0xE5D5,
0.522176000000000,0,0xC020,
0.522206125000000,0,0x000A,
0.522213791666667,0,0x4129,
0.522230041666667,0,0xDB8F,
0.522237916666667,0,0xC120,
0.522253625000000,0,0xDCA0,
0.522261500000000,0,0xC220,
0.522277250000000,0,0xDF4C,
0.522285083333333,0,0xC320,
0.522300833333333,0,0xE123,
0.522308666666667,0,0xC420,
0.522324416666667,0,0xA97D,
0.522332250000000,0,0xC520,
0.522347958333333,0,0xFF47,
0.522355833333333,0,0xC620,
0.522371541666667,0,0xC012,
0.522379416666667,0,0xC720,
0.522395125000000,0,0xA3B2,
0.522403000000000,0,0xC820,
0.522418708333333,0,0x9E38,
0.522426583333333,0,0xC920,
0.522442291666667,0,0x9E3D,
0.522450166666667,0,0xCA20,
0.530079541666667,0,0x1C3F,
0.530087208333333,0,0x060F,
0.530114958333333,0,0x0004,
0.530122666666667,0,0x0311,
0.530139083333333,0,0x0A01,
0.530147000000000,0,0x8311,
0.530162833333333,0,0x0F00,
0.530170750000000,0,0x8411,
0.530186583333333,0,0x0000,
0.530194541666667,0,0x8511,
0.530210375000000,0,0x1F3F,
0.530218291666667,0,0x8611,
0.530249000000000,0,0x0004,
0.530256666666667,0,0x0315,
0.530272750000000,0,0x0A01,
0.530280666666667,0,0x8315,
0.530296500000000,0,0x0F00,
0.530304416666667,0,0x8415,
0.530320250000000,0,0x0000,
0.530328166666667,0,0x8511,
0.530344000000000,0,0x1F3F,
0.530351916666667,0,0x8615,
0.530382541666667,0,0x0004,
0.530390208333333,0,0x0319,
0.530406375000000,0,0x0A01,
0.530414291666667,0,0x8319,
0.530430125000000,0,0x0F00,
0.530438041666667,0,0x8419,
0.530453875000000,0,0x0000,
0.530461833333333,0,0x8511,
0.530477666666667,0,0x1F3F,
0.530485583333333,0,0x8619,
0.530516208333333,0,0x0004,
0.530523916666667,0,0x031D,
0.530540000000000,0,0x0A01,
0.530547916666667,0,0x831D,
0.530563791666667,0,0x0F00,
0.530571708333333,0,0x841D,
0.530587541666667,0,0x0000,
0.530595458333333,0,0x8511,
0.530611291666667,0,0x1F3F,
0.530619208333333,0,0x861D,
0.530649500000000,0,0x0004,
0.530657166666667,0,0x0311,
0.530673083333333,0,0x0A01,
0.530681041666667,0,0x8311,
0.530696875000000,0,0x0F00,
0.530704750000000,0,0x8411,
0.530720625000000,0,0x0000,
0.530728500000000,0,0x8511,
0.530744375000000,0,0x173F,
0.530752250000000,0,0x8611,
0.530783166666667,0,0x0001,
0.530790833333333,0,0x1D15,
0.530807208333333,0,0x1551,
0.530815083333333,0,0x9D15,
0.530843208333333,0,0x0003,
0.530850875000000,0,0x2419,
0.530867041666667,0,0x0048,
0.530874958333333,0,0xA411,
0.530890791666667,0,0x0040,
0.530898708333333,0,0xA511,
0.530914541666667,0,0x0000,
0.530922458333333,0,0xA611,
0.530950833333333,0,0x0005,
0.530958500000000,0,0x2D1D,
0.530974916666667,0,0xFA9A,
0.530982833333333,0,0xAD11,
0.530998666666667,0,0xFFFD,
0.531006583333333,0,0xAE11,
0.531022416666667,0,0x6213,
0.531030333333333,0,0xAF11,
0.531046166666667,0,0xFFFF,
0.531054083333333,0,0xB011,
0.531069916666667,0,0x830F,
0.531077833333333,0,0xB111,
0.531108500000000,0,0x0006,
0.531116166666667,0,0x3B11,
0.531132291666667,0,0xB3E4,
0.531140208333333,0,0xBB11,
0.531156041666667,0,0xB32F,
0.531163958333333,0,0xBC11,
0.531179791666667,0,0xB2BA,
0.531187708333333,0,0xBD11,
0.531203500000000,0,0xB1FD,
0.531211416666667,0,0xBE11,
0.531227250000000,0,0xB204,
0.531235208333333,0,0xBF11,
0.531251041666667,0,0xB271,
0.531258916666667,0,0xC011,
0.531288291666667,0,0x000A,
0.531296000000000,0,0x4115,
0.531312375000000,0,0xC0C8,
0.531320291666667,0,0xC111,
0.531336125000000,0,0xC0C7,
0.531344041666667,0,0xC211,
0.531359875000000,0,0xC0C5,
0.531367791666667,0,0xC311,
0.531383583333333,0,0xC085,
0.531391541666667,0,0xC411,
0.531407375000000,0,0xC0A4,
0.531415291666667,0,0xC511,
0.531431125000000,0,0xDD49,
0.531439041666667,0,0xC611,
0.531454875000000,0,0x803A,
0.531462791666667,0,0xC711,
0.531478625000000,0,0xA3CF,
0.531486541666667,0,0xC811,
0.531502375000000,0,0x9E39,
0.531510291666667,0,0xC911,
0.531526125000000,0,0x9E3B,
0.531534041666667,0,0xCA11,
0.531566916666667,0,0x0004,
0.531574583333333,0,0x0329,
0.531590625000000,0,0x0A01,
0.531598458333333,0,0x8329,
0.531614208333333,0,0x0F00,
0.531622041666667,0,0x8429,
0.531637791666667,0,0x0000,
0.531645625000000,0,0x8521,
0.531661375000000,0,0x173F,
0.531669208333333,0,0x8629,
0.531699208333333,0,0x0001,
0.531706916666667,0,0x1D2D,
0.531723250000000,0,0x0055,
0.531731125000000,0,0x9D2D,
0.531759333333333,0,0x0003,
0.531767000000000,0,0x2421,
0.531783208333333,0,0x004C,
0.531791041666667,0,0xA421,
0.531806791666667,0,0x0040,
0.531814625000000,0,0xA521,
0.531830375000000,0,0x8000,
0.531838208333333,0,0xA621,
0.531867333333333,0,0x0005,
0.531875041666667,0,0x2D25,
0.531891291666667,0,0xFC80,
0.531899125000000,0,0xAD21,
0.531914875000000,0,0xFFFD,
0.531922708333333,0,0xAE21,
0.531938458333333,0,0xB93E,
0.531946333333333,0,0xAF21,
0.531962041666667,0,0x8000,
0.531969916666667,0,0xB021,
0.531985625000000,0,0x8307,
0.531993500000000,0,0xB121,
0.532024000000000,0,0x0006,
0.532031708333333,0,0x3B29,
0.532048041666667,0,0xE51A,
0.532055916666667,0,0xBB21,
0.532071625000000,0,0x8000,
0.532079500000000,0,0xBC21,
0.532095208333333,0,0x8000,
0.532103083333333,0,0xBD21,
0.532118791666667,0,0x8000,
0.532126666666667,0,0xBE21,
0.532142375000000,0,0xE5BE,
0.532150208333333,0,0xBF21,
0.532165958333333,0,0xE5D8,
0.532173833333333,0,0xC021,
0.532203625000000,0,0x000A,
0.532211291666667,0,0x412D,
0.532227375000000,0,0xDB98,
0.532235208333333,0,0xC121,
0.532250916666667,0,0xDCA3,
0.532258791666667,0,0xC221,
0.532274541666667,0,0xDF4D,
0.532282375000000,0,0xC321,
0.532298083333333,0,0xE122,
0.532305958333333,0,0xC421,
0.532321708333333,0,0xA97B,
0.532329541666667,0,0xC521,
0.532345291666667,0,0xFF4C,
0.532353166666667,0,0xC621,
0.532368875000000,0,0xC014,
0.532376708333333,0,0xC721,
0.532392458333333,0,0xA3B0,
0.532400291666667,0,0xC821,
0.532416041666667,0,0x9E38,
0.532423916666667,0,0xC921,
0.532439625000000,0,0x9E3E,
0.532447500000000,0,0xCA21,
0.540021583333333,0,0x2C3F,
0.540029291666667,0,0x0603,
0.540057291666667,0,0x0004,
0.540064958333333,0,0x0315,
0.540080916666667,0,0x0A01,
0.540088833333333,0,0x8315,
0.540104666666667,0,0x0F00,
0.540112583333333,0,0x8415,
0.540128416666667,0,0x0000,
0.540136333333333,0,0x8512,
0.540152166666667,0,0x2F3F,
0.540160125000000,0,0x8615,
0.540190791666667,0,0x0004,
0.540198500000000,0,0x0319,
0.540214541666667,0,0x0A01,
0.540222458333333,0,0x8319,
0.540238291666667,0,0x0F00,
0.540246208333333,0,0x8419,
0.540262041666667,0,0x0000,
0.540270000000000,0,0x8512,
0.540285833333333,0,0x2F3F,
0.540293750000000,0,0x8619,
0.540324625000000,0,0x0004,
0.540332333333333,0,0x031D,
0.540348666666667,0,0x0A01,
0.540356625000000,0,0x831D,
0.540372458333333,0,0x0F00,
0.540380375000000,0,0x841D,
0.540396208333333,0,0x0000,
0.540404125000000,0,0x8512,
0.540419958333333,0,0x2F3F,
0.540427875000000,0,0x861D,
0.540458708333333,0,0x0004,
0.540466416666667,0,0x0311,
0.540482833333333,0,0x0A01,
0.540490750000000,0,0x8311,
0.540506583333333,0,0x0F00,
0.540514500000000,0,0x8411,
0.540530333333333,0,0x0000,
0.540538250000000,0,0x8512,
0.540554083333333,0,0x2F3F,
0.540562000000000,0,0x8611,
0.540593125000000,0,0x0004,
0.540600791666667,0,0x0315,
0.540616916666667,0,0x0A01,
0.540624833333333,0,0x8315,
0.540640666666667,0,0x0F00,
0.540648583333333,0,0x8415,
0.540664416666667,0,0x0000,
0.540672333333333,0,0x8512,
0.540688166666667,0,0x273F,
0.540696083333333,0,0x8615,
0.540727291666667,0,0x0001,
0.540734916666667,0,0x1D19,
0.540751000000000,0,0x1551,
0.540758916666667,0,0x9D19,
0.540787541666667,0,0x0003,
0.540795250000000,0,0x241D,
0.540811375000000,0,0x0048,
0.540819291666667,0,0xA412,
0.540835125000000,0,0x0040,
0.540843041666667,0,0xA512,
0.540858875000000,0,0x0000,
0.540866791666667,0,0xA612,
0.540895833333333,0,0x0005,
0.540903500000000,0,0x2D11,
0.540919708333333,0,0xFBA3,
0.540927625000000,0,0xAD12,
0.540943458333333,0,0xFFFD,
0.540951375000000,0,0xAE12,
0.540967208333333,0,0x5F5A,
0.540975125000000,0,0xAF12,
0.540990958333333,0,0x8000,
0.540998875000000,0,0xB012,
0.541014708333333,0,0x8303,
0.541022625000000,0,0xB112,
0.541052958333333,0,0x0006,
0.541060666666667,0,0x3B15,
0.541077083333333,0,0xB3E4,
0.541085000000000,0,0xBB12,
0.541100833333333,0,0xB32B,
0.541108750000000,0,0xBC12,
0.541124583333333,0,0xB2B7,
0.541132500000000,0,0xBD12,
0.541148375000000,0,0xB1FE,
0.541156291666667,0,0xBE12,
0.541172125000000,0,0xB202,
0.541180041666667,0,0xBF12,
0.541195875000000,0,0xB26F,
0.541203791666667,0,0xC012,
0.541234250000000,0,0x000A,
0.541241958333333,0,0x4119,
0.541258208333333,0,0xC0C6,
0.541266125000000,0,0xC112,
0.541281958333333,0,0xC0C5,
0.541289875000000,0,0xC212,
0.541305708333333,0,0xC0C8,
0.541313625000000,0,0xC312,
0.541329458333333,0,0xC086,
0.541337375000000,0,0xC412,
0.541353208333333,0,0xC0A7,
0.541361125000000,0,0xC512,
0.541376958333333,0,0xDD4C,
0.541384875000000,0,0xC612,
0.541400708333333,0,0x803C,
0.541408625000000,0,0xC712,
0.541424458333333,0,0xA3D0,
0.541432375000000,0,0xC812,
0.541448208333333,0,0x9E3A,
0.541456125000000,0,0xC912,
0.541471958333333,0,0x9E38,
0.541479875000000,0,0xCA12,
0.541511416666667,0,0x0004,
0.541519083333333,0,0x032D,
0.541535208333333,0,0x0A01,
0.541543083333333,0,0x832D,
0.541558791666667,0,0x0F00,
0.541566666666667,0,0x842D,
0.541582375000000,0,0x0000,
0.541590250000000,0,0x8522,
0.541605958333333,0,0x273F,
0.541613791666667,0,0x862D,
0.541643916666667,0,0x0001,
0.541651583333333,0,0x1D21,
0.541667875000000,0,0x0055,
0.541675750000000,0,0x9D21,
0.541703791666667,0,0x0003,
0.541711500000000,0,0x2425,
0.541727833333333,0,0x004C,
0.541735666666667,0,0xA422,
0.541751375000000,0,0x0040,
0.541759250000000,0,0xA522,
0.541774958333333,0,0x8000,
0.541782833333333,0,0xA622,
0.541811708333333,0,0x0005,
0.541819416666667,0,0x2D29,
0.541835375000000,0,0xFD8A,
0.541843250000000,0,0xAD22,
0.541858958333333,0,0xFFFD,
0.541866833333333,0,0xAE22,
0.541882541666667,0,0xB6C5,
0.541890416666667,0,0xAF22,
0.541906125000000,0,0xFFFF,
0.541913958333333,0,0xB022,
0.541929708333333,0,0x830B,
0.541937541666667,0,0xB122,
0.541967166666667,0,0x0006,
0.541974833333333,0,0x3B2D,
0.541991125000000,0,0xE518,
0.541998958333333,0,0xBB22,
0.542014708333333,0,0x8001,
0.542022541666667,0,0xBC22,
0.542038291666667,0,0x8000,
0.542046125000000,0,0xBD22,
0.542061875000000,0,0x8000,
0.542069708333333,0,0xBE22,
0.542085416666667,0,0xE5BD,
0.542093291666667,0,0xBF22,
0.542109041666667,0,0xE5D8,
0.542116875000000,0,0xC022,
0.542147125000000,0,0x000A,
0.542154791666667,0,0x4121,
0.542170916666667,0,0xDB9E,
0.542178791666667,0,0xC122,
0.542194500000000,0,0xDCA6,
0.542202375000000,0,0xC222,
0.542218083333333,0,0xDF4C,
0.542225958333333,0,0xC322,
0.542241666666667,0,0xE122,
0.542249541666667,0,0xC422,
0.542265250000000,0,0xA981,
0.542273125000000,0,0xC522,
0.542288833333333,0,0xFF4E,
0.542296666666667,0,0xC622,
0.542312416666667,0,0xC017,
0.542320250000000,0,0xC722,
0.542336000000000,0,0xA3B2,
0.542343833333333,0,0xC822,
0.542359583333333,0,0x9E3B,
0.542367416666667,0,0xC922,
0.542383166666667,0,0x9E3F,
0.542391041666667,0,0xCA22,
0.550072250000000,0,0x3C3F,
0.550079958333333,0,0x0607,
0.550107416666667,0,0x0004,
0.550115083333333,0,0x0319,
0.550131250000000,0,0x0A01,
0.550139166666667,0,0x8319,
0.550155000000000,0,0x0F00,
0.550162916666667,0,0x8419,
0.550178750000000,0,0x0000,
0.550186708333333,0,0x8513,
0.550202541666667,0,0x3F3F,
0.550210458333333,0,0x8619,
0.550241166666667,0,0x0004,
0.550248833333333,0,0x031D,
0.550264916666667,0,0x0A01,
0.550272833333333,0,0x831D,
0.550288666666667,0,0x0F00,
0.550296625000000,0,0x841D,
0.550312458333333,0,0x0000,
0.550320375000000,0,0x8513,
0.550336208333333,0,0x3F3F,
0.550344125000000,0,0x861D,
0.550374791666667,0,0x0004,
0.550382458333333,0,0x0311,
0.550398583333333,0,0x0A01,
0.550406500000000,0,0x8311,
0.550422333333333,0,0x0F00,
0.550430250000000,0,0x8411,
0.550446083333333,0,0x0000,
0.550454041666667,0,0x8513,
0.550469875000000,0,0x3F3F,
0.550477791666667,0,0x8611,
0.550508958333333,0,0x0004,
0.550516625000000,0,0x0315,
0.550532708333333,0,0x0A01,
0.550540666666667,0,0x8315,
0.550556500000000,0,0x0F00,
0.550564416666667,0,0x8415,
0.550580250000000,0,0x0000,
0.550588166666667,0,0x8513,
0.550604041666667,0,0x3F3F,
0.550611958333333,0,0x8615,
0.550643666666667,0,0x0004,
0.550651375000000,0,0x0319,
0.550667333333333,0,0x0A01,
0.550675250000000,0,0x8319,
0.550691083333333,0,0x0F00,
0.550699000000000,0,0x8419,
0.550714833333333,0,0x0000,
0.550722750000000,0,0x8513,
0.550738583333333,0,0x373F,
0.550746500000000,0,0x8619,
0.550777208333333,0,0x0001,
0.550784875000000,0,0x1D1D,
0.550800916666667,0,0x1551,
0.550808833333333,0,0x9D1D,
0.550837250000000,0,0x0003,
0.550844916666667,0,0x2411,
0.550861291666667,0,0x0048,
0.550869208333333,0,0xA413,
0.550885041666667,0,0x0040,
0.550892958333333,0,0xA513,
0.550908791666667,0,0x0000,
0.550916708333333,0,0xA613,
0.550946000000000,0,0x0005,
0.550953666666667,0,0x2D15,
0.550969666666667,0,0xFCAE,
0.550977583333333,0,0xAD13,
0.550993416666667,0,0xFFFD,
0.551001333333333,0,0xAE13,
0.551017166666667,0,0x5C72,
0.551025083333333,0,0xAF13,
0.551040958333333,0,0xFFFF,
0.551048833333333,0,0xB013,
0.551064708333333,0,0x830D,
0.551072625000000,0,0xB113,
0.551102750000000,0,0x0006,
0.551110416666667,0,0x3B19,
0.551126583333333,0,0xB3E4,
0.551134500000000,0,0xBB13,
0.551150333333333,0,0xB32D,
0.551158250000000,0,0xBC13,
0.551174083333333,0,0xB2BD,
0.551182000000000,0,0xBD13,
0.551197833333333,0,0xB201,
0.551205750000000,0,0xBE13,
0.551221583333333,0,0xB202,
0.551229500000000,0,0xBF13,
0.551245333333333,0,0xB271,
0.551253250000000,0,0xC013,
0.551283708333333,0,0x000A,
0.551291375000000,0,0x411D,
0.551307708333333,0,0xC0C4,
0.551315625000000,0,0xC113,
0.551331458333333,0,0xC0C2,
0.551339375000000,0,0xC213,
0.551355208333333,0,0xC0C5,
0.551363125000000,0,0xC313,
0.551378958333333,0,0xC085,
0.551386916666667,0,0xC413,
0.551402750000000,0,0xC0A3,
0.551410666666667,0,0xC513,
0.551426500000000,0,0xDD4A,
0.551434416666667,0,0xC613,
0.551450250000000,0,0x8038,
0.551458166666667,0,0xC713,
0.551474041666667,0,0xA3CD,
0.551481958333333,0,0xC813,
0.551497791666667,0,0x9E39,
0.551505708333333,0,0xC913,
0.551521541666667,0,0x9E37,
0.551529458333333,0,0xCA13,
0.551561541666667,0,0x0004,
0.551569208333333,0,0x0321,
0.551585250000000,0,0x0A01,
0.551593083333333,0,0x8321,
0.551608791666667,0,0x0F00,
0.551616666666667,0,0x8421,
0.551632416666667,0,0x0000,
0.551640250000000,0,0x8523,
0.551656000000000,0,0x373F,
0.551663833333333,0,0x8621,
0.551694166666667,0,0x0001,
0.551701875000000,0,0x1D25,
0.551717875000000,0,0x0055,
0.551725750000000,0,0x9D25,
0.551753750000000,0,0x0003,
0.551761458333333,0,0x2429,
0.551777833333333,0,0x004C,
0.551785708333333,0,0xA423,
0.551801416666667,0,0x0040,
0.551809250000000,0,0xA523,
0.551825000000000,0,0x8000,
0.551832875000000,0,0xA623,
0.551862208333333,0,0x0005,
0.551869916666667,0,0x2D2D,
0.551885916666667,0,0xFE97,
0.551893791666667,0,0xAD23,
0.551909500000000,0,0xFFFD,
0.551917375000000,0,0xAE23,
0.551933083333333,0,0xB4AC,
0.551940958333333,0,0xAF23,
0.551956666666667,0,0xFFFF,
0.551964541666667,0,0xB023,
0.551980250000000,0,0x830C,
0.551988125000000,0,0xB123,
0.552020583333333,0,0x0006,
0.552028250000000,0,0x3B21,
0.552044625000000,0,0xE51E,
0.552052458333333,0,0xBB23,
0.552068208333333,0,0x8003,
0.552076041666667,0,0xBC23,
0.552091791666667,0,0x8001,
0.552099625000000,0,0xBD23,
0.552115375000000,0,0x8002,
0.552123208333333,0,0xBE23,
0.552138916666667,0,0xE5BE,
0.552146791666667,0,0xBF23,
0.552162541666667,0,0xE5D5,
0.552170375000000,0,0xC023,
0.552200666666667,0,0x000A,
0.552208333333333,0,0x4125,
0.552224416666667,0,0xDB97,
0.552232291666667,0,0xC123,
0.552248000000000,0,0xDCA7,
0.552255875000000,0,0xC223,
0.552271625000000,0,0xDF46,
0.552279458333333,0,0xC323,
0.552295208333333,0,0xE120,
0.552303083333333,0,0xC423,
0.552318750000000,0,0xA97A,
0.552326625000000,0,0xC523,
0.552342333333333,0,0xFF49,
0.552350208333333,0,0xC623,
0.552365916666667,0,0xC016,
0.552373791666667,0,0xC723,
0.552389500000000,0,0xA3B2,
0.552397375000000,0,0xC823,
0.552413083333333,0,0x9E39,
0.552420958333333,0,0xC923,
0.552436666666667,0,0x9E3C,
0.552444541666667,0,0xCA23,
0.560071083333333,0,0x4C3F,
0.560078791666667,0,0x060B,
0.560105541666667,0,0x0004,
0.560113208333333,0,0x031D,
0.560129458333333,0,0x0A01,
0.560137375000000,0,0x831D,
0.560153208333333,0,0x0F00,
0.560161166666667,0,0x841D,
0.560176958333333,0,0x0000,
0.560184875000000,0,0x8514,
0.560200708333333,0,0x4F3F,
0.560208666666667,0,0x861D,
0.560240208333333,0,0x0004,
0.560247916666667,0,0x0311,
0.560264041666667,0,0x0A01,
0.560271958333333,0,0x8311,
0.560287833333333,0,0x0F00,
0.560295750000000,0,0x8411,
0.560311583333333,0,0x0000,
0.560319500000000,0,0x8514,
0.560335333333333,0,0x4F3F,
0.560343250000000,0,0x8611,
0.560373166666667,0,0x0004,
0.560380833333333,0,0x0315,
0.560397208333333,0,0x0A01,
0.560405125000000,0,0x8315,
0.560420958333333,0,0x0F00,
0.560428875000000,0,0x8415,
0.560444708333333,0,0x0000,
0.560452625000000,0,0x8514,
0.560468458333333,0,0x4F3F,
0.560476375000000,0,0x8615,
0.560507083333333,0,0x0004,
0.560514750000000,0,0x0319,
0.560530791666667,0,0x0A01,
0.560538750000000,0,0x8319,
0.560554583333333,0,0x0F00,
0.560562500000000,0,0x8419,
0.560578333333333,0,0x0000,
0.560586250000000,0,0x8514,
0.560602083333333,0,0x4F3F,
0.560610000000000,0,0x8619,
0.560641166666667,0,0x0004,
0.560648833333333,0,0x031D,
0.560664916666667,0,0x0A01,
0.560672833333333,0,0x831D,
0.560688666666667,0,0x0F00,
0.560696583333333,0,0x841D,
0.560712416666667,0,0x0000,
0.560720333333333,0,0x8514,
0.560736166666667,0,0x473F,
0.560744083333333,0,0x861D,
0.560775000000000,0,0x0001,
0.560782708333333,0,0x1D11,
0.560799000000000,0,0x1551,
0.560806916666667,0,0x9D11,
0.560834583333333,0,0x0003,
0.560842291666667,0,0x2415,
0.560858375000000,0,0x0048,
0.560866291666667,0,0xA414,
0.560882125000000,0,0x0040,
0.560890041666667,0,0xA514,
0.560905875000000,0,0x0000,
0.560913791666667,0,0xA614,
0.560942833333333,0,0x0005,
0.560950541666667,0,0x2D19,
0.560966750000000,0,0xFDB8,
0.560974666666667,0,0xAD14,
0.560990500000000,0,0xFFFD,
0.560998416666667,0,0xAE14,
0.561014250000000,0,0x598E,
0.561022166666667,0,0xAF14,
0.561038000000000,0,0x8000,
0.561045916666667,0,0xB014,
0.561061750000000,0,0x8304,
0.561069666666667,0,0xB114,
0.561099625000000,0,0x0006,
0.561107291666667,0,0x3B1D,
0.561123583333333,0,0xB3DE,
0.561131500000000,0,0xBB14,
0.561147333333333,0,0xB326,
0.561155250000000,0,0xBC14,
0.561171083333333,0,0xB2BE,
0.561179000000000,0,0xBD14,
0.561194833333333,0,0xB1FC,
0.561202750000000,0,0xBE14,
0.561218583333333,0,0xB1FE,
0.561226500000000,0,0xBF14,
0.561242333333333,0,0xB276,
0.561250250000000,0,0xC014,
0.561280666666667,0,0x000A,
0.561288333333333,0,0x4111,
0.561304666666667,0,0xC0C3,
0.561312583333333,0,0xC114,
0.561328416666667,0,0xC0C6,
0.561336333333333,0,0xC214,
0.561352208333333,0,0xC0C6,
0.561360125000000,0,0xC314,
0.561375958333333,0,0xC083,
0.561383875000000,0,0xC414,
0.561399708333333,0,0xC0A3,
0.561407625000000,0,0xC514,
0.561423458333333,0,0xDD49,
0.561431375000000,0,0xC614,
0.561447208333333,0,0x8040,
0.561455125000000,0,0xC714,
0.561470958333333,0,0xA3CB,
0.561478875000000,0,0xC814,
0.561494708333333,0,0x9E37,
0.561502625000000,0,0xC914,
0.561518500000000,0,0x9E36,
0.561526375000000,0,0xCA14,
0.561558958333333,0,0x0004,
0.561566625000000,0,0x0325,
0.561582625000000,0,0x0A01,
0.561590500000000,0,0x8325,
0.561606208333333,0,0x0F00,
0.561614083333333,0,0x8425,
0.561629791666667,0,0x0000,
0.561637666666667,0,0x8524,
0.561653375000000,0,0x473F,
0.561661208333333,0,0x8625,
0.561691750000000,0,0x0001,
0.561699458333333,0,0x1D29,
0.561715750000000,0,0x0055,
0.561723625000000,0,0x9D29,
0.561751833333333,0,0x0003,
0.561759500000000,0,0x242D,
0.561775708333333,0,0x004C,
0.561783541666667,0,0xA424,
0.561799291666667,0,0x0040,
0.561807125000000,0,0xA524,
0.561822833333333,0,0x8000,
0.561830708333333,0,0xA624,
0.561859750000000,0,0x0005,
0.561867416666667,0,0x2D21,
0.561883750000000,0,0xFFA3,
0.561891625000000,0,0xAD24,
0.561907375000000,0,0xFFFD,
0.561915208333333,0,0xAE24,
0.561930916666667,0,0xB2B7,
0.561938791666667,0,0xAF24,
0.561954500000000,0,0xFFFF,
0.561962375000000,0,0xB024,
0.561978083333333,0,0x830E,
0.561985958333333,0,0xB124,
0.562017541666667,0,0x0006,
0.562025250000000,0,0x3B25,
0.562041458333333,0,0xE518,
0.562049333333333,0,0xBB24,
0.562065041666667,0,0x8001,
0.562072916666667,0,0xBC24,
0.562088625000000,0,0x8000,
0.562096500000000,0,0xBD24,
0.562112208333333,0,0x8000,
0.562120083333333,0,0xBE24,
0.562135791666667,0,0xE5BA,
0.562143666666667,0,0xBF24,
0.562159375000000,0,0xE5CF,
0.562167250000000,0,0xC024,
0.562197458333333,0,0x000A,
0.562205125000000,0,0x4129,
0.562221291666667,0,0xDB94,
0.562229125000000,0,0xC124,
0.562244875000000,0,0xDCA2,
0.562252708333333,0,0xC224,
0.562268458333333,0,0xDF45,
0.562276291666667,0,0xC324,
0.562292041666667,0,0xE11F,
0.562299875000000,0,0xC424,
0.562315583333333,0,0xA979,
0.562323458333333,0,0xC524,
0.562339166666667,0,0xFF48,
0.562347041666667,0,0xC624,
0.562362750000000,0,0xC013,
0.562370625000000,0,0xC724,
0.562386333333333,0,0xA3B3,
0.562394208333333,0,0xC824,
0.562409916666667,0,0x9E3A,
0.562417791666667,0,0xC924,
0.562433541666667,0,0x9E3A,
0.562441416666667,0,0xCA24,
0.570080208333333,0,0x5C3F,
0.570087875000000,0,0x060F,
0.570115250000000,0,0x0004,
0.570122916666667,0,0x0311,
0.570138958333333,0,0x0A01,
0.570146875000000,0,0x8311,
0.570162708333333,0,0x0F00,
0.570170625000000,0,0x8411,
0.570186458333333,0,0x0000,
0.570194375000000,0,0x8515,
0.570210208333333,0,0x5F3F,
0.570218125000000,0,0x8611,
0.570249625000000,0,0x0004,
0.570257291666667,0,0x0315,
0.570273583333333,0,0x0A01,
0.570281458333333,0,0x8315,
0.570297333333333,0,0x0F00,
0.570305250000000,0,0x8415,
0.570321083333333,0,0x0000,
0.570329000000000,0,0x8515,
0.570344833333333,0,0x5F3F,
0.570352750000000,0,0x8615,
0.570383625000000,0,0x0004,
0.570391291666667,0,0x0319,
0.570407666666667,0,0x0A01,
0.570415625000000,0,0x8319,
0.570431458333333,0,0x0F00,
0.570439375000000,0,0x8419,
0.570455166666667,0,0x0000,
0.570463125000000,0,0x8515,
0.570478958333333,0,0x5F3F,
0.570486875000000,0,0x8619,
0.570517791666667,0,0x0004,
0.570525458333333,0,0x031D,
0.570541791666667,0,0x0A01,
0.570549750000000,0,0x831D,
0.570565541666667,0,0x0F00,
0.570573500000000,0,0x841D,
0.570589333333333,0,0x0000,
0.570597250000000,0,0x8515,
0.570613083333333,0,0x5F3F,
0.570621000000000,0,0x861D,
0.570651250000000,0,0x0004,
0.570658916666667,0,0x0311,
0.570674916666667,0,0x0A01,
0.570682833333333,0,0x8311,
0.570698666666667,0,0x0F00,
0.570706583333333,0,0x8411,
0.570722416666667,0,0x0000,
0.570730333333333,0,0x8515,
0.570746166666667,0,0x573F,
0.570754083333333,0,0x8611,
0.570784666666667,0,0x0001,
0.570792333333333,0,0x1D15,
0.570808500000000,0,0x1551,
0.570816416666667,0,0x9D15,
0.570844291666667,0,0x0003,
0.570851958333333,0,0x2419,
0.570868375000000,0,0x0048,
0.570876291666667,0,0xA415,
0.570892125000000,0,0x0040,
0.570900000000000,0,0xA515,
0.570915833333333,0,0x0000,
0.570923791666667,0,0xA615,
0.570953041666667,0,0x0005,
0.570960708333333,0,0x2D1D,
0.570976708333333,0,0xFEC2,
0.570984625000000,0,0xAD15,
0.571000458333333,0,0xFFFD,
0.571008375000000,0,0xAE15,
0.571024208333333,0,0x5660,
0.571032125000000,0,0xAF15,
0.571047958333333,0,0xFFFF,
0.571055875000000,0,0xB015,
0.571071666666667,0,0x8309,
0.571079625000000,0,0xB115,
0.571109416666667,0,0x0006,
0.571117083333333,0,0x3B11,
0.571133541666667,0,0xB3E5,
0.571141458333333,0,0xBB15,
0.571157291666667,0,0xB331,
0.571165208333333,0,0xBC15,
0.571181041666667,0,0xB2BB,
0.571188958333333,0,0xBD15,
0.571204791666667,0,0xB1FD,
0.571212708333333,0,0xBE15,
0.571228541666667,0,0xB205,
0.571236458333333,0,0xBF15,
0.571252291666667,0,0xB274,
0.571260208333333,0,0xC015,
0.571290125000000,0,0x000A,
0.571297791666667,0,0x4115,
0.571314125000000,0,0xC0C5,
0.571322041666667,0,0xC115,
0.571337875000000,0,0xC0C5,
0.571345791666667,0,0xC215,
0.571361625000000,0,0xC0C4,
0.571369541666667,0,0xC315,
0.571385375000000,0,0xC085,
0.571393291666667,0,0xC415,
0.571409125000000,0,0xC0A6,
0.571417083333333,0,0xC515,
0.571432916666667,0,0xDD4D,
0.571440791666667,0,0xC615,
0.571456666666667,0,0x803A,
0.571464583333333,0,0xC715,
0.571480416666667,0,0xA3CD,
0.571488333333333,0,0xC815,
0.571504166666667,0,0x9E3B,
0.571512083333333,0,0xC915,
0.571527916666667,0,0x9E3C,
0.571535833333333,0,0xCA15,
0.571568958333333,0,0x0004,
0.571576666666667,0,0x0329,
0.571592625000000,0,0x0A01,
0.571600458333333,0,0x8329,
0.571616208333333,0,0x0F00,
0.571624041666667,0,0x8429,
0.571639791666667,0,0x0000,
0.571647625000000,0,0x8525,
0.571663375000000,0,0x573F,
0.571671208333333,0,0x8629,
0.571701000000000,0,0x0001,
0.571708708333333,0,0x1D2D,
0.571724791666667,0,0x0055,
0.571732666666667,0,0x9D2D,
0.571761041666667,0,0x0003,
0.571768708333333,0,0x2421,
0.571784750000000,0,0x004C,
0.571792625000000,0,0xA425,
0.571808333333333,0,0x0040,
0.571816208333333,0,0xA525,
0.571831916666667,0,0x8000,
0.571839750000000,0,0xA625,
0.571868583333333,0,0x0005,
0.571876291666667,0,0x2D25,
0.571892333333333,0,0x00AF,
0.571900208333333,0,0xAD25,
0.571915916666667,0,0xFFFD,
0.571923791666667,0,0xAE25,
0.571939500000000,0,0xB0E5,
0.571947375000000,0,0xAF25,
0.571963083333333,0,0x8000,
0.571970958333333,0,0xB025,
0.571986666666667,0,0x830C,
0.571994541666667,0,0xB125,
0.572025125000000,0,0x0006,
0.572032791666667,0,0x3B29,
0.572049083333333,0,0xE51F,
0.572056916666667,0,0xBB25,
0.572072666666667,0,0x8000,
0.572080541666667,0,0xBC25,
0.572096250000000,0,0x8000,
0.572104125000000,0,0xBD25,
0.572119833333333,0,0x8000,
0.572127708333333,0,0xBE25,
0.572143416666667,0,0xE5B9,
0.572151291666667,0,0xBF25,
0.572167000000000,0,0xE5D3,
0.572174875000000,0,0xC025,
0.572204666666667,0,0x000A,
0.572212375000000,0,0x412D,
0.572228458333333,0,0xDB9C,
0.572236291666667,0,0xC125,
0.572252041666667,0,0xDCA2,
0.572259875000000,0,0xC225,
0.572275583333333,0,0xDF48,
0.572283458333333,0,0xC325,
0.572299208333333,0,0xE123,
0.572307041666667,0,0xC425,
0.572322791666667,0,0xA97E,
0.572330625000000,0,0xC525,
0.572346333333333,0,0xFF4D,
0.572354208333333,0,0xC625,
0.572369916666667,0,0xC01A,
0.572377791666667,0,0xC725,
0.572393500000000,0,0xA3B3,
0.572401375000000,0,0xC825,
0.572417083333333,0,0x9E3C,
0.572424958333333,0,0xC925,
0.572440666666667,0,0x9E40,
0.572448541666667,0,0xCA25,
0.580031791666667,0,0x6C3F,
0.580039500000000,0,0x0603,
0.580067333333333,0,0x0004,
0.580075000000000,0,0x0315,
0.580091041666667,0,0x0A01,
0.580098958333333,0,0x8315,
0.580114791666667,0,0x0F00,
0.580122750000000,0,0x8415,
0.580138583333333,0,0x0000,
0.580146500000000,0,0x8516,
0.580162333333333,0,0x6F3F,
0.580170250000000,0,0x8615,
0.580200750000000,0,0x0004,
0.580208416666667,0,0x0319,
0.580224708333333,0,0x0A01,
0.580232625000000,0,0x8319,
0.580248458333333,0,0x0F00,
0.580256375000000,0,0x8419,
0.580272250000000,0,0x0000,
0.580280125000000,0,0x8516,
0.580296000000000,0,0x6F3F,
0.580303916666667,0,0x8619,
0.580335125000000,0,0x0004,
0.580342791666667,0,0x031D,
0.580358833333333,0,0x0A01,
0.580366791666667,0,0x831D,
0.580382625000000,0,0x0F00,
0.580390541666667,0,0x841D,
0.580406375000000,0,0x0000,
0.580414291666667,0,0x8516,
0.580430125000000,0,0x6F3F,
0.580438083333333,0,0x861D,
0.580468791666667,0,0x0004,
0.580476458333333,0,0x0311,
0.580492541666667,0,0x0A01,
0.580500458333333,0,0x8311,
0.580516250000000,0,0x0F00,
0.580524208333333,0,0x8411,
0.580540041666667,0,0x0000,
0.580547958333333,0,0x8516,
0.580563791666667,0,0x6F3F,
0.580571708333333,0,0x8611,
0.580602208333333,0,0x0004,
0.580609875000000,0,0x0315,
0.580626125000000,0,0x0A01,
0.580634041666667,0,0x8315,
0.580649875000000,0,0x0F00,
0.580657791666667,0,0x8415,
0.580673625000000,0,0x0000,
0.580681541666667,0,0x8516,
0.580697375000000,0,0x673F,
0.580705291666667,0,0x8615,
0.580735875000000,0,0x0001,
0.580743583333333,0,0x1D19,
0.580759708333333,0,0x1551,
0.580767625000000,0,0x9D19,
0.580795791666667,0,0x0003,
0.580803458333333,0,0x241D,
0.580819583333333,0,0x0048,
0.580827500000000,0,0xA416,
0.580843333333333,0,0x0040,
0.580851250000000,0,0xA516,
0.580867083333333,0,0x0000,
0.580875000000000,0,0xA616,
0.580903375000000,0,0x0005,
0.580911083333333,0,0x2D11,
0.580927458333333,0,0xFFCB,
0.580935375000000,0,0xAD16,
0.580951208333333,0,0xFFFD,
0.580959125000000,0,0xAE16,
0.580974958333333,0,0x5365,
0.580982875000000,0,0xAF16,
0.580998708333333,0,0xFFFF,
0.581006625000000,0,0xB016,
0.581022458333333,0,0x8308,
0.581030375000000,0,0xB116,
0.581059916666667,0,0x0006,
0.581067583333333,0,0x3B15,
0.581083791666667,0,0xB3DE,
0.581091708333333,0,0xBB16,
0.581107541666667,0,0xB32A,
0.581115458333333,0,0xBC16,
0.581131291666667,0,0xB2BE,
0.581139208333333,0,0xBD16,
0.581155041666667,0,0xB1FC,
0.581162958333333,0,0xBE16,
0.581178791666667,0,0xB202,
0.581186708333333,0,0xBF16,
0.581202541666667,0,0xB276,
0.581210500000000,0,0xC016,
0.581240416666667,0,0x000A,
0.581248083333333,0,0x4119,
0.581264416666667,0,0xC0BF,
0.581272333333333,0,0xC116,
0.581288166666667,0,0xC0C0,
0.581296083333333,0,0xC216,
0.581311916666667,0,0xC0BF,
0.581319833333333,0,0xC316,
0.581335666666667,0,0xC082,
0.581343583333333,0,0xC416,
0.581359458333333,0,0xC09D,
0.581367375000000,0,0xC516,
0.581383208333333,0,0xDD49,
0.581391125000000,0,0xC616,
0.581406958333333,0,0x8037,
0.581414833333333,0,0xC716,
0.581430708333333,0,0xA3CD,
0.581438583333333,0,0xC816,
0.581454416666667,0,0x9E35,
0.581462333333333,0,0xC916,
0.581478166666667,0,0x9E3D,
0.581486083333333,0,0xCA16,
0.581518125000000,0,0x0004,
0.581525791666667,0,0x032D,
0.581542083333333,0,0x0A01,
0.581549958333333,0,0x832D,
0.581565666666667,0,0x0F00,
0.581573541666667,0,0x842D,
0.581589250000000,0,0x0000,
0.581597083333333,0,0x8526,
0.581612833333333,0,0x673F,
0.581620708333333,0,0x862D,
0.581650708333333,0,0x0001,
0.581658375000000,0,0x1D21,
0.581674750000000,0,0x0055,
0.581682625000000,0,0x9D21,
0.581711000000000,0,0x0003,
0.581718666666667,0,0x2425,
0.581734666666667,0,0x004C,
0.581742541666667,0,0xA426,
0.581758250000000,0,0x0040,
0.581766125000000,0,0xA526,
0.581781833333333,0,0x8000,
0.581789708333333,0,0xA626,
0.581818500000000,0,0x0005,
0.581826208333333,0,0x2D29,
0.581842291666667,0,0x01B9,
0.581850166666667,0,0xAD26,
0.581865875000000,0,0xFFFD,
0.581873708333333,0,0xAE26,
0.581889458333333,0,0xAE95,
0.581897291666667,0,0xAF26,
0.581913041666667,0,0xFFFF,
0.581920875000000,0,0xB026,
0.581936583333333,0,0x830F,
0.581944458333333,0,0xB126,
0.581974458333333,0,0x0006,
0.581982125000000,0,0x3B2D,
0.581998500000000,0,0xE51B,
0.582006375000000,0,0xBB26,
0.582022083333333,0,0x8001,
0.582029958333333,0,0xBC26,
0.582045666666667,0,0x8000,
0.582053541666667,0,0xBD26,
0.582069250000000,0,0x8000,
0.582077125000000,0,0xBE26,
0.582092833333333,0,0xE5C0,
0.582100708333333,0,0xBF26,
0.582116416666667,0,0xE5DA,
0.582124291666667,0,0xC026,
0.582154541666667,0,0x000A,
0.582162208333333,0,0x4121,
0.582178333333333,0,0xDB95,
0.582186208333333,0,0xC126,
0.582201916666667,0,0xDCA5,
0.582209750000000,0,0xC226,
0.582225500000000,0,0xDF4A,
0.582233333333333,0,0xC326,
0.582249083333333,0,0xE122,
0.582256916666667,0,0xC426,
0.582272666666667,0,0xA97E,
0.582280500000000,0,0xC526,
0.582296250000000,0,0xFF4C,
0.582304125000000,0,0xC626,
0.582319833333333,0,0xC012,
0.582327708333333,0,0xC726,
0.582343416666667,0,0xA3B2,
0.582351291666667,0,0xC826,
0.582367000000000,0,0x9E38,
0.582374875000000,0,0xC926,
0.582390583333333,0,0x9E3C,
0.582398458333333,0,0xCA26,
0.590070375000000,0,0x7C3F,
0.590078083333333,0,0x0607,
0.590105708333333,0,0x0004,
0.590113416666667,0,0x0319,
0.590129625000000,0,0x0A01,
0.590137541666667,0,0x8319,
0.590153333333333,0,0x0F00,
0.590161291666667,0,0x8419,
0.590177125000000,0,0x0000,
0.590185041666667,0,0x8517,
0.590200875000000,0,0x7F3F,
0.590208791666667,0,0x8619,
0.590239833333333,0,0x0004,
0.590247500000000,0,0x031D,
0.590263708333333,0,0x0A01,
0.590271625000000,0,0x831D,
0.590287458333333,0,0x0F00,
0.590295375000000,0,0x841D,
0.590311208333333,0,0x0000,
0.590319166666667,0,0x8517,
0.590335000000000,0,0x7F3F,
0.590342916666667,0,0x861D,
0.590373375000000,0,0x0004,
0.590381083333333,0,0x0311,
0.590397375000000,0,0x0A01,
0.590405291666667,0,0x8311,
0.590421125000000,0,0x0F00,
0.590429041666667,0,0x8411,
0.590444875000000,0,0x0000,
0.590452791666667,0,0x8517,
0.590468625000000,0,0x7F3F,
0.590476541666667,0,0x8611,
0.590507541666667,0,0x0004,
0.590515208333333,0,0x0315,
0.590531500000000,0,0x0A01,
0.590539416666667,0,0x8315,
0.590555250000000,0,0x0F00,
0.590563166666667,0,0x8415,
0.590579041666667,0,0x0000,
0.590586958333333,0,0x8517,
0.590602791666667,0,0x7F3F,
0.590610708333333,0,0x8615,
0.590641458333333,0,0x0004,
0.590649125000000,0,0x0319,
0.590665125000000,0,0x0A01,
0.590673041666667,0,0x8319,
0.590688875000000,0,0x0F00,
0.590696833333333,0,0x8419,
0.590712666666667,0,0x0000,
0.590720541666667,0,0x8517,
0.590736375000000,0,0x773F,
0.590744291666667,0,0x8619,
0.590775666666667,0,0x0001,
0.590783333333333,0,0x1D1D,
0.590799750000000,0,0x1551,
0.590807666666667,0,0x9D1D,
0.590835750000000,0,0x0003,
0.590843416666667,0,0x2411,
0.590859583333333,0,0x0048,
0.590867500000000,0,0xA417,
0.590883333333333,0,0x0040,
0.590891250000000,0,0xA517,
0.590907083333333,0,0x8000,
0.590915000000000,0,0xA617,
0.590943166666667,0,0x0005,
0.590950875000000,0,0x2D15,
0.590966958333333,0,0x00D6,
0.590974875000000,0,0xAD17,
0.590990708333333,0,0xFFFD,
0.590998625000000,0,0xAE17,
0.591014458333333,0,0x5088,
0.591022375000000,0,0xAF17,
0.591038208333333,0,0xFFFF,
0.591046125000000,0,0xB017,
0.591061958333333,0,0x830F,
0.591069875000000,0,0xB117,
0.591100833333333,0,0x0006,
0.591108500000000,0,0x3B19,
0.591124791666667,0,0xB3DC,
0.591132708333333,0,0xBB17,
0.591148541666667,0,0xB329,
0.591156458333333,0,0xBC17,
0.591172291666667,0,0xB2BC,
0.591180208333333,0,0xBD17,
0.591196041666667,0,0xB200,
0.591203958333333,0,0xBE17,
0.591219791666667,0,0xB1FF,
0.591227708333333,0,0xBF17,
0.591243541666667,0,0xB276,
0.591251458333333,0,0xC017,
0.591281541666667,0,0x000A,
0.591289250000000,0,0x411D,
0.591305375000000,0,0xC0C4,
0.591313291666667,0,0xC117,
0.591329125000000,0,0xC0C7,
0.591337041666667,0,0xC217,
0.591352916666667,0,0xC0C7,
0.591360791666667,0,0xC317,
0.591376625000000,0,0xC087,
0.591384541666667,0,0xC417,
0.591400375000000,0,0xC0A3,
0.591408291666667,0,0xC517,
0.591424125000000,0,0xDD47,
0.591432041666667,0,0xC617,
0.591447875000000,0,0x803B,
0.591455791666667,0,0xC717,
0.591471625000000,0,0xA3CF,
0.591479541666667,0,0xC817,
0.591495375000000,0,0x9E39,
0.591503291666667,0,0xC917,
0.591519125000000,0,0x9E3D,
0.591527041666667,0,0xCA17,
0.591559458333333,0,0x0004,
0.591567125000000,0,0x0321,
0.591583125000000,0,0x0A01,
0.591590958333333,0,0x8321,
0.591606708333333,0,0x0F00,
0.591614541666667,0,0x8421,
0.591630291666667,0,0x0000,
0.591638125000000,0,0x8527,
0.591653833333333,0,0x773F,
0.591661708333333,0,0x8621,
0.591692208333333,0,0x0001,
0.591699875000000,0,0x1D25,
0.591716250000000,0,0x0055,
0.591724083333333,0,0x9D25,
0.591752333333333,0,0x0003,
0.591760041666667,0,0x2429,
0.591776125000000,0,0x004C,
0.591784000000000,0,0xA427,
0.591799708333333,0,0x0040,
0.591807583333333,0,0xA527,
0.591823291666667,0,0x8000,
0.591831166666667,0,0xA627,
0.591859541666667,0,0x0005,
0.591867208333333,0,0x2D2D,
0.591883208333333,0,0x02C6,
0.591891083333333,0,0xAD27,
0.591906791666667,0,0xFFFD,
0.591914666666667,0,0xAE27,
0.591930375000000,0,0xAC75,
0.591938250000000,0,0xAF27,
0.591953958333333,0,0xFFFF,
0.591961791666667,0,0xB027,
0.591977541666667,0,0x830C,
0.591985375000000,0,0xB127,
0.592015416666667,0,0x0006,
0.592023083333333,0,0x3B21,
0.592039416666667,0,0xE51E,
0.592047291666667,0,0xBB27,
0.592063000000000,0,0x8003,
0.592070875000000,0,0xBC27,
0.592086583333333,0,0x8002,
0.592094458333333,0,0xBD27,
0.592110166666667,0,0x8000,
0.592118000000000,0,0xBE27,
0.592133750000000,0,0xE5C0,
0.592141583333333,0,0xBF27,
0.592157291666667,0,0xE5D8,
0.592165166666667,0,0xC027,
0.592195416666667,0,0x000A,
0.592203125000000,0,0x4125,
0.592219208333333,0,0xDB96,
0.592227083333333,0,0xC127,
0.592242791666667,0,0xDCA6,
0.592250666666667,0,0xC227,
0.592266375000000,0,0xDF4A,
0.592274208333333,0,0xC327,
0.592289958333333,0,0xE128,
0.592297791666667,0,0xC427,
0.592313541666667,0,0xA97F,
0.592321375000000,0,0xC527,
0.592337125000000,0,0xFF4E,
0.592344958333333,0,0xC627,
0.592360708333333,0,0xC018,
0.592368541666667,0,0xC727,
0.592384291666667,0,0xA3B2,
0.592392125000000,0,0xC827,
0.592407875000000,0,0x9E38,
0.592415708333333,0,0xC927,
0.592431458333333,0,0x9E42,
0.592439291666667,0,0xCA27,
0.600067458333333,0,0x8C3F,
0.600075166666667,0,0x060B,
0.600102291666667,0,0x0004,
0.600109958333333,0,0x031D,
0.600126250000000,0,0x0A01,
0.600134125000000,0,0x831D,
0.600150000000000,0,0x0F00,
0.600157875000000,0,0x841D,
0.600173708333333,0,0x0000,
0.600181625000000,0,0x8518,
0.600197458333333,0,0x8F3F,
0.600205375000000,0,0x861D,
0.600236166666667,0,0x0004,
0.600243833333333,0,0x0311,
0.600260333333333,0,0x0A01,
0.600268250000000,0,0x8311,
0.600284083333333,0,0x0F00,
0.600292000000000,0,0x8411,
0.600307833333333,0,0x0000,
0.600315750000000,0,0x8518,
0.600331583333333,0,0x8F3F,
0.600339541666667,0,0x8611,
0.600371125000000,0,0x0004,
0.600378791666667,0,0x0315,
0.600394958333333,0,0x0A01,
0.600402833333333,0,0x8315,
0.600418708333333,0,0x0F00,
0.600426625000000,0,0x8415,
0.600442458333333,0,0x0000,
0.600450375000000,0,0x8518,
0.600466208333333,0,0x8F3F,
0.600474125000000,0,0x8615,
0.600505583333333,0,0x0004,
0.600513250000000,0,0x0319,
0.600529541666667,0,0x0A01,
0.600537458333333,0,0x8319,
0.600553291666667,0,0x0F00,
0.600561208333333,0,0x8419,
0.600577041666667,0,0x0000,
0.600584958333333,0,0x8518,
0.600600833333333,0,0x8F3F,
0.600608750000000,0,0x8619,
0.600639750000000,0,0x0004,
0.600647416666667,0,0x031D,
0.600663666666667,0,0x0A01,
0.600671583333333,0,0x831D,
0.600687416666667,0,0x0F00,
0.600695333333333,0,0x841D,
0.600711166666667,0,0x0000,
0.600719083333333,0,0x8518,
0.600734916666667,0,0x873F,
0.600742833333333,0,0x861D,
0.600773125000000,0,0x0001,
0.600780833333333,0,0x1D11,
0.600797291666667,0,0x1551,
0.600805166666667,0,0x9D11,
0.600833666666667,0,0x0003,
0.600841333333333,0,0x2415,
0.600857625000000,0,0x0048,
0.600865583333333,0,0xA418,
0.600881416666667,0,0x0040,
0.600889291666667,0,0xA518,
0.600905166666667,0,0x8000,
0.600913083333333,0,0xA618,
0.600941791666667,0,0x0005,
0.600949458333333,0,0x2D19,
0.600965541666667,0,0x01E0,
0.600973458333333,0,0xAD18,
0.600989250000000,0,0xFFFD,
0.600997208333333,0,0xAE18,
0.601013041666667,0,0x4DFA,
0.601020958333333,0,0xAF18,
0.601036791666667,0,0xFFFF,
0.601044708333333,0,0xB018,
0.601060541666667,0,0x830E,
0.601068458333333,0,0xB118,
0.601099250000000,0,0x0006,
0.601106916666667,0,0x3B1D,
0.601122916666667,0,0xB3E1,
0.601130833333333,0,0xBB18,
0.601146666666667,0,0xB32B,
0.601154583333333,0,0xBC18,
0.601170416666667,0,0xB2BF,
0.601178333333333,0,0xBD18,
0.601194125000000,0,0xB201,
0.601202083333333,0,0xBE18,
0.601217916666667,0,0xB202,
0.601225833333333,0,0xBF18,
0.601241666666667,0,0xB271,
0.601249583333333,0,0xC018,
0.601279333333333,0,0x000A,
0.601287000000000,0,0x4111,
0.601303041666667,0,0xC0C5,
0.601310958333333,0,0xC118,
0.601326791666667,0,0xC0C6,
0.601334708333333,0,0xC218,
0.601350541666667,0,0xC0C3,
0.601358500000000,0,0xC318,
0.601374291666667,0,0xC087,
0.601382208333333,0,0xC418,
0.601398041666667,0,0xC0A4,
0.601405958333333,0,0xC518,
0.601421833333333,0,0xDD4C,
0.601429750000000,0,0xC618,
0.601445583333333,0,0x803E,
0.601453458333333,0,0xC718,
0.601469291666667,0,0xA3D0,
0.601477208333333,0,0xC818,
0.601493083333333,0,0x9E39,
0.601500958333333,0,0xC918,
0.601516833333333,0,0x9E3C,
0.601524750000000,0,0xCA18,
0.601557083333333,0,0x0004,
0.601564750000000,0,0x0325,
0.601580958333333,0,0x0A01,
0.601588791666667,0,0x8325,
0.601604500000000,0,0x0F00,
0.601612375000000,0,0x8425,
0.601628083333333,0,0x0000,
0.601635958333333,0,0x8528,
0.601651666666667,0,0x873F,
0.601659541666667,0,0x8625,
0.601689625000000,0,0x0001,
0.601697333333333,0,0x1D29,
0.601713583333333,0,0x0055,
0.601721458333333,0,0x9D29,
0.601749000000000,0,0x0003,
0.601756666666667,0,0x242D,
0.601773041666667,0,0x004C,
0.601780875000000,0,0xA428,
0.601796625000000,0,0x0040,
0.601804458333333,0,0xA528,
0.601820208333333,0,0x8000,
0.601828041666667,0,0xA628,
0.601856625000000,0,0x0005,
0.601864333333333,0,0x2D21,
0.601880625000000,0,0x03D2,
0.601888458333333,0,0xAD28,
0.601904208333333,0,0xFFFD,
0.601912041666667,0,0xAE28,
0.601927791666667,0,0xAA0F,
0.601935625000000,0,0xAF28,
0.601951375000000,0,0xFFFF,
0.601959208333333,0,0xB028,
0.601974916666667,0,0x830F,
0.601982791666667,0,0xB128,
0.602013875000000,0,0x0006,
0.602021541666667,0,0x3B25,
0.602037833333333,0,0xE519,
0.602045666666667,0,0xBB28,
0.602061375000000,0,0x8000,
0.602069250000000,0,0xBC28,
0.602084958333333,0,0x8000,
0.602092833333333,0,0xBD28,
0.602108541666667,0,0x8001,
0.602116416666667,0,0xBE28,
0.602132125000000,0,0xE5BD,
0.602140000000000,0,0xBF28,
0.602155708333333,0,0xE5DA,
0.602163583333333,0,0xC028,
0.602193541666667,0,0x000A,
0.602201208333333,0,0x4129,
0.602217625000000,0,0xDB96,
0.602225458333333,0,0xC128,
0.602241166666667,0,0xDCA4,
0.602249041666667,0,0xC228,
0.602264750000000,0,0xDF46,
0.602272625000000,0,0xC328,
0.602288375000000,0,0xE125,
0.602296208333333,0,0xC428,
0.602311916666667,0,0xA97D,
0.602319791666667,0,0xC528,
0.602335500000000,0,0xFF4D,
0.602343375000000,0,0xC628,
0.602359083333333,0,0xC016,
0.602366958333333,0,0xC728,
0.602382666666667,0,0xA3B4,
0.602390541666667,0,0xC828,
0.602406250000000,0,0x9E3B,
0.602414125000000,0,0xC928,
0.602429833333333,0,0x9E3B,
0.602437708333333,0,0xCA28,
0.610213083333333,0,0x9C3F,
0.610220750000000,0,0x060F,
0.610247875000000,0,0x0004,
0.610255583333333,0,0x0311,
0.610271916666667,0,0x0A01,
0.610279875000000,0,0x8311,
0.610295708333333,0,0x0F00,
0.610303625000000,0,0x8411,
0.610319458333333,0,0x0000,
0.610327375000000,0,0x8519,
0.610343208333333,0,0x9F3F,
0.610351125000000,0,0x8611,
0.610381500000000,0,0x0004,
0.610389208333333,0,0x0315,
0.610405583333333,0,0x0A01,
0.610413500000000,0,0x8315,
0.610429333333333,0,0x0F00,
0.610437250000000,0,0x8415,
0.610453083333333,0,0x0000,
0.610461041666667,0,0x8519,
0.610476875000000,0,0x9F3F,
0.610484791666667,0,0x8615,
0.610516041666667,0,0x0004,
0.610523750000000,0,0x0319,
0.610539750000000,0,0x0A01,
0.610547666666667,0,0x8319,
0.610563500000000,0,0x0F00,
0.610571416666667,0,0x8419,
0.610587250000000,0,0x0000,
0.610595208333333,0,0x8519,
0.610611041666667,0,0x9F3F,
0.610618958333333,0,0x8619,
0.610649500000000,0,0x0004,
0.610657166666667,0,0x031D,
0.610673416666667,0,0x0A01,
0.610681333333333,0,0x831D,
0.610697166666667,0,0x0F00,
0.610705083333333,0,0x841D,
0.610720916666667,0,0x0000,
0.610728875000000,0,0x8519,
0.610744708333333,0,0x9F3F,
0.610752625000000,0,0x861D,
0.610782708333333,0,0x0004,
0.610790375000000,0,0x0311,
0.610806541666667,0,0x0A01,
0.610814500000000,0,0x8311,
0.610830291666667,0,0x0F00,
0.610838250000000,0,0x8411,
0.610854083333333,0,0x0000,
0.610862000000000,0,0x8519,
0.610877833333333,0,0x973F,
0.610885750000000,0,0x8611,
0.610916541666667,0,0x0001,
0.610924250000000,0,0x1D15,
0.610940708333333,0,0x1551,
0.610948625000000,0,0x9D15,
0.610976666666667,0,0x0003,
0.610984333333333,0,0x2419,
0.611000583333333,0,0x0048,
0.611008500000000,0,0xA419,
0.611024333333333,0,0x0040,
0.611032250000000,0,0xA519,
0.611048083333333,0,0x8000,
0.611056000000000,0,0xA619,
0.611084666666667,0,0x0005,
0.611092375000000,0,0x2D1D,
0.611108458333333,0,0x02ED,
0.611116375000000,0,0xAD19,
0.611132208333333,0,0xFFFD,
0.611140125000000,0,0xAE19,
0.611155958333333,0,0x4B9C,
0.611163875000000,0,0xAF19,
0.611179708333333,0,0x8000,
0.611187583333333,0,0xB019,
0.611203416666667,0,0x8308,
0.611211375000000,0,0xB119,
0.611240583333333,0,0x0006,
0.611248250000000,0,0x3B11,
0.611264291666667,0,0xB3E5,
0.611272208333333,0,0xBB19,
0.611288083333333,0,0xB330,
0.611295958333333,0,0xBC19,
0.611311833333333,0,0xB2BC,
0.611319708333333,0,0xBD19,
0.611335583333333,0,0xB1FD,
0.611343500000000,0,0xBE19,
0.611359333333333,0,0xB1FF,
0.611367250000000,0,0xBF19,
0.611383083333333,0,0xB272,
0.611391000000000,0,0xC019,
0.611420958333333,0,0x000A,
0.611428625000000,0,0x4115,
0.611444916666667,0,0xC0C2,
0.611452833333333,0,0xC119,
0.611468666666667,0,0xC0C4,
0.611476583333333,0,0xC219,
0.611492416666667,0,0xC0C1,
0.611500333333333,0,0xC319,
0.611516166666667,0,0xC087,
0.611524083333333,0,0xC419,
0.611539916666667,0,0xC0A4,
0.611547833333333,0,0xC519,
0.611563666666667,0,0xDD4A,
0.611571583333333,0,0xC619,
0.611587416666667,0,0x8036,
0.611595333333333,0,0xC719,
0.611611166666667,0,0xA3CD,
0.611619083333333,0,0xC819,
0.611634916666667,0,0x9E35,
0.611642833333333,0,0xC919,
0.611658666666667,0,0x9E3A,
0.611666583333333,0,0xCA19,
0.611698958333333,0,0x0004,
0.611706625000000,0,0x0329,
0.611722625000000,0,0x0A01,
0.611730500000000,0,0x8329,
0.611746208333333,0,0x0F00,
0.611754083333333,0,0x8429,
0.611769791666667,0,0x0000,
0.611777666666667,0,0x8529,
0.611793375000000,0,0x973F,
0.611801250000000,0,0x8629,
0.611831791666667,0,0x0001,
0.611839458333333,0,0x1D2D,
0.611855791666667,0,0x0055,
0.611863625000000,0,0x9D2D,
0.611891916666667,0,0x0003,
0.611899625000000,0,0x2421,
0.611915708333333,0,0x004C,
0.611923583333333,0,0xA429,
0.611939291666667,0,0x0040,
0.611947166666667,0,0xA529,
0.611962875000000,0,0x8000,
0.611970750000000,0,0xA629,
0.612001000000000,0,0x0005,
0.612008666666667,0,0x2D25,
0.612024791666667,0,0x04E2,
0.612032625000000,0,0xAD29,
0.612048375000000,0,0xFFFD,
0.612056208333333,0,0xAE29,
0.612071958333333,0,0xA729,
0.612079833333333,0,0xAF29,
0.612095541666667,0,0xFFFF,
0.612103375000000,0,0xB029,
0.612119125000000,0,0x8308,
0.612126958333333,0,0xB129,
0.612156708333333,0,0x0006,
0.612164375000000,0,0x3B29,
0.612180500000000,0,0xE516,
0.612188375000000,0,0xBB29,
0.612204083333333,0,0x8000,
0.612211958333333,0,0xBC29,
0.612227666666667,0,0x8000,
0.612235541666667,0,0xBD29,
0.612251250000000,0,0x8000,
0.612259125000000,0,0xBE29,
0.612274833333333,0,0xE5BC,
0.612282708333333,0,0xBF29,
0.612298416666667,0,0xE5D4,
0.612306291666667,0,0xC029,
0.612336333333333,0,0x000A,
0.612344041666667,0,0x412D,
0.612360333333333,0,0xDB97,
0.612368208333333,0,0xC129,
0.612383916666667,0,0xDCA5,
0.612391791666667,0,0xC229,
0.612407500000000,0,0xDF48,
0.612415333333333,0,0xC329,
0.612431083333333,0,0xE128,
0.612438916666667,0,0xC429,
0.612454666666667,0,0xA981,
0.612462500000000,0,0xC529,
0.612478250000000,0,0xFF4E,
0.612486125000000,0,0xC629,
0.612501833333333,0,0xC017,
0.612509708333333,0,0xC729,
0.612525416666667,0,0xA3B0,
0.612533291666667,0,0xC829,
0.612549000000000,0,0x9E3A,
0.612556833333333,0,0xC929,
0.612572583333333,0,0x9E3B,
0.612580416666667,0,0xCA29,
0.620075458333333,0,0xAC3F,
0.620083125000000,0,0x0603,
0.620110750000000,0,0x0004,
0.620118416666667,0,0x0315,
0.620134666666667,0,0x0A01,
0.620142583333333,0,0x8315,
0.620158416666667,0,0x0F00,
0.620166333333333,0,0x8415,
0.620182166666667,0,0x0000,
0.620190083333333,0,0x851A,
0.620205916666667,0,0xAF3F,
0.620213791666667,0,0x8615,
0.620244625000000,0,0x0004,
0.620252291666667,0,0x0319,
0.620268708333333,0,0x0A01,
0.620276625000000,0,0x8319,
0.620292458333333,0,0x0F00,
0.620300375000000,0,0x8419,
0.620316208333333,0,0x0000,
0.620324125000000,0,0x851A,
0.620339916666667,0,0xAF3F,
0.620347875000000,0,0x8619,
0.620378458333333,0,0x0004,
0.620386166666667,0,0x031D,
0.620402291666667,0,0x0A01,
0.620410208333333,0,0x831D,
0.620426041666667,0,0x0F00,
0.620433958333333,0,0x841D,
0.620449791666667,0,0x0000,
0.620457708333333,0,0x851A,
0.620473541666667,0,0xAF3F,
0.620481458333333,0,0x861D,
0.620512375000000,0,0x0004,
0.620520041666667,0,0x0311,
0.620536375000000,0,0x0A01,
0.620544291666667,0,0x8311,
0.620560125000000,0,0x0F00,
0.620568000000000,0,0x8411,
0.620583833333333,0,0x0000,
0.620591750000000,0,0x851A,
0.620607625000000,0,0xAF3F,
0.620615541666667,0,0x8611,
0.620646416666667,0,0x0004,
0.620654125000000,0,0x0315,
0.620670458333333,0,0x0A01,
0.620678375000000,0,0x8315,
0.620694208333333,0,0x0F00,
0.620702125000000,0,0x8415,
0.620718000000000,0,0x0000,
0.620725875000000,0,0x851A,
0.620741708333333,0,0xA73F,
0.620749666666667,0,0x8615,
0.620781250000000,0,0x0001,
0.620788916666667,0,0x1D19,
0.620805083333333,0,0x1551,
0.620812958333333,0,0x9D19,
0.620841333333333,0,0x0003,
0.620849000000000,0,0x241D,
0.620864958333333,0,0x0048,
0.620872875000000,0,0xA41A,
0.620888708333333,0,0x0040,
0.620896625000000,0,0xA51A,
0.620912458333333,0,0x8000,
0.620920375000000,0,0xA61A,
0.620950166666667,0,0x0005,
0.620957875000000,0,0x2D11,
0.620974291666667,0,0x03F4,
0.620982208333333,0,0xAD1A,
0.620998041666667,0,0xFFFD,
0.621005958333333,0,0xAE1A,
0.621021791666667,0,0x488B,
0.621029708333333,0,0xAF1A,
0.621045541666667,0,0xFFFF,
0.621053458333333,0,0xB01A,
0.621069291666667,0,0x8308,
0.621077208333333,0,0xB11A,
0.621107125000000,0,0x0006,
0.621114791666667,0,0x3B15,
0.621131125000000,0,0xB3E1,
0.621139041666667,0,0xBB1A,
0.621154916666667,0,0xB32F,
0.621162833333333,0,0xBC1A,
0.621178666666667,0,0xB2BF,
0.621186583333333,0,0xBD1A,
0.621202416666667,0,0xB203,
0.621210333333333,0,0xBE1A,
0.621226166666667,0,0xB1FF,
0.621234083333333,0,0xBF1A,
0.621249916666667,0,0xB272,
0.621257833333333,0,0xC01A,
0.621288083333333,0,0x000A,
0.621295750000000,0,0x4119,
0.621311750000000,0,0xC0C4,
0.621319666666667,0,0xC11A,
0.621335500000000,0,0xC0C7,
0.621343416666667,0,0xC21A,
0.621359250000000,0,0xC0C5,
0.621367166666667,0,0xC31A,
0.621383000000000,0,0xC087,
0.621390916666667,0,0xC41A,
0.621406750000000,0,0xC0A4,
0.621414666666667,0,0xC51A,
0.621430541666667,0,0xDD4C,
0.621438416666667,0,0xC61A,
0.621454291666667,0,0x8039,
0.621462208333333,0,0xC71A,
0.621478041666667,0,0xA3CE,
0.621485958333333,0,0xC81A,
0.621501791666667,0,0x9E3C,
0.621509708333333,0,0xC91A,
0.621525541666667,0,0x9E3A,
0.621533458333333,0,0xCA1A,
0.621565416666667,0,0x0004,
0.621573125000000,0,0x032D,
0.621589375000000,0,0x0A01,
0.621597250000000,0,0x832D,
0.621612958333333,0,0x0F00,
0.621620833333333,0,0x842D,
0.621636541666667,0,0x0000,
0.621644416666667,0,0x852A,
0.621660125000000,0,0xA73F,
0.621667958333333,0,0x862D,
0.621698791666667,0,0x0001,
0.621706500000000,0,0x1D21,
0.621722500000000,0,0x0055,
0.621730375000000,0,0x9D21,
0.621757916666667,0,0x0003,
0.621765583333333,0,0x2425,
0.621781958333333,0,0x004C,
0.621789833333333,0,0xA42A,
0.621805541666667,0,0x0040,
0.621813416666667,0,0xA52A,
0.621829125000000,0,0x8000,
0.621837000000000,0,0xA62A,
0.621866333333333,0,0x0005,
0.621874000000000,0,0x2D29,
0.621890041666667,0,0x05EA,
0.621897875000000,0,0xAD2A,
0.621913625000000,0,0xFFFD,
0.621921458333333,0,0xAE2A,
0.621937208333333,0,0xA48C,
0.621945041666667,0,0xAF2A,
0.621960791666667,0,0x8000,
0.621968625000000,0,0xB02A,
0.621984375000000,0,0x8304,
0.621992208333333,0,0xB12A,
0.622024166666667,0,0x0006,
0.622031833333333,0,0x3B2D,
0.622048250000000,0,0xE51A,
0.622056083333333,0,0xBB2A,
0.622071791666667,0,0x8000,
0.622079666666667,0,0xBC2A,
0.622095375000000,0,0x8000,
0.622103250000000,0,0xBD2A,
0.622118958333333,0,0x8000,
0.622126833333333,0,0xBE2A,
0.622142541666667,0,0xE5BA,
0.622150416666667,0,0xBF2A,
0.622166125000000,0,0xE5D2,
0.622173958333333,0,0xC02A,
0.622204625000000,0,0x000A,
0.622212333333333,0,0x4121,
0.622228500000000,0,0xDB9C,
0.622236375000000,0,0xC12A,
0.622252083333333,0,0xDCA8,
0.622259916666667,0,0xC22A,
0.622275666666667,0,0xDF4A,
0.622283500000000,0,0xC32A,
0.622299250000000,0,0xE123,
0.622307083333333,0,0xC42A,
0.622322791666667,0,0xA982,
0.622330666666667,0,0xC52A,
0.622346416666667,0,0xFF4D,
0.622354250000000,0,0xC62A,
0.622369958333333,0,0xC01A,
0.622377833333333,0,0xC72A,
0.622393583333333,0,0xA3B0,
0.622401416666667,0,0xC82A,
0.622417125000000,0,0x9E3B,
0.622425000000000,0,0xC92A,
0.622440750000000,0,0x9E3F,
0.622448583333333,0,0xCA2A,
0.630095250000000,0,0xBC3F,
0.630102916666667,0,0x0607,
0.630130916666667,0,0x0004,
0.630138583333333,0,0x0319,
0.630154708333333,0,0x0A01,
0.630162625000000,0,0x8319,
0.630178458333333,0,0x0F00,
0.630186416666667,0,0x8419,
0.630202250000000,0,0x0000,
0.630210166666667,0,0x851B,
0.630226000000000,0,0xBF3F,
0.630233916666667,0,0x8619,
0.630264208333333,0,0x0004,
0.630271916666667,0,0x031D,
0.630288333333333,0,0x0A01,
0.630296250000000,0,0x831D,
0.630312083333333,0,0x0F00,
0.630320000000000,0,0x841D,
0.630335833333333,0,0x0000,
0.630343750000000,0,0x851B,
0.630359625000000,0,0xBF3F,
0.630367500000000,0,0x861D,
0.630397791666667,0,0x0004,
0.630405458333333,0,0x0311,
0.630421458333333,0,0x0A01,
0.630429375000000,0,0x8311,
0.630445208333333,0,0x0F00,
0.630453125000000,0,0x8411,
0.630468958333333,0,0x0000,
0.630476875000000,0,0x851B,
0.630492750000000,0,0xBF3F,
0.630500666666667,0,0x8611,
0.630531416666667,0,0x0004,
0.630539125000000,0,0x0315,
0.630555125000000,0,0x0A01,
0.630563041666667,0,0x8315,
0.630578875000000,0,0x0F00,
0.630586791666667,0,0x8415,
0.630602666666667,0,0x0000,
0.630610583333333,0,0x851B,
0.630626416666667,0,0xBF3F,
0.630634333333333,0,0x8615,
0.630664875000000,0,0x0004,
0.630672541666667,0,0x0319,
0.630688750000000,0,0x0A01,
0.630696666666667,0,0x8319,
0.630712541666667,0,0x0F00,
0.630720416666667,0,0x8419,
0.630736291666667,0,0x0000,
0.630744166666667,0,0x851B,
0.630760041666667,0,0xB73F,
0.630767958333333,0,0x8619,
0.630798291666667,0,0x0001,
0.630806000000000,0,0x1D1D,
0.630822375000000,0,0x1551,
0.630830291666667,0,0x9D1D,
0.630858750000000,0,0x0003,
0.630866458333333,0,0x2411,
0.630882750000000,0,0x0048,
0.630890666666667,0,0xA41B,
0.630906500000000,0,0x0040,
0.630914416666667,0,0xA51B,
0.630930250000000,0,0x8000,
0.630938166666667,0,0xA61B,
0.630967125000000,0,0x0005,
0.630974791666667,0,0x2D15,
0.630991125000000,0,0x04FE,
0.630999041666667,0,0xAD1B,
0.631014875000000,0,0xFFFD,
0.631022791666667,0,0xAE1B,
0.631038625000000,0,0x460B,
0.631046541666667,0,0xAF1B,
0.631062375000000,0,0xFFFF,
0.631070291666667,0,0xB01B,
0.631086125000000,0,0x830E,
0.631094041666667,0,0xB11B,
0.631124916666667,0,0x0006,
0.631132583333333,0,0x3B19,
0.631149000000000,0,0xB3E2,
0.631156916666667,0,0xBB1B,
0.631172708333333,0,0xB32B,
0.631180666666667,0,0xBC1B,
0.631196500000000,0,0xB2BA,
0.631204416666667,0,0xBD1B,
0.631220208333333,0,0xB200,
0.631228125000000,0,0xBE1B,
0.631243958333333,0,0xB203,
0.631251875000000,0,0xBF1B,
0.631267708333333,0,0xB275,
0.631275625000000,0,0xC01B,
0.631305875000000,0,0x000A,
0.631313541666667,0,0x411D,
0.631329583333333,0,0xC0C6,
0.631337500000000,0,0xC11B,
0.631353333333333,0,0xC0C9,
0.631361250000000,0,0xC21B,
0.631377083333333,0,0xC0C2,
0.631385000000000,0,0xC31B,
0.631400833333333,0,0xC08A,
0.631408750000000,0,0xC41B,
0.631424583333333,0,0xC0A4,
0.631432500000000,0,0xC51B,
0.631448333333333,0,0xDD4E,
0.631456250000000,0,0xC61B,
0.631472083333333,0,0x803C,
0.631480000000000,0,0xC71B,
0.631495833333333,0,0xA3CE,
0.631503750000000,0,0xC81B,
0.631519583333333,0,0x9E39,
0.631527500000000,0,0xC91B,
0.631543333333333,0,0x9E3D,
0.631551250000000,0,0xCA1B,
0.631583250000000,0,0x0004,
0.631590916666667,0,0x0321,
0.631607333333333,0,0x0A01,
0.631615208333333,0,0x8321,
0.631630916666667,0,0x0F00,
0.631638791666667,0,0x8421,
0.631654500000000,0,0x0000,
0.631662375000000,0,0x852B,
0.631678083333333,0,0xB73F,
0.631685958333333,0,0x8621,
0.631716291666667,0,0x0001,
0.631724000000000,0,0x1D25,
0.631740000000000,0,0x0055,
0.631747833333333,0,0x9D25,
0.631776166666667,0,0x0003,
0.631783833333333,0,0x2429,
0.631799916666667,0,0x004C,
0.631807791666667,0,0xA42B,
0.631823500000000,0,0x0040,
0.631831375000000,0,0xA52B,
0.631847125000000,0,0x8000,
0.631854958333333,0,0xA62B,
0.631884000000000,0,0x0005,
0.631891666666667,0,0x2D2D,
0.631908041666667,0,0x06F6,
0.631915916666667,0,0xAD2B,
0.631931583333333,0,0xFFFD,
0.631939458333333,0,0xAE2B,
0.631955208333333,0,0xA1F0,
0.631963041666667,0,0xAF2B,
0.631978791666667,0,0xFFFF,
0.631986625000000,0,0xB02B,
0.632002375000000,0,0x8309,
0.632010208333333,0,0xB12B,
0.632040541666667,0,0x0006,
0.632048208333333,0,0x3B21,
0.632064250000000,0,0xE51A,
0.632072125000000,0,0xBB2B,
0.632087833333333,0,0x8000,
0.632095708333333,0,0xBC2B,
0.632111416666667,0,0x8000,
0.632119291666667,0,0xBD2B,
0.632135000000000,0,0x8001,
0.632142875000000,0,0xBE2B,
0.632158583333333,0,0xE5C0,
0.632166458333333,0,0xBF2B,
0.632182166666667,0,0xE5D5,
0.632190041666667,0,0xC02B,
0.632219916666667,0,0x000A,
0.632227625000000,0,0x4125,
0.632243583333333,0,0xDB95,
0.632251416666667,0,0xC12B,
0.632267166666667,0,0xDCA4,
0.632275041666667,0,0xC22B,
0.632290750000000,0,0xDF45,
0.632298583333333,0,0xC32B,
0.632314333333333,0,0xE11E,
0.632322166666667,0,0xC42B,
0.632337916666667,0,0xA97C,
0.632345750000000,0,0xC52B,
0.632361458333333,0,0xFF48,
0.632369333333333,0,0xC62B,
0.632385083333333,0,0xC014,
0.632392916666667,0,0xC72B,
0.632408666666667,0,0xA3B1,
0.632416500000000,0,0xC82B,
0.632432250000000,0,0x9E37,
0.632440083333333,0,0xC92B,
0.632455833333333,0,0x9E3E,
0.632463666666667,0,0xCA2B,
0.640085791666667,0,0xCC3F,
0.640093458333333,0,0x060B,
0.640121000000000,0,0x0004,
0.640128666666667,0,0x031D,
0.640144916666667,0,0x0A01,
0.640152833333333,0,0x831D,
0.640168666666667,0,0x0F00,
0.640176625000000,0,0x841D,
0.640192416666667,0,0x0000,
0.640200375000000,0,0x851C,
0.640216208333333,0,0xCF3F,
0.640224125000000,0,0x861D,
0.640255208333333,0,0x0004,
0.640262916666667,0,0x0311,
0.640279041666667,0,0x0A01,
0.640286958333333,0,0x8311,
0.640302791666667,0,0x0F00,
0.640310708333333,0,0x8411,
0.640326541666667,0,0x0000,
0.640334458333333,0,0x851C,
0.640350291666667,0,0xCF3F,
0.640358208333333,0,0x8611,
0.640388291666667,0,0x0004,
0.640396000000000,0,0x0315,
0.640412166666667,0,0x0A01,
0.640420083333333,0,0x8315,
0.640435916666667,0,0x0F00,
0.640443833333333,0,0x8415,
0.640459666666667,0,0x0000,
0.640467583333333,0,0x851C,
0.640483416666667,0,0xCF3F,
0.640491333333333,0,0x8615,
0.640522875000000,0,0x0004,
0.640530541666667,0,0x0319,
0.640546791666667,0,0x0A01,
0.640554666666667,0,0x8319,
0.640570541666667,0,0x0F00,
0.640578416666667,0,0x8419,
0.640594291666667,0,0x0000,
0.640602208333333,0,0x851C,
0.640618041666667,0,0xCF3F,
0.640625958333333,0,0x8619,
0.640657083333333,0,0x0004,
0.640664791666667,0,0x031D,
0.640680875000000,0,0x0A01,
0.640688791666667,0,0x831D,
0.640704625000000,0,0x0F00,
0.640712541666667,0,0x841D,
0.640728375000000,0,0x0000,
0.640736291666667,0,0x851C,
0.640752125000000,0,0xC73F,
0.640760041666667,0,0x861D,
0.640790250000000,0,0x0001,
0.640797916666667,0,0x1D11,
0.640814000000000,0,0x1551,
0.640821875000000,0,0x9D11,
0.640850416666667,0,0x0003,
0.640858083333333,0,0x2415,
0.640874333333333,0,0x0048,
0.640882250000000,0,0xA41C,
0.640898083333333,0,0x0040,
0.640906000000000,0,0xA51C,
0.640921833333333,0,0x8000,
0.640929750000000,0,0xA61C,
0.640958875000000,0,0x0005,
0.640966541666667,0,0x2D19,
0.640982708333333,0,0x0608,
0.640990625000000,0,0xAD1C,
0.641006458333333,0,0xFFFD,
0.641014333333333,0,0xAE1C,
0.641030208333333,0,0x42BC,
0.641038083333333,0,0xAF1C,
0.641053958333333,0,0xFFFF,
0.641061833333333,0,0xB01C,
0.641077666666667,0,0x830F,
0.641085625000000,0,0xB11C,
0.641116041666667,0,0x0006,
0.641123750000000,0,0x3B1D,
0.641140041666667,0,0xB3E4,
0.641147916666667,0,0xBB1C,
0.641163791666667,0,0xB331,
0.641171708333333,0,0xBC1C,
0.641187541666667,0,0xB2BF,
0.641195458333333,0,0xBD1C,
0.641211291666667,0,0xB1FF,
0.641219208333333,0,0xBE1C,
0.641235041666667,0,0xB200,
0.641242958333333,0,0xBF1C,
0.641258791666667,0,0xB273,
0.641266708333333,0,0xC01C,
0.641296750000000,0,0x000A,
0.641304416666667,0,0x4111,
0.641320625000000,0,0xC0CA,
0.641328541666667,0,0xC11C,
0.641344375000000,0,0xC0C4,
0.641352291666667,0,0xC21C,
0.641368125000000,0,0xC0C5,
0.641376041666667,0,0xC31C,
0.641391875000000,0,0xC087,
0.641399750000000,0,0xC41C,
0.641415625000000,0,0xC0A5,
0.641423500000000,0,0xC51C,
0.641439333333333,0,0xDD4A,
0.641447291666667,0,0xC61C,
0.641463125000000,0,0x803C,
0.641471000000000,0,0xC71C,
0.641486875000000,0,0xA3CF,
0.641494791666667,0,0xC81C,
0.641510583333333,0,0x9E3C,
0.641518541666667,0,0xC91C,
0.641534375000000,0,0x9E3A,
0.641542291666667,0,0xCA1C,
0.641574208333333,0,0x0004,
0.641581916666667,0,0x0325,
0.641598291666667,0,0x0A01,
0.641606166666667,0,0x8325,
0.641621875000000,0,0x0F00,
0.641629750000000,0,0x8425,
0.641645500000000,0,0x0000,
0.641653333333333,0,0x852C,
0.641669041666667,0,0xC73F,
0.641676916666667,0,0x8625,
0.641707000000000,0,0x0001,
0.641714708333333,0,0x1D29,
0.641730958333333,0,0x0055,
0.641738791666667,0,0x9D29,
0.641766625000000,0,0x0003,
0.641774291666667,0,0x242D,
0.641790416666667,0,0x004C,
0.641798250000000,0,0xA42C,
0.641814000000000,0,0x0040,
0.641821833333333,0,0xA52C,
0.641837583333333,0,0x8000,
0.641845458333333,0,0xA62C,
0.641873666666667,0,0x0005,
0.641881333333333,0,0x2D21,
0.641897500000000,0,0x0802,
0.641905375000000,0,0xAD2C,
0.641921083333333,0,0xFFFD,
0.641928958333333,0,0xAE2C,
0.641944666666667,0,0xA01B,
0.641952541666667,0,0xAF2C,
0.641968250000000,0,0xFFFF,
0.641976125000000,0,0xB02C,
0.641991833333333,0,0x8307,
0.641999708333333,0,0xB12C,
0.642029916666667,0,0x0006,
0.642037583333333,0,0x3B25,
0.642053750000000,0,0xE51A,
0.642061625000000,0,0xBB2C,
0.642077291666667,0,0x8000,
0.642085166666667,0,0xBC2C,
0.642100875000000,0,0x8002,
0.642108750000000,0,0xBD2C,
0.642124458333333,0,0x8000,
0.642132333333333,0,0xBE2C,
0.642148041666667,0,0xE5BF,
0.642155916666667,0,0xBF2C,
0.642171666666667,0,0xE5D8,
0.642179500000000,0,0xC02C,
0.642209333333333,0,0x000A,
0.642217000000000,0,0x4129,
0.642233041666667,0,0xDB97,
0.642240916666667,0,0xC12C,
0.642256625000000,0,0xDCA6,
0.642264500000000,0,0xC22C,
0.642280250000000,0,0xDF4A,
0.642288083333333,0,0xC32C,
0.642303791666667,0,0xE127,
0.642311666666667,0,0xC42C,
0.642327416666667,0,0xA97E,
0.642335291666667,0,0xC52C,
0.642351000000000,0,0xFF4C,
0.642358875000000,0,0xC62C,
0.642374583333333,0,0xC014,
0.642382458333333,0,0xC72C,
0.642398166666667,0,0xA3B1,
0.642406000000000,0,0xC82C,
0.642421750000000,0,0x9E3A,
0.642429625000000,0,0xC92C,
0.642445333333333,0,0x9E41,
0.642453166666667,0,0xCA2C,
0.650101958333333,0,0xDC3F,
0.650109666666667,0,0x060F,
0.650136791666667,0,0x0004,
0.650144458333333,0,0x0311,
0.650160541666667,0,0x0A01,
0.650168458333333,0,0x8311,
0.650184291666667,0,0x0F00,
0.650192208333333,0,0x8411,
0.650208041666667,0,0x0000,
0.650215958333333,0,0x851D,
0.650231791666667,0,0xDF3F,
0.650239750000000,0,0x8611,
0.650270750000000,0,0x0004,
0.650278416666667,0,0x0315,
0.650294625000000,0,0x0A01,
0.650302541666667,0,0x8315,
0.650318416666667,0,0x0F00,
0.650326333333333,0,0x8415,
0.650342166666667,0,0x0000,
0.650350083333333,0,0x851D,
0.650365916666667,0,0xDF3F,
0.650373833333333,0,0x8615,
0.650403875000000,0,0x0004,
0.650411541666667,0,0x0319,
0.650427791666667,0,0x0A01,
0.650435708333333,0,0x8319,
0.650451541666667,0,0x0F00,
0.650459458333333,0,0x8419,
0.650475291666667,0,0x0000,
0.650483250000000,0,0x851D,
0.650499083333333,0,0xDF3F,
0.650507000000000,0,0x8619,
0.650537125000000,0,0x0004,
0.650544833333333,0,0x031D,
0.650560958333333,0,0x0A01,
0.650568875000000,0,0x831D,
0.650584708333333,0,0x0F00,
0.650592625000000,0,0x841D,
0.650608458333333,0,0x0000,
0.650616375000000,0,0x851D,
0.650632208333333,0,0xDF3F,
0.650640125000000,0,0x861D,
0.650671166666667,0,0x0004,
0.650678833333333,0,0x0311,
0.650695041666667,0,0x0A01,
0.650702958333333,0,0x8311,
0.650718791666667,0,0x0F00,
0.650726708333333,0,0x8411,
0.650742583333333,0,0x0000,
0.650750500000000,0,0x851D,
0.650766333333333,0,0xD73F,
0.650774250000000,0,0x8611,
0.650804791666667,0,0x0001,
0.650812500000000,0,0x1D15,
0.650828666666667,0,0x1551,
0.650836583333333,0,0x9D15,
0.650864458333333,0,0x0003,
0.650872125000000,0,0x2419,
0.650888500000000,0,0x0048,
0.650896416666667,0,0xA41D,
0.650912250000000,0,0x0040,
0.650920166666667,0,0xA51D,
0.650936000000000,0,0x8000,
0.650943916666667,0,0xA61D,
0.650972875000000,0,0x0005,
0.650980541666667,0,0x2D1D,
0.650996833333333,0,0x0712,
0.651004750000000,0,0xAD1D,
0.651020583333333,0,0xFFFD,
0.651028541666667,0,0xAE1D,
0.651044375000000,0,0x4092,
0.651052291666667,0,0xAF1D,
0.651068083333333,0,0x8000,
0.651076041666667,0,0xB01D,
0.651091833333333,0,0x8305,
0.651099791666667,0,0xB11D,
0.651130041666667,0,0x0006,
0.651137750000000,0,0x3B11,
0.651153708333333,0,0xB3DF,
0.651161625000000,0,0xBB1D,
0.651177458333333,0,0xB32D,
0.651185375000000,0,0xBC1D,
0.651201208333333,0,0xB2BD,
0.651209083333333,0,0xBD1D,
0.651224958333333,0,0xB1FF,
0.651232875000000,0,0xBE1D,
0.651248666666667,0,0xB203,
0.651256625000000,0,0xBF1D,
0.651272458333333,0,0xB271,
0.651280375000000,0,0xC01D,
0.651311000000000,0,0x000A,
0.651318708333333,0,0x4115,
0.651334791666667,0,0xC0C4,
0.651342708333333,0,0xC11D,
0.651358541666667,0,0xC0C3,
0.651366458333333,0,0xC21D,
0.651382291666667,0,0xC0C2,
0.651390208333333,0,0xC31D,
0.651406041666667,0,0xC082,
0.651413958333333,0,0xC41D,
0.651429791666667,0,0xC0A4,
0.651437708333333,0,0xC51D,
0.651453541666667,0,0xDD49,
0.651461458333333,0,0xC61D,
0.651477291666667,0,0x8037,
0.651485208333333,0,0xC71D,
0.651501041666667,0,0xA3CD,
0.651509000000000,0,0xC81D,
0.651524833333333,0,0x9E38,
0.651532750000000,0,0xC91D,
0.651548583333333,0,0x9E3C,
0.651556500000000,0,0xCA1D,
0.651588500000000,0,0x0004,
0.651596166666667,0,0x0329,
0.651612583333333,0,0x0A01,
0.651620458333333,0,0x8329,
0.651636166666667,0,0x0F00,
0.651644041666667,0,0x8429,
0.651659750000000,0,0x0000,
0.651667583333333,0,0x852D,
0.651683333333333,0,0xD73F,
0.651691166666667,0,0x8629,
0.651720708333333,0,0x0001,
0.651728375000000,0,0x1D2D,
0.651744750000000,0,0x0055,
0.651752583333333,0,0x9D2D,
0.651781083333333,0,0x0003,
0.651788750000000,0,0x2421,
0.651805166666667,0,0x004C,
0.651813000000000,0,0xA42D,
0.651828750000000,0,0x0040,
0.651836583333333,0,0xA52D,
0.651852291666667,0,0x8000,
0.651860166666667,0,0xA62D,
0.651889375000000,0,0x0005,
0.651897041666667,0,0x2D25,
0.651913250000000,0,0x090E,
0.651921083333333,0,0xAD2D,
0.651936833333333,0,0xFFFD,
0.651944666666667,0,0xAE2D,
0.651960416666667,0,0x9D97,
0.651968250000000,0,0xAF2D,
0.651983958333333,0,0xFFFF,
0.651991833333333,0,0xB02D,
0.652007541666667,0,0x830B,
0.652015416666667,0,0xB12D,
0.652045291666667,0,0x0006,
0.652052958333333,0,0x3B29,
0.652068958333333,0,0xE51A,
0.652076791666667,0,0xBB2D,
0.652092500000000,0,0x8000,
0.652100375000000,0,0xBC2D,
0.652116125000000,0,0x8001,
0.652123958333333,0,0xBD2D,
0.652139708333333,0,0x8000,
0.652147541666667,0,0xBE2D,
0.652163291666667,0,0xE5B9,
0.652171125000000,0,0xBF2D,
0.652186875000000,0,0xE5D6,
0.652194708333333,0,0xC02D,
0.652225125000000,0,0x000A,
0.652232791666667,0,0x412D,
0.652249250000000,0,0xDB9E,
0.652257083333333,0,0xC12D,
0.652272833333333,0,0xDCA7,
0.652280666666667,0,0xC22D,
0.652296416666667,0,0xDF4B,
0.652304250000000,0,0xC32D,
0.652320000000000,0,0xE121,
0.652327833333333,0,0xC42D,
0.652343541666667,0,0xA97F,
0.652351416666667,0,0xC52D,
0.652367125000000,0,0xFF4B,
0.652375000000000,0,0xC62D,
0.652390708333333,0,0xC012,
0.652398583333333,0,0xC72D,
0.652414291666667,0,0xA3B1,
0.652422166666667,0,0xC82D,
0.652437875000000,0,0x9E38,
0.652445708333333,0,0xC92D,
0.652461416666667,0,0x9E3F,
0.652469291666667,0,0xCA2D,
0.660069291666667,0,0xEC3F,
0.660077000000000,0,0x0603,
0.660104250000000,0,0x0004,
0.660111958333333,0,0x0315,
0.660128000000000,0,0x0A01,
0.660135875000000,0,0x8315,
0.660151750000000,0,0x0F00,
0.660159666666667,0,0x8415,
0.660175500000000,0,0x0000,
0.660183416666667,0,0x851E,
0.660199250000000,0,0xEF3F,
0.660207166666667,0,0x8615,
0.660238000000000,0,0x0004,
0.660245666666667,0,0x0319,
0.660262125000000,0,0x0A01,
0.660270041666667,0,0x8319,
0.660285875000000,0,0x0F00,
0.660293791666667,0,0x8419,
0.660309625000000,0,0x0000,
0.660317541666667,0,0x851E,
0.660333375000000,0,0xEF3F,
0.660341291666667,0,0x8619,
0.660371375000000,0,0x0004,
0.660379041666667,0,0x031D,
0.660395250000000,0,0x0A01,
0.660403166666667,0,0x831D,
0.660419000000000,0,0x0F00,
0.660426916666667,0,0x841D,
0.660442750000000,0,0x0000,
0.660450708333333,0,0x851E,
0.660466541666667,0,0xEF3F,
0.660474458333333,0,0x861D,
0.660505291666667,0,0x0004,
0.660512958333333,0,0x0311,
0.660529375000000,0,0x0A01,
0.660537291666667,0,0x8311,
0.660553125000000,0,0x0F00,
0.660561041666667,0,0x8411,
0.660576916666667,0,0x0000,
0.660584833333333,0,0x851E,
0.660600666666667,0,0xEF3F,
0.660608583333333,0,0x8611,
0.660638833333333,0,0x0004,
0.660646500000000,0,0x0315,
0.660662500000000,0,0x0A01,
0.660670416666667,0,0x8315,
0.660686250000000,0,0x0F00,
0.660694166666667,0,0x8415,
0.660710000000000,0,0x0000,
0.660717916666667,0,0x851E,
0.660733750000000,0,0xE73F,
0.660741666666667,0,0x8615,
0.660772250000000,0,0x0001,
0.660779916666667,0,0x1D19,
0.660796083333333,0,0x1551,
0.660804000000000,0,0x9D19,
0.660832375000000,0,0x0003,
0.660840041666667,0,0x241D,
0.660856458333333,0,0x0048,
0.660864333333333,0,0xA41E,
0.660880166666667,0,0x0040,
0.660888125000000,0,0xA51E,
0.660903958333333,0,0x8000,
0.660911833333333,0,0xA61E,
0.660940583333333,0,0x0005,
0.660948250000000,0,0x2D11,
0.660964291666667,0,0x081C,
0.660972208333333,0,0xAD1E,
0.660988041666667,0,0xFFFD,
0.660995958333333,0,0xAE1E,
0.661011791666667,0,0x3E31,
0.661019708333333,0,0xAF1E,
0.661035541666667,0,0xFFFF,
0.661043458333333,0,0xB01E,
0.661059291666667,0,0x830D,
0.661067208333333,0,0xB11E,
0.661097291666667,0,0x0006,
0.661104958333333,0,0x3B15,
0.661121125000000,0,0xB3E0,
0.661129041666667,0,0xBB1E,
0.661144875000000,0,0xB32E,
0.661152791666667,0,0xBC1E,
0.661168625000000,0,0xB2BE,
0.661176541666667,0,0xBD1E,
0.661192375000000,0,0xB203,
0.661200291666667,0,0xBE1E,
0.661216125000000,0,0xB200,
0.661224041666667,0,0xBF1E,
0.661239875000000,0,0xB272,
0.661247791666667,0,0xC01E,
0.661277458333333,0,0x000A,
0.661285125000000,0,0x4119,
0.661301208333333,0,0xC0C1,
0.661309166666667,0,0xC11E,
0.661324958333333,0,0xC0C2,
0.661332916666667,0,0xC21E,
0.661348708333333,0,0xC0C3,
0.661356625000000,0,0xC31E,
0.661372458333333,0,0xC086,
0.661380416666667,0,0xC41E,
0.661396250000000,0,0xC09E,
0.661404166666667,0,0xC51E,
0.661419958333333,0,0xDD4B,
0.661427916666667,0,0xC61E,
0.661443750000000,0,0x8038,
0.661451666666667,0,0xC71E,
0.661467500000000,0,0xA3CD,
0.661475416666667,0,0xC81E,
0.661491250000000,0,0x9E36,
0.661499208333333,0,0xC91E,
0.661515041666667,0,0x9E3B,
0.661522916666667,0,0xCA1E,
0.661555291666667,0,0x0004,
0.661562958333333,0,0x032D,
0.661579208333333,0,0x0A01,
0.661587083333333,0,0x832D,
0.661602791666667,0,0x0F00,
0.661610666666667,0,0x842D,
0.661626375000000,0,0x0000,
0.661634208333333,0,0x852E,
0.661649958333333,0,0xE73F,
0.661657833333333,0,0x862D,
0.661688708333333,0,0x0001,
0.661696375000000,0,0x1D21,
0.661712375000000,0,0x0055,
0.661720208333333,0,0x9D21,
0.661748375000000,0,0x0003,
0.661756083333333,0,0x2425,
0.661772291666667,0,0x004C,
0.661780166666667,0,0xA42E,
0.661795875000000,0,0x0040,
0.661803708333333,0,0xA52E,
0.661819458333333,0,0x8000,
0.661827333333333,0,0xA62E,
0.661856041666667,0,0x0005,
0.661863708333333,0,0x2D29,
0.661879875000000,0,0x0A19,
0.661887750000000,0,0xAD2E,
0.661903458333333,0,0xFFFD,
0.661911333333333,0,0xAE2E,
0.661927083333333,0,0x9AF3,
0.661934916666667,0,0xAF2E,
0.661950625000000,0,0x8000,
0.661958500000000,0,0xB02E,
0.661974250000000,0,0x8302,
0.661982125000000,0,0xB12E,
0.662014166666667,0,0x0006,
0.662021875000000,0,0x3B2D,
0.662038125000000,0,0xE51A,
0.662046000000000,0,0xBB2E,
0.662061708333333,0,0x8000,
0.662069583333333,0,0xBC2E,
0.662085291666667,0,0x8000,
0.662093166666667,0,0xBD2E,
0.662108875000000,0,0x8000,
0.662116708333333,0,0xBE2E,
0.662132458333333,0,0xE5BC,
0.662140333333333,0,0xBF2E,
0.662156041666667,0,0xE5D1,
0.662163875000000,0,0xC02E,
0.662194208333333,0,0x000A,
0.662201875000000,0,0x4121,
0.662217916666667,0,0xDB97,
0.662225791666667,0,0xC12E,
0.662241500000000,0,0xDCA2,
0.662249375000000,0,0xC22E,
0.662265083333333,0,0xDF48,
0.662272958333333,0,0xC32E,
0.662288666666667,0,0xE122,
0.662296541666667,0,0xC42E,
0.662312250000000,0,0xA97B,
0.662320125000000,0,0xC52E,
0.662335875000000,0,0xFF4A,
0.662343708333333,0,0xC62E,
0.662359416666667,0,0xC012,
0.662367291666667,0,0xC72E,
0.662383000000000,0,0xA3B1,
0.662390875000000,0,0xC82E,
0.662406625000000,0,0x9E37,
0.662414458333333,0,0xC92E,
0.662430208333333,0,0x9E3D,
0.662438041666667,0,0xCA2E,
0.670088041666667,0,0xFC3F,
0.670095750000000,0,0x0607,
0.670123125000000,0,0x0004,
0.670130833333333,0,0x0319,
0.670146916666667,0,0x0A01,
0.670154833333333,0,0x8319,
0.670170666666667,0,0x0F00,
0.670178583333333,0,0x8419,
0.670194416666667,0,0x0000,
0.670202375000000,0,0x851F,
0.670218166666667,0,0xFF3F,
0.670226125000000,0,0x8619,
0.670257208333333,0,0x0004,
0.670264916666667,0,0x031D,
0.670281041666667,0,0x0A01,
0.670288916666667,0,0x831D,
0.670304791666667,0,0x0F00,
0.670312708333333,0,0x841D,
0.670328541666667,0,0x0000,
0.670336458333333,0,0x851F,
0.670352291666667,0,0xFF3F,
0.670360250000000,0,0x861D,
0.670390125000000,0,0x0004,
0.670397791666667,0,0x0311,
0.670414208333333,0,0x0A01,
0.670422083333333,0,0x8311,
0.670437958333333,0,0x0F00,
0.670445875000000,0,0x8411,
0.670461708333333,0,0x0000,
0.670469625000000,0,0x851F,
0.670485458333333,0,0xFF3F,
0.670493375000000,0,0x8611,
0.670524541666667,0,0x0004,
0.670532208333333,0,0x0315,
0.670548333333333,0,0x0A01,
0.670556250000000,0,0x8315,
0.670572083333333,0,0x0F00,
0.670580000000000,0,0x8415,
0.670595833333333,0,0x0000,
0.670603750000000,0,0x851F,
0.670619625000000,0,0xFF3F,
0.670627500000000,0,0x8615,
0.670658458333333,0,0x0004,
0.670666125000000,0,0x0319,
0.670682458333333,0,0x0A01,
0.670690375000000,0,0x8319,
0.670706166666667,0,0x0F00,
0.670714083333333,0,0x8419,
0.670729958333333,0,0x0000,
0.670737875000000,0,0x851F,
0.670753708333333,0,0xF73F,
0.670761583333333,0,0x8619,
0.670791541666667,0,0x0001,
0.670799208333333,0,0x1D1D,
0.670815541666667,0,0x1551,
0.670823458333333,0,0x9D1D,
0.670851750000000,0,0x0003,
0.670859416666667,0,0x2411,
0.670875875000000,0,0x0048,
0.670883791666667,0,0xA41F,
0.670899625000000,0,0x0040,
0.670907583333333,0,0xA51F,
0.670923416666667,0,0x8000,
0.670931333333333,0,0xA61F,
0.670960083333333,0,0x0005,
0.670967750000000,0,0x2D15,
0.670983750000000,0,0x0926,
0.670991666666667,0,0xAD1F,
0.671007500000000,0,0xFFFD,
0.671015416666667,0,0xAE1F,
0.671031250000000,0,0x3BAB,
0.671039166666667,0,0xAF1F,
0.671055000000000,0,0x8000,
0.671062916666667,0,0xB01F,
0.671078750000000,0,0x8300,
0.671086666666667,0,0xB11F,
0.671118000000000,0,0x0006,
0.671125708333333,0,0x3B19,
0.671142083333333,0,0xB3E2,
0.671150000000000,0,0xBB1F,
0.671165791666667,0,0xB329,
0.671173750000000,0,0xBC1F,
0.671189583333333,0,0xB2BB,
0.671197458333333,0,0xBD1F,
0.671213333333333,0,0xB1FF,
0.671221250000000,0,0xBE1F,
0.671237083333333,0,0xB204,
0.671245000000000,0,0xBF1F,
0.671260833333333,0,0xB279,
0.671268750000000,0,0xC01F,
0.671299583333333,0,0x000A,
0.671307250000000,0,0x411D,
0.671323708333333,0,0xC0C7,
0.671331625000000,0,0xC11F,
0.671347458333333,0,0xC0C1,
0.671355375000000,0,0xC21F,
0.671371208333333,0,0xC0C5,
0.671379125000000,0,0xC31F,
0.671394958333333,0,0xC087,
0.671402875000000,0,0xC41F,
0.671418708333333,0,0xC0A2,
0.671426625000000,0,0xC51F,
0.671442458333333,0,0xDD4C,
0.671450375000000,0,0xC61F,
0.671466208333333,0,0x803B,
0.671474125000000,0,0xC71F,
0.671489958333333,0,0xA3CF,
0.671497916666667,0,0xC81F,
0.671513750000000,0,0x9E38,
0.671521666666667,0,0xC91F,
0.671537500000000,0,0x9E3B,
0.671545416666667,0,0xCA1F,
0.671578083333333,0,0x0004,
0.671585791666667,0,0x0321,
0.671601666666667,0,0x0A01,
0.671609541666667,0,0x8321,
0.671625250000000,0,0x0F00,
0.671633125000000,0,0x8421,
0.671648833333333,0,0x0000,
0.671656708333333,0,0x852F,
0.671672458333333,0,0xF73F,
0.671680291666667,0,0x8621,
0.671710500000000,0,0x0001,
0.671718208333333,0,0x1D25,
0.671734333333333,0,0x0055,
0.671742208333333,0,0x9D25,
0.671770958333333,0,0x0003,
0.671778666666667,0,0x2429,
0.671794791666667,0,0x004C,
0.671802625000000,0,0xA42F,
0.671818333333333,0,0x0040,
0.671826208333333,0,0xA52F,
0.671841916666667,0,0x8000,
0.671849791666667,0,0xA62F,
0.671878625000000,0,0x0005,
0.671886291666667,0,0x2D2D,
0.671902375000000,0,0x0B26,
0.671910208333333,0,0xAD2F,
0.671925916666667,0,0xFFFD,
0.671933791666667,0,0xAE2F,
0.671949500000000,0,0x9949,
0.671957375000000,0,0xAF2F,
0.671973083333333,0,0xFFFF,
0.671980958333333,0,0xB02F,
0.671996666666667,0,0x8309,
0.672004541666667,0,0xB12F,
0.672034958333333,0,0x0006,
0.672042666666667,0,0x3B21,
0.672059083333333,0,0xE51A,
0.672066916666667,0,0xBB2F,
0.672082666666667,0,0x8000,
0.672090500000000,0,0xBC2F,
0.672106250000000,0,0x8003,
0.672114125000000,0,0xBD2F,
0.672129833333333,0,0x8005,
0.672137708333333,0,0xBE2F,
0.672153416666667,0,0xE5BD,
0.672161250000000,0,0xBF2F,
0.672177000000000,0,0xE5D5,
0.672184875000000,0,0xC02F,
0.672214458333333,0,0x000A,
0.672222166666667,0,0x4125,
0.672238416666667,0,0xDB98,
0.672246250000000,0,0xC12F,
0.672262000000000,0,0xDCA3,
0.672269833333333,0,0xC22F,
0.672285541666667,0,0xDF47,
0.672293416666667,0,0xC32F,
0.672309125000000,0,0xE121,
0.672317000000000,0,0xC42F,
0.672332708333333,0,0xA97E,
0.672340583333333,0,0xC52F,
0.672356291666667,0,0xFF47,
0.672364166666667,0,0xC62F,
0.672379875000000,0,0xC014,
0.672387750000000,0,0xC72F,
0.672403500000000,0,0xA3B3,
0.672411333333333,0,0xC82F,
0.672427041666667,0,0x9E38,
0.672434916666667,0,0xC92F,
0.672450625000000,0,0x9E40,
0.672458500000000,0,0xCA2F,
0.680039041666667,0,0x0C3F,
0.680046708333333,0,0x060B,
0.680074250000000,0,0x0004,
0.680081958333333,0,0x031D,
0.680098041666667,0,0x0A01,
0.680105958333333,0,0x831D,
0.680121791666667,0,0x0F00,
0.680129708333333,0,0x841D,
0.680145541666667,0,0x0000,
0.680153458333333,0,0x8510,
0.680169333333333,0,0x0F3F,
0.680177250000000,0,0x861D,
0.680208291666667,0,0x0004,
0.680215958333333,0,0x0311,
0.680232208333333,0,0x0A01,
0.680240125000000,0,0x8311,
0.680255958333333,0,0x0F00,
0.680263875000000,0,0x8411,
0.680279750000000,0,0x0000,
0.680287666666667,0,0x8510,
0.680303500000000,0,0x0F3F,
0.680311416666667,0,0x8611,
0.680341666666667,0,0x0004,
0.680349333333333,0,0x0315,
0.680365375000000,0,0x0A01,
0.680373291666667,0,0x8315,
0.680389166666667,0,0x0F00,
0.680397083333333,0,0x8415,
0.680412916666667,0,0x0000,
0.680420833333333,0,0x8510,
0.680436708333333,0,0x0F3F,
0.680444583333333,0,0x8615,
0.680475041666667,0,0x0004,
0.680482750000000,0,0x0319,
0.680499041666667,0,0x0A01,
0.680507000000000,0,0x8319,
0.680522833333333,0,0x0F00,
0.680530750000000,0,0x8419,
0.680546583333333,0,0x0000,
0.680554500000000,0,0x8510,
0.680570375000000,0,0x0F3F,
0.680578250000000,0,0x8619,
0.680608958333333,0,0x0004,
0.680616666666667,0,0x031D,
0.680632750000000,0,0x0A01,
0.680640666666667,0,0x831D,
0.680656500000000,0,0x0F00,
0.680664416666667,0,0x841D,
0.680680250000000,0,0x0000,
0.680688166666667,0,0x8510,
0.680704000000000,0,0x073F,
0.680711875000000,0,0x861D,
0.680742958333333,0,0x0001,
0.680750666666667,0,0x1D11,
0.680766833333333,0,0x1551,
0.680774750000000,0,0x9D11,
0.680802583333333,0,0x0003,
0.680810250000000,0,0x2415,
0.680826208333333,0,0x0048,
0.680834125000000,0,0xA410,
0.680849958333333,0,0x0040,
0.680857875000000,0,0xA510,
0.680873708333333,0,0x8000,
0.680881625000000,0,0xA610,
0.680910416666667,0,0x0005,
0.680918125000000,0,0x2D19,
0.680934083333333,0,0x0A2F,
0.680942000000000,0,0xAD10,
0.680957833333333,0,0xFFFD,
0.680965750000000,0,0xAE10,
0.680981583333333,0,0x3853,
0.680989500000000,0,0xAF10,
0.681005333333333,0,0xFFFF,
0.681013250000000,0,0xB010,
0.681029083333333,0,0x830B,
0.681037000000000,0,0xB110,
0.681066958333333,0,0x0006,
0.681074625000000,0,0x3B1D,
0.681090958333333,0,0xB3DF,
0.681098875000000,0,0xBB10,
0.681114708333333,0,0xB32A,
0.681122625000000,0,0xBC10,
0.681138458333333,0,0xB2BD,
0.681146375000000,0,0xBD10,
0.681162250000000,0,0xB1FE,
0.681170166666667,0,0xBE10,
0.681186000000000,0,0xB1FF,
0.681193916666667,0,0xBF10,
0.681209750000000,0,0xB271,
0.681217666666667,0,0xC010,
0.681247916666667,0,0x000A,
0.681255583333333,0,0x4111,
0.681271625000000,0,0xC0C6,
0.681279541666667,0,0xC110,
0.681295375000000,0,0xC0C4,
0.681303291666667,0,0xC210,
0.681319125000000,0,0xC0C7,
0.681327041666667,0,0xC310,
0.681342916666667,0,0xC086,
0.681350791666667,0,0xC410,
0.681366666666667,0,0xC0A4,
0.681374583333333,0,0xC510,
0.681390416666667,0,0xDD4A,
0.681398333333333,0,0xC610,
0.681414166666667,0,0x803B,
0.681422083333333,0,0xC710,
0.681437916666667,0,0xA3CE,
0.681445833333333,0,0xC810,
0.681461708333333,0,0x9E3A,
0.681469625000000,0,0xC910,
0.681485458333333,0,0x9E38,
0.681493375000000,0,0xCA10,
0.681524458333333,0,0x0004,
0.681532166666667,0,0x0325,
0.681548125000000,0,0x0A01,
0.681556000000000,0,0x8325,
0.681571708333333,0,0x0F00,
0.681579583333333,0,0x8425,
0.681595333333333,0,0x0000,
0.681603166666667,0,0x8520,
0.681618916666667,0,0x073F,
0.681626750000000,0,0x8625,
0.681656833333333,0,0x0001,
0.681664541666667,0,0x1D29,
0.681680791666667,0,0x0055,
0.681688666666667,0,0x9D29,
0.681716000000000,0,0x0003,
0.681723666666667,0,0x242D,
0.681739750000000,0,0x004C,
0.681747625000000,0,0xA420,
0.681763333333333,0,0x0040,
0.681771208333333,0,0xA520,
0.681786916666667,0,0x8000,
0.681794791666667,0,0xA620,
0.681822916666667,0,0x0005,
0.681830583333333,0,0x2D21,
0.681846875000000,0,0x0C30,
0.681854750000000,0,0xAD20,
0.681870458333333,0,0xFFFD,
0.681878333333333,0,0xAE20,
0.681894041666667,0,0x96F1,
0.681901916666667,0,0xAF20,
0.681917625000000,0,0xFFFF,
0.681925500000000,0,0xB020,
0.681941208333333,0,0x830E,
0.681949083333333,0,0xB120,
0.681978791666667,0,0x0006,
0.681986458333333,0,0x3B25,
0.682002625000000,0,0xE51D,
0.682010500000000,0,0xBB20,
0.682026208333333,0,0x8000,
0.682034083333333,0,0xBC20,
0.682049791666667,0,0x8000,
0.682057666666667,0,0xBD20,
0.682073375000000,0,0x8000,
0.682081250000000,0,0xBE20,
0.682096958333333,0,0xE5BD,
0.682104833333333,0,0xBF20,
0.682120541666667,0,0xE5D5,
0.682128416666667,0,0xC020,
0.682158875000000,0,0x000A,
0.682166541666667,0,0x4129,
0.682182958333333,0,0xDB97,
0.682190791666667,0,0xC120,
0.682206500000000,0,0xDCA4,
0.682214375000000,0,0xC220,
0.682230125000000,0,0xDF48,
0.682238000000000,0,0xC320,
0.682253708333333,0,0xE124,
0.682261583333333,0,0xC420,
0.682277291666667,0,0xA97D,
0.682285166666667,0,0xC520,
0.682300875000000,0,0xFF4D,
0.682308750000000,0,0xC620,
0.682324458333333,0,0xC018,
0.682332333333333,0,0xC720,
0.682348083333333,0,0xA3B2,
0.682355916666667,0,0xC820,
0.682371666666667,0,0x9E37,
0.682379500000000,0,0xC920,
0.682395250000000,0,0x9E3E,
0.682403125000000,0,0xCA20,
0.690112333333333,0,0x1C3F,
0.690120041666667,0,0x060F,
0.690147083333333,0,0x0004,
0.690154750000000,0,0x0311,
0.690170833333333,0,0x0A01,
0.690178750000000,0,0x8311,
0.690194583333333,0,0x0F00,
0.690202541666667,0,0x8411,
0.690218375000000,0,0x0000,
0.690226291666667,0,0x8511,
0.690242125000000,0,0x1F3F,
0.690250041666667,0,0x8611,
0.690281333333333,0,0x0004,
0.690289000000000,0,0x0315,
0.690304958333333,0,0x0A01,
0.690312875000000,0,0x8315,
0.690328750000000,0,0x0F00,
0.690336625000000,0,0x8415,
0.690352458333333,0,0x0000,
0.690360416666667,0,0x8511,
0.690376250000000,0,0x1F3F,
0.690384166666667,0,0x8615,
0.690414250000000,0,0x0004,
0.690421958333333,0,0x0319,
0.690438125000000,0,0x0A01,
0.690446000000000,0,0x8319,
0.690461833333333,0,0x0F00,
0.690469791666667,0,0x8419,
0.690485625000000,0,0x0000,
0.690493541666667,0,0x8511,
0.690509375000000,0,0x1F3F,
0.690517291666667,0,0x8619,
0.690548291666667,0,0x0004,
0.690555958333333,0,0x031D,
0.690572250000000,0,0x0A01,
0.690580166666667,0,0x831D,
0.690596000000000,0,0x0F00,
0.690603916666667,0,0x841D,
0.690619750000000,0,0x0000,
0.690627666666667,0,0x8511,
0.690643500000000,0,0x1F3F,
0.690651416666667,0,0x861D,
0.690682375000000,0,0x0004,
0.690690041666667,0,0x0311,
0.690706375000000,0,0x0A01,
0.690714291666667,0,0x8311,
0.690730125000000,0,0x0F00,
0.690738041666667,0,0x8411,
0.690753875000000,0,0x0000,
0.690761791666667,0,0x8511,
0.690777625000000,0,0x173F,
0.690785541666667,0,0x8611,
0.690816541666667,0,0x0001,
0.690824208333333,0,0x1D15,
0.690840500000000,0,0x1551,
0.690848375000000,0,0x9D15,
0.690876708333333,0,0x0003,
0.690884416666667,0,0x2419,
0.690900833333333,0,0x0048,
0.690908708333333,0,0xA411,
0.690924583333333,0,0x0040,
0.690932500000000,0,0xA511,
0.690948333333333,0,0x8000,
0.690956208333333,0,0xA611,
0.690985041666667,0,0x0005,
0.690992708333333,0,0x2D1D,
0.691009166666667,0,0x0B3B,
0.691017083333333,0,0xAD11,
0.691032916666667,0,0xFFFD,
0.691040833333333,0,0xAE11,
0.691056666666667,0,0x3556,
0.691064583333333,0,0xAF11,
0.691080416666667,0,0xFFFF,
0.691088333333333,0,0xB011,
0.691104166666667,0,0x8301,
0.691112083333333,0,0xB111,
0.691142541666667,0,0x0006,
0.691150208333333,0,0x3B11,
0.691166500000000,0,0xB3E7,
0.691174416666667,0,0xBB11,
0.691190250000000,0,0xB333,
0.691198166666667,0,0xBC11,
0.691214000000000,0,0xB2BF,
0.691221916666667,0,0xBD11,
0.691237750000000,0,0xB202,
0.691245666666667,0,0xBE11,
0.691261500000000,0,0xB202,
0.691269416666667,0,0xBF11,
0.691285250000000,0,0xB274,
0.691293166666667,0,0xC011,
0.691323083333333,0,0x000A,
0.691330791666667,0,0x4115,
0.691347125000000,0,0xC0C4,
0.691355041666667,0,0xC111,
0.691370875000000,0,0xC0C4,
0.691378833333333,0,0xC211,
0.691394666666667,0,0xC0C6,
0.691402583333333,0,0xC311,
0.691418416666667,0,0xC083,
0.691426333333333,0,0xC411,
0.691442166666667,0,0xC0A4,
0.691450083333333,0,0xC511,
0.691465916666667,0,0xDD4B,
0.691473833333333,0,0xC611,
0.691489666666667,0,0x803A,
0.691497583333333,0,0xC711,
0.691513416666667,0,0xA3CF,
0.691521333333333,0,0xC811,
0.691537166666667,0,0x9E39,
0.691545083333333,0,0xC911,
0.691560916666667,0,0x9E39,
0.691568833333333,0,0xCA11,
0.691601083333333,0,0x0004,
0.691608750000000,0,0x0329,
0.691625000000000,0,0x0A01,
0.691632833333333,0,0x8329,
0.691648583333333,0,0x0F00,
0.691656416666667,0,0x8429,
0.691672166666667,0,0x0000,
0.691680000000000,0,0x8521,
0.691695750000000,0,0x173F,
0.691703583333333,0,0x8629,
0.691733708333333,0,0x0001,
0.691741416666667,0,0x1D2D,
0.691757666666667,0,0x0055,
0.691765500000000,0,0x9D2D,
0.691793541666667,0,0x0003,
0.691801208333333,0,0x2421,
0.691817583333333,0,0x004C,
0.691825458333333,0,0xA421,
0.691841166666667,0,0x0040,
0.691849000000000,0,0xA521,
0.691864750000000,0,0x8000,
0.691872583333333,0,0xA621,
0.691901416666667,0,0x0005,
0.691909083333333,0,0x2D25,
0.691925166666667,0,0x0D3E,
0.691933000000000,0,0xAD21,
0.691948750000000,0,0xFFFD,
0.691956583333333,0,0xAE21,
0.691972333333333,0,0x9472,
0.691980166666667,0,0xAF21,
0.691995875000000,0,0xFFFF,
0.692003750000000,0,0xB021,
0.692019500000000,0,0x830F,
0.692027333333333,0,0xB121,
0.692057833333333,0,0x0006,
0.692065500000000,0,0x3B29,
0.692081875000000,0,0xE51B,
0.692089750000000,0,0xBB21,
0.692105458333333,0,0x8000,
0.692113333333333,0,0xBC21,
0.692129041666667,0,0x8003,
0.692136916666667,0,0xBD21,
0.692152625000000,0,0x8000,
0.692160500000000,0,0xBE21,
0.692176208333333,0,0xE5BC,
0.692184083333333,0,0xBF21,
0.692199791666667,0,0xE5D3,
0.692207666666667,0,0xC021,
0.692237458333333,0,0x000A,
0.692245166666667,0,0x412D,
0.692261166666667,0,0xDB96,
0.692269041666667,0,0xC121,
0.692284791666667,0,0xDCA7,
0.692292625000000,0,0xC221,
0.692308375000000,0,0xDF4A,
0.692316208333333,0,0xC321,
0.692331958333333,0,0xE125,
0.692339791666667,0,0xC421,
0.692355500000000,0,0xA980,
0.692363375000000,0,0xC521,
0.692379083333333,0,0xFF4D,
0.692386958333333,0,0xC621,
0.692402666666667,0,0xC017,
0.692410541666667,0,0xC721,
0.692426291666667,0,0xA3B1,
0.692434125000000,0,0xC821,
0.692449875000000,0,0x9E3C,
0.692457708333333,0,0xC921,
0.692473458333333,0,0x9E3F,
0.692481291666667,0,0xCA21,
0.700082083333333,0,0x2C3F,
0.700089791666667,0,0x0603,
0.700117625000000,0,0x0004,
0.700125333333333,0,0x0315,
0.700141458333333,0,0x0A01,
0.700149416666667,0,0x8315,
0.700165250000000,0,0x0F00,
0.700173166666667,0,0x8415,
0.700189041666667,0,0x0000,
0.700196958333333,0,0x8512,
0.700212791666667,0,0x2F3F,
0.700220708333333,0,0x8615,
0.700252208333333,0,0x0004,
0.700259875000000,0,0x0319,
0.700276166666667,0,0x0A01,
0.700284083333333,0,0x8319,
0.700299916666667,0,0x0F00,
0.700307833333333,0,0x8419,
0.700323666666667,0,0x0000,
0.700331583333333,0,0x8512,
0.700347416666667,0,0x2F3F,
0.700355333333333,0,0x8619,
0.700386041666667,0,0x0004,
0.700393708333333,0,0x031D,
0.700409791666667,0,0x0A01,
0.700417708333333,0,0x831D,
0.700433541666667,0,0x0F00,
0.700441458333333,0,0x841D,
0.700457333333333,0,0x0000,
0.700465208333333,0,0x8512,
0.700481083333333,0,0x2F3F,
0.700489000000000,0,0x861D,
0.700520000000000,0,0x0004,
0.700527666666667,0,0x0311,
0.700543916666667,0,0x0A01,
0.700551833333333,0,0x8311,
0.700567708333333,0,0x0F00,
0.700575625000000,0,0x8411,
0.700591458333333,0,0x0000,
0.700599375000000,0,0x8512,
0.700615208333333,0,0x2F3F,
0.700623125000000,0,0x8611,
0.700654333333333,0,0x0004,
0.700662041666667,0,0x0315,
0.700678041666667,0,0x0A01,
0.700685958333333,0,0x8315,
0.700701791666667,0,0x0F00,
0.700709708333333,0,0x8415,
0.700725583333333,0,0x0000,
0.700733458333333,0,0x8512,
0.700749291666667,0,0x273F,
0.700757250000000,0,0x8615,
0.700787583333333,0,0x0001,
0.700795250000000,0,0x1D19,
0.700811666666667,0,0x1551,
0.700819583333333,0,0x9D19,
0.700847833333333,0,0x0003,
0.700855500000000,0,0x241D,
0.700871541666667,0,0x0048,
0.700879458333333,0,0xA412,
0.700895291666667,0,0x0040,
0.700903208333333,0,0xA512,
0.700919041666667,0,0x8000,
0.700926958333333,0,0xA612,
0.700955708333333,0,0x0005,
0.700963375000000,0,0x2D11,
0.700979416666667,0,0x0C44,
0.700987333333333,0,0xAD12,
0.701003166666667,0,0xFFFD,
0.701011083333333,0,0xAE12,
0.701026916666667,0,0x337A,
0.701034833333333,0,0xAF12,
0.701050666666667,0,0xFFFF,
0.701058583333333,0,0xB012,
0.701074416666667,0,0x830D,
0.701082375000000,0,0xB112,
0.701112458333333,0,0x0006,
0.701120125000000,0,0x3B15,
0.701136291666667,0,0xB3DE,
0.701144208333333,0,0xBB12,
0.701160083333333,0,0xB32D,
0.701168000000000,0,0xBC12,
0.701183833333333,0,0xB2B8,
0.701191750000000,0,0xBD12,
0.701207583333333,0,0xB1FD,
0.701215500000000,0,0xBE12,
0.701231333333333,0,0xB202,
0.701239250000000,0,0xBF12,
0.701255083333333,0,0xB272,
0.701263000000000,0,0xC012,
0.701292916666667,0,0x000A,
0.701300583333333,0,0x4119,
0.701316958333333,0,0xC0C7,
0.701324875000000,0,0xC112,
0.701340708333333,0,0xC0C5,
0.701348625000000,0,0xC212,
0.701364458333333,0,0xC0C4,
0.701372375000000,0,0xC312,
0.701388250000000,0,0xC089,
0.701396166666667,0,0xC412,
0.701412000000000,0,0xC0A4,
0.701419916666667,0,0xC512,
0.701435750000000,0,0xDD48,
0.701443666666667,0,0xC612,
0.701459500000000,0,0x803C,
0.701467458333333,0,0xC712,
0.701483291666667,0,0xA3D1,
0.701491208333333,0,0xC812,
0.701507041666667,0,0x9E38,
0.701514958333333,0,0xC912,
0.701530791666667,0,0x9E3B,
0.701538750000000,0,0xCA12,
0.701571083333333,0,0x0004,
0.701578750000000,0,0x032D,
0.701594791666667,0,0x0A01,
0.701602625000000,0,0x832D,
0.701618375000000,0,0x0F00,
0.701626250000000,0,0x842D,
0.701641958333333,0,0x0000,
0.701649791666667,0,0x8522,
0.701665500000000,0,0x273F,
0.701673375000000,0,0x862D,
0.701703416666667,0,0x0001,
0.701711125000000,0,0x1D21,
0.701727416666667,0,0x0055,
0.701735291666667,0,0x9D21,
0.701763416666667,0,0x0003,
0.701771083333333,0,0x2425,
0.701787333333333,0,0x004C,
0.701795208333333,0,0xA422,
0.701810916666667,0,0x0040,
0.701818791666667,0,0xA522,
0.701834500000000,0,0x8000,
0.701842375000000,0,0xA622,
0.701871250000000,0,0x0005,
0.701878916666667,0,0x2D29,
0.701894916666667,0,0x0E49,
0.701902791666667,0,0xAD22,
0.701918500000000,0,0xFFFD,
0.701926375000000,0,0xAE22,
0.701942083333333,0,0x9245,
0.701949958333333,0,0xAF22,
0.701965666666667,0,0x8000,
0.701973541666667,0,0xB022,
0.701989250000000,0,0x8300,
0.701997125000000,0,0xB122,
0.702027416666667,0,0x0006,
0.702035083333333,0,0x3B2D,
0.702051125000000,0,0xE51E,
0.702059000000000,0,0xBB22,
0.702074750000000,0,0x8003,
0.702082625000000,0,0xBC22,
0.702098333333333,0,0x8000,
0.702106166666667,0,0xBD22,
0.702121875000000,0,0x8001,
0.702129750000000,0,0xBE22,
0.702145458333333,0,0xE5BD,
0.702153333333333,0,0xBF22,
0.702169041666667,0,0xE5D7,
0.702176916666667,0,0xC022,
0.702207083333333,0,0x000A,
0.702214750000000,0,0x4121,
0.702230916666667,0,0xDB9B,
0.702238791666667,0,0xC122,
0.702254541666667,0,0xDCA3,
0.702262375000000,0,0xC222,
0.702278083333333,0,0xDF4A,
0.702285958333333,0,0xC322,
0.702301666666667,0,0xE123,
0.702309500000000,0,0xC422,
0.702325250000000,0,0xA97C,
0.702333083333333,0,0xC522,
0.702348833333333,0,0xFF4B,
0.702356666666667,0,0xC622,
0.702372375000000,0,0xC014,
0.702380250000000,0,0xC722,
0.702395958333333,0,0xA3B1,
0.702403833333333,0,0xC822,
0.702419583333333,0,0x9E37,
0.702427416666667,0,0xC922,
0.702443125000000,0,0x9E3D,
0.702451000000000,0,0xCA22,
0.710223666666667,0,0x3C3F,
0.710231375000000,0,0x0607,
0.710259041666667,0,0x0004,
0.710266708333333,0,0x0319,
0.710283125000000,0,0x0A01,
0.710291041666667,0,0x8319,
0.710306875000000,0,0x0F00,
0.710314791666667,0,0x8419,
0.710330625000000,0,0x0000,
0.710338583333333,0,0x8513,
0.710354416666667,0,0x3F3F,
0.710362333333333,0,0x8619,
0.710393583333333,0,0x0004,
0.710401291666667,0,0x031D,
0.710417250000000,0,0x0A01,
0.710425166666667,0,0x831D,
0.710441000000000,0,0x0F00,
0.710448916666667,0,0x841D,
0.710464791666667,0,0x0000,
0.710472708333333,0,0x8513,
0.710488541666667,0,0x3F3F,
0.710496458333333,0,0x861D,
0.710527333333333,0,0x0004,
0.710535000000000,0,0x0311,
0.710551416666667,0,0x0A01,
0.710559333333333,0,0x8311,
0.710575166666667,0,0x0F00,
0.710583083333333,0,0x8411,
0.710598916666667,0,0x0000,
0.710606875000000,0,0x8513,
0.710622708333333,0,0x3F3F,
0.710630625000000,0,0x8611,
0.710661458333333,0,0x0004,
0.710669125000000,0,0x0315,
0.710685541666667,0,0x0A01,
0.710693458333333,0,0x8315,
0.710709291666667,0,0x0F00,
0.710717208333333,0,0x8415,
0.710733041666667,0,0x0000,
0.710740958333333,0,0x8513,
0.710756791666667,0,0x3F3F,
0.710764708333333,0,0x8615,
0.710794208333333,0,0x0004,
0.710801875000000,0,0x0319,
0.710818166666667,0,0x0A01,
0.710826083333333,0,0x8319,
0.710841916666667,0,0x0F00,
0.710849833333333,0,0x8419,
0.710865666666667,0,0x0000,
0.710873583333333,0,0x8513,
0.710889416666667,0,0x373F,
0.710897333333333,0,0x8619,
0.710928625000000,0,0x0001,
0.710936291666667,0,0x1D1D,
0.710952750000000,0,0x1551,
0.710960625000000,0,0x9D1D,
0.710988916666667,0,0x0003,
0.710996583333333,0,0x2411,
0.711012583333333,0,0x0048,
0.711020541666667,0,0xA413,
0.711036333333333,0,0x0040,
0.711044291666667,0,0xA513,
0.711060083333333,0,0x8000,
0.711068000000000,0,0xA613,
0.711096708333333,0,0x0005,
0.711104416666667,0,0x2D15,
0.711120458333333,0,0x0D51,
0.711128375000000,0,0xAD13,
0.711144208333333,0,0xFFFD,
0.711152166666667,0,0xAE13,
0.711167958333333,0,0x30FC,
0.711175875000000,0,0xAF13,
0.711191708333333,0,0x8000,
0.711199666666667,0,0xB013,
0.711215458333333,0,0x8300,
0.711223375000000,0,0xB113,
0.711253750000000,0,0x0006,
0.711261416666667,0,0x3B19,
0.711277833333333,0,0xB3E0,
0.711285750000000,0,0xBB13,
0.711301583333333,0,0xB32A,
0.711309500000000,0,0xBC13,
0.711325333333333,0,0xB2BE,
0.711333250000000,0,0xBD13,
0.711349083333333,0,0xB202,
0.711357000000000,0,0xBE13,
0.711372833333333,0,0xB203,
0.711380750000000,0,0xBF13,
0.711396583333333,0,0xB271,
0.711404541666667,0,0xC013,
0.711434875000000,0,0x000A,
0.711442541666667,0,0x411D,
0.711458958333333,0,0xC0C5,
0.711466875000000,0,0xC113,
0.711482750000000,0,0xC0C7,
0.711490666666667,0,0xC213,
0.711506500000000,0,0xC0C4,
0.711514416666667,0,0xC313,
0.711530250000000,0,0xC086,
0.711538166666667,0,0xC413,
0.711554000000000,0,0xC0A6,
0.711561916666667,0,0xC513,
0.711577750000000,0,0xDD4B,
0.711585666666667,0,0xC613,
0.711601500000000,0,0x803A,
0.711609416666667,0,0xC713,
0.711625250000000,0,0xA3CE,
0.711633166666667,0,0xC813,
0.711649000000000,0,0x9E38,
0.711656916666667,0,0xC913,
0.711672750000000,0,0x9E3C,
0.711680666666667,0,0xCA13,
0.711712500000000,0,0x0004,
0.711720166666667,0,0x0321,
0.711736333333333,0,0x0A01,
0.711744166666667,0,0x8321,
0.711759916666667,0,0x0F00,
0.711767791666667,0,0x8421,
0.711783500000000,0,0x0000,
0.711791375000000,0,0x8523,
0.711807083333333,0,0x373F,
0.711814958333333,0,0x8621,
0.711845375000000,0,0x0001,
0.711853041666667,0,0x1D25,
0.711868958333333,0,0x0055,
0.711876833333333,0,0x9D25,
0.711904500000000,0,0x0003,
0.711912166666667,0,0x2429,
0.711928416666667,0,0x004C,
0.711936250000000,0,0xA423,
0.711952000000000,0,0x0040,
0.711959875000000,0,0xA523,
0.711975583333333,0,0x8000,
0.711983458333333,0,0xA623,
0.712013083333333,0,0x0005,
0.712020791666667,0,0x2D2D,
0.712037000000000,0,0x0F59,
0.712044833333333,0,0xAD23,
0.712060583333333,0,0xFFFD,
0.712068416666667,0,0xAE23,
0.712084125000000,0,0x8F6E,
0.712092000000000,0,0xAF23,
0.712107750000000,0,0x8000,
0.712115583333333,0,0xB023,
0.712131333333333,0,0x8303,
0.712139166666667,0,0xB123,
0.712168833333333,0,0x0006,
0.712176541666667,0,0x3B21,
0.712192708333333,0,0xE51C,
0.712200583333333,0,0xBB23,
0.712216291666667,0,0x8002,
0.712224166666667,0,0xBC23,
0.712239875000000,0,0x8000,
0.712247750000000,0,0xBD23,
0.712263458333333,0,0x8000,
0.712271333333333,0,0xBE23,
0.712287041666667,0,0xE5BB,
0.712294916666667,0,0xBF23,
0.712310625000000,0,0xE5D4,
0.712318458333333,0,0xC023,
0.712349083333333,0,0x000A,
0.712356750000000,0,0x4125,
0.712373000000000,0,0xDB9B,
0.712380875000000,0,0xC123,
0.712396583333333,0,0xDCA2,
0.712404458333333,0,0xC223,
0.712420166666667,0,0xDF4B,
0.712428041666667,0,0xC323,
0.712443750000000,0,0xE126,
0.712451625000000,0,0xC423,
0.712467333333333,0,0xA980,
0.712475208333333,0,0xC523,
0.712490916666667,0,0xFF4A,
0.712498791666667,0,0xC623,
0.712514500000000,0,0xC015,
0.712522375000000,0,0xC723,
0.712538083333333,0,0xA3B1,
0.712545958333333,0,0xC823,
0.712561666666667,0,0x9E3B,
0.712569500000000,0,0xC923,
0.712585250000000,0,0x9E38,
0.712593125000000,0,0xCA23,
0.720083833333333,0,0x4C3F,
0.720091500000000,0,0x060B,
0.720119625000000,0,0x0004,
0.720127291666667,0,0x031D,
0.720143333333333,0,0x0A01,
0.720151250000000,0,0x831D,
0.720167083333333,0,0x0F00,
0.720175000000000,0,0x841D,
0.720190833333333,0,0x0000,
0.720198791666667,0,0x8514,
0.720214583333333,0,0x4F3F,
0.720222541666667,0,0x861D,
0.720253000000000,0,0x0004,
0.720260708333333,0,0x0311,
0.720276958333333,0,0x0A01,
0.720284875000000,0,0x8311,
0.720300708333333,0,0x0F00,
0.720308625000000,0,0x8411,
0.720324458333333,0,0x0000,
0.720332375000000,0,0x8514,
0.720348208333333,0,0x4F3F,
0.720356125000000,0,0x8611,
0.720386416666667,0,0x0004,
0.720394083333333,0,0x0315,
0.720410583333333,0,0x0A01,
0.720418500000000,0,0x8315,
0.720434333333333,0,0x0F00,
0.720442291666667,0,0x8415,
0.720458083333333,0,0x0000,
0.720466041666667,0,0x8514,
0.720481875000000,0,0x4F3F,
0.720489791666667,0,0x8615,
0.720521125000000,0,0x0004,
0.720528791666667,0,0x0319,
0.720545208333333,0,0x0A01,
0.720553125000000,0,0x8319,
0.720569000000000,0,0x0F00,
0.720576916666667,0,0x8419,
0.720592750000000,0,0x0000,
0.720600666666667,0,0x8514,
0.720616500000000,0,0x4F3F,
0.720624416666667,0,0x8619,
0.720655708333333,0,0x0004,
0.720663375000000,0,0x031D,
0.720679833333333,0,0x0A01,
0.720687750000000,0,0x831D,
0.720703583333333,0,0x0F00,
0.720711541666667,0,0x841D,
0.720727375000000,0,0x0000,
0.720735291666667,0,0x8514,
0.720751125000000,0,0x473F,
0.720759041666667,0,0x861D,
0.720789291666667,0,0x0001,
0.720796958333333,0,0x1D11,
0.720813000000000,0,0x1551,
0.720820916666667,0,0x9D11,
0.720849250000000,0,0x0003,
0.720856916666667,0,0x2415,
0.720873375000000,0,0x0048,
0.720881250000000,0,0xA414,
0.720897125000000,0,0x0040,
0.720905041666667,0,0xA514,
0.720920875000000,0,0x8000,
0.720928791666667,0,0xA614,
0.720956708333333,0,0x0005,
0.720964375000000,0,0x2D19,
0.720980750000000,0,0x0E58,
0.720988666666667,0,0xAD14,
0.721004500000000,0,0xFFFD,
0.721012416666667,0,0xAE14,
0.721028250000000,0,0x2E8B,
0.721036166666667,0,0xAF14,
0.721052000000000,0,0xFFFF,
0.721059916666667,0,0xB014,
0.721075750000000,0,0x8305,
0.721083666666667,0,0xB114,
0.721113125000000,0,0x0006,
0.721120791666667,0,0x3B1D,
0.721137125000000,0,0xB3E2,
0.721145041666667,0,0xBB14,
0.721160875000000,0,0xB32C,
0.721168791666667,0,0xBC14,
0.721184625000000,0,0xB2BF,
0.721192541666667,0,0xBD14,
0.721208375000000,0,0xB1FD,
0.721216291666667,0,0xBE14,
0.721232125000000,0,0xB201,
0.721240041666667,0,0xBF14,
0.721255875000000,0,0xB274,
0.721263791666667,0,0xC014,
0.721293958333333,0,0x000A,
0.721301625000000,0,0x4111,
0.721317750000000,0,0xC0C3,
0.721325666666667,0,0xC114,
0.721341500000000,0,0xC0C5,
0.721349416666667,0,0xC214,
0.721365250000000,0,0xC0C2,
0.721373166666667,0,0xC314,
0.721389041666667,0,0xC084,
0.721396958333333,0,0xC414,
0.721412791666667,0,0xC0A2,
0.721420708333333,0,0xC514,
0.721436541666667,0,0xDD49,
0.721444458333333,0,0xC614,
0.721460333333333,0,0x8039,
0.721468208333333,0,0xC714,
0.721484041666667,0,0xA3D0,
0.721491958333333,0,0xC814,
0.721507791666667,0,0x9E39,
0.721515750000000,0,0xC914,
0.721531541666667,0,0x9E3C,
0.721539500000000,0,0xCA14,
0.721572083333333,0,0x0004,
0.721579750000000,0,0x0325,
0.721596166666667,0,0x0A01,
0.721604041666667,0,0x8325,
0.721619750000000,0,0x0F00,
0.721627583333333,0,0x8425,
0.721643333333333,0,0x0000,
0.721651208333333,0,0x8524,
0.721666916666667,0,0x473F,
0.721674791666667,0,0x8625,
0.721705958333333,0,0x0001,
0.721713625000000,0,0x1D29,
0.721729791666667,0,0x0055,
0.721737666666667,0,0x9D29,
0.721765291666667,0,0x0003,
0.721773000000000,0,0x242D,
0.721789208333333,0,0x004C,
0.721797083333333,0,0xA424,
0.721812791666667,0,0x0040,
0.721820666666667,0,0xA524,
0.721836375000000,0,0x8000,
0.721844291666667,0,0xA624,
0.721873083333333,0,0x0005,
0.721880750000000,0,0x2D21,
0.721896833333333,0,0x1061,
0.721904666666667,0,0xAD24,
0.721920416666667,0,0xFFFD,
0.721928291666667,0,0xAE24,
0.721944000000000,0,0x8D59,
0.721951875000000,0,0xAF24,
0.721967625000000,0,0xFFFF,
0.721975458333333,0,0xB024,
0.721991166666667,0,0x830C,
0.721999041666667,0,0xB124,
0.722029458333333,0,0x0006,
0.722037125000000,0,0x3B25,
0.722053083333333,0,0xE517,
0.722060958333333,0,0xBB24,
0.722076666666667,0,0x8000,
0.722084541666667,0,0xBC24,
0.722100250000000,0,0x8000,
0.722108125000000,0,0xBD24,
0.722123833333333,0,0x8001,
0.722131666666667,0,0xBE24,
0.722147416666667,0,0xE5BA,
0.722155250000000,0,0xBF24,
0.722170958333333,0,0xE5D3,
0.722178833333333,0,0xC024,
0.722209208333333,0,0x000A,
0.722216875000000,0,0x4129,
0.722232875000000,0,0xDB99,
0.722240750000000,0,0xC124,
0.722256458333333,0,0xDCA2,
0.722264333333333,0,0xC224,
0.722280041666667,0,0xDF49,
0.722287916666667,0,0xC324,
0.722303625000000,0,0xE121,
0.722311500000000,0,0xC424,
0.722327208333333,0,0xA97E,
0.722335083333333,0,0xC524,
0.722350791666667,0,0xFF4B,
0.722358666666667,0,0xC624,
0.722374375000000,0,0xC014,
0.722382250000000,0,0xC724,
0.722397958333333,0,0xA3AF,
0.722405833333333,0,0xC824,
0.722421541666667,0,0x9E39,
0.722429416666667,0,0xC924,
0.722445125000000,0,0x9E3D,
0.722453000000000,0,0xCA24,
0.730101166666667,0,0x5C3F,
0.730108833333333,0,0x060F,
0.730136541666667,0,0x0004,
0.730144208333333,0,0x0311,
0.730160208333333,0,0x0A01,
0.730168125000000,0,0x8311,
0.730184000000000,0,0x0F00,
0.730191916666667,0,0x8411,
0.730207750000000,0,0x0000,
0.730215666666667,0,0x8515,
0.730231500000000,0,0x5F3F,
0.730239416666667,0,0x8611,
0.730270291666667,0,0x0004,
0.730278000000000,0,0x0315,
0.730294333333333,0,0x0A01,
0.730302250000000,0,0x8315,
0.730318083333333,0,0x0F00,
0.730326000000000,0,0x8415,
0.730341833333333,0,0x0000,
0.730349750000000,0,0x8515,
0.730365583333333,0,0x5F3F,
0.730373541666667,0,0x8615,
0.730404083333333,0,0x0004,
0.730411791666667,0,0x0319,
0.730427958333333,0,0x0A01,
0.730435916666667,0,0x8319,
0.730451708333333,0,0x0F00,
0.730459625000000,0,0x8419,
0.730475500000000,0,0x0000,
0.730483416666667,0,0x8515,
0.730499250000000,0,0x5F3F,
0.730507166666667,0,0x8619,
0.730538791666667,0,0x0004,
0.730546458333333,0,0x031D,
0.730562583333333,0,0x0A01,
0.730570500000000,0,0x831D,
0.730586333333333,0,0x0F00,
0.730594250000000,0,0x841D,
0.730610083333333,0,0x0000,
0.730618000000000,0,0x8515,
0.730633833333333,0,0x5F3F,
0.730641791666667,0,0x861D,
0.730672625000000,0,0x0004,
0.730680333333333,0,0x0311,
0.730696666666667,0,0x0A01,
0.730704583333333,0,0x8311,
0.730720416666667,0,0x0F00,
0.730728333333333,0,0x8411,
0.730744208333333,0,0x0000,
0.730752083333333,0,0x8515,
0.730767958333333,0,0x573F,
0.730775875000000,0,0x8611,
0.730805958333333,0,0x0001,
0.730813625000000,0,0x1D15,
0.730829791666667,0,0x1551,
0.730837708333333,0,0x9D15,
0.730866041666667,0,0x0003,
0.730873750000000,0,0x2419,
0.730890166666667,0,0x0048,
0.730898041666667,0,0xA415,
0.730913916666667,0,0x0040,
0.730921833333333,0,0xA515,
0.730937666666667,0,0x8000,
0.730945583333333,0,0xA615,
0.730974166666667,0,0x0005,
0.730981833333333,0,0x2D1D,
0.730998000000000,0,0x0F62,
0.731005916666667,0,0xAD15,
0.731021750000000,0,0xFFFD,
0.731029666666667,0,0xAE15,
0.731045500000000,0,0x2C08,
0.731053416666667,0,0xAF15,
0.731069250000000,0,0xFFFF,
0.731077166666667,0,0xB015,
0.731093000000000,0,0x830A,
0.731100958333333,0,0xB115,
0.731131375000000,0,0x0006,
0.731139041666667,0,0x3B11,
0.731155375000000,0,0xB3E4,
0.731163291666667,0,0xBB15,
0.731179125000000,0,0xB32E,
0.731187041666667,0,0xBC15,
0.731202875000000,0,0xB2B8,
0.731210791666667,0,0xBD15,
0.731226625000000,0,0xB1FD,
0.731234541666667,0,0xBE15,
0.731250375000000,0,0xB204,
0.731258291666667,0,0xBF15,
0.731274125000000,0,0xB275,
0.731282083333333,0,0xC015,
0.731312750000000,0,0x000A,
0.731320416666667,0,0x4115,
0.731336500000000,0,0xC0C4,
0.731344416666667,0,0xC115,
0.731360250000000,0,0xC0C5,
0.731368166666667,0,0xC215,
0.731384000000000,0,0xC0C1,
0.731391916666667,0,0xC315,
0.731407791666667,0,0xC084,
0.731415708333333,0,0xC415,
0.731431541666667,0,0xC0A4,
0.731439458333333,0,0xC515,
0.731455291666667,0,0xDD4C,
0.731463208333333,0,0xC615,
0.731479041666667,0,0x8038,
0.731486958333333,0,0xC715,
0.731502791666667,0,0xA3CD,
0.731510708333333,0,0xC815,
0.731526541666667,0,0x9E37,
0.731534458333333,0,0xC915,
0.731550291666667,0,0x9E3F,
0.731558208333333,0,0xCA15,
0.731590500000000,0,0x0004,
0.731598166666667,0,0x0329,
0.731614541666667,0,0x0A01,
0.731622375000000,0,0x8329,
0.731638083333333,0,0x0F00,
0.731646000000000,0,0x8429,
0.731661708333333,0,0x0000,
0.731669541666667,0,0x8525,
0.731685250000000,0,0x573F,
0.731693125000000,0,0x8629,
0.731723333333333,0,0x0001,
0.731731000000000,0,0x1D2D,
0.731747166666667,0,0x0055,
0.731755041666667,0,0x9D2D,
0.731783291666667,0,0x0003,
0.731790958333333,0,0x2421,
0.731807125000000,0,0x004C,
0.731814958333333,0,0xA425,
0.731830666666667,0,0x0040,
0.731838541666667,0,0xA525,
0.731854291666667,0,0x8000,
0.731862125000000,0,0xA625,
0.731890583333333,0,0x0005,
0.731898291666667,0,0x2D25,
0.731914708333333,0,0x116D,
0.731922541666667,0,0xAD25,
0.731938291666667,0,0xFFFD,
0.731946125000000,0,0xAE25,
0.731961875000000,0,0x8B1A,
0.731969708333333,0,0xAF25,
0.731985458333333,0,0xFFFF,
0.731993291666667,0,0xB025,
0.732009041666667,0,0x8308,
0.732016875000000,0,0xB125,
0.732047625000000,0,0x0006,
0.732055333333333,0,0x3B29,
0.732071416666667,0,0xE51D,
0.732079291666667,0,0xBB25,
0.732095000000000,0,0x8001,
0.732102875000000,0,0xBC25,
0.732118583333333,0,0x8000,
0.732126458333333,0,0xBD25,
0.732142166666667,0,0x8001,
0.732150041666667,0,0xBE25,
0.732165750000000,0,0xE5BC,
0.732173583333333,0,0xBF25,
0.732189333333333,0,0xE5D5,
0.732197166666667,0,0xC025,
0.732226583333333,0,0x000A,
0.732234250000000,0,0x412D,
0.732250250000000,0,0xDB9B,
0.732258125000000,0,0xC125,
0.732273833333333,0,0xDCA7,
0.732281708333333,0,0xC225,
0.732297416666667,0,0xDF46,
0.732305291666667,0,0xC325,
0.732321000000000,0,0xE126,
0.732328875000000,0,0xC425,
0.732344583333333,0,0xA97F,
0.732352458333333,0,0xC525,
0.732368166666667,0,0xFF4C,
0.732376041666667,0,0xC625,
0.732391750000000,0,0xC016,
0.732399625000000,0,0xC725,
0.732415333333333,0,0xA3B1,
0.732423208333333,0,0xC825,
0.732438958333333,0,0x9E3C,
0.732446791666667,0,0xC925,
0.732462541666667,0,0x9E3C,
0.732470375000000,0,0xCA25,
0.740081791666667,0,0x6C3F,
0.740089500000000,0,0x0603,
0.740117083333333,0,0x0004,
0.740124791666667,0,0x0315,
0.740141041666667,0,0x0A01,
0.740148958333333,0,0x8315,
0.740164791666667,0,0x0F00,
0.740172708333333,0,0x8415,
0.740188541666667,0,0x0000,
0.740196458333333,0,0x8516,
0.740212291666667,0,0x6F3F,
0.740220208333333,0,0x8615,
0.740251208333333,0,0x0004,
0.740258916666667,0,0x0319,
0.740275125000000,0,0x0A01,
0.740283083333333,0,0x8319,
0.740298916666667,0,0x0F00,
0.740306833333333,0,0x8419,
0.740322666666667,0,0x0000,
0.740330583333333,0,0x8516,
0.740346416666667,0,0x6F3F,
0.740354333333333,0,0x8619,
0.740385541666667,0,0x0004,
0.740393208333333,0,0x031D,
0.740409291666667,0,0x0A01,
0.740417208333333,0,0x831D,
0.740433041666667,0,0x0F00,
0.740440958333333,0,0x841D,
0.740456791666667,0,0x0000,
0.740464708333333,0,0x8516,
0.740480583333333,0,0x6F3F,
0.740488500000000,0,0x861D,
0.740519916666667,0,0x0004,
0.740527583333333,0,0x0311,
0.740543875000000,0,0x0A01,
0.740551833333333,0,0x8311,
0.740567625000000,0,0x0F00,
0.740575583333333,0,0x8411,
0.740591416666667,0,0x0000,
0.740599333333333,0,0x8516,
0.740615166666667,0,0x6F3F,
0.740623083333333,0,0x8611,
0.740653500000000,0,0x0004,
0.740661208333333,0,0x0315,
0.740677541666667,0,0x0A01,
0.740685458333333,0,0x8315,
0.740701291666667,0,0x0F00,
0.740709208333333,0,0x8415,
0.740725041666667,0,0x0000,
0.740732958333333,0,0x8516,
0.740748791666667,0,0x673F,
0.740756708333333,0,0x8615,
0.740787916666667,0,0x0001,
0.740795541666667,0,0x1D19,
0.740811666666667,0,0x1551,
0.740819583333333,0,0x9D19,
0.740847750000000,0,0x0003,
0.740855416666667,0,0x241D,
0.740871500000000,0,0x0048,
0.740879416666667,0,0xA416,
0.740895250000000,0,0x0040,
0.740903166666667,0,0xA516,
0.740919000000000,0,0x8000,
0.740926958333333,0,0xA616,
0.740955375000000,0,0x0005,
0.740963041666667,0,0x2D11,
0.740979375000000,0,0x106B,
0.740987291666667,0,0xAD16,
0.741003125000000,0,0xFFFD,
0.741011041666667,0,0xAE16,
0.741026875000000,0,0x29FE,
0.741034791666667,0,0xAF16,
0.741050625000000,0,0xFFFF,
0.741058541666667,0,0xB016,
0.741074375000000,0,0x8308,
0.741082291666667,0,0xB116,
0.741112250000000,0,0x0006,
0.741119916666667,0,0x3B15,
0.741136208333333,0,0xB3DF,
0.741144125000000,0,0xBB16,
0.741159958333333,0,0xB328,
0.741167875000000,0,0xBC16,
0.741183708333333,0,0xB2BE,
0.741191625000000,0,0xBD16,
0.741207458333333,0,0xB202,
0.741215375000000,0,0xBE16,
0.741231208333333,0,0xB1FF,
0.741239083333333,0,0xBF16,
0.741254916666667,0,0xB272,
0.741262833333333,0,0xC016,
0.741292875000000,0,0x000A,
0.741300541666667,0,0x4119,
0.741316791666667,0,0xC0C7,
0.741324708333333,0,0xC116,
0.741340541666667,0,0xC0C9,
0.741348458333333,0,0xC216,
0.741364291666667,0,0xC0CA,
0.741372208333333,0,0xC316,
0.741388041666667,0,0xC088,
0.741395958333333,0,0xC416,
0.741411791666667,0,0xC0A7,
0.741419666666667,0,0xC516,
0.741435541666667,0,0xDD4C,
0.741443458333333,0,0xC616,
0.741459291666667,0,0x803E,
0.741467166666667,0,0xC716,
0.741483000000000,0,0xA3D1,
0.741490958333333,0,0xC816,
0.741506791666667,0,0x9E39,
0.741514708333333,0,0xC916,
0.741530500000000,0,0x9E3E,
0.741538458333333,0,0xCA16,
0.741570416666667,0,0x0004,
0.741578083333333,0,0x032D,
0.741594083333333,0,0x0A01,
0.741601958333333,0,0x832D,
0.741617666666667,0,0x0F00,
0.741625541666667,0,0x842D,
0.741641250000000,0,0x0000,
0.741649125000000,0,0x8526,
0.741664833333333,0,0x673F,
0.741672708333333,0,0x862D,
0.741703416666667,0,0x0001,
0.741711083333333,0,0x1D21,
0.741727250000000,0,0x0055,
0.741735125000000,0,0x9D21,
0.741763416666667,0,0x0003,
0.741771083333333,0,0x2425,
0.741787208333333,0,0x004C,
0.741795083333333,0,0xA426,
0.741810791666667,0,0x0040,
0.741818625000000,0,0xA526,
0.741834333333333,0,0x8000,
0.741842208333333,0,0xA626,
0.741871500000000,0,0x0005,
0.741879166666667,0,0x2D29,
0.741895250000000,0,0x1278,
0.741903125000000,0,0xAD26,
0.741918833333333,0,0xFFFD,
0.741926708333333,0,0xAE26,
0.741942416666667,0,0x887F,
0.741950291666667,0,0xAF26,
0.741966000000000,0,0x8000,
0.741973833333333,0,0xB026,
0.741989583333333,0,0x8301,
0.741997416666667,0,0xB126,
0.742028666666667,0,0x0006,
0.742036375000000,0,0x3B2D,
0.742052458333333,0,0xE51E,
0.742060333333333,0,0xBB26,
0.742076041666667,0,0x8002,
0.742083916666667,0,0xBC26,
0.742099625000000,0,0x8000,
0.742107500000000,0,0xBD26,
0.742123208333333,0,0x8000,
0.742131083333333,0,0xBE26,
0.742146791666667,0,0xE5BB,
0.742154666666667,0,0xBF26,
0.742170375000000,0,0xE5D4,
0.742178250000000,0,0xC026,
0.742208916666667,0,0x000A,
0.742216625000000,0,0x4121,
0.742232791666667,0,0xDB9D,
0.742240625000000,0,0xC126,
0.742256375000000,0,0xDCA7,
0.742264250000000,0,0xC226,
0.742279958333333,0,0xDF4E,
0.742287791666667,0,0xC326,
0.742303500000000,0,0xE125,
0.742311375000000,0,0xC426,
0.742327083333333,0,0xA983,
0.742334958333333,0,0xC526,
0.742350666666667,0,0xFF50,
0.742358541666667,0,0xC626,
0.742374250000000,0,0xC019,
0.742382125000000,0,0xC726,
0.742397833333333,0,0xA3B2,
0.742405708333333,0,0xC826,
0.742421416666667,0,0x9E3D,
0.742429291666667,0,0xC926,
0.742445000000000,0,0x9E3E,
0.742452875000000,0,0xCA26,
0.750112416666667,0,0x7C3F,
0.750120083333333,0,0x0607,
0.750147041666667,0,0x0004,
0.750154750000000,0,0x0319,
0.750170791666667,0,0x0A01,
0.750178708333333,0,0x8319,
0.750194541666667,0,0x0F00,
0.750202458333333,0,0x8419,
0.750218333333333,0,0x0000,
0.750226208333333,0,0x8517,
0.750242083333333,0,0x7F3F,
0.750250000000000,0,0x8619,
0.750281333333333,0,0x0004,
0.750289000000000,0,0x031D,
0.750305416666667,0,0x0A01,
0.750313333333333,0,0x831D,
0.750329166666667,0,0x0F00,
0.750337083333333,0,0x841D,
0.750352916666667,0,0x0000,
0.750360833333333,0,0x8517,
0.750376666666667,0,0x7F3F,
0.750384583333333,0,0x861D,
0.750415833333333,0,0x0004,
0.750423541666667,0,0x0311,
0.750439541666667,0,0x0A01,
0.750447458333333,0,0x8311,
0.750463291666667,0,0x0F00,
0.750471250000000,0,0x8411,
0.750487083333333,0,0x0000,
0.750495000000000,0,0x8517,
0.750510833333333,0,0x7F3F,
0.750518750000000,0,0x8611,
0.750548708333333,0,0x0004,
0.750556375000000,0,0x0315,
0.750572750000000,0,0x0A01,
0.750580625000000,0,0x8315,
0.750596500000000,0,0x0F00,
0.750604416666667,0,0x8415,
0.750620250000000,0,0x0000,
0.750628166666667,0,0x8517,
0.750644000000000,0,0x7F3F,
0.750651916666667,0,0x8615,
0.750683166666667,0,0x0004,
0.750690833333333,0,0x0319,
0.750706833333333,0,0x0A01,
0.750714791666667,0,0x8319,
0.750730625000000,0,0x0F00,
0.750738541666667,0,0x8419,
0.750754375000000,0,0x0000,
0.750762291666667,0,0x8517,
0.750778125000000,0,0x773F,
0.750786041666667,0,0x8619,
0.750817166666667,0,0x0001,
0.750824833333333,0,0x1D1D,
0.750841000000000,0,0x1551,
0.750848916666667,0,0x9D1D,
0.750876916666667,0,0x0003,
0.750884583333333,0,0x2411,
0.750900875000000,0,0x0048,
0.750908791666667,0,0xA417,
0.750924625000000,0,0x0040,
0.750932541666667,0,0xA517,
0.750948375000000,0,0x8000,
0.750956291666667,0,0xA617,
0.750985500000000,0,0x0005,
0.750993166666667,0,0x2D15,
0.751009250000000,0,0x1176,
0.751017166666667,0,0xAD17,
0.751033000000000,0,0xFFFD,
0.751040916666667,0,0xAE17,
0.751056750000000,0,0x275D,
0.751064666666667,0,0xAF17,
0.751080500000000,0,0xFFFF,
0.751088416666667,0,0xB017,
0.751104250000000,0,0x830D,
0.751112125000000,0,0xB117,
0.751142916666667,0,0x0006,
0.751150625000000,0,0x3B19,
0.751167041666667,0,0xB3E2,
0.751174958333333,0,0xBB17,
0.751190791666667,0,0xB32D,
0.751198708333333,0,0xBC17,
0.751214541666667,0,0xB2BF,
0.751222458333333,0,0xBD17,
0.751238291666667,0,0xB1FD,
0.751246208333333,0,0xBE17,
0.751262083333333,0,0xB1FB,
0.751270000000000,0,0xBF17,
0.751285791666667,0,0xB272,
0.751293708333333,0,0xC017,
0.751323583333333,0,0x000A,
0.751331291666667,0,0x411D,
0.751347666666667,0,0xC0C4,
0.751355583333333,0,0xC117,
0.751371416666667,0,0xC0C6,
0.751379333333333,0,0xC217,
0.751395166666667,0,0xC0C5,
0.751403083333333,0,0xC317,
0.751418916666667,0,0xC08A,
0.751426833333333,0,0xC417,
0.751442666666667,0,0xC0A8,
0.751450583333333,0,0xC517,
0.751466416666667,0,0xDD4E,
0.751474333333333,0,0xC617,
0.751490166666667,0,0x8040,
0.751498083333333,0,0xC717,
0.751513916666667,0,0xA3CF,
0.751521833333333,0,0xC817,
0.751537666666667,0,0x9E3D,
0.751545583333333,0,0xC917,
0.751561416666667,0,0x9E3A,
0.751569375000000,0,0xCA17,
0.751602208333333,0,0x0004,
0.751609916666667,0,0x0321,
0.751626166666667,0,0x0A01,
0.751634041666667,0,0x8321,
0.751649750000000,0,0x0F00,
0.751657625000000,0,0x8421,
0.751673333333333,0,0x0000,
0.751681208333333,0,0x8527,
0.751696916666667,0,0x773F,
0.751704750000000,0,0x8621,
0.751734458333333,0,0x0001,
0.751742166666667,0,0x1D25,
0.751758333333333,0,0x0055,
0.751766166666667,0,0x9D25,
0.751794375000000,0,0x0003,
0.751802041666667,0,0x2429,
0.751818250000000,0,0x004C,
0.751826125000000,0,0xA427,
0.751841833333333,0,0x0040,
0.751849708333333,0,0xA527,
0.751865416666667,0,0x8000,
0.751873291666667,0,0xA627,
0.751902250000000,0,0x0005,
0.751909916666667,0,0x2D2D,
0.751925875000000,0,0x1385,
0.751933708333333,0,0xAD27,
0.751949416666667,0,0xFFFD,
0.751957291666667,0,0xAE27,
0.751973041666667,0,0x853F,
0.751980916666667,0,0xAF27,
0.751996625000000,0,0x8000,
0.752004458333333,0,0xB027,
0.752020208333333,0,0x8301,
0.752028083333333,0,0xB127,
0.752058541666667,0,0x0006,
0.752066208333333,0,0x3B21,
0.752082583333333,0,0xE519,
0.752090458333333,0,0xBB27,
0.752106166666667,0,0x8000,
0.752114000000000,0,0xBC27,
0.752129750000000,0,0x8002,
0.752137583333333,0,0xBD27,
0.752153333333333,0,0x8003,
0.752161166666667,0,0xBE27,
0.752176916666667,0,0xE5BB,
0.752184791666667,0,0xBF27,
0.752200500000000,0,0xE5D5,
0.752208333333333,0,0xC027,
0.752238541666667,0,0x000A,
0.752246208333333,0,0x4125,
0.752262375000000,0,0xDB9D,
0.752270250000000,0,0xC127,
0.752285958333333,0,0xDCA3,
0.752293833333333,0,0xC227,
0.752309541666667,0,0xDF46,
0.752317416666667,0,0xC327,
0.752333125000000,0,0xE124,
0.752341000000000,0,0xC427,
0.752356708333333,0,0xA97E,
0.752364583333333,0,0xC527,
0.752380291666667,0,0xFF4B,
0.752388166666667,0,0xC627,
0.752403875000000,0,0xC019,
0.752411750000000,0,0xC727,
0.752427458333333,0,0xA3B3,
0.752435333333333,0,0xC827,
0.752451041666667,0,0x9E3A,
0.752458916666667,0,0xC927,
0.752474625000000,0,0x9E3E,
0.752482500000000,0,0xCA27,
0.760086791666667,0,0x8C3F,
0.760094458333333,0,0x060B,
0.760121625000000,0,0x0004,
0.760129291666667,0,0x031D,
0.760145541666667,0,0x0A01,
0.760153458333333,0,0x831D,
0.760169291666667,0,0x0F00,
0.760177208333333,0,0x841D,
0.760193083333333,0,0x0000,
0.760200958333333,0,0x8518,
0.760216833333333,0,0x8F3F,
0.760224750000000,0,0x861D,
0.760255833333333,0,0x0004,
0.760263541666667,0,0x0311,
0.760279708333333,0,0x0A01,
0.760287625000000,0,0x8311,
0.760303458333333,0,0x0F00,
0.760311375000000,0,0x8411,
0.760327250000000,0,0x0000,
0.760335166666667,0,0x8518,
0.760351000000000,0,0x8F3F,
0.760358916666667,0,0x8611,
0.760390041666667,0,0x0004,
0.760397750000000,0,0x0315,
0.760413875000000,0,0x0A01,
0.760421791666667,0,0x8315,
0.760437625000000,0,0x0F00,
0.760445583333333,0,0x8415,
0.760461416666667,0,0x0000,
0.760469333333333,0,0x8518,
0.760485166666667,0,0x8F3F,
0.760493083333333,0,0x8615,
0.760524833333333,0,0x0004,
0.760532500000000,0,0x0319,
0.760548541666667,0,0x0A01,
0.760556458333333,0,0x8319,
0.760572333333333,0,0x0F00,
0.760580250000000,0,0x8419,
0.760596083333333,0,0x0000,
0.760604000000000,0,0x8518,
0.760619833333333,0,0x8F3F,
0.760627750000000,0,0x8619,
0.760658916666667,0,0x0004,
0.760666583333333,0,0x031D,
0.760682666666667,0,0x0A01,
0.760690625000000,0,0x831D,
0.760706416666667,0,0x0F00,
0.760714375000000,0,0x841D,
0.760730208333333,0,0x0000,
0.760738125000000,0,0x8518,
0.760753958333333,0,0x873F,
0.760761833333333,0,0x861D,
0.760792875000000,0,0x0001,
0.760800541666667,0,0x1D11,
0.760816791666667,0,0x1551,
0.760824708333333,0,0x9D11,
0.760852666666667,0,0x0003,
0.760860333333333,0,0x2415,
0.760876666666667,0,0x0048,
0.760884541666667,0,0xA418,
0.760900416666667,0,0x0040,
0.760908291666667,0,0xA518,
0.760924125000000,0,0x8000,
0.760932083333333,0,0xA618,
0.760961583333333,0,0x0005,
0.760969250000000,0,0x2D19,
0.760985500000000,0,0x1280,
0.760993416666667,0,0xAD18,
0.761009250000000,0,0xFFFD,
0.761017166666667,0,0xAE18,
0.761033000000000,0,0x24F6,
0.761040916666667,0,0xAF18,
0.761056750000000,0,0x8000,
0.761064666666667,0,0xB018,
0.761080500000000,0,0x8305,
0.761088416666667,0,0xB118,
0.761118208333333,0,0x0006,
0.761125916666667,0,0x3B1D,
0.761142375000000,0,0xB3E1,
0.761150291666667,0,0xBB18,
0.761166125000000,0,0xB32E,
0.761174041666667,0,0xBC18,
0.761189875000000,0,0xB2BE,
0.761197791666667,0,0xBD18,
0.761213625000000,0,0xB1FB,
0.761221541666667,0,0xBE18,
0.761237375000000,0,0xB1FF,
0.761245291666667,0,0xBF18,
0.761261125000000,0,0xB273,
0.761269041666667,0,0xC018,
0.761299375000000,0,0x000A,
0.761307041666667,0,0x4111,
0.761323458333333,0,0xC0C5,
0.761331375000000,0,0xC118,
0.761347208333333,0,0xC0C4,
0.761355125000000,0,0xC218,
0.761370958333333,0,0xC0C3,
0.761378875000000,0,0xC318,
0.761394708333333,0,0xC087,
0.761402625000000,0,0xC418,
0.761418458333333,0,0xC0A2,
0.761426375000000,0,0xC518,
0.761442208333333,0,0xDD4C,
0.761450125000000,0,0xC618,
0.761465958333333,0,0x8036,
0.761473875000000,0,0xC718,
0.761489750000000,0,0xA3CF,
0.761497625000000,0,0xC818,
0.761513458333333,0,0x9E38,
0.761521375000000,0,0xC918,
0.761537208333333,0,0x9E39,
0.761545125000000,0,0xCA18,
0.761577541666667,0,0x0004,
0.761585208333333,0,0x0325,
0.761601583333333,0,0x0A01,
0.761609458333333,0,0x8325,
0.761625166666667,0,0x0F00,
0.761633041666667,0,0x8425,
0.761648750000000,0,0x0000,
0.761656625000000,0,0x8528,
0.761672333333333,0,0x873F,
0.761680208333333,0,0x8625,
0.761710833333333,0,0x0001,
0.761718541666667,0,0x1D29,
0.761734708333333,0,0x0055,
0.761742583333333,0,0x9D29,
0.761771125000000,0,0x0003,
0.761778791666667,0,0x242D,
0.761795125000000,0,0x004C,
0.761803000000000,0,0xA428,
0.761818708333333,0,0x0040,
0.761826583333333,0,0xA528,
0.761842291666667,0,0x8000,
0.761850166666667,0,0xA628,
0.761879416666667,0,0x0005,
0.761887125000000,0,0x2D21,
0.761903208333333,0,0x1490,
0.761911083333333,0,0xAD28,
0.761926791666667,0,0xFFFD,
0.761934625000000,0,0xAE28,
0.761950375000000,0,0x82FA,
0.761958250000000,0,0xAF28,
0.761973958333333,0,0xFFFF,
0.761981791666667,0,0xB028,
0.761997541666667,0,0x830C,
0.762005375000000,0,0xB128,
0.762037500000000,0,0x0006,
0.762045166666667,0,0x3B25,
0.762061375000000,0,0xE519,
0.762069250000000,0,0xBB28,
0.762084958333333,0,0x8000,
0.762092833333333,0,0xBC28,
0.762108541666667,0,0x8001,
0.762116416666667,0,0xBD28,
0.762132125000000,0,0x8002,
0.762140000000000,0,0xBE28,
0.762155708333333,0,0xE5B8,
0.762163583333333,0,0xBF28,
0.762179291666667,0,0xE5D2,
0.762187166666667,0,0xC028,
0.762217708333333,0,0x000A,
0.762225375000000,0,0x4129,
0.762241708333333,0,0xDB99,
0.762249541666667,0,0xC128,
0.762265291666667,0,0xDCA6,
0.762273125000000,0,0xC228,
0.762288833333333,0,0xDF4D,
0.762296708333333,0,0xC328,
0.762312416666667,0,0xE122,
0.762320291666667,0,0xC428,
0.762336000000000,0,0xA97F,
0.762343875000000,0,0xC528,
0.762359583333333,0,0xFF4C,
0.762367458333333,0,0xC628,
0.762383166666667,0,0xC017,
0.762391041666667,0,0xC728,
0.762406750000000,0,0xA3B0,
0.762414583333333,0,0xC828,
0.762430333333333,0,0x9E3D,
0.762438166666667,0,0xC928,
0.762453916666667,0,0x9E3E,
0.762461750000000,0,0xCA28,
0.770104208333333,0,0x9C3F,
0.770111875000000,0,0x060F,
0.770139458333333,0,0x0004,
0.770147125000000,0,0x0311,
0.770163291666667,0,0x0A01,
0.770171208333333,0,0x8311,
0.770187041666667,0,0x0F00,
0.770194958333333,0,0x8411,
0.770210791666667,0,0x0000,
0.770218708333333,0,0x8519,
0.770234583333333,0,0x9F3F,
0.770242500000000,0,0x8611,
0.770273125000000,0,0x0004,
0.770280833333333,0,0x0315,
0.770296958333333,0,0x0A01,
0.770304875000000,0,0x8315,
0.770320708333333,0,0x0F00,
0.770328625000000,0,0x8415,
0.770344458333333,0,0x0000,
0.770352416666667,0,0x8519,
0.770368250000000,0,0x9F3F,
0.770376166666667,0,0x8615,
0.770407333333333,0,0x0004,
0.770415041666667,0,0x0319,
0.770431125000000,0,0x0A01,
0.770439041666667,0,0x8319,
0.770454875000000,0,0x0F00,
0.770462791666667,0,0x8419,
0.770478666666667,0,0x0000,
0.770486583333333,0,0x8519,
0.770502416666667,0,0x9F3F,
0.770510333333333,0,0x8619,
0.770541083333333,0,0x0004,
0.770548791666667,0,0x031D,
0.770564791666667,0,0x0A01,
0.770572708333333,0,0x831D,
0.770588541666667,0,0x0F00,
0.770596500000000,0,0x841D,
0.770612333333333,0,0x0000,
0.770620250000000,0,0x8519,
0.770636083333333,0,0x9F3F,
0.770644000000000,0,0x861D,
0.770674458333333,0,0x0004,
0.770682125000000,0,0x0311,
0.770698416666667,0,0x0A01,
0.770706333333333,0,0x8311,
0.770722166666667,0,0x0F00,
0.770730125000000,0,0x8411,
0.770745916666667,0,0x0000,
0.770753875000000,0,0x8519,
0.770769666666667,0,0x973F,
0.770777625000000,0,0x8611,
0.770808000000000,0,0x0001,
0.770815666666667,0,0x1D15,
0.770832041666667,0,0x1551,
0.770839958333333,0,0x9D15,
0.770868000000000,0,0x0003,
0.770875708333333,0,0x2419,
0.770891916666667,0,0x0048,
0.770899833333333,0,0xA419,
0.770915666666667,0,0x0040,
0.770923583333333,0,0xA519,
0.770939416666667,0,0x8000,
0.770947333333333,0,0xA619,
0.770975958333333,0,0x0005,
0.770983625000000,0,0x2D1D,
0.770999750000000,0,0x138A,
0.771007708333333,0,0xAD19,
0.771023541666667,0,0xFFFD,
0.771031458333333,0,0xAE19,
0.771047291666667,0,0x2274,
0.771055208333333,0,0xAF19,
0.771071041666667,0,0xFFFF,
0.771078958333333,0,0xB019,
0.771094791666667,0,0x830D,
0.771102750000000,0,0xB119,
0.771133750000000,0,0x0006,
0.771141416666667,0,0x3B11,
0.771157666666667,0,0xB3E0,
0.771165583333333,0,0xBB19,
0.771181416666667,0,0xB32D,
0.771189333333333,0,0xBC19,
0.771205208333333,0,0xB2BB,
0.771213083333333,0,0xBD19,
0.771228958333333,0,0xB1FE,
0.771236833333333,0,0xBE19,
0.771252708333333,0,0xB200,
0.771260625000000,0,0xBF19,
0.771276458333333,0,0xB273,
0.771284375000000,0,0xC019,
0.771314208333333,0,0x000A,
0.771321875000000,0,0x4115,
0.771338333333333,0,0xC0C2,
0.771346250000000,0,0xC119,
0.771362083333333,0,0xC0C7,
0.771370000000000,0,0xC219,
0.771385833333333,0,0xC0C2,
0.771393750000000,0,0xC319,
0.771409583333333,0,0xC085,
0.771417500000000,0,0xC419,
0.771433333333333,0,0xC0A1,
0.771441291666667,0,0xC519,
0.771457083333333,0,0xDD4B,
0.771465041666667,0,0xC619,
0.771480875000000,0,0x803C,
0.771488791666667,0,0xC719,
0.771504583333333,0,0xA3CC,
0.771512541666667,0,0xC819,
0.771528375000000,0,0x9E3A,
0.771536250000000,0,0xC919,
0.771552083333333,0,0x9E3A,
0.771560000000000,0,0xCA19,
0.771592041666667,0,0x0004,
0.771599708333333,0,0x0329,
0.771616000000000,0,0x0A01,
0.771623833333333,0,0x8329,
0.771639541666667,0,0x0F00,
0.771647416666667,0,0x8429,
0.771663125000000,0,0x0000,
0.771671000000000,0,0x8529,
0.771686750000000,0,0x973F,
0.771694583333333,0,0x8629,
0.771724750000000,0,0x0001,
0.771732458333333,0,0x1D2D,
0.771748625000000,0,0x0055,
0.771756500000000,0,0x9D2D,
0.771784791666667,0,0x0003,
0.771792500000000,0,0x2421,
0.771808541666667,0,0x004C,
0.771816416666667,0,0xA429,
0.771832125000000,0,0x0040,
0.771839958333333,0,0xA529,
0.771855708333333,0,0x8000,
0.771863583333333,0,0xA629,
0.771892250000000,0,0x0005,
0.771899958333333,0,0x2D25,
0.771916125000000,0,0x159C,
0.771924000000000,0,0xAD29,
0.771939708333333,0,0xFFFD,
0.771947541666667,0,0xAE29,
0.771963291666667,0,0x8098,
0.771971166666667,0,0xAF29,
0.771986875000000,0,0xFFFF,
0.771994750000000,0,0xB029,
0.772010458333333,0,0x830C,
0.772018333333333,0,0xB129,
0.772048333333333,0,0x0006,
0.772056041666667,0,0x3B29,
0.772072375000000,0,0xE51B,
0.772080250000000,0,0xBB29,
0.772095958333333,0,0x8000,
0.772103791666667,0,0xBC29,
0.772119541666667,0,0x8000,
0.772127416666667,0,0xBD29,
0.772143125000000,0,0x8001,
0.772151000000000,0,0xBE29,
0.772166708333333,0,0xE5BC,
0.772174583333333,0,0xBF29,
0.772190291666667,0,0xE5D2,
0.772198166666667,0,0xC029,
0.772228083333333,0,0x000A,
0.772235750000000,0,0x412D,
0.772251708333333,0,0xDB99,
0.772259583333333,0,0xC129,
0.772275291666667,0,0xDCA5,
0.772283125000000,0,0xC229,
0.772298875000000,0,0xDF48,
0.772306708333333,0,0xC329,
0.772322458333333,0,0xE123,
0.772330291666667,0,0xC429,
0.772346000000000,0,0xA97D,
0.772353875000000,0,0xC529,
0.772369583333333,0,0xFF4D,
0.772377458333333,0,0xC629,
0.772393166666667,0,0xC014,
0.772401041666667,0,0xC729,
0.772416750000000,0,0xA3B1,
0.772424625000000,0,0xC829,
0.772440333333333,0,0x9E39,
0.772448208333333,0,0xC929,
0.772463916666667,0,0x9E3E,
0.772471791666667,0,0xCA29,
0.780091083333333,0,0xAC3F,
0.780098750000000,0,0x0603,
0.780125750000000,0,0x0004,
0.780133416666667,0,0x0315,
0.780149583333333,0,0x0A01,
0.780157500000000,0,0x8315,
0.780173333333333,0,0x0F00,
0.780181250000000,0,0x8415,
0.780197083333333,0,0x0000,
0.780205041666667,0,0x851A,
0.780220875000000,0,0xAF3F,
0.780228791666667,0,0x8615,
0.780259625000000,0,0x0004,
0.780267291666667,0,0x0319,
0.780283750000000,0,0x0A01,
0.780291666666667,0,0x8319,
0.780307500000000,0,0x0F00,
0.780315416666667,0,0x8419,
0.780331291666667,0,0x0000,
0.780339208333333,0,0x851A,
0.780355041666667,0,0xAF3F,
0.780362958333333,0,0x8619,
0.780394041666667,0,0x0004,
0.780401708333333,0,0x031D,
0.780417916666667,0,0x0A01,
0.780425833333333,0,0x831D,
0.780441666666667,0,0x0F00,
0.780449625000000,0,0x841D,
0.780465458333333,0,0x0000,
0.780473375000000,0,0x851A,
0.780489208333333,0,0xAF3F,
0.780497125000000,0,0x861D,
0.780527833333333,0,0x0004,
0.780535500000000,0,0x0311,
0.780551583333333,0,0x0A01,
0.780559500000000,0,0x8311,
0.780575375000000,0,0x0F00,
0.780583291666667,0,0x8411,
0.780599125000000,0,0x0000,
0.780607041666667,0,0x851A,
0.780622875000000,0,0xAF3F,
0.780630791666667,0,0x8611,
0.780662166666667,0,0x0004,
0.780669833333333,0,0x0315,
0.780686208333333,0,0x0A01,
0.780694125000000,0,0x8315,
0.780709958333333,0,0x0F00,
0.780717916666667,0,0x8415,
0.780733750000000,0,0x0000,
0.780741666666667,0,0x851A,
0.780757500000000,0,0xA73F,
0.780765416666667,0,0x8615,
0.780795750000000,0,0x0001,
0.780803458333333,0,0x1D19,
0.780819875000000,0,0x1551,
0.780827791666667,0,0x9D19,
0.780856041666667,0,0x0003,
0.780863708333333,0,0x241D,
0.780879750000000,0,0x0048,
0.780887666666667,0,0xA41A,
0.780903500000000,0,0x0040,
0.780911458333333,0,0xA51A,
0.780927291666667,0,0x8000,
0.780935208333333,0,0xA61A,
0.780963875000000,0,0x0005,
0.780971583333333,0,0x2D11,
0.780987666666667,0,0x1494,
0.780995583333333,0,0xAD1A,
0.781011416666667,0,0xFFFD,
0.781019333333333,0,0xAE1A,
0.781035166666667,0,0x1FBD,
0.781043125000000,0,0xAF1A,
0.781058916666667,0,0xFFFF,
0.781066875000000,0,0xB01A,
0.781082708333333,0,0x830F,
0.781090625000000,0,0xB11A,
0.781120541666667,0,0x0006,
0.781128208333333,0,0x3B15,
0.781144583333333,0,0xB3DD,
0.781152500000000,0,0xBB1A,
0.781168333333333,0,0xB32B,
0.781176250000000,0,0xBC1A,
0.781192083333333,0,0xB2BB,
0.781200000000000,0,0xBD1A,
0.781215791666667,0,0xB202,
0.781223708333333,0,0xBE1A,
0.781239541666667,0,0xB202,
0.781247458333333,0,0xBF1A,
0.781263291666667,0