Time [s],Packet ID,MOSI,MISO
-0.008540375000000,0,0x9E39,
-0.008532541666667,0,0xC92F,
-0.008516833333333,0,0x9E3D,
-0.008508958333333,0,0xCA2F,
0.000004041666667,0,0x0C3F,
0.000011708333333,0,0x060B,
0.000039000000000,0,0x0004,
0.000046708333333,0,0x031D,
0.000063083333333,0,0x0A01,
0.000071000000000,0,0x831D,
0.000086875000000,0,0x0F00,
0.000094791666667,0,0x841D,
0.000110625000000,0,0x0000,
0.000118541666667,0,0x8510,
0.000134375000000,0,0x0F3F,
0.000142291666667,0,0x861D,
0.000173083333333,0,0x0004,
0.000180791666667,0,0x0311,
0.000197250000000,0,0x0A01,
0.000205166666667,0,0x8311,
0.000221000000000,0,0x0F00,
0.000228916666667,0,0x8411,
0.000244750000000,0,0x0000,
0.000252666666667,0,0x8510,
0.000268500000000,0,0x0F3F,
0.000276416666667,0,0x8611,
0.000307083333333,0,0x0004,
0.000314750000000,0,0x0315,
0.000330875000000,0,0x0A01,
0.000338791666667,0,0x8315,
0.000354625000000,0,0x0F00,
0.000362541666667,0,0x8415,
0.000378375000000,0,0x0000,
0.000386291666667,0,0x8510,
0.000402125000000,0,0x0F3F,
0.000410083333333,0,0x8615,
0.000440708333333,0,0x0004,
0.000448416666667,0,0x0319,
0.000464500000000,0,0x0A01,
0.000472416666667,0,0x8319,
0.000488250000000,0,0x0F00,
0.000496166666667,0,0x8419,
0.000512041666667,0,0x0000,
0.000519958333333,0,0x8510,
0.000535750000000,0,0x0F3F,
0.000543666666667,0,0x8619,
0.000574333333333,0,0x0004,
0.000582041666667,0,0x031D,
0.000598125000000,0,0x0A01,
0.000606041666667,0,0x831D,
0.000621875000000,0,0x0F00,
0.000629791666667,0,0x841D,
0.000645625000000,0,0x0000,
0.000653541666667,0,0x8510,
0.000669375000000,0,0x073F,
0.000677291666667,0,0x861D,
0.000707833333333,0,0x0001,
0.000715500000000,0,0x1D11,
0.000731708333333,0,0x1551,
0.000739625000000,0,0x9D11,
0.000768000000000,0,0x0003,
0.000775666666667,0,0x2415,
0.000792041666667,0,0x0048,
0.000799958333333,0,0xA410,
0.000815791666667,0,0x0040,
0.000823708333333,0,0xA510,
0.000839541666667,0,0x8000,
0.000847458333333,0,0xA610,
0.000876958333333,0,0x0005,
0.000884625000000,0,0x2D19,
0.000900875000000,0,0xA6D1,
0.000908791666667,0,0xAD10,
0.000924625000000,0,0xFFF1,
0.000932541666667,0,0xAE10,
0.000948375000000,0,0x0CF6,
0.000956291666667,0,0xAF10,
0.000972125000000,0,0x8000,
0.000980041666667,0,0xB010,
0.000995875000000,0,0x8305,
0.001003791666667,0,0xB110,
0.001033791666667,0,0x0006,
0.001041458333333,0,0x3B1D,
0.001057708333333,0,0xB3E8,
0.001065625000000,0,0xBB10,
0.001081500000000,0,0xB333,
0.001089416666667,0,0xBC10,
0.001105250000000,0,0xB2C7,
0.001113166666667,0,0xBD10,
0.001129000000000,0,0xB205,
0.001136916666667,0,0xBE10,
0.001152750000000,0,0xB208,
0.001160666666667,0,0xBF10,
0.001176500000000,0,0xB27B,
0.001184416666667,0,0xC010,
0.001214916666667,0,0x000A,
0.001222583333333,0,0x4111,
0.001238875000000,0,0xC0C4,
0.001246791666667,0,0xC110,
0.001262625000000,0,0xC0C5,
0.001270541666667,0,0xC210,
0.001286375000000,0,0xC0C6,
0.001294291666667,0,0xC310,
0.001310125000000,0,0xC0C4,
0.001318041666667,0,0xC410,
0.001333875000000,0,0xC0C3,
0.001341791666667,0,0xC510,
0.001357666666667,0,0xDDC8,
0.001365541666667,0,0xC610,
0.001381416666667,0,0x83B6,
0.001389333333333,0,0xC710,
0.001405166666667,0,0xA3BE,
0.001413083333333,0,0xC810,
0.001428916666667,0,0x9E38,
0.001436833333333,0,0xC910,
0.001452708333333,0,0x9E3A,
0.001460583333333,0,0xCA10,
0.001492041666667,0,0x0004,
0.001499750000000,0,0x0325,
0.001515833333333,0,0x0A01,
0.001523666666667,0,0x8325,
0.001539375000000,0,0x0F00,
0.001547250000000,0,0x8425,
0.001562958333333,0,0x0000,
0.001570791666667,0,0x8520,
0.001586541666667,0,0x073F,
0.001594375000000,0,0x8625,
0.001624916666667,0,0x0001,
0.001632625000000,0,0x1D29,
0.001648916666667,0,0x0055,
0.001656750000000,0,0x9D29,
0.001685083333333,0,0x0003,
0.001692791666667,0,0x242D,
0.001708833333333,0,0x004C,
0.001716666666667,0,0xA420,
0.001732416666667,0,0x0040,
0.001740250000000,0,0xA520,
0.001755958333333,0,0x8000,
0.001763833333333,0,0xA620,
0.001792166666667,0,0x0005,
0.001799833333333,0,0x2D21,
0.001815875000000,0,0xB122,
0.001823750000000,0,0xAD20,
0.001839458333333,0,0xFFF3,
0.001847333333333,0,0xAE20,
0.001863041666667,0,0x3F55,
0.001870875000000,0,0xAF20,
0.001886583333333,0,0xFFFF,
0.001894458333333,0,0xB020,
0.001910166666667,0,0x8305,
0.001918041666667,0,0xB120,
0.001948083333333,0,0x0006,
0.001955791666667,0,0x3B25,
0.001972041666667,0,0xE52C,
0.001979916666667,0,0xBB20,
0.001995625000000,0,0x8000,
0.002003500000000,0,0xBC20,
0.002019208333333,0,0x8000,
0.002027041666667,0,0xBD20,
0.002042750000000,0,0x8000,
0.002050625000000,0,0xBE20,
0.002066375000000,0,0xE5C6,
0.002074208333333,0,0xBF20,
0.002089916666667,0,0xE5DC,
0.002097791666667,0,0xC020,
0.002128291666667,0,0x000A,
0.002135958333333,0,0x4129,
0.002152291666667,0,0xDC0B,
0.002160166666667,0,0xC120,
0.002175875000000,0,0xDD24,
0.002183750000000,0,0xC220,
0.002199458333333,0,0xDF61,
0.002207291666667,0,0xC320,
0.002223000000000,0,0xE12F,
0.002230875000000,0,0xC420,
0.002246583333333,0,0xA985,
0.002254458333333,0,0xC520,
0.002270166666667,0,0xFF4B,
0.002278041666667,0,0xC620,
0.002293750000000,0,0xC00E,
0.002301583333333,0,0xC720,
0.002317333333333,0,0xA3A1,
0.002325166666667,0,0xC820,
0.002340875000000,0,0x9E38,
0.002348750000000,0,0xC920,
0.002364458333333,0,0x9E3D,
0.002372333333333,0,0xCA20,
0.009157458333333,0,0x1C3F,
0.009165166666667,0,0x060F,
0.009193666666667,0,0x0004,
0.009201333333333,0,0x0311,
0.009217541666667,0,0x0A01,
0.009225458333333,0,0x8311,
0.009241250000000,0,0x0F00,
0.009249166666667,0,0x8411,
0.009265000000000,0,0x0000,
0.009272916666667,0,0x8511,
0.009288750000000,0,0x1F3F,
0.009296666666667,0,0x8611,
0.009328250000000,0,0x0004,
0.009335916666667,0,0x0315,
0.009352041666667,0,0x0A01,
0.009359958333333,0,0x8315,
0.009375791666667,0,0x0F00,
0.009383708333333,0,0x8415,
0.009399541666667,0,0x0000,
0.009407458333333,0,0x8511,
0.009423291666667,0,0x1F3F,
0.009431208333333,0,0x8615,
0.009461708333333,0,0x0004,
0.009469375000000,0,0x0319,
0.009485625000000,0,0x0A01,
0.009493541666667,0,0x8319,
0.009509375000000,0,0x0F00,
0.009517291666667,0,0x8419,
0.009533125000000,0,0x0000,
0.009541041666667,0,0x8511,
0.009556875000000,0,0x1F3F,
0.009564791666667,0,0x8619,
0.009595583333333,0,0x0004,
0.009603250000000,0,0x031D,
0.009619666666667,0,0x0A01,
0.009627583333333,0,0x831D,
0.009643416666667,0,0x0F00,
0.009651333333333,0,0x841D,
0.009667166666667,0,0x0000,
0.009675083333333,0,0x8511,
0.009690916666667,0,0x1F3F,
0.009698833333333,0,0x861D,
0.009729083333333,0,0x0004,
0.009736750000000,0,0x0311,
0.009753250000000,0,0x0A01,
0.009761166666667,0,0x8311,
0.009776958333333,0,0x0F00,
0.009784875000000,0,0x8411,
0.009800708333333,0,0x0000,
0.009808625000000,0,0x8511,
0.009824458333333,0,0x173F,
0.009832375000000,0,0x8611,
0.009862541666667,0,0x0001,
0.009870208333333,0,0x1D15,
0.009886291666667,0,0x1551,
0.009894208333333,0,0x9D15,
0.009921791666667,0,0x0003,
0.009929458333333,0,0x2419,
0.009945666666667,0,0x0048,
0.009953583333333,0,0xA411,
0.009969416666667,0,0x0040,
0.009977333333333,0,0xA511,
0.009993166666667,0,0x8000,
0.010001083333333,0,0xA611,
0.010030375000000,0,0x0005,
0.010038041666667,0,0x2D1D,
0.010054041666667,0,0xA7C4,
0.010061958333333,0,0xAD11,
0.010077791666667,0,0xFFF1,
0.010085708333333,0,0xAE11,
0.010101541666667,0,0x0AD3,
0.010109416666667,0,0xAF11,
0.010125250000000,0,0xFFFF,
0.010133208333333,0,0xB011,
0.010149000000000,0,0x830C,
0.010156958333333,0,0xB111,
0.010187375000000,0,0x0006,
0.010195041666667,0,0x3B11,
0.010211333333333,0,0xB3E7,
0.010219250000000,0,0xBB11,
0.010235083333333,0,0xB332,
0.010243000000000,0,0xBC11,
0.010258833333333,0,0xB2C2,
0.010266750000000,0,0xBD11,
0.010282583333333,0,0xB204,
0.010290500000000,0,0xBE11,
0.010306333333333,0,0xB205,
0.010314250000000,0,0xBF11,
0.010330083333333,0,0xB277,
0.010338000000000,0,0xC011,
0.010368625000000,0,0x000A,
0.010376291666667,0,0x4115,
0.010392458333333,0,0xC0C1,
0.010400375000000,0,0xC111,
0.010416208333333,0,0xC0C2,
0.010424125000000,0,0xC211,
0.010439958333333,0,0xC0C6,
0.010447875000000,0,0xC311,
0.010463708333333,0,0xC0C6,
0.010471625000000,0,0xC411,
0.010487458333333,0,0xC0C2,
0.010495375000000,0,0xC511,
0.010511208333333,0,0xDDCA,
0.010519125000000,0,0xC611,
0.010534958333333,0,0x83B7,
0.010542875000000,0,0xC711,
0.010558708333333,0,0xA3BD,
0.010566625000000,0,0xC811,
0.010582458333333,0,0x9E38,
0.010590375000000,0,0xC911,
0.010606208333333,0,0x9E3C,
0.010614125000000,0,0xCA11,
0.010646583333333,0,0x0004,
0.010654291666667,0,0x0329,
0.010670666666667,0,0x0A01,
0.010678500000000,0,0x8329,
0.010694208333333,0,0x0F00,
0.010702083333333,0,0x8429,
0.010717791666667,0,0x0000,
0.010725625000000,0,0x8521,
0.010741375000000,0,0x173F,
0.010749208333333,0,0x8629,
0.010779666666667,0,0x0001,
0.010787333333333,0,0x1D2D,
0.010803708333333,0,0x0055,
0.010811583333333,0,0x9D2D,
0.010840166666667,0,0x0003,
0.010847875000000,0,0x2421,
0.010864125000000,0,0x004C,
0.010872000000000,0,0xA421,
0.010887708333333,0,0x0040,
0.010895583333333,0,0xA521,
0.010911291666667,0,0x8000,
0.010919125000000,0,0xA621,
0.010948250000000,0,0x0005,
0.010955916666667,0,0x2D25,
0.010972166666667,0,0xB217,
0.010980041666667,0,0xAD21,
0.010995750000000,0,0xFFF3,
0.011003625000000,0,0xAE21,
0.011019333333333,0,0x3D14,
0.011027166666667,0,0xAF21,
0.011042916666667,0,0xFFFF,
0.011050791666667,0,0xB021,
0.011066500000000,0,0x830C,
0.011074333333333,0,0xB121,
0.011104125000000,0,0x0006,
0.011111791666667,0,0x3B29,
0.011127875000000,0,0xE528,
0.011135750000000,0,0xBB21,
0.011151416666667,0,0x8000,
0.011159291666667,0,0xBC21,
0.011175000000000,0,0x8000,
0.011182875000000,0,0xBD21,
0.011198583333333,0,0x8000,
0.011206458333333,0,0xBE21,
0.011222166666667,0,0xE5C7,
0.011230041666667,0,0xBF21,
0.011245750000000,0,0xE5E3,
0.011253583333333,0,0xC021,
0.011284041666667,0,0x000A,
0.011291708333333,0,0x412D,
0.011308083333333,0,0xDC13,
0.011315958333333,0,0xC121,
0.011331666666667,0,0xDD22,
0.011339500000000,0,0xC221,
0.011355250000000,0,0xDF65,
0.011363083333333,0,0xC321,
0.011378791666667,0,0xE127,
0.011386666666667,0,0xC421,
0.011402375000000,0,0xA984,
0.011410250000000,0,0xC521,
0.011425958333333,0,0xFF4E,
0.011433791666667,0,0xC621,
0.011449541666667,0,0xC015,
0.011457375000000,0,0xC721,
0.011473083333333,0,0xA3A2,
0.011480958333333,0,0xC821,
0.011496666666667,0,0x9E3C,
0.011504541666667,0,0xC921,
0.011520208333333,0,0x9E3E,
0.011528083333333,0,0xCA21,
0.019051333333333,0,0x2C3F,
0.019059000000000,0,0x0603,
0.019086500000000,0,0x0004,
0.019094166666667,0,0x0315,
0.019110541666667,0,0x0A01,
0.019118458333333,0,0x8315,
0.019134333333333,0,0x0F00,
0.019142250000000,0,0x8415,
0.019158083333333,0,0x0000,
0.019166000000000,0,0x8512,
0.019181833333333,0,0x2F3F,
0.019189750000000,0,0x8615,
0.019220416666667,0,0x0004,
0.019228083333333,0,0x0319,
0.019244166666667,0,0x0A01,
0.019252083333333,0,0x8319,
0.019267916666667,0,0x0F00,
0.019275875000000,0,0x8419,
0.019291708333333,0,0x0000,
0.019299625000000,0,0x8512,
0.019315458333333,0,0x2F3F,
0.019323375000000,0,0x8619,
0.019353791666667,0,0x0004,
0.019361458333333,0,0x031D,
0.019377833333333,0,0x0A01,
0.019385750000000,0,0x831D,
0.019401583333333,0,0x0F00,
0.019409500000000,0,0x841D,
0.019425333333333,0,0x0000,
0.019433291666667,0,0x8512,
0.019449125000000,0,0x2F3F,
0.019457041666667,0,0x861D,
0.019487083333333,0,0x0004,
0.019494791666667,0,0x0311,
0.019510958333333,0,0x0A01,
0.019518916666667,0,0x8311,
0.019534750000000,0,0x0F00,
0.019542666666667,0,0x8411,
0.019558500000000,0,0x0000,
0.019566416666667,0,0x8512,
0.019582250000000,0,0x2F3F,
0.019590166666667,0,0x8611,
0.019620208333333,0,0x0004,
0.019627875000000,0,0x0315,
0.019644125000000,0,0x0A01,
0.019652041666667,0,0x8315,
0.019667875000000,0,0x0F00,
0.019675791666667,0,0x8415,
0.019691625000000,0,0x0000,
0.019699541666667,0,0x8512,
0.019715375000000,0,0x273F,
0.019723291666667,0,0x8615,
0.019753750000000,0,0x0001,
0.019761416666667,0,0x1D19,
0.019777750000000,0,0x1551,
0.019785666666667,0,0x9D19,
0.019813541666667,0,0x0003,
0.019821208333333,0,0x241D,
0.019837583333333,0,0x0048,
0.019845500000000,0,0xA412,
0.019861333333333,0,0x0040,
0.019869291666667,0,0xA512,
0.019885083333333,0,0x8000,
0.019893041666667,0,0xA612,
0.019922250000000,0,0x0005,
0.019929916666667,0,0x2D11,
0.019945958333333,0,0xA8CB,
0.019953875000000,0,0xAD12,
0.019969708333333,0,0xFFF1,
0.019977625000000,0,0xAE12,
0.019993500000000,0,0x0839,
0.020001416666667,0,0xAF12,
0.020017250000000,0,0xFFFF,
0.020025166666667,0,0xB012,
0.020041000000000,0,0x830C,
0.020048916666667,0,0xB112,
0.020078875000000,0,0x0006,
0.020086583333333,0,0x3B15,
0.020102875000000,0,0xB3E5,
0.020110791666667,0,0xBB12,
0.020126625000000,0,0xB331,
0.020134541666667,0,0xBC12,
0.020150375000000,0,0xB2C0,
0.020158291666667,0,0xBD12,
0.020174125000000,0,0xB204,
0.020182000000000,0,0xBE12,
0.020197875000000,0,0xB208,
0.020205750000000,0,0xBF12,
0.020221625000000,0,0xB27C,
0.020229500000000,0,0xC012,
0.020260000000000,0,0x000A,
0.020267666666667,0,0x4119,
0.020283916666667,0,0xC0C6,
0.020291833333333,0,0xC112,
0.020307708333333,0,0xC0C4,
0.020315583333333,0,0xC212,
0.020331458333333,0,0xC0C8,
0.020339375000000,0,0xC312,
0.020355166666667,0,0xC0C5,
0.020363125000000,0,0xC412,
0.020378958333333,0,0xC0C6,
0.020386875000000,0,0xC512,
0.020402708333333,0,0xDDCB,
0.020410625000000,0,0xC612,
0.020426458333333,0,0x83B9,
0.020434375000000,0,0xC712,
0.020450208333333,0,0xA3BF,
0.020458125000000,0,0xC812,
0.020473958333333,0,0x9E38,
0.020481875000000,0,0xC912,
0.020497708333333,0,0x9E36,
0.020505625000000,0,0xCA12,
0.020536958333333,0,0x0004,
0.020544625000000,0,0x032D,
0.020560875000000,0,0x0A01,
0.020568750000000,0,0x832D,
0.020584458333333,0,0x0F00,
0.020592333333333,0,0x842D,
0.020608041666667,0,0x0000,
0.020615875000000,0,0x8522,
0.020631625000000,0,0x273F,
0.020639458333333,0,0x862D,
0.020669875000000,0,0x0001,
0.020677541666667,0,0x1D21,
0.020693500000000,0,0x0055,
0.020701333333333,0,0x9D21,
0.020729250000000,0,0x0003,
0.020736916666667,0,0x2425,
0.020752916666667,0,0x004C,
0.020760750000000,0,0xA422,
0.020776458333333,0,0x0040,
0.020784333333333,0,0xA522,
0.020800041666667,0,0x8000,
0.020807916666667,0,0xA622,
0.020836625000000,0,0x0005,
0.020844333333333,0,0x2D29,
0.020860458333333,0,0xB320,
0.020868291666667,0,0xAD22,
0.020884000000000,0,0xFFF3,
0.020891875000000,0,0xAE22,
0.020907583333333,0,0x3B24,
0.020915458333333,0,0xAF22,
0.020931125000000,0,0xFFFF,
0.020939000000000,0,0xB022,
0.020954708333333,0,0x8306,
0.020962583333333,0,0xB122,
0.020992041666667,0,0x0006,
0.020999708333333,0,0x3B2D,
0.021016083333333,0,0xE523,
0.021023958333333,0,0xBB22,
0.021039666666667,0,0x8000,
0.021047541666667,0,0xBC22,
0.021063250000000,0,0x8003,
0.021071083333333,0,0xBD22,
0.021086833333333,0,0x8000,
0.021094666666667,0,0xBE22,
0.021110416666667,0,0xE5C3,
0.021118250000000,0,0xBF22,
0.021134000000000,0,0xE5DC,
0.021141833333333,0,0xC022,
0.021171833333333,0,0x000A,
0.021179500000000,0,0x4121,
0.021195833333333,0,0xDC18,
0.021203708333333,0,0xC122,
0.021219416666667,0,0xDD26,
0.021227291666667,0,0xC222,
0.021243000000000,0,0xDF65,
0.021250833333333,0,0xC322,
0.021266541666667,0,0xE12A,
0.021274416666667,0,0xC422,
0.021290125000000,0,0xA97E,
0.021298000000000,0,0xC522,
0.021313708333333,0,0xFF4D,
0.021321541666667,0,0xC622,
0.021337250000000,0,0xC017,
0.021345125000000,0,0xC722,
0.021360833333333,0,0xA3A2,
0.021368708333333,0,0xC822,
0.021384416666667,0,0x9E39,
0.021392291666667,0,0xC922,
0.021408000000000,0,0x9E3D,
0.021415875000000,0,0xCA22,
0.029082875000000,0,0x3C3F,
0.029090541666667,0,0x0607,
0.029117333333333,0,0x0004,
0.029125000000000,0,0x0319,
0.029141083333333,0,0x0A01,
0.029149000000000,0,0x8319,
0.029164875000000,0,0x0F00,
0.029172791666667,0,0x8419,
0.029188583333333,0,0x0000,
0.029196500000000,0,0x8513,
0.029212375000000,0,0x3F3F,
0.029220291666667,0,0x8619,
0.029250791666667,0,0x0004,
0.029258458333333,0,0x031D,
0.029274708333333,0,0x0A01,
0.029282625000000,0,0x831D,
0.029298458333333,0,0x0F00,
0.029306375000000,0,0x841D,
0.029322208333333,0,0x0000,
0.029330166666667,0,0x8513,
0.029345958333333,0,0x3F3F,
0.029353875000000,0,0x861D,
0.029385291666667,0,0x0004,
0.029393000000000,0,0x0311,
0.029409333333333,0,0x0A01,
0.029417250000000,0,0x8311,
0.029433083333333,0,0x0F00,
0.029441000000000,0,0x8411,
0.029456833333333,0,0x0000,
0.029464750000000,0,0x8513,
0.029480583333333,0,0x3F3F,
0.029488500000000,0,0x8611,
0.029519000000000,0,0x0004,
0.029526666666667,0,0x0315,
0.029542958333333,0,0x0A01,
0.029550875000000,0,0x8315,
0.029566708333333,0,0x0F00,
0.029574625000000,0,0x8415,
0.029590458333333,0,0x0000,
0.029598375000000,0,0x8513,
0.029614208333333,0,0x3F3F,
0.029622125000000,0,0x8615,
0.029652875000000,0,0x0004,
0.029660541666667,0,0x0319,
0.029676541666667,0,0x0A01,
0.029684458333333,0,0x8319,
0.029700291666667,0,0x0F00,
0.029708208333333,0,0x8419,
0.029724041666667,0,0x0000,
0.029731958333333,0,0x8513,
0.029747791666667,0,0x373F,
0.029755708333333,0,0x8619,
0.029786500000000,0,0x0001,
0.029794166666667,0,0x1D1D,
0.029810666666667,0,0x1551,
0.029818541666667,0,0x9D1D,
0.029846541666667,0,0x0003,
0.029854208333333,0,0x2411,
0.029870541666667,0,0x0048,
0.029878458333333,0,0xA413,
0.029894250000000,0,0x0040,
0.029902208333333,0,0xA513,
0.029918041666667,0,0x8000,
0.029925958333333,0,0xA613,
0.029954958333333,0,0x0005,
0.029962625000000,0,0x2D15,
0.029978875000000,0,0xA9D6,
0.029986833333333,0,0xAD13,
0.030002666666667,0,0xFFF1,
0.030010583333333,0,0xAE13,
0.030026416666667,0,0x05BA,
0.030034333333333,0,0xAF13,
0.030050166666667,0,0xFFFF,
0.030058083333333,0,0xB013,
0.030073916666667,0,0x830E,
0.030081833333333,0,0xB113,
0.030111875000000,0,0x0006,
0.030119541666667,0,0x3B19,
0.030135750000000,0,0xB3E4,
0.030143666666667,0,0xBB13,
0.030159541666667,0,0xB333,
0.030167416666667,0,0xBC13,
0.030183250000000,0,0xB2C6,
0.030191166666667,0,0xBD13,
0.030207000000000,0,0xB205,
0.030214916666667,0,0xBE13,
0.030230791666667,0,0xB205,
0.030238666666667,0,0xBF13,
0.030254541666667,0,0xB275,
0.030262416666667,0,0xC013,
0.030292125000000,0,0x000A,
0.030299791666667,0,0x411D,
0.030315875000000,0,0xC0C5,
0.030323791666667,0,0xC113,
0.030339625000000,0,0xC0C5,
0.030347541666667,0,0xC213,
0.030363375000000,0,0xC0C7,
0.030371291666667,0,0xC313,
0.030387125000000,0,0xC0C5,
0.030395083333333,0,0xC413,
0.030410875000000,0,0xC0C5,
0.030418833333333,0,0xC513,
0.030434666666667,0,0xDDC9,
0.030442583333333,0,0xC613,
0.030458416666667,0,0x83B3,
0.030466333333333,0,0xC713,
0.030482166666667,0,0xA3BF,
0.030490083333333,0,0xC813,
0.030505916666667,0,0x9E3A,
0.030513833333333,0,0xC913,
0.030529666666667,0,0x9E3D,
0.030537583333333,0,0xCA13,
0.030570208333333,0,0x0004,
0.030577875000000,0,0x0321,
0.030593833333333,0,0x0A01,
0.030601708333333,0,0x8321,
0.030617416666667,0,0x0F00,
0.030625250000000,0,0x8421,
0.030640958333333,0,0x0000,
0.030648833333333,0,0x8523,
0.030664541666667,0,0x373F,
0.030672416666667,0,0x8621,
0.030703250000000,0,0x0001,
0.030710916666667,0,0x1D25,
0.030726916666667,0,0x0055,
0.030734791666667,0,0x9D25,
0.030762375000000,0,0x0003,
0.030770041666667,0,0x2429,
0.030786333333333,0,0x004C,
0.030794208333333,0,0xA423,
0.030809916666667,0,0x0040,
0.030817750000000,0,0xA523,
0.030833500000000,0,0x8000,
0.030841333333333,0,0xA623,
0.030870416666667,0,0x0005,
0.030878083333333,0,0x2D2D,
0.030894375000000,0,0xB42D,
0.030902250000000,0,0xAD23,
0.030917958333333,0,0xFFF3,
0.030925791666667,0,0xAE23,
0.030941541666667,0,0x387E,
0.030949416666667,0,0xAF23,
0.030965125000000,0,0xFFFF,
0.030972958333333,0,0xB023,
0.030988708333333,0,0x830E,
0.030996541666667,0,0xB123,
0.031027625000000,0,0x0006,
0.031035291666667,0,0x3B21,
0.031051541666667,0,0xE526,
0.031059416666667,0,0xBB23,
0.031075125000000,0,0x8006,
0.031082958333333,0,0xBC23,
0.031098666666667,0,0x8000,
0.031106541666667,0,0xBD23,
0.031122250000000,0,0x8001,
0.031130083333333,0,0xBE23,
0.031145833333333,0,0xE5C4,
0.031153666666667,0,0xBF23,
0.031169416666667,0,0xE5E0,
0.031177250000000,0,0xC023,
0.031207875000000,0,0x000A,
0.031215541666667,0,0x4125,
0.031231750000000,0,0xDC14,
0.031239625000000,0,0xC123,
0.031255333333333,0,0xDD25,
0.031263166666667,0,0xC223,
0.031278916666667,0,0xDF62,
0.031286750000000,0,0xC323,
0.031302458333333,0,0xE128,
0.031310333333333,0,0xC423,
0.031326041666667,0,0xA97F,
0.031333916666667,0,0xC523,
0.031349625000000,0,0xFF4E,
0.031357500000000,0,0xC623,
0.031373208333333,0,0xC00E,
0.031381041666667,0,0xC723,
0.031396750000000,0,0xA3A1,
0.031404625000000,0,0xC823,
0.031420333333333,0,0x9E37,
0.031428208333333,0,0xC923,
0.031443916666667,0,0x9E40,
0.031451791666667,0,0xCA23,
0.039047708333333,0,0x4C3F,
0.039055416666667,0,0x060B,
0.039082416666667,0,0x0004,
0.039090083333333,0,0x031D,
0.039106500000000,0,0x0A01,
0.039114416666667,0,0x831D,
0.039130250000000,0,0x0F00,
0.039138208333333,0,0x841D,
0.039154041666667,0,0x0000,
0.039161958333333,0,0x8514,
0.039177791666667,0,0x4F3F,
0.039185708333333,0,0x861D,
0.039215875000000,0,0x0004,
0.039223583333333,0,0x0311,
0.039239625000000,0,0x0A01,
0.039247541666667,0,0x8311,
0.039263416666667,0,0x0F00,
0.039271291666667,0,0x8411,
0.039287125000000,0,0x0000,
0.039295041666667,0,0x8514,
0.039310875000000,0,0x4F3F,
0.039318791666667,0,0x8611,
0.039349500000000,0,0x0004,
0.039357166666667,0,0x0315,
0.039373250000000,0,0x0A01,
0.039381166666667,0,0x8315,
0.039397041666667,0,0x0F00,
0.039404916666667,0,0x8415,
0.039420791666667,0,0x0000,
0.039428708333333,0,0x8514,
0.039444541666667,0,0x4F3F,
0.039452458333333,0,0x8615,
0.039482583333333,0,0x0004,
0.039490250000000,0,0x0319,
0.039506416666667,0,0x0A01,
0.039514333333333,0,0x8319,
0.039530166666667,0,0x0F00,
0.039538083333333,0,0x8419,
0.039553916666667,0,0x0000,
0.039561833333333,0,0x8514,
0.039577708333333,0,0x4F3F,
0.039585625000000,0,0x8619,
0.039615625000000,0,0x0004,
0.039623291666667,0,0x031D,
0.039639583333333,0,0x0A01,
0.039647500000000,0,0x831D,
0.039663291666667,0,0x0F00,
0.039671250000000,0,0x841D,
0.039687083333333,0,0x0000,
0.039694958333333,0,0x8514,
0.039710791666667,0,0x473F,
0.039718750000000,0,0x861D,
0.039749791666667,0,0x0001,
0.039757500000000,0,0x1D11,
0.039773625000000,0,0x1551,
0.039781541666667,0,0x9D11,
0.039809500000000,0,0x0003,
0.039817166666667,0,0x2415,
0.039833500000000,0,0x0048,
0.039841416666667,0,0xA414,
0.039857250000000,0,0x0040,
0.039865166666667,0,0xA514,
0.039881000000000,0,0x8000,
0.039888916666667,0,0xA614,
0.039917708333333,0,0x0005,
0.039925375000000,0,0x2D19,
0.039941375000000,0,0xAADF,
0.039949291666667,0,0xAD14,
0.039965125000000,0,0xFFF1,
0.039973041666667,0,0xAE14,
0.039988875000000,0,0x02AE,
0.039996791666667,0,0xAF14,
0.040012625000000,0,0xFFFF,
0.040020541666667,0,0xB014,
0.040036375000000,0,0x8309,
0.040044291666667,0,0xB114,
0.040073875000000,0,0x0006,
0.040081541666667,0,0x3B1D,
0.040097708333333,0,0xB3E4,
0.040105666666667,0,0xBB14,
0.040121500000000,0,0xB32E,
0.040129416666667,0,0xBC14,
0.040145250000000,0,0xB2BF,
0.040153166666667,0,0xBD14,
0.040168958333333,0,0xB201,
0.040176916666667,0,0xBE14,
0.040192750000000,0,0xB206,
0.040200666666667,0,0xBF14,
0.040216500000000,0,0xB277,
0.040224416666667,0,0xC014,
0.040254541666667,0,0x000A,
0.040262208333333,0,0x4111,
0.040278333333333,0,0xC0C4,
0.040286250000000,0,0xC114,
0.040302083333333,0,0xC0C7,
0.040310000000000,0,0xC214,
0.040325833333333,0,0xC0C5,
0.040333750000000,0,0xC314,
0.040349583333333,0,0xC0C3,
0.040357500000000,0,0xC414,
0.040373333333333,0,0xC0C5,
0.040381250000000,0,0xC514,
0.040397083333333,0,0xDDCA,
0.040405000000000,0,0xC614,
0.040420833333333,0,0x83B4,
0.040428750000000,0,0xC714,
0.040444583333333,0,0xA3C0,
0.040452500000000,0,0xC814,
0.040468333333333,0,0x9E36,
0.040476250000000,0,0xC914,
0.040492083333333,0,0x9E38,
0.040500000000000,0,0xCA14,
0.040532250000000,0,0x0004,
0.040539916666667,0,0x0325,
0.040556000000000,0,0x0A01,
0.040563875000000,0,0x8325,
0.040579583333333,0,0x0F00,
0.040587458333333,0,0x8425,
0.040603166666667,0,0x0000,
0.040611041666667,0,0x8524,
0.040626750000000,0,0x473F,
0.040634583333333,0,0x8625,
0.040664958333333,0,0x0001,
0.040672625000000,0,0x1D29,
0.040688583333333,0,0x0055,
0.040696458333333,0,0x9D29,
0.040724708333333,0,0x0003,
0.040732416666667,0,0x242D,
0.040748541666667,0,0x004C,
0.040756375000000,0,0xA424,
0.040772125000000,0,0x0040,
0.040779958333333,0,0xA524,
0.040795708333333,0,0x8000,
0.040803541666667,0,0xA624,
0.040833416666667,0,0x0005,
0.040841083333333,0,0x2D21,
0.040857083333333,0,0xB538,
0.040864958333333,0,0xAD24,
0.040880666666667,0,0xFFF3,
0.040888500000000,0,0xAE24,
0.040904208333333,0,0x3621,
0.040912083333333,0,0xAF24,
0.040927791666667,0,0xFFFF,
0.040935666666667,0,0xB024,
0.040951375000000,0,0x8309,
0.040959208333333,0,0xB124,
0.040988416666667,0,0x0006,
0.040996083333333,0,0x3B25,
0.041012250000000,0,0xE520,
0.041020125000000,0,0xBB24,
0.041035833333333,0,0x8000,
0.041043708333333,0,0xBC24,
0.041059416666667,0,0x8000,
0.041067291666667,0,0xBD24,
0.041082958333333,0,0x8002,
0.041090833333333,0,0xBE24,
0.041106583333333,0,0xE5C2,
0.041114416666667,0,0xBF24,
0.041130166666667,0,0xE5DC,
0.041138000000000,0,0xC024,
0.041168958333333,0,0x000A,
0.041176666666667,0,0x4129,
0.041193000000000,0,0xDC16,
0.041200875000000,0,0xC124,
0.041216583333333,0,0xDD24,
0.041224416666667,0,0xC224,
0.041240166666667,0,0xDF68,
0.041248041666667,0,0xC324,
0.041263750000000,0,0xE12C,
0.041271583333333,0,0xC424,
0.041287333333333,0,0xA984,
0.041295166666667,0,0xC524,
0.041310875000000,0,0xFF50,
0.041318750000000,0,0xC624,
0.041334458333333,0,0xC016,
0.041342291666667,0,0xC724,
0.041358000000000,0,0xA3A4,
0.041365875000000,0,0xC824,
0.041381583333333,0,0x9E3B,
0.041389458333333,0,0xC924,
0.041405166666667,0,0x9E3C,
0.041413041666667,0,0xCA24,
0.049083791666667,0,0x5C3F,
0.049091458333333,0,0x060F,
0.049118708333333,0,0x0004,
0.049126375000000,0,0x0311,
0.049142416666667,0,0x0A01,
0.049150291666667,0,0x8311,
0.049166166666667,0,0x0F00,
0.049174041666667,0,0x8411,
0.049189916666667,0,0x0000,
0.049197833333333,0,0x8515,
0.049213625000000,0,0x5F3F,
0.049221583333333,0,0x8611,
0.049252833333333,0,0x0004,
0.049260500000000,0,0x0315,
0.049276500000000,0,0x0A01,
0.049284416666667,0,0x8315,
0.049300250000000,0,0x0F00,
0.049308166666667,0,0x8415,
0.049324000000000,0,0x0000,
0.049331916666667,0,0x8515,
0.049347750000000,0,0x5F3F,
0.049355708333333,0,0x8615,
0.049386958333333,0,0x0004,
0.049394666666667,0,0x0319,
0.049410666666667,0,0x0A01,
0.049418583333333,0,0x8319,
0.049434416666667,0,0x0F00,
0.049442333333333,0,0x8419,
0.049458166666667,0,0x0000,
0.049466083333333,0,0x8515,
0.049481916666667,0,0x5F3F,
0.049489833333333,0,0x8619,
0.049520000000000,0,0x0004,
0.049527666666667,0,0x031D,
0.049543791666667,0,0x0A01,
0.049551666666667,0,0x831D,
0.049567500000000,0,0x0F00,
0.049575458333333,0,0x841D,
0.049591291666667,0,0x0000,
0.049599208333333,0,0x8515,
0.049615041666667,0,0x5F3F,
0.049622958333333,0,0x861D,
0.049653708333333,0,0x0004,
0.049661416666667,0,0x0311,
0.049677875000000,0,0x0A01,
0.049685791666667,0,0x8311,
0.049701625000000,0,0x0F00,
0.049709541666667,0,0x8411,
0.049725375000000,0,0x0000,
0.049733291666667,0,0x8515,
0.049749166666667,0,0x573F,
0.049757083333333,0,0x8611,
0.049788416666667,0,0x0001,
0.049796125000000,0,0x1D15,
0.049812458333333,0,0x1551,
0.049820375000000,0,0x9D15,
0.049847750000000,0,0x0003,
0.049855416666667,0,0x2419,
0.049871833333333,0,0x0048,
0.049879750000000,0,0xA415,
0.049895583333333,0,0x0040,
0.049903500000000,0,0xA515,
0.049919333333333,0,0x8000,
0.049927250000000,0,0xA615,
0.049955958333333,0,0x0005,
0.049963625000000,0,0x2D1D,
0.049979666666667,0,0xABEA,
0.049987583333333,0,0xAD15,
0.050003416666667,0,0xFFF0,
0.050011333333333,0,0xAE15,
0.050027166666667,0,0xFF76,
0.050035083333333,0,0xAF15,
0.050050916666667,0,0xFFFF,
0.050058833333333,0,0xB015,
0.050074666666667,0,0x830B,
0.050082583333333,0,0xB115,
0.050112291666667,0,0x0006,
0.050119958333333,0,0x3B11,
0.050136041666667,0,0xB3E7,
0.050143916666667,0,0xBB15,
0.050159750000000,0,0xB331,
0.050167708333333,0,0xBC15,
0.050183541666667,0,0xB2C4,
0.050191416666667,0,0xBD15,
0.050207291666667,0,0xB208,
0.050215208333333,0,0xBE15,
0.050231000000000,0,0xB202,
0.050238958333333,0,0xBF15,
0.050254791666667,0,0xB277,
0.050262708333333,0,0xC015,
0.050292708333333,0,0x000A,
0.050300375000000,0,0x4115,
0.050316625000000,0,0xC0C3,
0.050324541666667,0,0xC115,
0.050340333333333,0,0xC0C0,
0.050348291666667,0,0xC215,
0.050364125000000,0,0xC0C3,
0.050372041666667,0,0xC315,
0.050387875000000,0,0xC0C3,
0.050395791666667,0,0xC415,
0.050411625000000,0,0xC0C4,
0.050419500000000,0,0xC515,
0.050435375000000,0,0xDDCA,
0.050443250000000,0,0xC615,
0.050459083333333,0,0x83B6,
0.050467000000000,0,0xC715,
0.050482833333333,0,0xA3BE,
0.050490750000000,0,0xC815,
0.050506583333333,0,0x9E35,
0.050514500000000,0,0xC915,
0.050530333333333,0,0x9E3F,
0.050538250000000,0,0xCA15,
0.050570208333333,0,0x0004,
0.050577916666667,0,0x0329,
0.050594041666667,0,0x0A01,
0.050601875000000,0,0x8329,
0.050617625000000,0,0x0F00,
0.050625458333333,0,0x8429,
0.050641208333333,0,0x0000,
0.050649041666667,0,0x8525,
0.050664750000000,0,0x573F,
0.050672625000000,0,0x8629,
0.050702875000000,0,0x0001,
0.050710541666667,0,0x1D2D,
0.050726625000000,0,0x0055,
0.050734500000000,0,0x9D2D,
0.050762541666667,0,0x0003,
0.050770250000000,0,0x2421,
0.050786541666667,0,0x004C,
0.050794416666667,0,0xA425,
0.050810125000000,0,0x0040,
0.050817958333333,0,0xA525,
0.050833666666667,0,0x8000,
0.050841541666667,0,0xA625,
0.050870666666667,0,0x0005,
0.050878375000000,0,0x2D25,
0.050894583333333,0,0xB645,
0.050902416666667,0,0xAD25,
0.050918166666667,0,0xFFF3,
0.050926000000000,0,0xAE25,
0.050941750000000,0,0x3377,
0.050949583333333,0,0xAF25,
0.050965291666667,0,0xFFFF,
0.050973166666667,0,0xB025,
0.050988875000000,0,0x830D,
0.050996750000000,0,0xB125,
0.051028000000000,0,0x0006,
0.051035666666667,0,0x3B29,
0.051051750000000,0,0xE524,
0.051059625000000,0,0xBB25,
0.051075291666667,0,0x8000,
0.051083166666667,0,0xBC25,
0.051098875000000,0,0x8000,
0.051106750000000,0,0xBD25,
0.051122458333333,0,0x8003,
0.051130333333333,0,0xBE25,
0.051146041666667,0,0xE5C2,
0.051153916666667,0,0xBF25,
0.051169625000000,0,0xE5DB,
0.051177458333333,0,0xC025,
0.051208208333333,0,0x000A,
0.051215875000000,0,0x412D,
0.051232000000000,0,0xDC10,
0.051239833333333,0,0xC125,
0.051255541666667,0,0xDD25,
0.051263416666667,0,0xC225,
0.051279125000000,0,0xDF5F,
0.051286958333333,0,0xC325,
0.051302708333333,0,0xE12B,
0.051310541666667,0,0xC425,
0.051326291666667,0,0xA982,
0.051334125000000,0,0xC525,
0.051349833333333,0,0xFF51,
0.051357708333333,0,0xC625,
0.051373416666667,0,0xC018,
0.051381250000000,0,0xC725,
0.051397000000000,0,0xA3A3,
0.051404833333333,0,0xC825,
0.051420541666667,0,0x9E3A,
0.051428416666667,0,0xC925,
0.051444125000000,0,0x9E3C,
0.051452000000000,0,0xCA25,
0.059178791666667,0,0x6C3F,
0.059186458333333,0,0x0603,
0.059213833333333,0,0x0004,
0.059221500000000,0,0x0315,
0.059237916666667,0,0x0A01,
0.059245833333333,0,0x8315,
0.059261666666667,0,0x0F00,
0.059269583333333,0,0x8415,
0.059285416666667,0,0x0000,
0.059293333333333,0,0x8516,
0.059309208333333,0,0x6F3F,
0.059317125000000,0,0x8615,
0.059348458333333,0,0x0004,
0.059356125000000,0,0x0319,
0.059372583333333,0,0x0A01,
0.059380500000000,0,0x8319,
0.059396333333333,0,0x0F00,
0.059404250000000,0,0x8419,
0.059420083333333,0,0x0000,
0.059428041666667,0,0x8516,
0.059443875000000,0,0x6F3F,
0.059451791666667,0,0x8619,
0.059482708333333,0,0x0004,
0.059490375000000,0,0x031D,
0.059506750000000,0,0x0A01,
0.059514666666667,0,0x831D,
0.059530500000000,0,0x0F00,
0.059538416666667,0,0x841D,
0.059554291666667,0,0x0000,
0.059562166666667,0,0x8516,
0.059578041666667,0,0x6F3F,
0.059585958333333,0,0x861D,
0.059616583333333,0,0x0004,
0.059624250000000,0,0x0311,
0.059640416666667,0,0x0A01,
0.059648333333333,0,0x8311,
0.059664208333333,0,0x0F00,
0.059672125000000,0,0x8411,
0.059687958333333,0,0x0000,
0.059695875000000,0,0x8516,
0.059711708333333,0,0x6F3F,
0.059719625000000,0,0x8611,
0.059750500000000,0,0x0004,
0.059758166666667,0,0x0315,
0.059774583333333,0,0x0A01,
0.059782500000000,0,0x8315,
0.059798333333333,0,0x0F00,
0.059806250000000,0,0x8415,
0.059822083333333,0,0x0000,
0.059830000000000,0,0x8516,
0.059845833333333,0,0x673F,
0.059853791666667,0,0x8615,
0.059884250000000,0,0x0001,
0.059891916666667,0,0x1D19,
0.059908208333333,0,0x1551,
0.059916125000000,0,0x9D19,
0.059944291666667,0,0x0003,
0.059952000000000,0,0x241D,
0.059968083333333,0,0x0048,
0.059976000000000,0,0xA416,
0.059991833333333,0,0x0040,
0.059999750000000,0,0xA516,
0.060015583333333,0,0x8000,
0.060023541666667,0,0xA616,
0.060052833333333,0,0x0005,
0.060060541666667,0,0x2D11,
0.060076958333333,0,0xACF7,
0.060084875000000,0,0xAD16,
0.060100708333333,0,0xFFF0,
0.060108625000000,0,0xAE16,
0.060124458333333,0,0xFCC5,
0.060132375000000,0,0xAF16,
0.060148250000000,0,0x8000,
0.060156166666667,0,0xB016,
0.060171958333333,0,0x8300,
0.060179875000000,0,0xB116,
0.060210041666667,0,0x0006,
0.060217708333333,0,0x3B15,
0.060233833333333,0,0xB3E3,
0.060241750000000,0,0xBB16,
0.060257625000000,0,0xB331,
0.060265541666667,0,0xBC16,
0.060281375000000,0,0xB2C2,
0.060289291666667,0,0xBD16,
0.060305125000000,0,0xB203,
0.060313041666667,0,0xBE16,
0.060328875000000,0,0xB206,
0.060336791666667,0,0xBF16,
0.060352625000000,0,0xB279,
0.060360541666667,0,0xC016,
0.060391166666667,0,0x000A,
0.060398833333333,0,0x4119,
0.060414958333333,0,0xC0C2,
0.060422916666667,0,0xC116,
0.060438750000000,0,0xC0C3,
0.060446666666667,0,0xC216,
0.060462500000000,0,0xC0C5,
0.060470416666667,0,0xC316,
0.060486250000000,0,0xC0C5,
0.060494166666667,0,0xC416,
0.060510041666667,0,0xC0C3,
0.060517958333333,0,0xC516,
0.060533791666667,0,0xDDC9,
0.060541708333333,0,0xC616,
0.060557541666667,0,0x83B3,
0.060565458333333,0,0xC716,
0.060581291666667,0,0xA3C0,
0.060589208333333,0,0xC816,
0.060605041666667,0,0x9E38,
0.060612958333333,0,0xC916,
0.060628791666667,0,0x9E3E,
0.060636708333333,0,0xCA16,
0.060668250000000,0,0x0004,
0.060675916666667,0,0x032D,
0.060691916666667,0,0x0A01,
0.060699791666667,0,0x832D,
0.060715500000000,0,0x0F00,
0.060723375000000,0,0x842D,
0.060739083333333,0,0x0000,
0.060746958333333,0,0x8526,
0.060762666666667,0,0x673F,
0.060770500000000,0,0x862D,
0.060800666666667,0,0x0001,
0.060808333333333,0,0x1D21,
0.060824541666667,0,0x0055,
0.060832416666667,0,0x9D21,
0.060860125000000,0,0x0003,
0.060867791666667,0,0x2425,
0.060883958333333,0,0x004C,
0.060891833333333,0,0xA426,
0.060907583333333,0,0x0040,
0.060915416666667,0,0xA526,
0.060931125000000,0,0x8000,
0.060939000000000,0,0xA626,
0.060967250000000,0,0x0005,
0.060974916666667,0,0x2D29,
0.060991083333333,0,0xB754,
0.060998916666667,0,0xAD26,
0.061014625000000,0,0xFFF3,
0.061022500000000,0,0xAE26,
0.061038208333333,0,0x31B8,
0.061046083333333,0,0xAF26,
0.061061791666667,0,0x8000,
0.061069666666667,0,0xB026,
0.061085375000000,0,0x8301,
0.061093250000000,0,0xB126,
0.061123666666667,0,0x0006,
0.061131333333333,0,0x3B2D,
0.061147750000000,0,0xE527,
0.061155583333333,0,0xBB26,
0.061171333333333,0,0x8000,
0.061179166666667,0,0xBC26,
0.061194916666667,0,0x8001,
0.061202750000000,0,0xBD26,
0.061218500000000,0,0x8002,
0.061226333333333,0,0xBE26,
0.061242083333333,0,0xE5C7,
0.061249916666667,0,0xBF26,
0.061265666666667,0,0xE5E0,
0.061273500000000,0,0xC026,
0.061303875000000,0,0x000A,
0.061311583333333,0,0x4121,
0.061327541666667,0,0xDC0C,
0.061335416666667,0,0xC126,
0.061351125000000,0,0xDD21,
0.061358958333333,0,0xC226,
0.061374708333333,0,0xDF61,
0.061382541666667,0,0xC326,
0.061398291666667,0,0xE129,
0.061406125000000,0,0xC426,
0.061421833333333,0,0xA981,
0.061429708333333,0,0xC526,
0.061445416666667,0,0xFF48,
0.061453291666667,0,0xC626,
0.061469000000000,0,0xC013,
0.061476875000000,0,0xC726,
0.061492583333333,0,0xA3A1,
0.061500458333333,0,0xC826,
0.061516166666667,0,0x9E37,
0.061524000000000,0,0xC926,
0.061539708333333,0,0x9E3F,
0.061547583333333,0,0xCA26,
0.069309083333333,0,0x7C3F,
0.069316750000000,0,0x0607,
0.069345125000000,0,0x0004,
0.069352791666667,0,0x0319,
0.069368875000000,0,0x0A01,
0.069376791666667,0,0x8319,
0.069392625000000,0,0x0F00,
0.069400583333333,0,0x8419,
0.069416416666667,0,0x0000,
0.069424333333333,0,0x8517,
0.069440166666667,0,0x7F3F,
0.069448083333333,0,0x8619,
0.069479375000000,0,0x0004,
0.069487041666667,0,0x031D,
0.069503541666667,0,0x0A01,
0.069511458333333,0,0x831D,
0.069527291666667,0,0x0F00,
0.069535250000000,0,0x841D,
0.069551041666667,0,0x0000,
0.069559000000000,0,0x8517,
0.069574833333333,0,0x7F3F,
0.069582750000000,0,0x861D,
0.069612375000000,0,0x0004,
0.069620041666667,0,0x0311,
0.069636250000000,0,0x0A01,
0.069644166666667,0,0x8311,
0.069660000000000,0,0x0F00,
0.069667916666667,0,0x8411,
0.069683750000000,0,0x0000,
0.069691666666667,0,0x8517,
0.069707500000000,0,0x7F3F,
0.069715416666667,0,0x8611,
0.069746458333333,0,0x0004,
0.069754125000000,0,0x0315,
0.069770375000000,0,0x0A01,
0.069778291666667,0,0x8315,
0.069794125000000,0,0x0F00,
0.069802041666667,0,0x8415,
0.069817875000000,0,0x0000,
0.069825833333333,0,0x8517,
0.069841666666667,0,0x7F3F,
0.069849583333333,0,0x8615,
0.069879375000000,0,0x0004,
0.069887041666667,0,0x0319,
0.069903541666667,0,0x0A01,
0.069911458333333,0,0x8319,
0.069927291666667,0,0x0F00,
0.069935208333333,0,0x8419,
0.069951041666667,0,0x0000,
0.069958958333333,0,0x8517,
0.069974833333333,0,0x773F,
0.069982750000000,0,0x8619,
0.070013166666667,0,0x0001,
0.070020833333333,0,0x1D1D,
0.070037166666667,0,0x1551,
0.070045083333333,0,0x9D1D,
0.070073916666667,0,0x0003,
0.070081583333333,0,0x2411,
0.070097541666667,0,0x0048,
0.070105458333333,0,0xA417,
0.070121291666667,0,0x0040,
0.070129250000000,0,0xA517,
0.070145083333333,0,0x8000,
0.070153000000000,0,0xA617,
0.070182500000000,0,0x0005,
0.070190166666667,0,0x2D15,
0.070206416666667,0,0xAE04,
0.070214375000000,0,0xAD17,
0.070230208333333,0,0xFFF0,
0.070238125000000,0,0xAE17,
0.070253958333333,0,0xFA26,
0.070261875000000,0,0xAF17,
0.070277708333333,0,0xFFFF,
0.070285625000000,0,0xB017,
0.070301458333333,0,0x830D,
0.070309375000000,0,0xB117,
0.070339000000000,0,0x0006,
0.070346666666667,0,0x3B19,
0.070362833333333,0,0xB3E9,
0.070370750000000,0,0xBB17,
0.070386583333333,0,0xB333,
0.070394500000000,0,0xBC17,
0.070410375000000,0,0xB2C1,
0.070418291666667,0,0xBD17,
0.070434125000000,0,0xB206,
0.070442041666667,0,0xBE17,
0.070457875000000,0,0xB207,
0.070465791666667,0,0xBF17,
0.070481625000000,0,0xB27A,
0.070489541666667,0,0xC017,
0.070520041666667,0,0x000A,
0.070527708333333,0,0x411D,
0.070544000000000,0,0xC0C5,
0.070551916666667,0,0xC117,
0.070567750000000,0,0xC0C5,
0.070575708333333,0,0xC217,
0.070591500000000,0,0xC0C5,
0.070599416666667,0,0xC317,
0.070615291666667,0,0xC0C8,
0.070623166666667,0,0xC417,
0.070639041666667,0,0xC0C2,
0.070646916666667,0,0xC517,
0.070662791666667,0,0xDDCC,
0.070670708333333,0,0xC617,
0.070686541666667,0,0x83B2,
0.070694458333333,0,0xC717,
0.070710291666667,0,0xA3BD,
0.070718208333333,0,0xC817,
0.070734041666667,0,0x9E39,
0.070741958333333,0,0xC917,
0.070757791666667,0,0x9E41,
0.070765708333333,0,0xCA17,
0.070797583333333,0,0x0004,
0.070805250000000,0,0x0321,
0.070821291666667,0,0x0A01,
0.070829125000000,0,0x8321,
0.070844833333333,0,0x0F00,
0.070852708333333,0,0x8421,
0.070868458333333,0,0x0000,
0.070876291666667,0,0x8527,
0.070892000000000,0,0x773F,
0.070899875000000,0,0x8621,
0.070931375000000,0,0x0001,
0.070939041666667,0,0x1D25,
0.070955375000000,0,0x0055,
0.070963208333333,0,0x9D25,
0.070992125000000,0,0x0003,
0.070999791666667,0,0x2429,
0.071015791666667,0,0x004C,
0.071023625000000,0,0xA427,
0.071039333333333,0,0x0040,
0.071047208333333,0,0xA527,
0.071062916666667,0,0x8000,
0.071070750000000,0,0xA627,
0.071100041666667,0,0x0005,
0.071107750000000,0,0x2D2D,
0.071123833333333,0,0xB863,
0.071131708333333,0,0xAD27,
0.071147416666667,0,0xFFF3,
0.071155250000000,0,0xAE27,
0.071171000000000,0,0x2F78,
0.071178833333333,0,0xAF27,
0.071194541666667,0,0x8000,
0.071202416666667,0,0xB027,
0.071218166666667,0,0x8304,
0.071226000000000,0,0xB127,
0.071256208333333,0,0x0006,
0.071263875000000,0,0x3B21,
0.071280041666667,0,0xE525,
0.071287916666667,0,0xBB27,
0.071303625000000,0,0x8000,
0.071311458333333,0,0xBC27,
0.071327166666667,0,0x8000,
0.071335041666667,0,0xBD27,
0.071350791666667,0,0x8000,
0.071358625000000,0,0xBE27,
0.071374333333333,0,0xE5CB,
0.071382208333333,0,0xBF27,
0.071397916666667,0,0xE5E4,
0.071405750000000,0,0xC027,
0.071435250000000,0,0x000A,
0.071442916666667,0,0x4125,
0.071459291666667,0,0xDC0B,
0.071467166666667,0,0xC127,
0.071482875000000,0,0xDD22,
0.071490750000000,0,0xC227,
0.071506458333333,0,0xDF68,
0.071514291666667,0,0xC327,
0.071530041666667,0,0xE127,
0.071537875000000,0,0xC427,
0.071553583333333,0,0xA97F,
0.071561458333333,0,0xC527,
0.071577166666667,0,0xFF49,
0.071585041666667,0,0xC627,
0.071600750000000,0,0xC013,
0.071608625000000,0,0xC727,
0.071624333333333,0,0xA39F,
0.071632166666667,0,0xC827,
0.071647916666667,0,0x9E38,
0.071655750000000,0,0xC927,
0.071671500000000,0,0x9E3C,
0.071679333333333,0,0xCA27,
0.079059833333333,0,0x8C3F,
0.079067500000000,0,0x060B,
0.079094750000000,0,0x0004,
0.079102458333333,0,0x031D,
0.079118750000000,0,0x0A01,
0.079126708333333,0,0x831D,
0.079142541666667,0,0x0F00,
0.079150458333333,0,0x841D,
0.079166291666667,0,0x0000,
0.079174208333333,0,0x8518,
0.079190041666667,0,0x8F3F,
0.079197958333333,0,0x861D,
0.079228458333333,0,0x0004,
0.079236166666667,0,0x0311,
0.079252416666667,0,0x0A01,
0.079260333333333,0,0x8311,
0.079276166666667,0,0x0F00,
0.079284083333333,0,0x8411,
0.079299916666667,0,0x0000,
0.079307875000000,0,0x8518,
0.079323708333333,0,0x8F3F,
0.079331625000000,0,0x8611,
0.079362875000000,0,0x0004,
0.079370541666667,0,0x0315,
0.079386541666667,0,0x0A01,
0.079394458333333,0,0x8315,
0.079410291666667,0,0x0F00,
0.079418208333333,0,0x8415,
0.079434041666667,0,0x0000,
0.079441958333333,0,0x8518,
0.079457791666667,0,0x8F3F,
0.079465708333333,0,0x8615,
0.079496125000000,0,0x0004,
0.079503833333333,0,0x0319,
0.079520166666667,0,0x0A01,
0.079528083333333,0,0x8319,
0.079543916666667,0,0x0F00,
0.079551833333333,0,0x8419,
0.079567666666667,0,0x0000,
0.079575625000000,0,0x8518,
0.079591416666667,0,0x8F3F,
0.079599333333333,0,0x8619,
0.079629625000000,0,0x0004,
0.079637291666667,0,0x031D,
0.079653291666667,0,0x0A01,
0.079661208333333,0,0x831D,
0.079677041666667,0,0x0F00,
0.079684958333333,0,0x841D,
0.079700791666667,0,0x0000,
0.079708708333333,0,0x8518,
0.079724541666667,0,0x873F,
0.079732458333333,0,0x861D,
0.079763083333333,0,0x0001,
0.079770750000000,0,0x1D11,
0.079786875000000,0,0x1551,
0.079794791666667,0,0x9D11,
0.079822458333333,0,0x0003,
0.079830125000000,0,0x2415,
0.079846250000000,0,0x0048,
0.079854166666667,0,0xA418,
0.079870000000000,0,0x0040,
0.079877916666667,0,0xA518,
0.079893750000000,0,0x8000,
0.079901666666667,0,0xA618,
0.079930583333333,0,0x0005,
0.079938250000000,0,0x2D19,
0.079954583333333,0,0xAF07,
0.079962500000000,0,0xAD18,
0.079978333333333,0,0xFFF0,
0.079986250000000,0,0xAE18,
0.080002083333333,0,0xF734,
0.080010000000000,0,0xAF18,
0.080025875000000,0,0xFFFF,
0.080033750000000,0,0xB018,
0.080049583333333,0,0x830A,
0.080057500000000,0,0xB118,
0.080086833333333,0,0x0006,
0.080094500000000,0,0x3B1D,
0.080110958333333,0,0xB3E4,
0.080118875000000,0,0xBB18,
0.080134708333333,0,0xB330,
0.080142583333333,0,0xBC18,
0.080158416666667,0,0xB2C1,
0.080166375000000,0,0xBD18,
0.080182208333333,0,0xB205,
0.080190083333333,0,0xBE18,
0.080205958333333,0,0xB203,
0.080213875000000,0,0xBF18,
0.080229708333333,0,0xB278,
0.080237625000000,0,0xC018,
0.080267583333333,0,0x000A,
0.080275250000000,0,0x4111,
0.080291541666667,0,0xC0C3,
0.080299458333333,0,0xC118,
0.080315291666667,0,0xC0BF,
0.080323208333333,0,0xC218,
0.080339041666667,0,0xC0C0,
0.080346958333333,0,0xC318,
0.080362791666667,0,0xC0C4,
0.080370708333333,0,0xC418,
0.080386541666667,0,0xC0C6,
0.080394458333333,0,0xC518,
0.080410291666667,0,0xDDCA,
0.080418208333333,0,0xC618,
0.080434041666667,0,0x83B1,
0.080441958333333,0,0xC718,
0.080457791666667,0,0xA3BE,
0.080465708333333,0,0xC818,
0.080481541666667,0,0x9E37,
0.080489500000000,0,0xC918,
0.080505333333333,0,0x9E3B,
0.080513250000000,0,0xCA18,
0.080545416666667,0,0x0004,
0.080553125000000,0,0x0325,
0.080569250000000,0,0x0A01,
0.080577125000000,0,0x8325,
0.080592791666667,0,0x0F00,
0.080600666666667,0,0x8425,
0.080616375000000,0,0x0000,
0.080624250000000,0,0x8528,
0.080639958333333,0,0x873F,
0.080647791666667,0,0x8625,
0.080678166666667,0,0x0001,
0.080685875000000,0,0x1D29,
0.080701833333333,0,0x0055,
0.080709708333333,0,0x9D29,
0.080738333333333,0,0x0003,
0.080746041666667,0,0x242D,
0.080762250000000,0,0x004C,
0.080770083333333,0,0xA428,
0.080785833333333,0,0x0040,
0.080793666666667,0,0xA528,
0.080809375000000,0,0x8000,
0.080817250000000,0,0xA628,
0.080847208333333,0,0x0005,
0.080854875000000,0,0x2D21,
0.080871250000000,0,0xB968,
0.080879125000000,0,0xAD28,
0.080894833333333,0,0xFFF3,
0.080902708333333,0,0xAE28,
0.080918416666667,0,0x2D3D,
0.080926291666667,0,0xAF28,
0.080942000000000,0,0xFFFF,
0.080949875000000,0,0xB028,
0.080965583333333,0,0x830D,
0.080973416666667,0,0xB128,
0.081004416666667,0,0x0006,
0.081012083333333,0,0x3B25,
0.081028458333333,0,0xE520,
0.081036291666667,0,0xBB28,
0.081052000000000,0,0x8000,
0.081059875000000,0,0xBC28,
0.081075625000000,0,0x8000,
0.081083458333333,0,0xBD28,
0.081099166666667,0,0x8000,
0.081107041666667,0,0xBE28,
0.081122750000000,0,0xE5C3,
0.081130625000000,0,0xBF28,
0.081146333333333,0,0xE5D9,
0.081154208333333,0,0xC028,
0.081184666666667,0,0x000A,
0.081192333333333,0,0x4129,
0.081208708333333,0,0xDC0E,
0.081216541666667,0,0xC128,
0.081232250000000,0,0xDD21,
0.081240125000000,0,0xC228,
0.081255833333333,0,0xDF64,
0.081263666666667,0,0xC328,
0.081279416666667,0,0xE128,
0.081287250000000,0,0xC428,
0.081302958333333,0,0xA97E,
0.081310833333333,0,0xC528,
0.081326541666667,0,0xFF4A,
0.081334375000000,0,0xC628,
0.081350125000000,0,0xC011,
0.081358000000000,0,0xC728,
0.081373708333333,0,0xA3A2,
0.081381541666667,0,0xC828,
0.081397291666667,0,0x9E37,
0.081405166666667,0,0xC928,
0.081420833333333,0,0x9E41,
0.081428708333333,0,0xCA28,
0.089115250000000,0,0x9C3F,
0.089122916666667,0,0x060F,
0.089149500000000,0,0x0004,
0.089157208333333,0,0x0311,
0.089173250000000,0,0x0A01,
0.089181166666667,0,0x8311,
0.089197000000000,0,0x0F00,
0.089204958333333,0,0x8411,
0.089220791666667,0,0x0000,
0.089228708333333,0,0x8519,
0.089244541666667,0,0x9F3F,
0.089252458333333,0,0x8611,
0.089282916666667,0,0x0004,
0.089290625000000,0,0x0315,
0.089306916666667,0,0x0A01,
0.089314833333333,0,0x8315,
0.089330666666667,0,0x0F00,
0.089338583333333,0,0x8415,
0.089354416666667,0,0x0000,
0.089362333333333,0,0x8519,
0.089378208333333,0,0x9F3F,
0.089386125000000,0,0x8615,
0.089416458333333,0,0x0004,
0.089424166666667,0,0x0319,
0.089440583333333,0,0x0A01,
0.089448500000000,0,0x8319,
0.089464333333333,0,0x0F00,
0.089472250000000,0,0x8419,
0.089488083333333,0,0x0000,
0.089496041666667,0,0x8519,
0.089511833333333,0,0x9F3F,
0.089519791666667,0,0x8619,
0.089550000000000,0,0x0004,
0.089557666666667,0,0x031D,
0.089573708333333,0,0x0A01,
0.089581625000000,0,0x831D,
0.089597458333333,0,0x0F00,
0.089605375000000,0,0x841D,
0.089621250000000,0,0x0000,
0.089629125000000,0,0x8519,
0.089645000000000,0,0x9F3F,
0.089652916666667,0,0x861D,
0.089683333333333,0,0x0004,
0.089691000000000,0,0x0311,
0.089707333333333,0,0x0A01,
0.089715250000000,0,0x8311,
0.089731125000000,0,0x0F00,
0.089739000000000,0,0x8411,
0.089754875000000,0,0x0000,
0.089762791666667,0,0x8519,
0.089778625000000,0,0x973F,
0.089786541666667,0,0x8611,
0.089817041666667,0,0x0001,
0.089824708333333,0,0x1D15,
0.089841000000000,0,0x1551,
0.089848916666667,0,0x9D15,
0.089877250000000,0,0x0003,
0.089884958333333,0,0x2419,
0.089901375000000,0,0x0048,
0.089909291666667,0,0xA419,
0.089925125000000,0,0x0040,
0.089933041666667,0,0xA519,
0.089948875000000,0,0x8000,
0.089956791666667,0,0xA619,
0.089986666666667,0,0x0005,
0.089994333333333,0,0x2D1D,
0.090010750000000,0,0xB013,
0.090018666666667,0,0xAD19,
0.090034500000000,0,0xFFF0,
0.090042416666667,0,0xAE19,
0.090058250000000,0,0xF48B,
0.090066166666667,0,0xAF19,
0.090082000000000,0,0xFFFF,
0.090089916666667,0,0xB019,
0.090105750000000,0,0x8308,
0.090113666666667,0,0xB119,
0.090144208333333,0,0x0006,
0.090151875000000,0,0x3B11,
0.090168125000000,0,0xB3E9,
0.090176041666667,0,0xBB19,
0.090191875000000,0,0xB334,
0.090199791666667,0,0xBC19,
0.090215625000000,0,0xB2C0,
0.090223541666667,0,0xBD19,
0.090239416666667,0,0xB206,
0.090247333333333,0,0xBE19,
0.090263125000000,0,0xB203,
0.090271083333333,0,0xBF19,
0.090286916666667,0,0xB274,
0.090294791666667,0,0xC019,
0.090325291666667,0,0x000A,
0.090332958333333,0,0x4115,
0.090349250000000,0,0xC0C2,
0.090357166666667,0,0xC119,
0.090373000000000,0,0xC0C3,
0.090380916666667,0,0xC219,
0.090396750000000,0,0xC0C3,
0.090404666666667,0,0xC319,
0.090420500000000,0,0xC0C1,
0.090428416666667,0,0xC419,
0.090444250000000,0,0xC0C1,
0.090452166666667,0,0xC519,
0.090468000000000,0,0xDDCC,
0.090475916666667,0,0xC619,
0.090491750000000,0,0x83B0,
0.090499666666667,0,0xC719,
0.090515500000000,0,0xA3BE,
0.090523416666667,0,0xC819,
0.090539250000000,0,0x9E36,
0.090547166666667,0,0xC919,
0.090563041666667,0,0x9E38,
0.090570958333333,0,0xCA19,
0.090602875000000,0,0x0004,
0.090610541666667,0,0x0329,
0.090626541666667,0,0x0A01,
0.090634375000000,0,0x8329,
0.090650083333333,0,0x0F00,
0.090657958333333,0,0x8429,
0.090673666666667,0,0x0000,
0.090681541666667,0,0x8529,
0.090697250000000,0,0x973F,
0.090705125000000,0,0x8629,
0.090735125000000,0,0x0001,
0.090742833333333,0,0x1D2D,
0.090759125000000,0,0x0055,
0.090766958333333,0,0x9D2D,
0.090795833333333,0,0x0003,
0.090803500000000,0,0x2421,
0.090819541666667,0,0x004C,
0.090827416666667,0,0xA429,
0.090843125000000,0,0x0040,
0.090851000000000,0,0xA529,
0.090866708333333,0,0x8000,
0.090874541666667,0,0xA629,
0.090903625000000,0,0x0005,
0.090911291666667,0,0x2D25,
0.090927625000000,0,0xBA76,
0.090935458333333,0,0xAD29,
0.090951166666667,0,0xFFF3,
0.090959041666667,0,0xAE29,
0.090974750000000,0,0x2AFC,
0.090982625000000,0,0xAF29,
0.090998291666667,0,0xFFFF,
0.091006166666667,0,0xB029,
0.091021916666667,0,0x8301,
0.091029750000000,0,0xB129,
0.091060250000000,0,0x0006,
0.091067916666667,0,0x3B29,
0.091084250000000,0,0xE51C,
0.091092125000000,0,0xBB29,
0.091107833333333,0,0x8000,
0.091115708333333,0,0xBC29,
0.091131416666667,0,0x8005,
0.091139291666667,0,0xBD29,
0.091155000000000,0,0x8005,
0.091162833333333,0,0xBE29,
0.091178541666667,0,0xE5C1,
0.091186416666667,0,0xBF29,
0.091202125000000,0,0xE5DC,
0.091210000000000,0,0xC029,
0.091239291666667,0,0x000A,
0.091247000000000,0,0x412D,
0.091263041666667,0,0xDC0E,
0.091270875000000,0,0xC129,
0.091286625000000,0,0xDD21,
0.091294458333333,0,0xC229,
0.091310166666667,0,0xDF64,
0.091318041666667,0,0xC329,
0.091333750000000,0,0xE128,
0.091341625000000,0,0xC429,
0.091357333333333,0,0xA980,
0.091365166666667,0,0xC529,
0.091380875000000,0,0xFF4C,
0.091388750000000,0,0xC629,
0.091404458333333,0,0xC015,
0.091412291666667,0,0xC729,
0.091428041666667,0,0xA3A1,
0.091435875000000,0,0xC829,
0.091451625000000,0,0x9E39,
0.091459458333333,0,0xC929,
0.091475208333333,0,0x9E40,
0.091483041666667,0,0xCA29,
0.099072750000000,0,0xAC3F,
0.099080458333333,0,0x0603,
0.099107541666667,0,0x0004,
0.099115208333333,0,0x0315,
0.099131291666667,0,0x0A01,
0.099139166666667,0,0x8315,
0.099155000000000,0,0x0F00,
0.099162958333333,0,0x8415,
0.099178791666667,0,0x0000,
0.099186708333333,0,0x851A,
0.099202541666667,0,0xAF3F,
0.099210458333333,0,0x8615,
0.099241416666667,0,0x0004,
0.099249083333333,0,0x0319,
0.099265416666667,0,0x0A01,
0.099273333333333,0,0x8319,
0.099289208333333,0,0x0F00,
0.099297125000000,0,0x8419,
0.099312958333333,0,0x0000,
0.099320875000000,0,0x851A,
0.099336708333333,0,0xAF3F,
0.099344625000000,0,0x8619,
0.099375208333333,0,0x0004,
0.099382916666667,0,0x031D,
0.099399083333333,0,0x0A01,
0.099407000000000,0,0x831D,
0.099422875000000,0,0x0F00,
0.099430791666667,0,0x841D,
0.099446625000000,0,0x0000,
0.099454541666667,0,0x851A,
0.099470375000000,0,0xAF3F,
0.099478333333333,0,0x861D,
0.099509250000000,0,0x0004,
0.099516916666667,0,0x0311,
0.099533291666667,0,0x0A01,
0.099541208333333,0,0x8311,
0.099557041666667,0,0x0F00,
0.099564916666667,0,0x8411,
0.099580750000000,0,0x0000,
0.099588708333333,0,0x851A,
0.099604541666667,0,0xAF3F,
0.099612458333333,0,0x8611,
0.099643666666667,0,0x0004,
0.099651375000000,0,0x0315,
0.099667375000000,0,0x0A01,
0.099675291666667,0,0x8315,
0.099691083333333,0,0x0F00,
0.099699041666667,0,0x8415,
0.099714875000000,0,0x0000,
0.099722750000000,0,0x851A,
0.099738625000000,0,0xA73F,
0.099746500000000,0,0x8615,
0.099776875000000,0,0x0001,
0.099784541666667,0,0x1D19,
0.099800916666667,0,0x1551,
0.099808833333333,0,0x9D19,
0.099837125000000,0,0x0003,
0.099844791666667,0,0x241D,
0.099860791666667,0,0x0048,
0.099868708333333,0,0xA41A,
0.099884583333333,0,0x0040,
0.099892458333333,0,0xA51A,
0.099908291666667,0,0x8000,
0.099916250000000,0,0xA61A,
0.099944958333333,0,0x0005,
0.099952625000000,0,0x2D11,
0.099968666666667,0,0xB11C,
0.099976583333333,0,0xAD1A,
0.099992416666667,0,0xFFF0,
0.100000333333333,0,0xAE1A,
0.100016166666667,0,0xF188,
0.100024083333333,0,0xAF1A,
0.100039958333333,0,0xFFFF,
0.100047875000000,0,0xB01A,
0.100063708333333,0,0x830A,
0.100071625000000,0,0xB11A,
0.100101833333333,0,0x0006,
0.100109500000000,0,0x3B15,
0.100125583333333,0,0xB3E4,
0.100133500000000,0,0xBB1A,
0.100149333333333,0,0xB32F,
0.100157250000000,0,0xBC1A,
0.100173125000000,0,0xB2C2,
0.100181041666667,0,0xBD1A,
0.100196875000000,0,0xB205,
0.100204791666667,0,0xBE1A,
0.100220625000000,0,0xB204,
0.100228541666667,0,0xBF1A,
0.100244333333333,0,0xB275,
0.100252291666667,0,0xC01A,
0.100282625000000,0,0x000A,
0.100290291666667,0,0x4119,
0.100306708333333,0,0xC0C4,
0.100314625000000,0,0xC11A,
0.100330458333333,0,0xC0C6,
0.100338375000000,0,0xC21A,
0.100354208333333,0,0xC0C4,
0.100362125000000,0,0xC31A,
0.100377958333333,0,0xC0C5,
0.100385875000000,0,0xC41A,
0.100401708333333,0,0xC0C4,
0.100409625000000,0,0xC51A,
0.100425500000000,0,0xDDC8,
0.100433416666667,0,0xC61A,
0.100449250000000,0,0x83B3,
0.100457166666667,0,0xC71A,
0.100473000000000,0,0xA3BE,
0.100480916666667,0,0xC81A,
0.100496791666667,0,0x9E39,
0.100504666666667,0,0xC91A,
0.100520541666667,0,0x9E3B,
0.100528416666667,0,0xCA1A,
0.100560458333333,0,0x0004,
0.100568125000000,0,0x032D,
0.100584500000000,0,0x0A01,
0.100592375000000,0,0x832D,
0.100608083333333,0,0x0F00,
0.100615916666667,0,0x842D,
0.100631625000000,0,0x0000,
0.100639500000000,0,0x852A,
0.100655208333333,0,0xA73F,
0.100663083333333,0,0x862D,
0.100693375000000,0,0x0001,
0.100701083333333,0,0x1D21,
0.100717083333333,0,0x0055,
0.100724958333333,0,0x9D21,
0.100753250000000,0,0x0003,
0.100760958333333,0,0x2425,
0.100777000000000,0,0x004C,
0.100784875000000,0,0xA42A,
0.100800583333333,0,0x0040,
0.100808458333333,0,0xA52A,
0.100824166666667,0,0x8000,
0.100832041666667,0,0xA62A,
0.100860875000000,0,0x0005,
0.100868541666667,0,0x2D29,
0.100884583333333,0,0xBB80,
0.100892458333333,0,0xAD2A,
0.100908166666667,0,0xFFF3,
0.100916041666667,0,0xAE2A,
0.100931750000000,0,0x288E,
0.100939625000000,0,0xAF2A,
0.100955333333333,0,0x8000,
0.100963166666667,0,0xB02A,
0.100978916666667,0,0x8306,
0.100986750000000,0,0xB12A,
0.101017958333333,0,0x0006,
0.101025666666667,0,0x3B2D,
0.101041791666667,0,0xE521,
0.101049625000000,0,0xBB2A,
0.101065333333333,0,0x8000,
0.101073208333333,0,0xBC2A,
0.101088916666667,0,0x8000,
0.101096791666667,0,0xBD2A,
0.101112500000000,0,0x8000,
0.101120375000000,0,0xBE2A,
0.101136083333333,0,0xE5C3,
0.101143958333333,0,0xBF2A,
0.101159666666667,0,0xE5DF,
0.101167500000000,0,0xC02A,
0.101197625000000,0,0x000A,
0.101205291666667,0,0x4121,
0.101221541666667,0,0xDC0E,
0.101229416666667,0,0xC12A,
0.101245125000000,0,0xDD24,
0.101253000000000,0,0xC22A,
0.101268708333333,0,0xDF60,
0.101276583333333,0,0xC32A,
0.101292291666667,0,0xE127,
0.101300125000000,0,0xC42A,
0.101315875000000,0,0xA97F,
0.101323708333333,0,0xC52A,
0.101339416666667,0,0xFF4D,
0.101347291666667,0,0xC62A,
0.101363000000000,0,0xC012,
0.101370875000000,0,0xC72A,
0.101386583333333,0,0xA3A1,
0.101394458333333,0,0xC82A,
0.101410166666667,0,0x9E35,
0.101418000000000,0,0xC92A,
0.101433750000000,0,0x9E3F,
0.101441583333333,0,0xCA2A,
0.109090875000000,0,0xBC3F,
0.109098541666667,0,0x0607,
0.109126500000000,0,0x0004,
0.109134166666667,0,0x0319,
0.109150291666667,0,0x0A01,
0.109158250000000,0,0x8319,
0.109174083333333,0,0x0F00,
0.109182000000000,0,0x8419,
0.109197833333333,0,0x0000,
0.109205750000000,0,0x851B,
0.109221625000000,0,0xBF3F,
0.109229541666667,0,0x8619,
0.109260875000000,0,0x0004,
0.109268583333333,0,0x031D,
0.109284958333333,0,0x0A01,
0.109292875000000,0,0x831D,
0.109308708333333,0,0x0F00,
0.109316666666667,0,0x841D,
0.109332500000000,0,0x0000,
0.109340416666667,0,0x851B,
0.109356250000000,0,0xBF3F,
0.109364166666667,0,0x861D,
0.109394833333333,0,0x0004,
0.109402500000000,0,0x0311,
0.109418625000000,0,0x0A01,
0.109426541666667,0,0x8311,
0.109442416666667,0,0x0F00,
0.109450333333333,0,0x8411,
0.109466166666667,0,0x0000,
0.109474083333333,0,0x851B,
0.109489958333333,0,0xBF3F,
0.109497875000000,0,0x8611,
0.109528125000000,0,0x0004,
0.109535833333333,0,0x0315,
0.109551791666667,0,0x0A01,
0.109559750000000,0,0x8315,
0.109575583333333,0,0x0F00,
0.109583500000000,0,0x8415,
0.109599333333333,0,0x0000,
0.109607250000000,0,0x851B,
0.109623083333333,0,0xBF3F,
0.109631000000000,0,0x8615,
0.109661416666667,0,0x0004,
0.109669083333333,0,0x0319,
0.109685458333333,0,0x0A01,
0.109693375000000,0,0x8319,
0.109709166666667,0,0x0F00,
0.109717083333333,0,0x8419,
0.109732916666667,0,0x0000,
0.109740833333333,0,0x851B,
0.109756666666667,0,0xB73F,
0.109764625000000,0,0x8619,
0.109795333333333,0,0x0001,
0.109803000000000,0,0x1D1D,
0.109819041666667,0,0x1551,
0.109826958333333,0,0x9D1D,
0.109855083333333,0,0x0003,
0.109862750000000,0,0x2411,
0.109878916666667,0,0x0048,
0.109886833333333,0,0xA41B,
0.109902666666667,0,0x0040,
0.109910583333333,0,0xA51B,
0.109926416666667,0,0x8000,
0.109934333333333,0,0xA61B,
0.109962791666667,0,0x0005,
0.109970500000000,0,0x2D15,
0.109986791666667,0,0xB226,
0.109994708333333,0,0xAD1B,
0.110010541666667,0,0xFFF0,
0.110018458333333,0,0xAE1B,
0.110034250000000,0,0xEEE7,
0.110042208333333,0,0xAF1B,
0.110058041666667,0,0xFFFF,
0.110065958333333,0,0xB01B,
0.110081791666667,0,0x8307,
0.110089708333333,0,0xB11B,
0.110119333333333,0,0x0006,
0.110127041666667,0,0x3B19,
0.110143166666667,0,0xB3E6,
0.110151083333333,0,0xBB1B,
0.110166916666667,0,0xB335,
0.110174833333333,0,0xBC1B,
0.110190666666667,0,0xB2C2,
0.110198583333333,0,0xBD1B,
0.110214458333333,0,0xB205,
0.110222375000000,0,0xBE1B,
0.110238208333333,0,0xB201,
0.110246125000000,0,0xBF1B,
0.110261958333333,0,0xB275,
0.110269875000000,0,0xC01B,
0.110300125000000,0,0x000A,
0.110307833333333,0,0x411D,
0.110323833333333,0,0xC0C6,
0.110331750000000,0,0xC11B,
0.110347583333333,0,0xC0C6,
0.110355500000000,0,0xC21B,
0.110371333333333,0,0xC0C8,
0.110379250000000,0,0xC31B,
0.110395083333333,0,0xC0C6,
0.110403000000000,0,0xC41B,
0.110418833333333,0,0xC0C8,
0.110426791666667,0,0xC51B,
0.110442625000000,0,0xDDCD,
0.110450541666667,0,0xC61B,
0.110466375000000,0,0x83B1,
0.110474291666667,0,0xC71B,
0.110490125000000,0,0xA3BB,
0.110498041666667,0,0xC81B,
0.110513875000000,0,0x9E37,
0.110521791666667,0,0xC91B,
0.110537625000000,0,0x9E3C,
0.110545541666667,0,0xCA1B,
0.110578458333333,0,0x0004,
0.110586125000000,0,0x0321,
0.110602416666667,0,0x0A01,
0.110610291666667,0,0x8321,
0.110626000000000,0,0x0F00,
0.110633875000000,0,0x8421,
0.110649583333333,0,0x0000,
0.110657458333333,0,0x852B,
0.110673166666667,0,0xB73F,
0.110681000000000,0,0x8621,
0.110711916666667,0,0x0001,
0.110719625000000,0,0x1D25,
0.110736041666667,0,0x0055,
0.110743875000000,0,0x9D25,
0.110771500000000,0,0x0003,
0.110779208333333,0,0x2429,
0.110795458333333,0,0x004C,
0.110803291666667,0,0xA42B,
0.110819041666667,0,0x0040,
0.110826875000000,0,0xA52B,
0.110842625000000,0,0x8000,
0.110850500000000,0,0xA62B,
0.110879791666667,0,0x0005,
0.110887500000000,0,0x2D2D,
0.110903500000000,0,0xBC8D,
0.110911375000000,0,0xAD2B,
0.110927083333333,0,0xFFF3,
0.110934958333333,0,0xAE2B,
0.110950666666667,0,0x25DF,
0.110958541666667,0,0xAF2B,
0.110974208333333,0,0xFFFF,
0.110982083333333,0,0xB02B,
0.110997791666667,0,0x830E,
0.111005666666667,0,0xB12B,
0.111036333333333,0,0x0006,
0.111044000000000,0,0x3B21,
0.111060208333333,0,0xE522,
0.111068041666667,0,0xBB2B,
0.111083750000000,0,0x8000,
0.111091625000000,0,0xBC2B,
0.111107333333333,0,0x8001,
0.111115208333333,0,0xBD2B,
0.111130916666667,0,0x8002,
0.111138750000000,0,0xBE2B,
0.111154458333333,0,0xE5C4,
0.111162333333333,0,0xBF2B,
0.111178083333333,0,0xE5E0,
0.111185916666667,0,0xC02B,
0.111216458333333,0,0x000A,
0.111224125000000,0,0x4125,
0.111240416666667,0,0xDC0F,
0.111248291666667,0,0xC12B,
0.111264000000000,0,0xDD25,
0.111271875000000,0,0xC22B,
0.111287583333333,0,0xDF62,
0.111295458333333,0,0xC32B,
0.111311166666667,0,0xE128,
0.111319041666667,0,0xC42B,
0.111334750000000,0,0xA982,
0.111342583333333,0,0xC52B,
0.111358333333333,0,0xFF4B,
0.111366166666667,0,0xC62B,
0.111381916666667,0,0xC016,
0.111389750000000,0,0xC72B,
0.111405458333333,0,0xA3A4,
0.111413333333333,0,0xC82B,
0.111429041666667,0,0x9E36,
0.111436916666667,0,0xC92B,
0.111452625000000,0,0x9E3B,
0.111460458333333,0,0xCA2B,
0.119220458333333,0,0xCC3F,
0.119228125000000,0,0x060B,
0.119256125000000,0,0x0004,
0.119263833333333,0,0x031D,
0.119280125000000,0,0x0A01,
0.119288041666667,0,0x831D,
0.119303916666667,0,0x0F00,
0.119311833333333,0,0x841D,
0.119327666666667,0,0x0000,
0.119335583333333,0,0x851C,
0.119351416666667,0,0xCF3F,
0.119359333333333,0,0x861D,
0.119391500000000,0,0x0004,
0.119399208333333,0,0x0311,
0.119415291666667,0,0x0A01,
0.119423208333333,0,0x8311,
0.119439041666667,0,0x0F00,
0.119446958333333,0,0x8411,
0.119462791666667,0,0x0000,
0.119470750000000,0,0x851C,
0.119486583333333,0,0xCF3F,
0.119494500000000,0,0x8611,
0.119525083333333,0,0x0004,
0.119532791666667,0,0x0315,
0.119548958333333,0,0x0A01,
0.119556875000000,0,0x8315,
0.119572708333333,0,0x0F00,
0.119580625000000,0,0x8415,
0.119596458333333,0,0x0000,
0.119604375000000,0,0x851C,
0.119620208333333,0,0xCF3F,
0.119628125000000,0,0x8615,
0.119658791666667,0,0x0004,
0.119666458333333,0,0x0319,
0.119682500000000,0,0x0A01,
0.119690458333333,0,0x8319,
0.119706291666667,0,0x0F00,
0.119714166666667,0,0x8419,
0.119730041666667,0,0x0000,
0.119737916666667,0,0x851C,
0.119753791666667,0,0xCF3F,
0.119761708333333,0,0x8619,
0.119792500000000,0,0x0004,
0.119800166666667,0,0x031D,
0.119816583333333,0,0x0A01,
0.119824500000000,0,0x831D,
0.119840333333333,0,0x0F00,
0.119848250000000,0,0x841D,
0.119864083333333,0,0x0000,
0.119872000000000,0,0x851C,
0.119887833333333,0,0xC73F,
0.119895750000000,0,0x861D,
0.119927000000000,0,0x0001,
0.119934666666667,0,0x1D11,
0.119950666666667,0,0x1551,
0.119958583333333,0,0x9D11,
0.119986750000000,0,0x0003,
0.119994416666667,0,0x2415,
0.120010541666667,0,0x0048,
0.120018458333333,0,0xA41C,
0.120034291666667,0,0x0040,
0.120042208333333,0,0xA51C,
0.120058041666667,0,0x8000,
0.120065958333333,0,0xA61C,
0.120094750000000,0,0x0005,
0.120102458333333,0,0x2D19,
0.120118416666667,0,0xB333,
0.120126333333333,0,0xAD1C,
0.120142166666667,0,0xFFF0,
0.120150083333333,0,0xAE1C,
0.120165916666667,0,0xEC65,
0.120173833333333,0,0xAF1C,
0.120189666666667,0,0x8000,
0.120197583333333,0,0xB01C,
0.120213416666667,0,0x8300,
0.120221333333333,0,0xB11C,
0.120250708333333,0,0x0006,
0.120258416666667,0,0x3B1D,
0.120274791666667,0,0xB3E8,
0.120282708333333,0,0xBB1C,
0.120298541666667,0,0xB334,
0.120306458333333,0,0xBC1C,
0.120322291666667,0,0xB2C4,
0.120330208333333,0,0xBD1C,
0.120346041666667,0,0xB205,
0.120353958333333,0,0xBE1C,
0.120369791666667,0,0xB209,
0.120377708333333,0,0xBF1C,
0.120393541666667,0,0xB27A,
0.120401458333333,0,0xC01C,
0.120431541666667,0,0x000A,
0.120439250000000,0,0x4111,
0.120455375000000,0,0xC0C6,
0.120463291666667,0,0xC11C,
0.120479083333333,0,0xC0C8,
0.120487000000000,0,0xC21C,
0.120502833333333,0,0xC0C4,
0.120510750000000,0,0xC31C,
0.120526583333333,0,0xC0C6,
0.120534500000000,0,0xC41C,
0.120550333333333,0,0xC0C9,
0.120558208333333,0,0xC51C,
0.120574041666667,0,0xDDC9,
0.120581958333333,0,0xC61C,
0.120597791666667,0,0x83B1,
0.120605708333333,0,0xC71C,
0.120621541666667,0,0xA3BF,
0.120629458333333,0,0xC81C,
0.120645291666667,0,0x9E3D,
0.120653208333333,0,0xC91C,
0.120669041666667,0,0x9E3A,
0.120676958333333,0,0xCA1C,
0.120709416666667,0,0x0004,
0.120717083333333,0,0x0325,
0.120733250000000,0,0x0A01,
0.120741125000000,0,0x8325,
0.120756833333333,0,0x0F00,
0.120764708333333,0,0x8425,
0.120780416666667,0,0x0000,
0.120788250000000,0,0x852C,
0.120804000000000,0,0xC73F,
0.120811833333333,0,0x8625,
0.120842333333333,0,0x0001,
0.120850000000000,0,0x1D29,
0.120866333333333,0,0x0055,
0.120874208333333,0,0x9D29,
0.120902333333333,0,0x0003,
0.120910000000000,0,0x242D,
0.120926250000000,0,0x004C,
0.120934125000000,0,0xA42C,
0.120949833333333,0,0x0040,
0.120957708333333,0,0xA52C,
0.120973375000000,0,0x8000,
0.120981250000000,0,0xA62C,
0.121010166666667,0,0x0005,
0.121017833333333,0,0x2D21,
0.121033791666667,0,0xBD9C,
0.121041666666667,0,0xAD2C,
0.121057375000000,0,0xFFF3,
0.121065250000000,0,0xAE2C,
0.121080958333333,0,0x2366,
0.121088791666667,0,0xAF2C,
0.121104500000000,0,0xFFFF,
0.121112375000000,0,0xB02C,
0.121128083333333,0,0x830A,
0.121135916666667,0,0xB12C,
0.121165916666667,0,0x0006,
0.121173583333333,0,0x3B25,
0.121189958333333,0,0xE52A,
0.121197791666667,0,0xBB2C,
0.121213500000000,0,0x8000,
0.121221375000000,0,0xBC2C,
0.121237083333333,0,0x8000,
0.121244958333333,0,0xBD2C,
0.121260666666667,0,0x8000,
0.121268541666667,0,0xBE2C,
0.121284208333333,0,0xE5C8,
0.121292083333333,0,0xBF2C,
0.121307791666667,0,0xE5E0,
0.121315666666667,0,0xC02C,
0.121345750000000,0,0x000A,
0.121353458333333,0,0x4129,
0.121369666666667,0,0xDC0E,
0.121377541666667,0,0xC12C,
0.121393250000000,0,0xDD24,
0.121401083333333,0,0xC22C,
0.121416833333333,0,0xDF63,
0.121424708333333,0,0xC32C,
0.121440416666667,0,0xE126,
0.121448250000000,0,0xC42C,
0.121463958333333,0,0xA980,
0.121471833333333,0,0xC52C,
0.121487541666667,0,0xFF48,
0.121495375000000,0,0xC62C,
0.121511125000000,0,0xC014,
0.121518958333333,0,0xC72C,
0.121534666666667,0,0xA3A5,
0.121542541666667,0,0xC82C,
0.121558250000000,0,0x9E38,
0.121566125000000,0,0xC92C,
0.121581833333333,0,0x9E3E,
0.121589666666667,0,0xCA2C,
0.129068166666667,0,0xDC3F,
0.129075875000000,0,0x060F,
0.129103333333333,0,0x0004,
0.129111000000000,0,0x0311,
0.129127000000000,0,0x0A01,
0.129134916666667,0,0x8311,
0.129150750000000,0,0x0F00,
0.129158708333333,0,0x8411,
0.129174541666667,0,0x0000,
0.129182458333333,0,0x851D,
0.129198291666667,0,0xDF3F,
0.129206208333333,0,0x8611,
0.129237416666667,0,0x0004,
0.129245125000000,0,0x0315,
0.129261166666667,0,0x0A01,
0.129269083333333,0,0x8315,
0.129284916666667,0,0x0F00,
0.129292833333333,0,0x8415,
0.129308708333333,0,0x0000,
0.129316583333333,0,0x851D,
0.129332458333333,0,0xDF3F,
0.129340375000000,0,0x8615,
0.129371166666667,0,0x0004,
0.129378875000000,0,0x0319,
0.129394833333333,0,0x0A01,
0.129402750000000,0,0x8319,
0.129418625000000,0,0x0F00,
0.129426541666667,0,0x8419,
0.129442375000000,0,0x0000,
0.129450291666667,0,0x851D,
0.129466166666667,0,0xDF3F,
0.129474083333333,0,0x8619,
0.129505000000000,0,0x0004,
0.129512666666667,0,0x031D,
0.129529000000000,0,0x0A01,
0.129536958333333,0,0x831D,
0.129552791666667,0,0x0F00,
0.129560708333333,0,0x841D,
0.129576541666667,0,0x0000,
0.129584458333333,0,0x851D,
0.129600333333333,0,0xDF3F,
0.129608208333333,0,0x861D,
0.129638166666667,0,0x0004,
0.129645833333333,0,0x0311,
0.129662166666667,0,0x0A01,
0.129670125000000,0,0x8311,
0.129685958333333,0,0x0F00,
0.129693875000000,0,0x8411,
0.129709708333333,0,0x0000,
0.129717625000000,0,0x851D,
0.129733458333333,0,0xD73F,
0.129741375000000,0,0x8611,
0.129771958333333,0,0x0001,
0.129779625000000,0,0x1D15,
0.129795833333333,0,0x1551,
0.129803750000000,0,0x9D15,
0.129831375000000,0,0x0003,
0.129839041666667,0,0x2419,
0.129855250000000,0,0x0048,
0.129863125000000,0,0xA41D,
0.129879000000000,0,0x0040,
0.129886916666667,0,0xA51D,
0.129902750000000,0,0x8000,
0.129910666666667,0,0xA61D,
0.129940250000000,0,0x0005,
0.129947916666667,0,0x2D1D,
0.129964125000000,0,0xB439,
0.129972041666667,0,0xAD1D,
0.129987875000000,0,0xFFF0,
0.129995791666667,0,0xAE1D,
0.130011625000000,0,0xE9B7,
0.130019541666667,0,0xAF1D,
0.130035375000000,0,0x8000,
0.130043291666667,0,0xB01D,
0.130059125000000,0,0x8300,
0.130067041666667,0,0xB11D,
0.130097166666667,0,0x0006,
0.130104833333333,0,0x3B11,
0.130121000000000,0,0xB3E4,
0.130128916666667,0,0xBB1D,
0.130144750000000,0,0xB32F,
0.130152666666667,0,0xBC1D,
0.130168500000000,0,0xB2C0,
0.130176416666667,0,0xBD1D,
0.130192250000000,0,0xB205,
0.130200166666667,0,0xBE1D,
0.130216000000000,0,0xB206,
0.130223958333333,0,0xBF1D,
0.130239791666667,0,0xB276,
0.130247708333333,0,0xC01D,
0.130278166666667,0,0x000A,
0.130285833333333,0,0x4115,
0.130302166666667,0,0xC0C7,
0.130310083333333,0,0xC11D,
0.130325916666667,0,0xC0C7,
0.130333833333333,0,0xC21D,
0.130349708333333,0,0xC0C4,
0.130357625000000,0,0xC31D,
0.130373458333333,0,0xC0C5,
0.130381375000000,0,0xC41D,
0.130397208333333,0,0xC0C6,
0.130405125000000,0,0xC51D,
0.130420958333333,0,0xDDCC,
0.130428875000000,0,0xC61D,
0.130444708333333,0,0x83B4,
0.130452666666667,0,0xC71D,
0.130468500000000,0,0xA3BF,
0.130476416666667,0,0xC81D,
0.130492250000000,0,0x9E38,
0.130500166666667,0,0xC91D,
0.130516000000000,0,0x9E3B,
0.130523916666667,0,0xCA1D,
0.130555333333333,0,0x0004,
0.130563041666667,0,0x0329,
0.130579333333333,0,0x0A01,
0.130587208333333,0,0x8329,
0.130602916666667,0,0x0F00,
0.130610791666667,0,0x8429,
0.130626500000000,0,0x0000,
0.130634333333333,0,0x852D,
0.130650041666667,0,0xD73F,
0.130657916666667,0,0x8629,
0.130687958333333,0,0x0001,
0.130695666666667,0,0x1D2D,
0.130711958333333,0,0x0055,
0.130719791666667,0,0x9D2D,
0.130748041666667,0,0x0003,
0.130755708333333,0,0x2421,
0.130771833333333,0,0x004C,
0.130779708333333,0,0xA42D,
0.130795416666667,0,0x0040,
0.130803291666667,0,0xA52D,
0.130819000000000,0,0x8000,
0.130826833333333,0,0xA62D,
0.130855708333333,0,0x0005,
0.130863375000000,0,0x2D25,
0.130879375000000,0,0xBEA4,
0.130887250000000,0,0xAD2D,
0.130902958333333,0,0xFFF3,
0.130910833333333,0,0xAE2D,
0.130926541666667,0,0x20BD,
0.130934416666667,0,0xAF2D,
0.130950125000000,0,0xFFFF,
0.130957958333333,0,0xB02D,
0.130973666666667,0,0x8302,
0.130981541666667,0,0xB12D,
0.131011166666667,0,0x0006,
0.131018875000000,0,0x3B29,
0.131035083333333,0,0xE527,
0.131042916666667,0,0xBB2D,
0.131058625000000,0,0x8002,
0.131066500000000,0,0xBC2D,
0.131082208333333,0,0x8000,
0.131090083333333,0,0xBD2D,
0.131105791666667,0,0x8000,
0.131113625000000,0,0xBE2D,
0.131129333333333,0,0xE5C6,
0.131137208333333,0,0xBF2D,
0.131152916666667,0,0xE5E4,
0.131160750000000,0,0xC02D,
0.131191333333333,0,0x000A,
0.131199041666667,0,0x412D,
0.131215291666667,0,0xDC11,
0.131223125000000,0,0xC12D,
0.131238833333333,0,0xDD25,
0.131246708333333,0,0xC22D,
0.131262416666667,0,0xDF68,
0.131270291666667,0,0xC32D,
0.131286000000000,0,0xE12B,
0.131293875000000,0,0xC42D,
0.131309583333333,0,0xA982,
0.131317416666667,0,0xC52D,
0.131333125000000,0,0xFF4F,
0.131341000000000,0,0xC62D,
0.131356708333333,0,0xC014,
0.131364583333333,0,0xC72D,
0.131380291666667,0,0xA3A2,
0.131388125000000,0,0xC82D,
0.131403875000000,0,0x9E3A,
0.131411750000000,0,0xC92D,
0.131427416666667,0,0x9E3D,
0.131435291666667,0,0xCA2D,
0.139065583333333,0,0xEC3F,
0.139073250000000,0,0x0603,
0.139100583333333,0,0x0004,
0.139108250000000,0,0x0315,
0.139124500000000,0,0x0A01,
0.139132416666667,0,0x8315,
0.139148250000000,0,0x0F00,
0.139156166666667,0,0x8415,
0.139172000000000,0,0x0000,
0.139179916666667,0,0x851E,
0.139195750000000,0,0xEF3F,
0.139203708333333,0,0x8615,
0.139235125000000,0,0x0004,
0.139242833333333,0,0x0319,
0.139259125000000,0,0x0A01,
0.139267041666667,0,0x8319,
0.139282875000000,0,0x0F00,
0.139290833333333,0,0x8419,
0.139306625000000,0,0x0000,
0.139314583333333,0,0x851E,
0.139330416666667,0,0xEF3F,
0.139338333333333,0,0x8619,
0.139369208333333,0,0x0004,
0.139376875000000,0,0x031D,
0.139393250000000,0,0x0A01,
0.139401166666667,0,0x831D,
0.139417000000000,0,0x0F00,
0.139424916666667,0,0x841D,
0.139440750000000,0,0x0000,
0.139448666666667,0,0x851E,
0.139464500000000,0,0xEF3F,
0.139472458333333,0,0x861D,
0.139503208333333,0,0x0004,
0.139510916666667,0,0x0311,
0.139527375000000,0,0x0A01,
0.139535291666667,0,0x8311,
0.139551125000000,0,0x0F00,
0.139559041666667,0,0x8411,
0.139574875000000,0,0x0000,
0.139582791666667,0,0x851E,
0.139598625000000,0,0xEF3F,
0.139606541666667,0,0x8611,
0.139636833333333,0,0x0004,
0.139644541666667,0,0x0315,
0.139660500000000,0,0x0A01,
0.139668416666667,0,0x8315,
0.139684208333333,0,0x0F00,
0.139692125000000,0,0x8415,
0.139707958333333,0,0x0000,
0.139715875000000,0,0x851E,
0.139731708333333,0,0xE73F,
0.139739625000000,0,0x8615,
0.139770375000000,0,0x0001,
0.139778041666667,0,0x1D19,
0.139794041666667,0,0x1551,
0.139802000000000,0,0x9D19,
0.139830041666667,0,0x0003,
0.139837708333333,0,0x241D,
0.139853916666667,0,0x0048,
0.139861833333333,0,0xA41E,
0.139877708333333,0,0x0040,
0.139885583333333,0,0xA51E,
0.139901416666667,0,0x8000,
0.139909333333333,0,0xA61E,
0.139938625000000,0,0x0005,
0.139946333333333,0,0x2D11,
0.139962291666667,0,0xB543,
0.139970208333333,0,0xAD1E,
0.139986041666667,0,0xFFF0,
0.139993958333333,0,0xAE1E,
0.140009791666667,0,0xE63E,
0.140017708333333,0,0xAF1E,
0.140033541666667,0,0xFFFF,
0.140041458333333,0,0xB01E,
0.140057291666667,0,0x830E,
0.140065208333333,0,0xB11E,
0.140094791666667,0,0x0006,
0.140102458333333,0,0x3B15,
0.140118625000000,0,0xB3E0,
0.140126583333333,0,0xBB1E,
0.140142375000000,0,0xB328,
0.140150333333333,0,0xBC1E,
0.140166125000000,0,0xB2C2,
0.140174041666667,0,0xBD1E,
0.140189875000000,0,0xB204,
0.140197833333333,0,0xBE1E,
0.140213666666667,0,0xB205,
0.140221583333333,0,0xBF1E,
0.140237416666667,0,0xB279,
0.140245333333333,0,0xC01E,
0.140275500000000,0,0x000A,
0.140283166666667,0,0x4119,
0.140299208333333,0,0xC0C5,
0.140307125000000,0,0xC11E,
0.140322958333333,0,0xC0C3,
0.140330875000000,0,0xC21E,
0.140346708333333,0,0xC0C7,
0.140354625000000,0,0xC31E,
0.140370500000000,0,0xC0C8,
0.140378375000000,0,0xC41E,
0.140394250000000,0,0xC0C7,
0.140402166666667,0,0xC51E,
0.140418000000000,0,0xDDC9,
0.140425916666667,0,0xC61E,
0.140441750000000,0,0x83B4,
0.140449666666667,0,0xC71E,
0.140465500000000,0,0xA3BE,
0.140473416666667,0,0xC81E,
0.140489250000000,0,0x9E39,
0.140497166666667,0,0xC91E,
0.140513000000000,0,0x9E3D,
0.140520916666667,0,0xCA1E,
0.140552625000000,0,0x0004,
0.140560291666667,0,0x032D,
0.140576500000000,0,0x0A01,
0.140584375000000,0,0x832D,
0.140600083333333,0,0x0F00,
0.140607916666667,0,0x842D,
0.140623625000000,0,0x0000,
0.140631500000000,0,0x852E,
0.140647208333333,0,0xE73F,
0.140655083333333,0,0x862D,
0.140685541666667,0,0x0001,
0.140693250000000,0,0x1D21,
0.140709583333333,0,0x0055,
0.140717458333333,0,0x9D21,
0.140745708333333,0,0x0003,
0.140753416666667,0,0x2425,
0.140769500000000,0,0x004C,
0.140777375000000,0,0xA42E,
0.140793083333333,0,0x0040,
0.140800958333333,0,0xA52E,
0.140816666666667,0,0x8000,
0.140824500000000,0,0xA62E,
0.140853458333333,0,0x0005,
0.140861166666667,0,0x2D29,
0.140877541666667,0,0xBFB0,
0.140885416666667,0,0xAD2E,
0.140901125000000,0,0xFFF3,
0.140908958333333,0,0xAE2E,
0.140924708333333,0,0x1E41,
0.140932583333333,0,0xAF2E,
0.140948250000000,0,0xFFFF,
0.140956125000000,0,0xB02E,
0.140971833333333,0,0x830A,
0.140979708333333,0,0xB12E,
0.141009750000000,0,0x0006,
0.141017416666667,0,0x3B2D,
0.141033750000000,0,0xE526,
0.141041583333333,0,0xBB2E,
0.141057291666667,0,0x8003,
0.141065166666667,0,0xBC2E,
0.141080875000000,0,0x8001,
0.141088750000000,0,0xBD2E,
0.141104458333333,0,0x8000,
0.141112291666667,0,0xBE2E,
0.141128041666667,0,0xE5C8,
0.141135875000000,0,0xBF2E,
0.141151583333333,0,0xE5E1,
0.141159458333333,0,0xC02E,
0.141189583333333,0,0x000A,
0.141197291666667,0,0x4121,
0.141213500000000,0,0xDC12,
0.141221333333333,0,0xC12E,
0.141237041666667,0,0xDD23,
0.141244916666667,0,0xC22E,
0.141260625000000,0,0xDF67,
0.141268500000000,0,0xC32E,
0.141284208333333,0,0xE128,
0.141292083333333,0,0xC42E,
0.141307791666667,0,0xA984,
0.141315625000000,0,0xC52E,
0.141331333333333,0,0xFF4B,
0.141339208333333,0,0xC62E,
0.141354916666667,0,0xC016,
0.141362791666667,0,0xC72E,
0.141378500000000,0,0xA3A5,
0.141386333333333,0,0xC82E,
0.141402041666667,0,0x9E39,
0.141409916666667,0,0xC92E,
0.141425625000000,0,0x9E3F,
0.141433500000000,0,0xCA2E,
0.149082291666667,0,0xFC3F,
0.149090000000000,0,0x0607,
0.149117458333333,0,0x0004,
0.149125125000000,0,0x0319,
0.149141250000000,0,0x0A01,
0.149149166666667,0,0x8319,
0.149165000000000,0,0x0F00,
0.149172916666667,0,0x8419,
0.149188750000000,0,0x0000,
0.149196708333333,0,0x851F,
0.149212541666667,0,0xFF3F,
0.149220416666667,0,0x8619,
0.149251958333333,0,0x0004,
0.149259625000000,0,0x031D,
0.149275875000000,0,0x0A01,
0.149283791666667,0,0x831D,
0.149299625000000,0,0x0F00,
0.149307541666667,0,0x841D,
0.149323375000000,0,0x0000,
0.149331291666667,0,0x851F,
0.149347125000000,0,0xFF3F,
0.149355041666667,0,0x861D,
0.149385458333333,0,0x0004,
0.149393166666667,0,0x0311,
0.149409458333333,0,0x0A01,
0.149417375000000,0,0x8311,
0.149433208333333,0,0x0F00,
0.149441166666667,0,0x8411,
0.149456958333333,0,0x0000,
0.149464875000000,0,0x851F,
0.149480708333333,0,0xFF3F,
0.149488625000000,0,0x8611,
0.149519166666667,0,0x0004,
0.149526833333333,0,0x0315,
0.149543041666667,0,0x0A01,
0.149550958333333,0,0x8315,
0.149566791666667,0,0x0F00,
0.149574708333333,0,0x8415,
0.149590541666667,0,0x0000,
0.149598458333333,0,0x851F,
0.149614291666667,0,0xFF3F,
0.149622208333333,0,0x8615,
0.149652833333333,0,0x0004,
0.149660541666667,0,0x0319,
0.149676625000000,0,0x0A01,
0.149684541666667,0,0x8319,
0.149700333333333,0,0x0F00,
0.149708250000000,0,0x8419,
0.149724083333333,0,0x0000,
0.149732000000000,0,0x851F,
0.149747833333333,0,0xF73F,
0.149755750000000,0,0x8619,
0.149786083333333,0,0x0001,
0.149793750000000,0,0x1D1D,
0.149810125000000,0,0x1551,
0.149818041666667,0,0x9D1D,
0.149845875000000,0,0x0003,
0.149853541666667,0,0x2411,
0.149870000000000,0,0x0048,
0.149877916666667,0,0xA41F,
0.149893708333333,0,0x0040,
0.149901625000000,0,0xA51F,
0.149917458333333,0,0x8000,
0.149925375000000,0,0xA61F,
0.149954083333333,0,0x0005,
0.149961750000000,0,0x2D15,
0.149977791666667,0,0xB64E,
0.149985708333333,0,0xAD1F,
0.150001541666667,0,0xFFF0,
0.150009458333333,0,0xAE1F,
0.150025291666667,0,0xE41E,
0.150033208333333,0,0xAF1F,
0.150049000000000,0,0xFFFF,
0.150056916666667,0,0xB01F,
0.150072750000000,0,0x830C,
0.150080666666667,0,0xB11F,
0.150110250000000,0,0x0006,
0.150117916666667,0,0x3B19,
0.150134083333333,0,0xB3E2,
0.150142000000000,0,0xBB1F,
0.150157833333333,0,0xB332,
0.150165750000000,0,0xBC1F,
0.150181583333333,0,0xB2BF,
0.150189458333333,0,0xBD1F,
0.150205291666667,0,0xB209,
0.150213250000000,0,0xBE1F,
0.150229041666667,0,0xB208,
0.150236958333333,0,0xBF1F,
0.150252833333333,0,0xB27B,
0.150260750000000,0,0xC01F,
0.150291041666667,0,0x000A,
0.150298708333333,0,0x411D,
0.150315166666667,0,0xC0C2,
0.150323083333333,0,0xC11F,
0.150338916666667,0,0xC0C5,
0.150346833333333,0,0xC21F,
0.150362666666667,0,0xC0C3,
0.150370583333333,0,0xC31F,
0.150386416666667,0,0xC0C3,
0.150394333333333,0,0xC41F,
0.150410166666667,0,0xC0C1,
0.150418083333333,0,0xC51F,
0.150433916666667,0,0xDDC5,
0.150441833333333,0,0xC61F,
0.150457666666667,0,0x83AF,
0.150465583333333,0,0xC71F,
0.150481416666667,0,0xA3C0,
0.150489333333333,0,0xC81F,
0.150505166666667,0,0x9E38,
0.150513083333333,0,0xC91F,
0.150528958333333,0,0x9E3C,
0.150536833333333,0,0xCA1F,
0.150568333333333,0,0x0004,
0.150576041666667,0,0x0321,
0.150591958333333,0,0x0A01,
0.150599833333333,0,0x8321,
0.150615541666667,0,0x0F00,
0.150623416666667,0,0x8421,
0.150639125000000,0,0x0000,
0.150647000000000,0,0x852F,
0.150662708333333,0,0xF73F,
0.150670583333333,0,0x8621,
0.150701291666667,0,0x0001,
0.150708958333333,0,0x1D25,
0.150725125000000,0,0x0055,
0.150732958333333,0,0x9D25,
0.150761291666667,0,0x0003,
0.150768958333333,0,0x2429,
0.150785041666667,0,0x004C,
0.150792875000000,0,0xA42F,
0.150808625000000,0,0x0040,
0.150816458333333,0,0xA52F,
0.150832166666667,0,0x8000,
0.150840041666667,0,0xA62F,
0.150869208333333,0,0x0005,
0.150876916666667,0,0x2D2D,
0.150893083333333,0,0xC0BC,
0.150900958333333,0,0xAD2F,
0.150916666666667,0,0xFFF3,
0.150924500000000,0,0xAE2F,
0.150940250000000,0,0x1C45,
0.150948125000000,0,0xAF2F,
0.150963833333333,0,0xFFFF,
0.150971666666667,0,0xB02F,
0.150987375000000,0,0x830F,
0.150995250000000,0,0xB12F,
0.151026041666667,0,0x0006,
0.151033750000000,0,0x3B21,
0.151049750000000,0,0xE528,
0.151057625000000,0,0xBB2F,
0.151073333333333,0,0x8002,
0.151081208333333,0,0xBC2F,
0.151096916666667,0,0x8000,
0.151104750000000,0,0xBD2F,
0.151120458333333,0,0x8000,
0.151128333333333,0,0xBE2F,
0.151144041666667,0,0xE5C6,
0.151151916666667,0,0xBF2F,
0.151167625000000,0,0xE5E0,
0.151175500000000,0,0xC02F,
0.151206041666667,0,0x000A,
0.151213708333333,0,0x4125,
0.151230000000000,0,0xDC11,
0.151237875000000,0,0xC12F,
0.151253583333333,0,0xDD24,
0.151261458333333,0,0xC22F,
0.151277166666667,0,0xDF5D,
0.151285000000000,0,0xC32F,
0.151300750000000,0,0xE125,
0.151308625000000,0,0xC42F,
0.151324291666667,0,0xA980,
0.151332166666667,0,0xC52F,
0.151347875000000,0,0xFF4E,
0.151355750000000,0,0xC62F,
0.151371458333333,0,0xC012,
0.151379333333333,0,0xC72F,
0.151395041666667,0,0xA3A0,
0.151402916666667,0,0xC82F,
0.151418583333333,0,0x9E36,
0.151426458333333,0,0xC92F,
0.151442166666667,0,0x9E42,
0.151450041666667,0,0xCA2F,
0.159027083333333,0,0x0C3F,
0.159034750000000,0,0x060B,
0.159061791666667,0,0x0004,
0.159069458333333,0,0x031D,
0.159085500000000,0,0x0A01,
0.159093458333333,0,0x831D,
0.159109291666667,0,0x0F00,
0.159117208333333,0,0x841D,
0.159133041666667,0,0x0000,
0.159140958333333,0,0x8510,
0.159156833333333,0,0x0F3F,
0.159164750000000,0,0x861D,
0.159195958333333,0,0x0004,
0.159203666666667,0,0x0311,
0.159219666666667,0,0x0A01,
0.159227583333333,0,0x8311,
0.159243416666667,0,0x0F00,
0.159251333333333,0,0x8411,
0.159267166666667,0,0x0000,
0.159275125000000,0,0x8510,
0.159290958333333,0,0x0F3F,
0.159298833333333,0,0x8611,
0.159330166666667,0,0x0004,
0.159337833333333,0,0x0315,
0.159354291666667,0,0x0A01,
0.159362208333333,0,0x8315,
0.159378083333333,0,0x0F00,
0.159386000000000,0,0x8415,
0.159401833333333,0,0x0000,
0.159409750000000,0,0x8510,
0.159425583333333,0,0x0F3F,
0.159433541666667,0,0x8615,
0.159463833333333,0,0x0004,
0.159471541666667,0,0x0319,
0.159487958333333,0,0x0A01,
0.159495875000000,0,0x8319,
0.159511708333333,0,0x0F00,
0.159519625000000,0,0x8419,
0.159535458333333,0,0x0000,
0.159543375000000,0,0x8510,
0.159559250000000,0,0x0F3F,
0.159567166666667,0,0x8619,
0.159598125000000,0,0x0004,
0.159605791666667,0,0x031D,
0.159622083333333,0,0x0A01,
0.159630000000000,0,0x831D,
0.159645875000000,0,0x0F00,
0.159653750000000,0,0x841D,
0.159669625000000,0,0x0000,
0.159677541666667,0,0x8510,
0.159693375000000,0,0x073F,
0.159701291666667,0,0x861D,
0.159732541666667,0,0x0001,
0.159740208333333,0,0x1D11,
0.159756250000000,0,0x1551,
0.159764166666667,0,0x9D11,
0.159792250000000,0,0x0003,
0.159799916666667,0,0x2415,
0.159816125000000,0,0x0048,
0.159824041666667,0,0xA410,
0.159839875000000,0,0x0040,
0.159847791666667,0,0xA510,
0.159863625000000,0,0x8000,
0.159871541666667,0,0xA610,
0.159899875000000,0,0x0005,
0.159907541666667,0,0x2D19,
0.159924041666667,0,0xB756,
0.159931958333333,0,0xAD10,
0.159947791666667,0,0xFFF0,
0.159955708333333,0,0xAE10,
0.159971541666667,0,0xE149,
0.159979458333333,0,0xAF10,
0.159995333333333,0,0xFFFF,
0.160003208333333,0,0xB010,
0.160019083333333,0,0x830C,
0.160027000000000,0,0xB110,
0.160056541666667,0,0x0006,
0.160064208333333,0,0x3B1D,
0.160080416666667,0,0xB3E3,
0.160088333333333,0,0xBB10,
0.160104166666667,0,0xB32E,
0.160112083333333,0,0xBC10,
0.160127958333333,0,0xB2C4,
0.160135833333333,0,0xBD10,
0.160151708333333,0,0xB204,
0.160159625000000,0,0xBE10,
0.160175458333333,0,0xB204,
0.160183375000000,0,0xBF10,
0.160199208333333,0,0xB278,
0.160207125000000,0,0xC010,
0.160237041666667,0,0x000A,
0.160244708333333,0,0x4111,
0.160261083333333,0,0xC0C4,
0.160269000000000,0,0xC110,
0.160284833333333,0,0xC0C3,
0.160292750000000,0,0xC210,
0.160308625000000,0,0xC0C0,
0.160316500000000,0,0xC310,
0.160332375000000,0,0xC0C1,
0.160340291666667,0,0xC410,
0.160356125000000,0,0xC0C1,
0.160364041666667,0,0xC510,
0.160379875000000,0,0xDDCC,
0.160387833333333,0,0xC610,
0.160403666666667,0,0x83AE,
0.160411583333333,0,0xC710,
0.160427416666667,0,0xA3BE,
0.160435333333333,0,0xC810,
0.160451166666667,0,0x9E38,
0.160459083333333,0,0xC910,
0.160474916666667,0,0x9E3C,
0.160482833333333,0,0xCA10,
0.160515541666667,0,0x0004,
0.160523208333333,0,0x0325,
0.160539291666667,0,0x0A01,
0.160547125000000,0,0x8325,
0.160562875000000,0,0x0F00,
0.160570708333333,0,0x8425,
0.160586458333333,0,0x0000,
0.160594291666667,0,0x8520,
0.160610000000000,0,0x073F,
0.160617875000000,0,0x8625,
0.160648333333333,0,0x0001,
0.160656041666667,0,0x1D29,
0.160672375000000,0,0x0055,
0.160680250000000,0,0x9D29,
0.160708166666667,0,0x0003,
0.160715875000000,0,0x242D,
0.160732291666667,0,0x004C,
0.160740166666667,0,0xA420,
0.160755875000000,0,0x0040,
0.160763708333333,0,0xA520,
0.160779458333333,0,0x8000,
0.160787291666667,0,0xA620,
0.160816375000000,0,0x0005,
0.160824041666667,0,0x2D21,
0.160840333333333,0,0xC1C7,
0.160848208333333,0,0xAD20,
0.160863916666667,0,0xFFF3,
0.160871791666667,0,0xAE20,
0.160887500000000,0,0x1A79,
0.160895375000000,0,0xAF20,
0.160911083333333,0,0xFFFF,
0.160918958333333,0,0xB020,
0.160934666666667,0,0x830D,
0.160942500000000,0,0xB120,
0.160972291666667,0,0x0006,
0.160979958333333,0,0x3B25,
0.160996041666667,0,0xE524,
0.161003916666667,0,0xBB20,
0.161019625000000,0,0x8000,
0.161027458333333,0,0xBC20,
0.161043208333333,0,0x8001,
0.161051041666667,0,0xBD20,
0.161066750000000,0,0x8002,
0.161074625000000,0,0xBE20,
0.161090333333333,0,0xE5C4,
0.161098208333333,0,0xBF20,
0.161113916666667,0,0xE5E4,
0.161121791666667,0,0xC020,
0.161152833333333,0,0x000A,
0.161160541666667,0,0x4129,
0.161176791666667,0,0xDC12,
0.161184625000000,0,0xC120,
0.161200375000000,0,0xDD25,
0.161208208333333,0,0xC220,
0.161223958333333,0,0xDF67,
0.161231791666667,0,0xC320,
0.161247500000000,0,0xE130,
0.161255375000000,0,0xC420,
0.161271083333333,0,0xA986,
0.161278958333333,0,0xC520,
0.161294666666667,0,0xFF52,
0.161302541666667,0,0xC620,
0.161318250000000,0,0xC017,
0.161326083333333,0,0xC720,
0.161341833333333,0,0xA3A2,
0.161349666666667,0,0xC820,
0.161365375000000,0,0x9E3B,
0.161373250000000,0,0xC920,
0.161388958333333,0,0x9E3B,
0.161396791666667,0,0xCA20,
0.169266416666667,0,0x1C3F,
0.169274083333333,0,0x060F,
0.169301750000000,0,0x0004,
0.169309416666667,0,0x0311,
0.169325458333333,0,0x0A01,
0.169333375000000,0,0x8311,
0.169349208333333,0,0x0F00,
0.169357166666667,0,0x8411,
0.169373000000000,0,0x0000,
0.169380916666667,0,0x8511,
0.169396791666667,0,0x1F3F,
0.169404708333333,0,0x8611,
0.169435458333333,0,0x0004,
0.169443166666667,0,0x0315,
0.169459166666667,0,0x0A01,
0.169467083333333,0,0x8315,
0.169482916666667,0,0x0F00,
0.169490833333333,0,0x8415,
0.169506666666667,0,0x0000,
0.169514583333333,0,0x8511,
0.169530416666667,0,0x1F3F,
0.169538375000000,0,0x8615,
0.169569041666667,0,0x0004,
0.169576750000000,0,0x0319,
0.169592833333333,0,0x0A01,
0.169600750000000,0,0x8319,
0.169616583333333,0,0x0F00,
0.169624500000000,0,0x8419,
0.169640375000000,0,0x0000,
0.169648291666667,0,0x8511,
0.169664125000000,0,0x1F3F,
0.169672041666667,0,0x8619,
0.169702750000000,0,0x0004,
0.169710416666667,0,0x031D,
0.169726500000000,0,0x0A01,
0.169734416666667,0,0x831D,
0.169750250000000,0,0x0F00,
0.169758166666667,0,0x841D,
0.169774000000000,0,0x0000,
0.169781916666667,0,0x8511,
0.169797750000000,0,0x1F3F,
0.169805666666667,0,0x861D,
0.169835750000000,0,0x0004,
0.169843416666667,0,0x0311,
0.169859625000000,0,0x0A01,
0.169867500000000,0,0x8311,
0.169883333333333,0,0x0F00,
0.169891291666667,0,0x8411,
0.169907083333333,0,0x0000,
0.169915041666667,0,0x8511,
0.169930875000000,0,0x173F,
0.169938791666667,0,0x8611,
0.169969541666667,0,0x0001,
0.169977208333333,0,0x1D15,
0.169993208333333,0,0x1551,
0.170001125000000,0,0x9D15,
0.170029666666667,0,0x0003,
0.170037375000000,0,0x2419,
0.170053583333333,0,0x0048,
0.170061500000000,0,0xA411,
0.170077333333333,0,0x0040,
0.170085250000000,0,0xA511,
0.170101083333333,0,0x8000,
0.170109041666667,0,0xA611,
0.170137916666667,0,0x0005,
0.170145583333333,0,0x2D1D,
0.170162000000000,0,0xB866,
0.170169875000000,0,0xAD11,
0.170185708333333,0,0xFFF0,
0.170193666666667,0,0xAE11,
0.170209500000000,0,0xDE96,
0.170217416666667,0,0xAF11,
0.170233250000000,0,0xFFFF,
0.170241166666667,0,0xB011,
0.170257000000000,0,0x830B,
0.170264916666667,0,0xB111,
0.170294958333333,0,0x0006,
0.170302625000000,0,0x3B11,
0.170318875000000,0,0xB3E7,
0.170326791666667,0,0xBB11,
0.170342625000000,0,0xB333,
0.170350541666667,0,0xBC11,
0.170366416666667,0,0xB2C4,
0.170374333333333,0,0xBD11,
0.170390125000000,0,0xB204,
0.170398083333333,0,0xBE11,
0.170413916666667,0,0xB205,
0.170421833333333,0,0xBF11,
0.170437625000000,0,0xB275,
0.170445583333333,0,0xC011,
0.170475500000000,0,0x000A,
0.170483166666667,0,0x4115,
0.170499500000000,0,0xC0C3,
0.170507416666667,0,0xC111,
0.170523250000000,0,0xC0C3,
0.170531166666667,0,0xC211,
0.170547000000000,0,0xC0C3,
0.170554916666667,0,0xC311,
0.170570750000000,0,0xC0C3,
0.170578666666667,0,0xC411,
0.170594541666667,0,0xC0C4,
0.170602458333333,0,0xC511,
0.170618291666667,0,0xDDC8,
0.170626208333333,0,0xC611,
0.170642041666667,0,0x83B1,
0.170649958333333,0,0xC711,
0.170665791666667,0,0xA3BF,
0.170673708333333,0,0xC811,
0.170689583333333,0,0x9E36,
0.170697458333333,0,0xC911,
0.170713291666667,0,0x9E38,
0.170721208333333,0,0xCA11,
0.170753375000000,0,0x0004,
0.170761083333333,0,0x0329,
0.170777333333333,0,0x0A01,
0.170785208333333,0,0x8329,
0.170800916666667,0,0x0F00,
0.170808791666667,0,0x8429,
0.170824500000000,0,0x0000,
0.170832375000000,0,0x8521,
0.170848083333333,0,0x173F,
0.170855916666667,0,0x8629,
0.170886833333333,0,0x0001,
0.170894500000000,0,0x1D2D,
0.170910458333333,0,0x0055,
0.170918291666667,0,0x9D2D,
0.170946625000000,0,0x0003,
0.170954333333333,0,0x2421,
0.170970375000000,0,0x004C,
0.170978208333333,0,0xA421,
0.170993916666667,0,0x0040,
0.171001791666667,0,0xA521,
0.171017500000000,0,0x8000,
0.171025375000000,0,0xA621,
0.171054208333333,0,0x0005,
0.171061875000000,0,0x2D25,
0.171077875000000,0,0xC2D9,
0.171085750000000,0,0xAD21,
0.171101458333333,0,0xFFF3,
0.171109333333333,0,0xAE21,
0.171125041666667,0,0x18D9,
0.171132916666667,0,0xAF21,
0.171148625000000,0,0x8000,
0.171156458333333,0,0xB021,
0.171172166666667,0,0x8302,
0.171180041666667,0,0xB121,
0.171209583333333,0,0x0006,
0.171217250000000,0,0x3B29,
0.171233541666667,0,0xE52A,
0.171241416666667,0,0xBB21,
0.171257125000000,0,0x8002,
0.171265000000000,0,0xBC21,
0.171280708333333,0,0x8000,
0.171288541666667,0,0xBD21,
0.171304291666667,0,0x8000,
0.171312125000000,0,0xBE21,
0.171327875000000,0,0xE5C7,
0.171335708333333,0,0xBF21,
0.171351416666667,0,0xE5DF,
0.171359250000000,0,0xC021,
0.171389666666667,0,0x000A,
0.171397333333333,0,0x412D,
0.171413291666667,0,0xDC12,
0.171421166666667,0,0xC121,
0.171436875000000,0,0xDD23,
0.171444708333333,0,0xC221,
0.171460416666667,0,0xDF63,
0.171468291666667,0,0xC321,
0.171484000000000,0,0xE12D,
0.171491875000000,0,0xC421,
0.171507541666667,0,0xA983,
0.171515416666667,0,0xC521,
0.171531125000000,0,0xFF4B,
0.171539000000000,0,0xC621,
0.171554708333333,0,0xC014,
0.171562541666667,0,0xC721,
0.171578250000000,0,0xA3A3,
0.171586125000000,0,0xC821,
0.171601875000000,0,0x9E39,
0.171609708333333,0,0xC921,
0.171625416666667,0,0x9E3B,
0.171633291666667,0,0xCA21,
0.179189583333333,0,0x2C3F,
0.179197250000000,0,0x0603,
0.179224875000000,0,0x0004,
0.179232583333333,0,0x0315,
0.179248625000000,0,0x0A01,
0.179256541666667,0,0x8315,
0.179272375000000,0,0x0F00,
0.179280291666667,0,0x8415,
0.179296166666667,0,0x0000,
0.179304083333333,0,0x8512,
0.179319916666667,0,0x2F3F,
0.179327833333333,0,0x8615,
0.179358833333333,0,0x0004,
0.179366500000000,0,0x0319,
0.179382791666667,0,0x0A01,
0.179390708333333,0,0x8319,
0.179406541666667,0,0x0F00,
0.179414458333333,0,0x8419,
0.179430333333333,0,0x0000,
0.179438250000000,0,0x8512,
0.179454083333333,0,0x2F3F,
0.179462000000000,0,0x8619,
0.179492541666667,0,0x0004,
0.179500208333333,0,0x031D,
0.179516458333333,0,0x0A01,
0.179524416666667,0,0x831D,
0.179540250000000,0,0x0F00,
0.179548166666667,0,0x841D,
0.179564000000000,0,0x0000,
0.179571916666667,0,0x8512,
0.179587750000000,0,0x2F3F,
0.179595666666667,0,0x861D,
0.179625833333333,0,0x0004,
0.179633500000000,0,0x0311,
0.179649583333333,0,0x0A01,
0.179657541666667,0,0x8311,
0.179673333333333,0,0x0F00,
0.179681291666667,0,0x8411,
0.179697125000000,0,0x0000,
0.179705041666667,0,0x8512,
0.179720875000000,0,0x2F3F,
0.179728791666667,0,0x8611,
0.179759583333333,0,0x0004,
0.179767250000000,0,0x0315,
0.179783708333333,0,0x0A01,
0.179791625000000,0,0x8315,
0.179807458333333,0,0x0F00,
0.179815375000000,0,0x8415,
0.179831208333333,0,0x0000,
0.179839125000000,0,0x8512,
0.179854958333333,0,0x273F,
0.179862875000000,0,0x8615,
0.179893208333333,0,0x0001,
0.179900875000000,0,0x1D19,
0.179917291666667,0,0x1551,
0.179925250000000,0,0x9D19,
0.179954083333333,0,0x0003,
0.179961750000000,0,0x241D,
0.179978166666667,0,0x0048,
0.179986083333333,0,0xA412,
0.180001916666667,0,0x0040,
0.180009833333333,0,0xA512,
0.180025666666667,0,0x8000,
0.180033583333333,0,0xA612,
0.180062416666667,0,0x0005,
0.180070083333333,0,0x2D11,
0.180086541666667,0,0xB96E,
0.180094458333333,0,0xAD12,
0.180110291666667,0,0xFFF0,
0.180118166666667,0,0xAE12,
0.180134000000000,0,0xDBAA,
0.180141958333333,0,0xAF12,
0.180157791666667,0,0xFFFF,
0.180165708333333,0,0xB012,
0.180181541666667,0,0x8306,
0.180189458333333,0,0xB112,
0.180219458333333,0,0x0006,
0.180227166666667,0,0x3B15,
0.180243375000000,0,0xB3E4,
0.180251291666667,0,0xBB12,
0.180267166666667,0,0xB330,
0.180275083333333,0,0xBC12,
0.180290916666667,0,0xB2C1,
0.180298833333333,0,0xBD12,
0.180314666666667,0,0xB207,
0.180322583333333,0,0xBE12,
0.180338416666667,0,0xB203,
0.180346333333333,0,0xBF12,
0.180362166666667,0,0xB275,
0.180370083333333,0,0xC012,
0.180400416666667,0,0x000A,
0.180408083333333,0,0x4119,
0.180424500000000,0,0xC0BF,
0.180432416666667,0,0xC112,
0.180448250000000,0,0xC0C1,
0.180456166666667,0,0xC212,
0.180472000000000,0,0xC0C3,
0.180479916666667,0,0xC312,
0.180495750000000,0,0xC0C1,
0.180503666666667,0,0xC412,
0.180519500000000,0,0xC0C3,
0.180527458333333,0,0xC512,
0.180543250000000,0,0xDDC7,
0.180551208333333,0,0xC612,
0.180567041666667,0,0x83AD,
0.180574916666667,0,0xC712,
0.180590750000000,0,0xA3BE,
0.180598708333333,0,0xC812,
0.180614541666667,0,0x9E3B,
0.180622458333333,0,0xC912,
0.180638291666667,0,0x9E3B,
0.180646208333333,0,0xCA12,
0.180677291666667,0,0x0004,
0.180684958333333,0,0x032D,
0.180701375000000,0,0x0A01,
0.180709208333333,0,0x832D,
0.180724916666667,0,0x0F00,
0.180732750000000,0,0x842D,
0.180748500000000,0,0x0000,
0.180756333333333,0,0x8522,
0.180772041666667,0,0x273F,
0.180779916666667,0,0x862D,
0.180810541666667,0,0x0001,
0.180818208333333,0,0x1D21,
0.180834416666667,0,0x0055,
0.180842291666667,0,0x9D21,
0.180870458333333,0,0x0003,
0.180878125000000,0,0x2425,
0.180894333333333,0,0x004C,
0.180902208333333,0,0xA422,
0.180917875000000,0,0x0040,
0.180925750000000,0,0xA522,
0.180941458333333,0,0x8000,
0.180949333333333,0,0xA622,
0.180977708333333,0,0x0005,
0.180985375000000,0,0x2D29,
0.181001375000000,0,0xC3E3,
0.181009250000000,0,0xAD22,
0.181024958333333,0,0xFFF3,
0.181032833333333,0,0xAE22,
0.181048541666667,0,0x1630,
0.181056416666667,0,0xAF22,
0.181072083333333,0,0x8000,
0.181079958333333,0,0xB022,
0.181095666666667,0,0x8302,
0.181103541666667,0,0xB122,
0.181133500000000,0,0x0006,
0.181141208333333,0,0x3B2D,
0.181157541666667,0,0xE524,
0.181165416666667,0,0xBB22,
0.181181125000000,0,0x8000,
0.181189000000000,0,0xBC22,
0.181204708333333,0,0x8001,
0.181212583333333,0,0xBD22,
0.181228291666667,0,0x8001,
0.181236166666667,0,0xBE22,
0.181251875000000,0,0xE5C7,
0.181259708333333,0,0xBF22,
0.181275416666667,0,0xE5DC,
0.181283291666667,0,0xC022,
0.181313125000000,0,0x000A,
0.181320791666667,0,0x4121,
0.181336791666667,0,0xDC0E,
0.181344666666667,0,0xC122,
0.181360375000000,0,0xDD22,
0.181368250000000,0,0xC222,
0.181383958333333,0,0xDF64,
0.181391833333333,0,0xC322,
0.181407541666667,0,0xE12B,
0.181415375000000,0,0xC422,
0.181431083333333,0,0xA983,
0.181438958333333,0,0xC522,
0.181454666666667,0,0xFF4B,
0.181462541666667,0,0xC622,
0.181478250000000,0,0xC013,
0.181486083333333,0,0xC722,
0.181501791666667,0,0xA3A4,
0.181509666666667,0,0xC822,
0.181525375000000,0,0x9E3C,
0.181533250000000,0,0xC922,
0.181548958333333,0,0x9E45,
0.181556791666667,0,0xCA22,
0.189084458333333,0,0x3C3F,
0.189092125000000,0,0x0607,
0.189119291666667,0,0x0004,
0.189126958333333,0,0x0319,
0.189143166666667,0,0x0A01,
0.189151083333333,0,0x8319,
0.189166916666667,0,0x0F00,
0.189174833333333,0,0x8419,
0.189190666666667,0,0x0000,
0.189198583333333,0,0x8513,
0.189214416666667,0,0x3F3F,
0.189222375000000,0,0x8619,
0.189252875000000,0,0x0004,
0.189260541666667,0,0x031D,
0.189276791666667,0,0x0A01,
0.189284708333333,0,0x831D,
0.189300541666667,0,0x0F00,
0.189308500000000,0,0x841D,
0.189324333333333,0,0x0000,
0.189332250000000,0,0x8513,
0.189348083333333,0,0x3F3F,
0.189356000000000,0,0x861D,
0.189387208333333,0,0x0004,
0.189394875000000,0,0x0311,
0.189410958333333,0,0x0A01,
0.189418875000000,0,0x8311,
0.189434708333333,0,0x0F00,
0.189442666666667,0,0x8411,
0.189458500000000,0,0x0000,
0.189466416666667,0,0x8513,
0.189482250000000,0,0x3F3F,
0.189490208333333,0,0x8611,
0.189520333333333,0,0x0004,
0.189528041666667,0,0x0315,
0.189544166666667,0,0x0A01,
0.189552083333333,0,0x8315,
0.189567916666667,0,0x0F00,
0.189575833333333,0,0x8415,
0.189591666666667,0,0x0000,
0.189599583333333,0,0x8513,
0.189615458333333,0,0x3F3F,
0.189623375000000,0,0x8615,
0.189653541666667,0,0x0004,
0.189661250000000,0,0x0319,
0.189677333333333,0,0x0A01,
0.189685250000000,0,0x8319,
0.189701083333333,0,0x0F00,
0.189709000000000,0,0x8419,
0.189724833333333,0,0x0000,
0.189732750000000,0,0x8513,
0.189748583333333,0,0x373F,
0.189756500000000,0,0x8619,
0.189787291666667,0,0x0001,
0.189794958333333,0,0x1D1D,
0.189811375000000,0,0x1551,
0.189819333333333,0,0x9D1D,
0.189847875000000,0,0x0003,
0.189855541666667,0,0x2411,
0.189871750000000,0,0x0048,
0.189879708333333,0,0xA413,
0.189895500000000,0,0x0040,
0.189903458333333,0,0xA513,
0.189919250000000,0,0x8000,
0.189927166666667,0,0xA613,
0.189956083333333,0,0x0005,
0.189963750000000,0,0x2D15,
0.189980125000000,0,0xBA75,
0.189988041666667,0,0xAD13,
0.190003875000000,0,0xFFF0,
0.190011791666667,0,0xAE13,
0.190027625000000,0,0xD954,
0.190035541666667,0,0xAF13,
0.190051375000000,0,0xFFFF,
0.190059291666667,0,0xB013,
0.190075125000000,0,0x8306,
0.190083041666667,0,0xB113,
0.190113333333333,0,0x0006,
0.190121041666667,0,0x3B19,
0.190137500000000,0,0xB3E1,
0.190145416666667,0,0xBB13,
0.190161208333333,0,0xB331,
0.190169166666667,0,0xBC13,
0.190185000000000,0,0xB2C4,
0.190192916666667,0,0xBD13,
0.190208750000000,0,0xB202,
0.190216666666667,0,0xBE13,
0.190232500000000,0,0xB204,
0.190240416666667,0,0xBF13,
0.190256250000000,0,0xB279,
0.190264166666667,0,0xC013,
0.190293625000000,0,0x000A,
0.190301291666667,0,0x411D,
0.190317625000000,0,0xC0C6,
0.190325541666667,0,0xC113,
0.190341375000000,0,0xC0C7,
0.190349291666667,0,0xC213,
0.190365125000000,0,0xC0C6,
0.190373041666667,0,0xC313,
0.190388875000000,0,0xC0C7,
0.190396791666667,0,0xC413,
0.190412625000000,0,0xC0C3,
0.190420583333333,0,0xC513,
0.190436416666667,0,0xDDCB,
0.190444333333333,0,0xC613,
0.190460166666667,0,0x83B3,
0.190468083333333,0,0xC713,
0.190483916666667,0,0xA3BD,
0.190491833333333,0,0xC813,
0.190507708333333,0,0x9E3F,
0.190515625000000,0,0xC913,
0.190531458333333,0,0x9E3B,
0.190539375000000,0,0xCA13,
0.190571791666667,0,0x0004,
0.190579458333333,0,0x0321,
0.190595416666667,0,0x0A01,
0.190603250000000,0,0x8321,
0.190619000000000,0,0x0F00,
0.190626833333333,0,0x8421,
0.190642541666667,0,0x0000,
0.190650416666667,0,0x8523,
0.190666125000000,0,0x373F,
0.190674000000000,0,0x8621,
0.190704291666667,0,0x0001,
0.190712000000000,0,0x1D25,
0.190728000000000,0,0x0055,
0.190735875000000,0,0x9D25,
0.190763875000000,0,0x0003,
0.190771541666667,0,0x2429,
0.190787916666667,0,0x004C,
0.190795791666667,0,0xA423,
0.190811500000000,0,0x0040,
0.190819375000000,0,0xA523,
0.190835083333333,0,0x8000,
0.190842916666667,0,0xA623,
0.190871833333333,0,0x0005,
0.190879500000000,0,0x2D2D,
0.190895500000000,0,0xC4EC,
0.190903375000000,0,0xAD23,
0.190919083333333,0,0xFFF3,
0.190926916666667,0,0xAE23,
0.190942625000000,0,0x1452,
0.190950500000000,0,0xAF23,
0.190966208333333,0,0xFFFF,
0.190974083333333,0,0xB023,
0.190989791666667,0,0x830F,
0.190997625000000,0,0xB123,
0.191028833333333,0,0x0006,
0.191036541666667,0,0x3B21,
0.191052666666667,0,0xE523,
0.191060541666667,0,0xBB23,
0.191076250000000,0,0x8000,
0.191084083333333,0,0xBC23,
0.191099833333333,0,0x8002,
0.191107666666667,0,0xBD23,
0.191123375000000,0,0x8002,
0.191131250000000,0,0xBE23,
0.191147000000000,0,0xE5C6,
0.191154833333333,0,0xBF23,
0.191170541666667,0,0xE5DF,
0.191178416666667,0,0xC023,
0.191209541666667,0,0x000A,
0.191217208333333,0,0x4125,
0.191233416666667,0,0xDC18,
0.191241291666667,0,0xC123,
0.191257000000000,0,0xDD27,
0.191264833333333,0,0xC223,
0.191280583333333,0,0xDF67,
0.191288416666667,0,0xC323,
0.191304166666667,0,0xE12B,
0.191312000000000,0,0xC423,
0.191327750000000,0,0xA987,
0.191335583333333,0,0xC523,
0.191351291666667,0,0xFF4C,
0.191359166666667,0,0xC623,
0.191374875000000,0,0xC018,
0.191382750000000,0,0xC723,
0.191398458333333,0,0xA3A0,
0.191406333333333,0,0xC823,
0.191422041666667,0,0x9E3B,
0.191429916666667,0,0xC923,
0.191445625000000,0,0x9E43,
0.191453458333333,0,0xCA23,
0.199071583333333,0,0x4C3F,
0.199079291666667,0,0x060B,
0.199106833333333,0,0x0004,
0.199114500000000,0,0x031D,
0.199130875000000,0,0x0A01,
0.199138791666667,0,0x831D,
0.199154625000000,0,0x0F00,
0.199162541666667,0,0x841D,
0.199178375000000,0,0x0000,
0.199186333333333,0,0x8514,
0.199202166666667,0,0x4F3F,
0.199210083333333,0,0x861D,
0.199240958333333,0,0x0004,
0.199248625000000,0,0x0311,
0.199265000000000,0,0x0A01,
0.199272958333333,0,0x8311,
0.199288791666667,0,0x0F00,
0.199296708333333,0,0x8411,
0.199312541666667,0,0x0000,
0.199320458333333,0,0x8514,
0.199336291666667,0,0x4F3F,
0.199344208333333,0,0x8611,
0.199375250000000,0,0x0004,
0.199382916666667,0,0x0315,
0.199399166666667,0,0x0A01,
0.199407083333333,0,0x8315,
0.199422916666667,0,0x0F00,
0.199430833333333,0,0x8415,
0.199446666666667,0,0x0000,
0.199454583333333,0,0x8514,
0.199470416666667,0,0x4F3F,
0.199478333333333,0,0x8615,
0.199509208333333,0,0x0004,
0.199516875000000,0,0x0319,
0.199533291666667,0,0x0A01,
0.199541166666667,0,0x8319,
0.199557041666667,0,0x0F00,
0.199564958333333,0,0x8419,
0.199580791666667,0,0x0000,
0.199588708333333,0,0x8514,
0.199604541666667,0,0x4F3F,
0.199612458333333,0,0x8619,
0.199642375000000,0,0x0004,
0.199650041666667,0,0x031D,
0.199666375000000,0,0x0A01,
0.199674333333333,0,0x831D,
0.199690125000000,0,0x0F00,
0.199698041666667,0,0x841D,
0.199713875000000,0,0x0000,
0.199721791666667,0,0x8514,
0.199737625000000,0,0x473F,
0.199745541666667,0,0x861D,
0.199775958333333,0,0x0001,
0.199783666666667,0,0x1D11,
0.199799958333333,0,0x1551,
0.199807875000000,0,0x9D11,
0.199836208333333,0,0x0003,
0.199843875000000,0,0x2415,
0.199860333333333,0,0x0048,
0.199868250000000,0,0xA414,
0.199884083333333,0,0x0040,
0.199892000000000,0,0xA514,
0.199907833333333,0,0x8000,
0.199915750000000,0,0xA614,
0.199944500000000,0,0x0005,
0.199952166666667,0,0x2D19,
0.199968166666667,0,0xBB7F,
0.199976083333333,0,0xAD14,
0.199991916666667,0,0xFFF0,
0.199999833333333,0,0xAE14,
0.200015666666667,0,0xD637,
0.200023583333333,0,0xAF14,
0.200039416666667,0,0xFFFF,
0.200047375000000,0,0xB014,
0.200063166666667,0,0x830D,
0.200071083333333,0,0xB114,
0.200101333333333,0,0x0006,
0.200109000000000,0,0x3B1D,
0.200125041666667,0,0xB3EB,
0.200132916666667,0,0xBB14,
0.200148791666667,0,0xB335,
0.200156708333333,0,0xBC14,
0.200172541666667,0,0xB2C0,
0.200180458333333,0,0xBD14,
0.200196291666667,0,0xB203,
0.200204208333333,0,0xBE14,
0.200220041666667,0,0xB206,
0.200227958333333,0,0xBF14,
0.200243791666667,0,0xB276,
0.200251666666667,0,0xC014,
0.200282208333333,0,0x000A,
0.200289916666667,0,0x4111,
0.200306125000000,0,0xC0C6,
0.200314041666667,0,0xC114,
0.200329875000000,0,0xC0C7,
0.200337791666667,0,0xC214,
0.200353625000000,0,0xC0C5,
0.200361541666667,0,0xC314,
0.200377375000000,0,0xC0C5,
0.200385291666667,0,0xC414,
0.200401125000000,0,0xC0C8,
0.200409041666667,0,0xC514,
0.200424916666667,0,0xDDCA,
0.200432791666667,0,0xC614,
0.200448666666667,0,0x83B1,
0.200456583333333,0,0xC714,
0.200472416666667,0,0xA3BF,
0.200480333333333,0,0xC814,
0.200496166666667,0,0x9E38,
0.200504083333333,0,0xC914,
0.200519916666667,0,0x9E3A,
0.200527833333333,0,0xCA14,
0.200559458333333,0,0x0004,
0.200567125000000,0,0x0325,
0.200583291666667,0,0x0A01,
0.200591166666667,0,0x8325,
0.200606875000000,0,0x0F00,
0.200614750000000,0,0x8425,
0.200630458333333,0,0x0000,
0.200638333333333,0,0x8524,
0.200654041666667,0,0x473F,
0.200661875000000,0,0x8625,
0.200692458333333,0,0x0001,
0.200700166666667,0,0x1D29,
0.200716416666667,0,0x0055,
0.200724250000000,0,0x9D29,
0.200752375000000,0,0x0003,
0.200760083333333,0,0x242D,
0.200776333333333,0,0x004C,
0.200784166666667,0,0xA424,
0.200799875000000,0,0x0040,
0.200807750000000,0,0xA524,
0.200823458333333,0,0x8000,
0.200831333333333,0,0xA624,
0.200860041666667,0,0x0005,
0.200867750000000,0,0x2D21,
0.200883875000000,0,0xC5F8,
0.200891750000000,0,0xAD24,
0.200907458333333,0,0xFFF3,
0.200915291666667,0,0xAE24,
0.200931041666667,0,0x11CA,
0.200938916666667,0,0xAF24,
0.200954625000000,0,0xFFFF,
0.200962458333333,0,0xB024,
0.200978166666667,0,0x8307,
0.200986041666667,0,0xB124,
0.201014750000000,0,0x0006,
0.201022416666667,0,0x3B25,
0.201038583333333,0,0xE520,
0.201046458333333,0,0xBB24,
0.201062166666667,0,0x8000,
0.201070041666667,0,0xBC24,
0.201085750000000,0,0x8000,
0.201093583333333,0,0xBD24,
0.201109333333333,0,0x8000,
0.201117166666667,0,0xBE24,
0.201132875000000,0,0xE5C4,
0.201140750000000,0,0xBF24,
0.201156458333333,0,0xE5DB,
0.201164333333333,0,0xC024,
0.201194708333333,0,0x000A,
0.201202375000000,0,0x4129,
0.201218333333333,0,0xDC13,
0.201226208333333,0,0xC124,
0.201241916666667,0,0xDD25,
0.201249791666667,0,0xC224,
0.201265500000000,0,0xDF66,
0.201273375000000,0,0xC324,
0.201289083333333,0,0xE12D,
0.201296916666667,0,0xC424,
0.201312625000000,0,0xA985,
0.201320500000000,0,0xC524,
0.201336208333333,0,0xFF4F,
0.201344083333333,0,0xC624,
0.201359791666667,0,0xC015,
0.201367666666667,0,0xC724,
0.201383375000000,0,0xA3A1,
0.201391250000000,0,0xC824,
0.201406958333333,0,0x9E3C,
0.201414791666667,0,0xC924,
0.201430541666667,0,0x9E41,
0.201438416666667,0,0xCA24,
0.209130166666667,0,0x5C3F,
0.209137833333333,0,0x060F,
0.209164791666667,0,0x0004,
0.209172500000000,0,0x0311,
0.209188500000000,0,0x0A01,
0.209196458333333,0,0x8311,
0.209212291666667,0,0x0F00,
0.209220208333333,0,0x8411,
0.209236041666667,0,0x0000,
0.209243958333333,0,0x8515,
0.209259833333333,0,0x5F3F,
0.209267750000000,0,0x8611,
0.209298041666667,0,0x0004,
0.209305750000000,0,0x0315,
0.209322166666667,0,0x0A01,
0.209330083333333,0,0x8315,
0.209345916666667,0,0x0F00,
0.209353875000000,0,0x8415,
0.209369708333333,0,0x0000,
0.209377625000000,0,0x8515,
0.209393458333333,0,0x5F3F,
0.209401375000000,0,0x8615,
0.209431833333333,0,0x0004,
0.209439541666667,0,0x0319,
0.209455875000000,0,0x0A01,
0.209463791666667,0,0x8319,
0.209479625000000,0,0x0F00,
0.209487541666667,0,0x8419,
0.209503375000000,0,0x0000,
0.209511291666667,0,0x8515,
0.209527125000000,0,0x5F3F,
0.209535041666667,0,0x8619,
0.209565041666667,0,0x0004,
0.209572708333333,0,0x031D,
0.209589000000000,0,0x0A01,
0.209596916666667,0,0x831D,
0.209612750000000,0,0x0F00,
0.209620666666667,0,0x841D,
0.209636500000000,0,0x0000,
0.209644416666667,0,0x8515,
0.209660250000000,0,0x5F3F,
0.209668208333333,0,0x861D,
0.209698750000000,0,0x0004,
0.209706416666667,0,0x0311,
0.209722625000000,0,0x0A01,
0.209730541666667,0,0x8311,
0.209746333333333,0,0x0F00,
0.209754291666667,0,0x8411,
0.209770125000000,0,0x0000,
0.209778041666667,0,0x8515,
0.209793875000000,0,0x573F,
0.209801791666667,0,0x8611,
0.209832708333333,0,0x0001,
0.209840375000000,0,0x1D15,
0.209856666666667,0,0x1551,
0.209864625000000,0,0x9D15,
0.209892583333333,0,0x0003,
0.209900250000000,0,0x2419,
0.209916541666667,0,0x0048,
0.209924458333333,0,0xA415,
0.209940291666667,0,0x0040,
0.209948250000000,0,0xA515,
0.209964041666667,0,0x8000,
0.209971958333333,0,0xA615,
0.210001125000000,0,0x0005,
0.210008791666667,0,0x2D1D,
0.210024916666667,0,0xBC8A,
0.210032833333333,0,0xAD15,
0.210048666666667,0,0xFFF0,
0.210056583333333,0,0xAE15,
0.210072416666667,0,0xD39B,
0.210080333333333,0,0xAF15,
0.210096166666667,0,0x8000,
0.210104083333333,0,0xB015,
0.210119916666667,0,0x8301,
0.210127833333333,0,0xB115,
0.210157208333333,0,0x0006,
0.210164875000000,0,0x3B11,
0.210181250000000,0,0xB3E3,
0.210189166666667,0,0xBB15,
0.210205041666667,0,0xB331,
0.210212916666667,0,0xBC15,
0.210228750000000,0,0xB2C1,
0.210236666666667,0,0xBD15,
0.210252500000000,0,0xB209,
0.210260416666667,0,0xBE15,
0.210276250000000,0,0xB206,
0.210284166666667,0,0xBF15,
0.210300000000000,0,0xB276,
0.210307916666667,0,0xC015,
0.210338000000000,0,0x000A,
0.210345708333333,0,0x4115,
0.210361833333333,0,0xC0C5,
0.210369750000000,0,0xC115,
0.210385583333333,0,0xC0C4,
0.210393500000000,0,0xC215,
0.210409333333333,0,0xC0C4,
0.210417250000000,0,0xC315,
0.210433083333333,0,0xC0C3,
0.210441000000000,0,0xC415,
0.210456875000000,0,0xC0C5,
0.210464791666667,0,0xC515,
0.210480583333333,0,0xDDCC,
0.210488500000000,0,0xC615,
0.210504375000000,0,0x83B0,
0.210512291666667,0,0xC715,
0.210528125000000,0,0xA3BC,
0.210536041666667,0,0xC815,
0.210551875000000,0,0x9E39,
0.210559791666667,0,0xC915,
0.210575625000000,0,0x9E37,
0.210583541666667,0,0xCA15,
0.210616500000000,0,0x0004,
0.210624166666667,0,0x0329,
0.210640208333333,0,0x0A01,
0.210648083333333,0,0x8329,
0.210663791666667,0,0x0F00,
0.210671666666667,0,0x8429,
0.210687375000000,0,0x0000,
0.210695208333333,0,0x8525,
0.210710958333333,0,0x573F,
0.210718791666667,0,0x8629,
0.210748916666667,0,0x0001,
0.210756625000000,0,0x1D2D,
0.210772833333333,0,0x0055,
0.210780666666667,0,0x9D2D,
0.210809375000000,0,0x0003,
0.210817041666667,0,0x2421,
0.210833208333333,0,0x004C,
0.210841083333333,0,0xA425,
0.210856791666667,0,0x0040,
0.210864666666667,0,0xA525,
0.210880375000000,0,0x8000,
0.210888208333333,0,0xA625,
0.210917500000000,0,0x0005,
0.210925208333333,0,0x2D25,
0.210941250000000,0,0xC705,
0.210949125000000,0,0xAD25,
0.210964833333333,0,0xFFF3,
0.210972708333333,0,0xAE25,
0.210988416666667,0,0x0FCB,
0.210996291666667,0,0xAF25,
0.211012000000000,0,0xFFFF,
0.211019833333333,0,0xB025,
0.211035583333333,0,0x830C,
0.211043416666667,0,0xB125,
0.211073458333333,0,0x0006,
0.211081125000000,0,0x3B29,
0.211097458333333,0,0xE51F,
0.211105291666667,0,0xBB25,
0.211121041666667,0,0x8000,
0.211128875000000,0,0xBC25,
0.211144583333333,0,0x8006,
0.211152458333333,0,0xBD25,
0.211168166666667,0,0x8003,
0.211176041666667,0,0xBE25,
0.211191708333333,0,0xE5C1,
0.211199583333333,0,0xBF25,
0.211215291666667,0,0xE5D8,
0.211223166666667,0,0xC025,
0.211253208333333,0,0x000A,
0.211260875000000,0,0x412D,
0.211277208333333,0,0xDC13,
0.211285041666667,0,0xC125,
0.211300750000000,0,0xDD27,
0.211308625000000,0,0xC225,
0.211324333333333,0,0xDF67,
0.211332208333333,0,0xC325,
0.211347916666667,0,0xE12A,
0.211355791666667,0,0xC425,
0.211371500000000,0,0xA980,
0.211379333333333,0,0xC525,
0.211395083333333,0,0xFF4B,
0.211402916666667,0,0xC625,
0.211418625000000,0,0xC013,
0.211426500000000,0,0xC725,
0.211442208333333,0,0xA3A4,
0.211450083333333,0,0xC825,
0.211465791666667,0,0x9E3B,
0.211473666666667,0,0xC925,
0.211489375000000,0,0x9E40,
0.211497250000000,0,0xCA25,
0.219090291666667,0,0x6C3F,
0.219097958333333,0,0x0603,
0.219125208333333,0,0x0004,
0.219132916666667,0,0x0315,
0.219149291666667,0,0x0A01,
0.219157208333333,0,0x8315,
0.219173041666667,0,0x0F00,
0.219181000000000,0,0x8415,
0.219196833333333,0,0x0000,
0.219204750000000,0,0x8516,
0.219220583333333,0,0x6F3F,
0.219228541666667,0,0x8615,
0.219259041666667,0,0x0004,
0.219266750000000,0,0x0319,
0.219282958333333,0,0x0A01,
0.219290875000000,0,0x8319,
0.219306708333333,0,0x0F00,
0.219314625000000,0,0x8419,
0.219330500000000,0,0x0000,
0.219338416666667,0,0x8516,
0.219354250000000,0,0x6F3F,
0.219362166666667,0,0x8619,
0.219393083333333,0,0x0004,
0.219400750000000,0,0x031D,
0.219417125000000,0,0x0A01,
0.219425041666667,0,0x831D,
0.219440875000000,0,0x0F00,
0.219448791666667,0,0x841D,
0.219464666666667,0,0x0000,
0.219472583333333,0,0x8516,
0.219488416666667,0,0x6F3F,
0.219496333333333,0,0x861D,
0.219526500000000,0,0x0004,
0.219534166666667,0,0x0311,
0.219550291666667,0,0x0A01,
0.219558208333333,0,0x8311,
0.219574041666667,0,0x0F00,
0.219582000000000,0,0x8411,
0.219597833333333,0,0x0000,
0.219605750000000,0,0x8516,
0.219621583333333,0,0x6F3F,
0.219629500000000,0,0x8611,
0.219659833333333,0,0x0004,
0.219667541666667,0,0x0315,
0.219683958333333,0,0x0A01,
0.219691833333333,0,0x8315,
0.219707708333333,0,0x0F00,
0.219715625000000,0,0x8415,
0.219731458333333,0,0x0000,
0.219739375000000,0,0x8516,
0.219755208333333,0,0x673F,
0.219763125000000,0,0x8615,
0.219793458333333,0,0x0001,
0.219801125000000,0,0x1D19,
0.219817583333333,0,0x1551,
0.219825458333333,0,0x9D19,
0.219853625000000,0,0x0003,
0.219861291666667,0,0x241D,
0.219877458333333,0,0x0048,
0.219885375000000,0,0xA416,
0.219901208333333,0,0x0040,
0.219909125000000,0,0xA516,
0.219924958333333,0,0x8000,
0.219932875000000,0,0xA616,
0.219961625000000,0,0x0005,
0.219969333333333,0,0x2D11,
0.219985333333333,0,0xBD93,
0.219993250000000,0,0xAD16,
0.220009083333333,0,0xFFF0,
0.220017000000000,0,0xAE16,
0.220032833333333,0,0xD148,
0.220040750000000,0,0xAF16,
0.220056583333333,0,0xFFFF,
0.220064500000000,0,0xB016,
0.220080333333333,0,0x830E,
0.220088250000000,0,0xB116,
0.220117416666667,0,0x0006,
0.220125125000000,0,0x3B15,
0.220141166666667,0,0xB3E4,
0.220149125000000,0,0xBB16,
0.220164958333333,0,0xB332,
0.220172875000000,0,0xBC16,
0.220188708333333,0,0xB2C3,
0.220196625000000,0,0xBD16,
0.220212458333333,0,0xB206,
0.220220375000000,0,0xBE16,
0.220236250000000,0,0xB205,
0.220244166666667,0,0xBF16,
0.220260000000000,0,0xB274,
0.220267916666667,0,0xC016,
0.220298291666667,0,0x000A,
0.220306000000000,0,0x4119,
0.220322333333333,0,0xC0C3,
0.220330250000000,0,0xC116,
0.220346083333333,0,0xC0C4,
0.220354000000000,0,0xC216,
0.220369833333333,0,0xC0BF,
0.220377750000000,0,0xC316,
0.220393625000000,0,0xC0C2,
0.220401541666667,0,0xC416,
0.220417375000000,0,0xC0C5,
0.220425250000000,0,0xC516,
0.220441083333333,0,0xDDC9,
0.220449041666667,0,0xC616,
0.220464875000000,0,0x83AE,
0.220472791666667,0,0xC716,
0.220488625000000,0,0xA3BD,
0.220496541666667,0,0xC816,
0.220512416666667,0,0x9E37,
0.220520333333333,0,0xC916,
0.220536125000000,0,0x9E3D,
0.220544083333333,0,0xCA16,
0.220575875000000,0,0x0004,
0.220583541666667,0,0x032D,
0.220599750000000,0,0x0A01,
0.220607625000000,0,0x832D,
0.220623333333333,0,0x0F00,
0.220631208333333,0,0x842D,
0.220646916666667,0,0x0000,
0.220654791666667,0,0x8526,
0.220670500000000,0,0x673F,
0.220678333333333,0,0x862D,
0.220708916666667,0,0x0001,
0.220716583333333,0,0x1D21,
0.220732875000000,0,0x0055,
0.220740750000000,0,0x9D21,
0.220769041666667,0,0x0003,
0.220776708333333,0,0x2425,
0.220792791666667,0,0x004C,
0.220800666666667,0,0xA426,
0.220816375000000,0,0x0040,
0.220824208333333,0,0xA526,
0.220839958333333,0,0x8000,
0.220847791666667,0,0xA626,
0.220876833333333,0,0x0005,
0.220884541666667,0,0x2D29,
0.220900833333333,0,0xC810,
0.220908708333333,0,0xAD26,
0.220924416666667,0,0xFFF3,
0.220932250000000,0,0xAE26,
0.220947958333333,0,0x0D38,
0.220955833333333,0,0xAF26,
0.220971541666667,0,0x8000,
0.220979416666667,0,0xB026,
0.220995125000000,0,0x8300,
0.221003000000000,0,0xB126,
0.221033708333333,0,0x0006,
0.221041416666667,0,0x3B2D,
0.221057500000000,0,0xE524,
0.221065375000000,0,0xBB26,
0.221081083333333,0,0x8003,
0.221088958333333,0,0xBC26,
0.221104666666667,0,0x8000,
0.221112541666667,0,0xBD26,
0.221128250000000,0,0x8002,
0.221136083333333,0,0xBE26,
0.221151791666667,0,0xE5C4,
0.221159666666667,0,0xBF26,
0.221175375000000,0,0xE5DF,
0.221183250000000,0,0xC026,
0.221214291666667,0,0x000A,
0.221221958333333,0,0x4121,
0.221238250000000,0,0xDC13,
0.221246083333333,0,0xC126,
0.221261791666667,0,0xDD23,
0.221269666666667,0,0xC226,
0.221285375000000,0,0xDF62,
0.221293250000000,0,0xC326,
0.221308958333333,0,0xE12D,
0.221316791666667,0,0xC426,
0.221332541666667,0,0xA97E,
0.221340375000000,0,0xC526,
0.221356083333333,0,0xFF51,
0.221363958333333,0,0xC626,
0.221379666666667,0,0xC015,
0.221387541666667,0,0xC726,
0.221403250000000,0,0xA3A0,
0.221411125000000,0,0xC826,
0.221426833333333,0,0x9E3B,
0.221434666666667,0,0xC926,
0.221450375000000,0,0x9E3F,
0.221458250000000,0,0xCA26,
0.229095250000000,0,0x7C3F,
0.229102958333333,0,0x0607,
0.229130041666667,0,0x0004,
0.229137750000000,0,0x0319,
0.229153833333333,0,0x0A01,
0.229161750000000,0,0x8319,
0.229177583333333,0,0x0F00,
0.229185500000000,0,0x8419,
0.229201375000000,0,0x0000,
0.229209291666667,0,0x8517,
0.229225125000000,0,0x7F3F,
0.229233041666667,0,0x8619,
0.229264833333333,0,0x0004,
0.229272500000000,0,0x031D,
0.229288458333333,0,0x0A01,
0.229296375000000,0,0x831D,
0.229312208333333,0,0x0F00,
0.229320125000000,0,0x841D,
0.229335958333333,0,0x0000,
0.229343916666667,0,0x8517,
0.229359750000000,0,0x7F3F,
0.229367666666667,0,0x861D,
0.229398833333333,0,0x0004,
0.229406500000000,0,0x0311,
0.229422625000000,0,0x0A01,
0.229430541666667,0,0x8311,
0.229446375000000,0,0x0F00,
0.229454291666667,0,0x8411,
0.229470125000000,0,0x0000,
0.229478083333333,0,0x8517,
0.229493916666667,0,0x7F3F,
0.229501833333333,0,0x8611,
0.229532708333333,0,0x0004,
0.229540375000000,0,0x0315,
0.229556750000000,0,0x0A01,
0.229564666666667,0,0x8315,
0.229580500000000,0,0x0F00,
0.229588416666667,0,0x8415,
0.229604250000000,0,0x0000,
0.229612166666667,0,0x8517,
0.229628000000000,0,0x7F3F,
0.229635916666667,0,0x8615,
0.229666083333333,0,0x0004,
0.229673750000000,0,0x0319,
0.229689875000000,0,0x0A01,
0.229697791666667,0,0x8319,
0.229713625000000,0,0x0F00,
0.229721541666667,0,0x8419,
0.229737375000000,0,0x0000,
0.229745291666667,0,0x8517,
0.229761125000000,0,0x773F,
0.229769041666667,0,0x8619,
0.229800125000000,0,0x0001,
0.229807791666667,0,0x1D1D,
0.229823958333333,0,0x1551,
0.229831875000000,0,0x9D1D,
0.229860041666667,0,0x0003,
0.229867708333333,0,0x2411,
0.229883833333333,0,0x0048,
0.229891750000000,0,0xA417,
0.229907583333333,0,0x0040,
0.229915500000000,0,0xA517,
0.229931333333333,0,0x8000,
0.229939250000000,0,0xA617,
0.229968083333333,0,0x0005,
0.229975750000000,0,0x2D15,
0.229992208333333,0,0xBE9D,
0.230000125000000,0,0xAD17,
0.230015958333333,0,0xFFF0,
0.230023875000000,0,0xAE17,
0.230039708333333,0,0xCEB8,
0.230047625000000,0,0xAF17,
0.230063458333333,0,0x8000,
0.230071375000000,0,0xB017,
0.230087208333333,0,0x8305,
0.230095125000000,0,0xB117,
0.230125166666667,0,0x0006,
0.230132833333333,0,0x3B19,
0.230149083333333,0,0xB3E5,
0.230157000000000,0,0xBB17,
0.230172833333333,0,0xB334,
0.230180750000000,0,0xBC17,
0.230196583333333,0,0xB2C2,
0.230204500000000,0,0xBD17,
0.230220333333333,0,0xB201,
0.230228250000000,0,0xBE17,
0.230244083333333,0,0xB207,
0.230252000000000,0,0xBF17,
0.230267833333333,0,0xB278,
0.230275750000000,0,0xC017,
0.230306458333333,0,0x000A,
0.230314125000000,0,0x411D,
0.230330166666667,0,0xC0C6,
0.230338083333333,0,0xC117,
0.230353916666667,0,0xC0C8,
0.230361833333333,0,0xC217,
0.230377666666667,0,0xC0C6,
0.230385583333333,0,0xC317,
0.230401458333333,0,0xC0C3,
0.230409333333333,0,0xC417,
0.230425166666667,0,0xC0C6,
0.230433083333333,0,0xC517,
0.230448916666667,0,0xDDC9,
0.230456875000000,0,0xC617,
0.230472666666667,0,0x83AE,
0.230480583333333,0,0xC717,
0.230496416666667,0,0xA3BE,
0.230504333333333,0,0xC817,
0.230520166666667,0,0x9E3A,
0.230528083333333,0,0xC917,
0.230543958333333,0,0x9E39,
0.230551833333333,0,0xCA17,
0.230583416666667,0,0x0004,
0.230591083333333,0,0x0321,
0.230607125000000,0,0x0A01,
0.230614958333333,0,0x8321,
0.230630666666667,0,0x0F00,
0.230638541666667,0,0x8421,
0.230654250000000,0,0x0000,
0.230662125000000,0,0x8527,
0.230677833333333,0,0x773F,
0.230685708333333,0,0x8621,
0.230716458333333,0,0x0001,
0.230724125000000,0,0x1D25,
0.230740208333333,0,0x0055,
0.230748083333333,0,0x9D25,
0.230776541666667,0,0x0003,
0.230784208333333,0,0x2429,
0.230800625000000,0,0x004C,
0.230808500000000,0,0xA427,
0.230824208333333,0,0x0040,
0.230832041666667,0,0xA527,
0.230847791666667,0,0x8000,
0.230855625000000,0,0xA627,
0.230884625000000,0,0x0005,
0.230892291666667,0,0x2D2D,
0.230908708333333,0,0xC91C,
0.230916541666667,0,0xAD27,
0.230932250000000,0,0xFFF3,
0.230940125000000,0,0xAE27,
0.230955833333333,0,0x0B15,
0.230963708333333,0,0xAF27,
0.230979416666667,0,0x8000,
0.230987291666667,0,0xB027,
0.231003000000000,0,0x8302,
0.231010875000000,0,0xB127,
0.231042333333333,0,0x0006,
0.231050000000000,0,0x3B21,
0.231066333333333,0,0xE523,
0.231074208333333,0,0xBB27,
0.231089916666667,0,0x8000,
0.231097791666667,0,0xBC27,
0.231113500000000,0,0x8000,
0.231121375000000,0,0xBD27,
0.231137083333333,0,0x8000,
0.231144958333333,0,0xBE27,
0.231160666666667,0,0xE5C5,
0.231168500000000,0,0xBF27,
0.231184250000000,0,0xE5DD,
0.231192083333333,0,0xC027,
0.231222250000000,0,0x000A,
0.231229916666667,0,0x4125,
0.231246125000000,0,0xDC14,
0.231254000000000,0,0xC127,
0.231269708333333,0,0xDD26,
0.231277583333333,0,0xC227,
0.231293291666667,0,0xDF65,
0.231301166666667,0,0xC327,
0.231316875000000,0,0xE12C,
0.231324708333333,0,0xC427,
0.231340458333333,0,0xA985,
0.231348291666667,0,0xC527,
0.231364000000000,0,0xFF4F,
0.231371875000000,0,0xC627,
0.231387583333333,0,0xC015,
0.231395458333333,0,0xC727,
0.231411166666667,0,0xA3A3,
0.231419041666667,0,0xC827,
0.231434750000000,0,0x9E3A,
0.231442583333333,0,0xC927,
0.231458291666667,0,0x9E3F,
0.231466166666667,0,0xCA27,
0.239183750000000,0,0x8C3F,
0.239191416666667,0,0x060B,
0.239219333333333,0,0x0004,
0.239227041666667,0,0x031D,
0.239243208333333,0,0x0A01,
0.239251125000000,0,0x831D,
0.239266958333333,0,0x0F00,
0.239274875000000,0,0x841D,
0.239290708333333,0,0x0000,
0.239298666666667,0,0x8518,
0.239314500000000,0,0x8F3F,
0.239322416666667,0,0x861D,
0.239352958333333,0,0x0004,
0.239360625000000,0,0x0311,
0.239376875000000,0,0x0A01,
0.239384791666667,0,0x8311,
0.239400625000000,0,0x0F00,
0.239408541666667,0,0x8411,
0.239424375000000,0,0x0000,
0.239432291666667,0,0x8518,
0.239448125000000,0,0x8F3F,
0.239456041666667,0,0x8611,
0.239486791666667,0,0x0004,
0.239494458333333,0,0x0315,
0.239510500000000,0,0x0A01,
0.239518458333333,0,0x8315,
0.239534250000000,0,0x0F00,
0.239542208333333,0,0x8415,
0.239558041666667,0,0x0000,
0.239565958333333,0,0x8518,
0.239581791666667,0,0x8F3F,
0.239589708333333,0,0x8615,
0.239620291666667,0,0x0004,
0.239628000000000,0,0x0319,
0.239644125000000,0,0x0A01,
0.239652041666667,0,0x8319,
0.239667875000000,0,0x0F00,
0.239675833333333,0,0x8419,
0.239691625000000,0,0x0000,
0.239699583333333,0,0x8518,
0.239715416666667,0,0x8F3F,
0.239723333333333,0,0x8619,
0.239753958333333,0,0x0004,
0.239761666666667,0,0x031D,
0.239777750000000,0,0x0A01,
0.239785666666667,0,0x831D,
0.239801500000000,0,0x0F00,
0.239809416666667,0,0x841D,
0.239825250000000,0,0x0000,
0.239833166666667,0,0x8518,
0.239849000000000,0,0x873F,
0.239856958333333,0,0x861D,
0.239887250000000,0,0x0001,
0.239894916666667,0,0x1D11,
0.239910875000000,0,0x1551,
0.239918791666667,0,0x9D11,
0.239946541666667,0,0x0003,
0.239954208333333,0,0x2415,
0.239970250000000,0,0x0048,
0.239978166666667,0,0xA418,
0.239994000000000,0,0x0040,
0.240001916666667,0,0xA518,
0.240017750000000,0,0x8000,
0.240025666666667,0,0xA618,
0.240053875000000,0,0x0005,
0.240061541666667,0,0x2D19,
0.240077625000000,0,0xBFAA,
0.240085541666667,0,0xAD18,
0.240101375000000,0,0xFFF0,
0.240109291666667,0,0xAE18,
0.240125125000000,0,0xCC14,
0.240133041666667,0,0xAF18,
0.240148875000000,0,0xFFFF,
0.240156791666667,0,0xB018,
0.240172625000000,0,0x830C,
0.240180541666667,0,0xB118,
0.240210666666667,0,0x0006,
0.240218375000000,0,0x3B1D,
0.240234500000000,0,0xB3E5,
0.240242416666667,0,0xBB18,
0.240258250000000,0,0xB331,
0.240266166666667,0,0xBC18,
0.240282000000000,0,0xB2C0,
0.240289916666667,0,0xBD18,
0.240305750000000,0,0xB203,
0.240313666666667,0,0xBE18,
0.240329500000000,0,0xB202,
0.240337416666667,0,0xBF18,
0.240353250000000,0,0xB273,
0.240361166666667,0,0xC018,
0.240391583333333,0,0x000A,
0.240399250000000,0,0x4111,
0.240415625000000,0,0xC0C5,
0.240423541666667,0,0xC118,
0.240439375000000,0,0xC0C4,
0.240447291666667,0,0xC218,
0.240463125000000,0,0xC0C4,
0.240471041666667,0,0xC318,
0.240486875000000,0,0xC0C5,
0.240494791666667,0,0xC418,
0.240510625000000,0,0xC0C8,
0.240518541666667,0,0xC518,
0.240534375000000,0,0xDDC7,
0.240542291666667,0,0xC618,
0.240558125000000,0,0x83AF,
0.240566083333333,0,0xC718,
0.240581916666667,0,0xA3C1,
0.240589791666667,0,0xC818,
0.240605666666667,0,0x9E38,
0.240613583333333,0,0xC918,
0.240629416666667,0,0x9E3C,
0.240637333333333,0,0xCA18,
0.240669166666667,0,0x0004,
0.240676875000000,0,0x0325,
0.240692916666667,0,0x0A01,
0.240700791666667,0,0x8325,
0.240716500000000,0,0x0F00,
0.240724333333333,0,0x8425,
0.240740083333333,0,0x0000,
0.240747916666667,0,0x8528,
0.240763666666667,0,0x873F,
0.240771500000000,0,0x8625,
0.240802375000000,0,0x0001,
0.240810041666667,0,0x1D29,
0.240826041666667,0,0x0055,
0.240833875000000,0,0x9D29,
0.240861958333333,0,0x0003,
0.240869666666667,0,0x242D,
0.240885958333333,0,0x004C,
0.240893791666667,0,0xA428,
0.240909541666667,0,0x0040,
0.240917375000000,0,0xA528,
0.240933083333333,0,0x8000,
0.240940958333333,0,0xA628,
0.240970291666667,0,0x0005,
0.240978000000000,0,0x2D21,
0.240994000000000,0,0xCA2A,
0.241001833333333,0,0xAD28,
0.241017541666667,0,0xFFF3,
0.241025416666667,0,0xAE28,
0.241041125000000,0,0x0881,
0.241049000000000,0,0xAF28,
0.241064708333333,0,0xFFFF,
0.241072583333333,0,0xB028,
0.241088250000000,0,0x830F,
0.241096125000000,0,0xB128,
0.241125958333333,0,0x0006,
0.241133625000000,0,0x3B25,
0.241149666666667,0,0xE523,
0.241157541666667,0,0xBB28,
0.241173250000000,0,0x8000,
0.241181083333333,0,0xBC28,
0.241196791666667,0,0x8000,
0.241204666666667,0,0xBD28,
0.241220375000000,0,0x8000,
0.241228250000000,0,0xBE28,
0.241243958333333,0,0xE5C9,
0.241251833333333,0,0xBF28,
0.241267500000000,0,0xE5E5,
0.241275375000000,0,0xC028,
0.241305250000000,0,0x000A,
0.241312958333333,0,0x4129,
0.241328916666667,0,0xDC13,
0.241336750000000,0,0xC128,
0.241352500000000,0,0xDD23,
0.241360333333333,0,0xC228,
0.241376041666667,0,0xDF64,
0.241383916666667,0,0xC328,
0.241399625000000,0,0xE12C,
0.241407500000000,0,0xC428,
0.241423208333333,0,0xA983,
0.241431041666667,0,0xC528,
0.241446791666667,0,0xFF4C,
0.241454625000000,0,0xC628,
0.241470333333333,0,0xC01A,
0.241478208333333,0,0xC728,
0.241493916666667,0,0xA3A4,
0.241501791666667,0,0xC828,
0.241517500000000,0,0x9E3A,
0.241525375000000,0,0xC928,
0.241541083333333,0,0x9E3D,
0.241548916666667,0,0xCA28,
0.249088833333333,0,0x9C3F,
0.249096541666667,0,0x060F,
0.249123666666667,0,0x0004,
0.249131333333333,0,0x0311,
0.249147416666667,0,0x0A01,
0.249155333333333,0,0x8311,
0.249171166666667,0,0x0F00,
0.249179125000000,0,0x8411,
0.249194958333333,0,0x0000,
0.249202875000000,0,0x8519,
0.249218708333333,0,0x9F3F,
0.249226625000000,0,0x8611,
0.249257541666667,0,0x0004,
0.249265208333333,0,0x0315,
0.249281625000000,0,0x0A01,
0.249289541666667,0,0x8315,
0.249305375000000,0,0x0F00,
0.249313291666667,0,0x8415,
0.249329125000000,0,0x0000,
0.249337041666667,0,0x8519,
0.249352875000000,0,0x9F3F,
0.249360833333333,0,0x8615,
0.249391333333333,0,0x0004,
0.249399000000000,0,0x0319,
0.249415250000000,0,0x0A01,
0.249423166666667,0,0x8319,
0.249439000000000,0,0x0F00,
0.249446916666667,0,0x8419,
0.249462750000000,0,0x0000,
0.249470708333333,0,0x8519,
0.249486541666667,0,0x9F3F,
0.249494458333333,0,0x8619,
0.249525250000000,0,0x0004,
0.249532916666667,0,0x031D,
0.249549375000000,0,0x0A01,
0.249557333333333,0,0x831D,
0.249573166666667,0,0x0F00,
0.249581083333333,0,0x841D,
0.249596916666667,0,0x0000,
0.249604833333333,0,0x8519,
0.249620666666667,0,0x9F3F,
0.249628583333333,0,0x861D,
0.249659041666667,0,0x0004,
0.249666708333333,0,0x0311,
0.249683041666667,0,0x0A01,
0.249690958333333,0,0x8311,
0.249706791666667,0,0x0F00,
0.249714666666667,0,0x8411,
0.249730541666667,0,0x0000,
0.249738458333333,0,0x8519,
0.249754291666667,0,0x973F,
0.249762166666667,0,0x8611,
0.249792166666667,0,0x0001,
0.249799875000000,0,0x1D15,
0.249816125000000,0,0x1551,
0.249824041666667,0,0x9D15,
0.249852416666667,0,0x0003,
0.249860083333333,0,0x2419,
0.249876500000000,0,0x0048,
0.249884416666667,0,0xA419,
0.249900250000000,0,0x0040,
0.249908166666667,0,0xA519,
0.249924000000000,0,0x8000,
0.249931916666667,0,0xA619,
0.249960666666667,0,0x0005,
0.249968375000000,0,0x2D1D,
0.249984375000000,0,0xC0B1,
0.249992291666667,0,0xAD19,
0.250008125000000,0,0xFFF0,
0.250016041666667,0,0xAE19,
0.250031875000000,0,0xC926,
0.250039791666667,0,0xAF19,
0.250055625000000,0,0xFFFF,
0.250063541666667,0,0xB019,
0.250079375000000,0,0x830B,
0.250087291666667,0,0xB119,
0.250117583333333,0,0x0006,
0.250125250000000,0,0x3B11,
0.250141708333333,0,0xB3E4,
0.250149666666667,0,0xBB19,
0.250165500000000,0,0xB330,
0.250173416666667,0,0xBC19,
0.250189250000000,0,0xB2C2,
0.250197166666667,0,0xBD19,
0.250213000000000,0,0xB207,
0.250220916666667,0,0xBE19,
0.250236750000000,0,0xB207,
0.250244666666667,0,0xBF19,
0.250260500000000,0,0xB275,
0.250268416666667,0,0xC019,
0.250299541666667,0,0x000A,
0.250307208333333,0,0x4115,
0.250323333333333,0,0xC0C2,
0.250331250000000,0,0xC119,
0.250347083333333,0,0xC0C4,
0.250355000000000,0,0xC219,
0.250370833333333,0,0xC0C4,
0.250378750000000,0,0xC319,
0.250394583333333,0,0xC0C6,
0.250402500000000,0,0xC419,
0.250418333333333,0,0xC0C5,
0.250426250000000,0,0xC519,
0.250442083333333,0,0xDDCE,
0.250450000000000,0,0xC619,
0.250465833333333,0,0x83B0,
0.250473750000000,0,0xC719,
0.250489583333333,0,0xA3BD,
0.250497500000000,0,0xC819,
0.250513375000000,0,0x9E39,
0.250521291666667,0,0xC919,
0.250537125000000,0,0x9E3C,
0.250545041666667,0,0xCA19,
0.250576583333333,0,0x0004,
0.250584250000000,0,0x0329,
0.250600541666667,0,0x0A01,
0.250608416666667,0,0x8329,
0.250624125000000,0,0x0F00,
0.250632000000000,0,0x8429,
0.250647708333333,0,0x0000,
0.250655583333333,0,0x8529,
0.250671291666667,0,0x973F,
0.250679125000000,0,0x8629,
0.250710375000000,0,0x0001,
0.250718083333333,0,0x1D2D,
0.250734166666667,0,0x0055,
0.250742000000000,0,0x9D2D,
0.250769458333333,0,0x0003,
0.250777166666667,0,0x2421,
0.250793541666667,0,0x004C,
0.250801416666667,0,0xA429,
0.250817125000000,0,0x0040,
0.250825000000000,0,0xA529,
0.250840708333333,0,0x8000,
0.250848583333333,0,0xA629,
0.250877208333333,0,0x0005,
0.250884916666667,0,0x2D25,
0.250901125000000,0,0xCB34,
0.250908958333333,0,0xAD29,
0.250924666666667,0,0xFFF3,
0.250932541666667,0,0xAE29,
0.250948250000000,0,0x0637,
0.250956125000000,0,0xAF29,
0.250971833333333,0,0x8000,
0.250979666666667,0,0xB029,
0.250995375000000,0,0x8300,
0.251003250000000,0,0xB129,
0.251034375000000,0,0x0006,
0.251042041666667,0,0x3B29,
0.251058250000000,0,0xE525,
0.251066125000000,0,0xBB29,
0.251081833333333,0,0x8000,
0.251089708333333,0,0xBC29,
0.251105416666667,0,0x8000,
0.251113250000000,0,0xBD29,
0.251129000000000,0,0x8000,
0.251136833333333,0,0xBE29,
0.251152583333333,0,0xE5C6,
0.251160416666667,0,0xBF29,
0.251176125000000,0,0xE5DE,
0.251184000000000,0,0xC029,
0.251214625000000,0,0x000A,
0.251222333333333,0,0x412D,
0.251238500000000,0,0xDC12,
0.251246375000000,0,0xC129,
0.251262083333333,0,0xDD24,
0.251269916666667,0,0xC229,
0.251285625000000,0,0xDF65,
0.251293500000000,0,0xC329,
0.251309208333333,0,0xE12D,
0.251317083333333,0,0xC429,
0.251332791666667,0,0xA983,
0.251340666666667,0,0xC529,
0.251356375000000,0,0xFF52,
0.251364250000000,0,0xC629,
0.251379958333333,0,0xC015,
0.251387833333333,0,0xC729,
0.251403541666667,0,0xA3A0,
0.251411416666667,0,0xC829,
0.251427125000000,0,0x9E3A,
0.251434958333333,0,0xC929,
0.251450708333333,0,0x9E3E,
0.251458541666667,0,0xCA29,
0.259038750000000,0,0xAC3F,
0.259046416666667,0,0x0603,
0.259072875000000,0,0x0004,
0.259080583333333,0,0x0315,
0.259096583333333,0,0x0A01,
0.259104500000000,0,0x8315,
0.259120333333333,0,0x0F00,
0.259128250000000,0,0x8415,
0.259144083333333,0,0x0000,
0.259152041666667,0,0x851A,
0.259167875000000,0,0xAF3F,
0.259175750000000,0,0x8615,
0.259206875000000,0,0x0004,
0.259214541666667,0,0x0319,
0.259230708333333,0,0x0A01,
0.259238666666667,0,0x8319,
0.259254500000000,0,0x0F00,
0.259262416666667,0,0x8419,
0.259278250000000,0,0x0000,
0.259286166666667,0,0x851A,
0.259302000000000,0,0xAF3F,
0.259309916666667,0,0x8619,
0.259339791666667,0,0x0004,
0.259347458333333,0,0x031D,
0.259363875000000,0,0x0A01,
0.259371791666667,0,0x831D,
0.259387625000000,0,0x0F00,
0.259395541666667,0,0x841D,
0.259411375000000,0,0x0000,
0.259419291666667,0,0x851A,
0.259435125000000,0,0xAF3F,
0.259443041666667,0,0x861D,
0.259473875000000,0,0x0004,
0.259481541666667,0,0x0311,
0.259498000000000,0,0x0A01,
0.259505916666667,0,0x8311,
0.259521750000000,0,0x0F00,
0.259529666666667,0,0x8411,
0.259545500000000,0,0x0000,
0.259553458333333,0,0x851A,
0.259569250000000,0,0xAF3F,
0.259577208333333,0,0x8611,
0.259607375000000,0,0x0004,
0.259615041666667,0,0x0315,
0.259631125000000,0,0x0A01,
0.259639041666667,0,0x8315,
0.259654875000000,0,0x0F00,
0.259662791666667,0,0x8415,
0.259678625000000,0,0x0000,
0.259686541666667,0,0x851A,
0.259702375000000,0,0xA73F,
0.259710291666667,0,0x8615,
0.259740625000000,0,0x0001,
0.259748333333333,0,0x1D19,
0.259764708333333,0,0x1551,
0.259772583333333,0,0x9D19,
0.259801250000000,0,0x0003,
0.259808916666667,0,0x241D,
0.259825041666667,0,0x0048,
0.259832958333333,0,0xA41A,
0.259848791666667,0,0x0040,
0.259856708333333,0,0xA51A,
0.259872541666667,0,0x8000,
0.259880500000000,0,0xA61A,
0.259909958333333,0,0x0005,
0.259917666666667,0,0x2D11,
0.259933916666667,0,0xC1BA,
0.259941833333333,0,0xAD1A,
0.259957666666667,0,0xFFF0,
0.259965583333333,0,0xAE1A,
0.259981416666667,0,0xC690,
0.259989333333333,0,0xAF1A,
0.260005166666667,0,0x8000,
0.260013083333333,0,0xB01A,
0.260028958333333,0,0x8301,
0.260036875000000,0,0xB11A,
0.260067166666667,0,0x0006,
0.260074875000000,0,0x3B15,
0.260091291666667,0,0xB3DE,
0.260099208333333,0,0xBB1A,
0.260115041666667,0,0xB329,
0.260122958333333,0,0xBC1A,
0.260138791666667,0,0xB2C3,
0.260146708333333,0,0xBD1A,
0.260162541666667,0,0xB201,
0.260170458333333,0,0xBE1A,
0.260186291666667,0,0xB208,
0.260194208333333,0,0xBF1A,
0.260210041666667,0,0xB27A,
0.260217958333333,0,0xC01A,
0.260248416666667,0,0x000A,
0.260256083333333,0,0x4119,
0.260272375000000,0,0xC0C6,
0.260280291666667,0,0xC11A,
0.260296125000000,0,0xC0C4,
0.260304041666667,0,0xC21A,
0.260319875000000,0,0xC0C4,
0.260327791666667,0,0xC31A,
0.260343625000000,0,0xC0C4,
0.260351541666667,0,0xC41A,
0.260367416666667,0,0xC0C6,
0.260375333333333,0,0xC51A,
0.260391125000000,0,0xDDCA,
0.260399041666667,0,0xC61A,
0.260414916666667,0,0x83B0,
0.260422833333333,0,0xC71A,
0.260438666666667,0,0xA3BE,
0.260446583333333,0,0xC81A,
0.260462416666667,0,0x9E37,
0.260470333333333,0,0xC91A,
0.260486125000000,0,0x9E3C,
0.260494041666667,0,0xCA1A,
0.260526250000000,0,0x0004,
0.260533916666667,0,0x032D,
0.260550250000000,0,0x0A01,
0.260558083333333,0,0x832D,
0.260573791666667,0,0x0F00,
0.260581666666667,0,0x842D,
0.260597416666667,0,0x0000,
0.260605250000000,0,0x852A,
0.260620958333333,0,0xA73F,
0.260628833333333,0,0x862D,
0.260658875000000,0,0x0001,
0.260666541666667,0,0x1D21,
0.260682875000000,0,0x0055,
0.260690708333333,0,0x9D21,
0.260719458333333,0,0x0003,
0.260727125000000,0,0x2425,
0.260743291666667,0,0x004C,
0.260751125000000,0,0xA42A,
0.260766833333333,0,0x0040,
0.260774708333333,0,0xA52A,
0.260790416666667,0,0x8000,
0.260798291666667,0,0xA62A,
0.260827375000000,0,0x0005,
0.260835083333333,0,0x2D29,
0.260851333333333,0,0xCC3E,
0.260859208333333,0,0xAD2A,
0.260874916666667,0,0xFFF3,
0.260882750000000,0,0xAE2A,
0.260898500000000,0,0x03D5,
0.260906333333333,0,0xAF2A,
0.260922083333333,0,0xFFFF,
0.260929916666667,0,0xB02A,
0.260945625000000,0,0x8308,
0.260953500000000,0,0xB12A,
0.260982875000000,0,0x0006,
0.260990541666667,0,0x3B2D,
0.261006541666667,0,0xE529,
0.261014416666667,0,0xBB2A,
0.261030125000000,0,0x8002,
0.261038000000000,0,0xBC2A,
0.261053708333333,0,0x8000,
0.261061583333333,0,0xBD2A,
0.261077291666667,0,0x8000,
0.261085166666667,0,0xBE2A,
0.261100875000000,0,0xE5C2,
0.261108708333333,0,0xBF2A,
0.261124416666667,0,0xE5DD,
0.261132291666667,0,0xC02A,
0.261163791666667,0,0x000A,
0.261171458333333,0,0x4121,
0.261187791666667,0,0xDC0F,
0.261195666666667,0,0xC12A,
0.261211375000000,0,0xDD25,
0.261219250000000,0,0xC22A,
0.261234958333333,0,0xDF65,
0.261242833333333,0,0xC32A,
0.261258541666667,0,0xE12A,
0.261266375000000,0,0xC42A,
0.261282083333333,0,0xA981,
0.261289958333333,0,0xC52A,
0.261305666666667,0,0xFF4E,
0.261313541666667,0,0xC62A,
0.261329250000000,0,0xC016,
0.261337125000000,0,0xC72A,
0.261352833333333,0,0xA3A1,
0.261360708333333,0,0xC82A,
0.261376416666667,0,0x9E39,
0.261384250000000,0,0xC92A,
0.261400000000000,0,0x9E3B,
0.261407833333333,0,0xCA2A,
0.269270000000000,0,0xBC3F,
0.269277666666667,0,0x0607,
0.269305125000000,0,0x0004,
0.269312791666667,0,0x0319,
0.269329083333333,0,0x0A01,
0.269337000000000,0,0x8319,
0.269352875000000,0,0x0F00,
0.269360791666667,0,0x8419,
0.269376625000000,0,0x0000,
0.269384541666667,0,0x851B,
0.269400375000000,0,0xBF3F,
0.269408333333333,0,0x8619,
0.269439416666667,0,0x0004,
0.269447125000000,0,0x031D,
0.269463250000000,0,0x0A01,
0.269471166666667,0,0x831D,
0.269487041666667,0,0x0F00,
0.269494958333333,0,0x841D,
0.269510791666667,0,0x0000,
0.269518708333333,0,0x851B,
0.269534541666667,0,0xBF3F,
0.269542500000000,0,0x861D,
0.269573833333333,0,0x0004,
0.269581541666667,0,0x0311,
0.269597916666667,0,0x0A01,
0.269605833333333,0,0x8311,
0.269621666666667,0,0x0F00,
0.269629583333333,0,0x8411,
0.269645458333333,0,0x0000,
0.269653375000000,0,0x851B,
0.269669208333333,0,0xBF3F,
0.269677125000000,0,0x8611,
0.269707666666667,0,0x0004,
0.269715333333333,0,0x0315,
0.269731583333333,0,0x0A01,
0.269739500000000,0,0x8315,
0.269755333333333,0,0x0F00,
0.269763250000000,0,0x8415,
0.269779083333333,0,0x0000,
0.269787000000000,0,0x851B,
0.269802833333333,0,0xBF3F,
0.269810750000000,0,0x8615,
0.269840666666667,0,0x0004,
0.269848333333333,0,0x0319,
0.269864666666667,0,0x0A01,
0.269872625000000,0,0x8319,
0.269888458333333,0,0x0F00,
0.269896333333333,0,0x8419,
0.269912208333333,0,0x0000,
0.269920083333333,0,0x851B,
0.269935958333333,0,0xB73F,
0.269943875000000,0,0x8619,
0.269973958333333,0,0x0001,
0.269981666666667,0,0x1D1D,
0.269997791666667,0,0x1551,
0.270005708333333,0,0x9D1D,
0.270033291666667,0,0x0003,
0.270040958333333,0,0x2411,
0.270057166666667,0,0x0048,
0.270065125000000,0,0xA41B,
0.270080958333333,0,0x0040,
0.270088875000000,0,0xA51B,
0.270104708333333,0,0x8000,
0.270112625000000,0,0xA61B,
0.270141708333333,0,0x0005,
0.270149416666667,0,0x2D15,
0.270165541666667,0,0xC2CA,
0.270173458333333,0,0xAD1B,
0.270189291666667,0,0xFFF0,
0.270197208333333,0,0xAE1B,
0.270213041666667,0,0xC488,
0.270220958333333,0,0xAF1B,
0.270236791666667,0,0x8000,
0.270244708333333,0,0xB01B,
0.270260541666667,0,0x8300,
0.270268458333333,0,0xB11B,
0.270298375000000,0,0x0006,
0.270306083333333,0,0x3B19,
0.270322416666667,0,0xB3E5,
0.270330291666667,0,0xBB1B,
0.270346125000000,0,0xB334,
0.270354083333333,0,0xBC1B,
0.270369916666667,0,0xB2C0,
0.270377833333333,0,0xBD1B,
0.270393666666667,0,0xB204,
0.270401583333333,0,0xBE1B,
0.270417416666667,0,0xB205,
0.270425333333333,0,0xBF1B,
0.270441166666667,0,0xB275,
0.270449083333333,0,0xC01B,
0.270479333333333,0,0x000A,
0.270487000000000,0,0x411D,
0.270503000000000,0,0xC0C3,
0.270510916666667,0,0xC11B,
0.270526750000000,0,0xC0C2,
0.270534666666667,0,0xC21B,
0.270550458333333,0,0xC0C4,
0.270558416666667,0,0xC31B,
0.270574250000000,0,0xC0C5,
0.270582166666667,0,0xC41B,
0.270598000000000,0,0xC0C5,
0.270605916666667,0,0xC51B,
0.270621750000000,0,0xDDC9,
0.270629666666667,0,0xC61B,
0.270645500000000,0,0x83AF,
0.270653416666667,0,0xC71B,
0.270669250000000,0,0xA3BF,
0.270677166666667,0,0xC81B,
0.270693000000000,0,0x9E35,
0.270700916666667,0,0xC91B,
0.270716750000000,0,0x9E39,
0.270724666666667,0,0xCA1B,
0.270757208333333,0,0x0004,
0.270764916666667,0,0x0321,
0.270780875000000,0,0x0A01,
0.270788750000000,0,0x8321,
0.270804458333333,0,0x0F00,
0.270812291666667,0,0x8421,
0.270828041666667,0,0x0000,
0.270835875000000,0,0x852B,
0.270851583333333,0,0xB73F,
0.270859458333333,0,0x8621,
0.270890000000000,0,0x0001,
0.270897666666667,0,0x1D25,
0.270913958333333,0,0x0055,
0.270921833333333,0,0x9D25,
0.270949666666667,0,0x0003,
0.270957333333333,0,0x2429,
0.270973416666667,0,0x004C,
0.270981250000000,0,0xA42B,
0.270996958333333,0,0x0040,
0.271004833333333,0,0xA52B,
0.271020541666667,0,0x8000,
0.271028416666667,0,0xA62B,
0.271057416666667,0,0x0005,
0.271065083333333,0,0x2D2D,
0.271081458333333,0,0xCD50,
0.271089333333333,0,0xAD2B,
0.271105041666667,0,0xFFF3,
0.271112916666667,0,0xAE2B,
0.271128625000000,0,0x0217,
0.271136458333333,0,0xAF2B,
0.271152166666667,0,0xFFFF,
0.271160041666667,0,0xB02B,
0.271175750000000,0,0x830D,
0.271183625000000,0,0xB12B,
0.271214250000000,0,0x0006,
0.271221916666667,0,0x3B21,
0.271238166666667,0,0xE52A,
0.271246000000000,0,0xBB2B,
0.271261750000000,0,0x8002,
0.271269583333333,0,0xBC2B,
0.271285291666667,0,0x8000,
0.271293166666667,0,0xBD2B,
0.271308875000000,0,0x8004,
0.271316750000000,0,0xBE2B,
0.271332458333333,0,0xE5C7,
0.271340333333333,0,0xBF2B,
0.271356041666667,0,0xE5E0,
0.271363875000000,0,0xC02B,
0.271393458333333,0,0x000A,
0.271401125000000,0,0x4125,
0.271417416666667,0,0xDC14,
0.271425291666667,0,0xC12B,
0.271441000000000,0,0xDD25,
0.271448833333333,0,0xC22B,
0.271464541666667,0,0xDF64,
0.271472416666667,0,0xC32B,
0.271488125000000,0,0xE12E,
0.271496000000000,0,0xC42B,
0.271511708333333,0,0xA985,
0.271519583333333,0,0xC52B,
0.271535291666667,0,0xFF50,
0.271543125000000,0,0xC62B,
0.271558875000000,0,0xC018,
0.271566708333333,0,0xC72B,
0.271582416666667,0,0xA3A4,
0.271590291666667,0,0xC82B,
0.271606000000000,0,0x9E3D,
0.271613833333333,0,0xC92B,
0.271629583333333,0,0x9E3F,
0.271637416666667,0,0xCA2B,
0.279075958333333,0,0xCC3F,
0.279083625000000,0,0x060B,
0.279111666666667,0,0x0004,
0.279119333333333,0,0x031D,
0.279135458333333,0,0x0A01,
0.279143375000000,0,0x831D,
0.279159208333333,0,0x0F00,
0.279167125000000,0,0x841D,
0.279182958333333,0,0x0000,
0.279190875000000,0,0x851C,
0.279206708333333,0,0xCF3F,
0.279214625000000,0,0x861D,
0.279245958333333,0,0x0004,
0.279253625000000,0,0x0311,
0.279270083333333,0,0x0A01,
0.279277958333333,0,0x8311,
0.279293833333333,0,0x0F00,
0.279301750000000,0,0x8411,
0.279317583333333,0,0x0000,
0.279325500000000,0,0x851C,
0.279341375000000,0,0xCF3F,
0.279349291666667,0,0x8611,
0.279379875000000,0,0x0004,
0.279387583333333,0,0x0315,
0.279403750000000,0,0x0A01,
0.279411666666667,0,0x8315,
0.279427500000000,0,0x0F00,
0.279435416666667,0,0x8415,
0.279451250000000,0,0x0000,
0.279459166666667,0,0x851C,
0.279475000000000,0,0xCF3F,
0.279482958333333,0,0x8615,
0.279513500000000,0,0x0004,
0.279521166666667,0,0x0319,
0.279537375000000,0,0x0A01,
0.279545291666667,0,0x8319,
0.279561125000000,0,0x0F00,
0.279569083333333,0,0x8419,
0.279584916666667,0,0x0000,
0.279592833333333,0,0x851C,
0.279608666666667,0,0xCF3F,
0.279616583333333,0,0x8619,
0.279645958333333,0,0x0004,
0.279653666666667,0,0x031D,
0.279670000000000,0,0x0A01,
0.279677916666667,0,0x831D,
0.279693750000000,0,0x0F00,
0.279701666666667,0,0x841D,
0.279717500000000,0,0x0000,
0.279725416666667,0,0x851C,
0.279741291666667,0,0xC73F,
0.279749208333333,0,0x861D,
0.279779000000000,0,0x0001,
0.279786708333333,0,0x1D11,
0.279803125000000,0,0x1551,
0.279811041666667,0,0x9D11,
0.279839583333333,0,0x0003,
0.279847291666667,0,0x2415,
0.279863500000000,0,0x0048,
0.279871458333333,0,0xA41C,
0.279887250000000,0,0x0040,
0.279895208333333,0,0xA51C,
0.279911041666667,0,0x8000,
0.279918958333333,0,0xA61C,
0.279947583333333,0,0x0005,
0.279955250000000,0,0x2D19,
0.279971375000000,0,0xC3CF,
0.279979291666667,0,0xAD1C,
0.279995125000000,0,0xFFF0,
0.280003041666667,0,0xAE1C,
0.280018875000000,0,0xC277,
0.280026791666667,0,0xAF1C,
0.280042625000000,0,0xFFFF,
0.280050541666667,0,0xB01C,
0.280066375000000,0,0x830B,
0.280074291666667,0,0xB11C,
0.280104208333333,0,0x0006,
0.280111875000000,0,0x3B1D,
0.280128250000000,0,0xB3E3,
0.280136166666667,0,0xBB1C,
0.280152000000000,0,0xB332,
0.280159916666667,0,0xBC1C,
0.280175708333333,0,0xB2C1,
0.280183666666667,0,0xBD1C,
0.280199458333333,0,0xB203,
0.280207416666667,0,0xBE1C,
0.280223208333333,0,0xB204,
0.280231125000000,0,0xBF1C,
0.280246958333333,0,0xB276,
0.280254875000000,0,0xC01C,
0.280285583333333,0,0x000A,
0.280293291666667,0,0x4111,
0.280309333333333,0,0xC0C5,
0.280317250000000,0,0xC11C,
0.280333083333333,0,0xC0C1,
0.280341000000000,0,0xC21C,
0.280356833333333,0,0xC0C6,
0.280364750000000,0,0xC31C,
0.280380583333333,0,0xC0C5,
0.280388500000000,0,0xC41C,
0.280404333333333,0,0xC0C6,
0.280412250000000,0,0xC51C,
0.280428083333333,0,0xDDC8,
0.280436000000000,0,0xC61C,
0.280451833333333,0,0x83AE,
0.280459750000000,0,0xC71C,
0.280475583333333,0,0xA3BE,
0.280483500000000,0,0xC81C,
0.280499333333333,0,0x9E3C,
0.280507250000000,0,0xC91C,
0.280523083333333,0,0x9E3C,
0.280531000000000,0,0xCA1C,
0.280562750000000,0,0x0004,
0.280570416666667,0,0x0325,
0.280586791666667,0,0x0A01,
0.280594666666667,0,0x8325,
0.280610375000000,0,0x0F00,
0.280618250000000,0,0x8425,
0.280633958333333,0,0x0000,
0.280641791666667,0,0x852C,
0.280657541666667,0,0xC73F,
0.280665416666667,0,0x8625,
0.280695625000000,0,0x0001,
0.280703291666667,0,0x1D29,
0.280719416666667,0,0x0055,
0.280727291666667,0,0x9D29,
0.280755375000000,0,0x0003,
0.280763083333333,0,0x242D,
0.280779333333333,0,0x004C,
0.280787166666667,0,0xA42C,
0.280802875000000,0,0x0040,
0.280810750000000,0,0xA52C,
0.280826458333333,0,0x8000,
0.280834333333333,0,0xA62C,
0.280862916666667,0,0x0005,
0.280870583333333,0,0x2D21,
0.280886875000000,0,0xCE57,
0.280894750000000,0,0xAD2C,
0.280910458333333,0,0xFFF2,
0.280918291666667,0,0xAE2C,
0.280934041666667,0,0xFF8A,
0.280941875000000,0,0xAF2C,
0.280957625000000,0,0xFFFF,
0.280965500000000,0,0xB02C,
0.280981208333333,0,0x830F,
0.280989041666667,0,0xB12C,
0.281018125000000,0,0x0006,
0.281025791666667,0,0x3B25,
0.281042083333333,0,0xE521,
0.281049958333333,0,0xBB2C,
0.281065666666667,0,0x8000,
0.281073500000000,0,0xBC2C,
0.281089250000000,0,0x8000,
0.281097083333333,0,0xBD2C,
0.281112791666667,0,0x8000,
0.281120666666667,0,0xBE2C,
0.281136375000000,0,0xE5C6,
0.281144250000000,0,0xBF2C,
0.281159958333333,0,0xE5DE,
0.281167791666667,0,0xC02C,
0.281197625000000,0,0x000A,
0.281205333333333,0,0x4129,
0.281221333333333,0,0xDC12,
0.281229208333333,0,0xC12C,
0.281244916666667,0,0xDD1F,
0.281252750000000,0,0xC22C,
0.281268458333333,0,0xDF63,
0.281276333333333,0,0xC32C,
0.281292041666667,0,0xE12A,
0.281299875000000,0,0xC42C,
0.281315625000000,0,0xA97F,
0.281323458333333,0,0xC52C,
0.281339208333333,0,0xFF48,
0.281347041666667,0,0xC62C,
0.281362791666667,0,0xC011,
0.281370625000000,0,0xC72C,
0.281386375000000,0,0xA3A1,
0.281394208333333,0,0xC82C,
0.281409916666667,0,0x9E39,
0.281417791666667,0,0xC92C,
0.281433500000000,0,0x9E3C,
0.281441375000000,0,0xCA2C,
0.289091708333333,0,0xDC3F,
0.289099375000000,0,0x060F,
0.289126791666667,0,0x0004,
0.289134458333333,0,0x0311,
0.289150458333333,0,0x0A01,
0.289158375000000,0,0x8311,
0.289174208333333,0,0x0F00,
0.289182125000000,0,0x8411,
0.289197958333333,0,0x0000,
0.289205875000000,0,0x851D,
0.289221750000000,0,0xDF3F,
0.289229666666667,0,0x8611,
0.289260625000000,0,0x0004,
0.289268291666667,0,0x0315,
0.289284583333333,0,0x0A01,
0.289292500000000,0,0x8315,
0.289308333333333,0,0x0F00,
0.289316250000000,0,0x8415,
0.289332083333333,0,0x0000,
0.289340041666667,0,0x851D,
0.289355875000000,0,0xDF3F,
0.289363791666667,0,0x8615,
0.289394250000000,0,0x0004,
0.289401958333333,0,0x0319,
0.289418250000000,0,0x0A01,
0.289426166666667,0,0x8319,
0.289442000000000,0,0x0F00,
0.289449916666667,0,0x8419,
0.289465750000000,0,0x0000,
0.289473708333333,0,0x851D,
0.289489541666667,0,0xDF3F,
0.289497458333333,0,0x8619,
0.289528458333333,0,0x0004,
0.289536125000000,0,0x031D,
0.289552416666667,0,0x0A01,
0.289560333333333,0,0x831D,
0.289576166666667,0,0x0F00,
0.289584083333333,0,0x841D,
0.289599916666667,0,0x0000,
0.289607833333333,0,0x851D,
0.289623666666667,0,0xDF3F,
0.289631625000000,0,0x861D,
0.289662208333333,0,0x0004,
0.289669916666667,0,0x0311,
0.289686041666667,0,0x0A01,
0.289693958333333,0,0x8311,
0.289709791666667,0,0x0F00,
0.289717708333333,0,0x8411,
0.289733541666667,0,0x0000,
0.289741458333333,0,0x851D,
0.289757291666667,0,0xD73F,
0.289765208333333,0,0x8611,
0.289795750000000,0,0x0001,
0.289803458333333,0,0x1D15,
0.289819666666667,0,0x1551,
0.289827583333333,0,0x9D15,
0.289855708333333,0,0x0003,
0.289863375000000,0,0x2419,
0.289879541666667,0,0x0048,
0.289887458333333,0,0xA41D,
0.289903291666667,0,0x0040,
0.289911208333333,0,0xA51D,
0.289927041666667,0,0x8000,
0.289934958333333,0,0xA61D,
0.289964416666667,0,0x0005,
0.289972125000000,0,0x2D1D,
0.289988416666667,0,0xC4D9,
0.289996333333333,0,0xAD1D,
0.290012166666667,0,0xFFF0,
0.290020125000000,0,0xAE1D,
0.290035958333333,0,0xC043,
0.290043875000000,0,0xAF1D,
0.290059708333333,0,0x8000,
0.290067625000000,0,0xB01D,
0.290083458333333,0,0x8301,
0.290091375000000,0,0xB11D,
0.290121000000000,0,0x0006,
0.290128666666667,0,0x3B11,
0.290144833333333,0,0xB3E7,
0.290152750000000,0,0xBB1D,
0.290168583333333,0,0xB330,
0.290176500000000,0,0xBC1D,
0.290192333333333,0,0xB2C1,
0.290200250000000,0,0xBD1D,
0.290216083333333,0,0xB202,
0.290224041666667,0,0xBE1D,
0.290239875000000,0,0xB206,
0.290247750000000,0,0xBF1D,
0.290263625000000,0,0xB27A,
0.290271541666667,0,0xC01D,
0.290301625000000,0,0x000A,
0.290309291666667,0,0x4115,
0.290325458333333,0,0xC0C4,
0.290333416666667,0,0xC11D,
0.290349250000000,0,0xC0C5,
0.290357166666667,0,0xC21D,
0.290373000000000,0,0xC0C4,
0.290380916666667,0,0xC31D,
0.290396750000000,0,0xC0C5,
0.290404666666667,0,0xC41D,
0.290420500000000,0,0xC0C7,
0.290428416666667,0,0xC51D,
0.290444250000000,0,0xDDCA,
0.290452166666667,0,0xC61D,
0.290468000000000,0,0x83B0,
0.290475916666667,0,0xC71D,
0.290491750000000,0,0xA3BF,
0.290499625000000,0,0xC81D,
0.290515500000000,0,0x9E37,
0.290523375000000,0,0xC91D,
0.290539208333333,0,0x9E3C,
0.290547166666667,0,0xCA1D,
0.290579041666667,0,0x0004,
0.290586750000000,0,0x0329,
0.290602833333333,0,0x0A01,
0.290610708333333,0,0x8329,
0.290626416666667,0,0x0F00,
0.290634250000000,0,0x8429,
0.290650000000000,0,0x0000,
0.290657833333333,0,0x852D,
0.290673541666667,0,0xD73F,
0.290681416666667,0,0x8629,
0.290711666666667,0,0x0001,
0.290719333333333,0,0x1D2D,
0.290735458333333,0,0x0055,
0.290743291666667,0,0x9D2D,
0.290771041666667,0,0x0003,
0.290778750000000,0,0x2421,
0.290794875000000,0,0x004C,
0.290802750000000,0,0xA42D,
0.290818458333333,0,0x0040,
0.290826333333333,0,0xA52D,
0.290842041666667,0,0x8000,
0.290849916666667,0,0xA62D,
0.290878500000000,0,0x0005,
0.290886166666667,0,0x2D25,
0.290902458333333,0,0xCF63,
0.290910333333333,0,0xAD2D,
0.290926041666667,0,0xFFF2,
0.290933916666667,0,0xAE2D,
0.290949625000000,0,0xFCBE,
0.290957458333333,0,0xAF2D,
0.290973208333333,0,0xFFFF,
0.290981041666667,0,0xB02D,
0.290996750000000,0,0x830A,
0.291004625000000,0,0xB12D,
0.291034708333333,0,0x0006,
0.291042416666667,0,0x3B29,
0.291058625000000,0,0xE527,
0.291066500000000,0,0xBB2D,
0.291082208333333,0,0x8003,
0.291090083333333,0,0xBC2D,
0.291105791666667,0,0x8000,
0.291113625000000,0,0xBD2D,
0.291129375000000,0,0x8000,
0.291137208333333,0,0xBE2D,
0.291152916666667,0,0xE5C4,
0.291160791666667,0,0xBF2D,
0.291176500000000,0,0xE5DF,
0.291184375000000,0,0xC02D,
0.291215666666667,0,0x000A,
0.291223375000000,0,0x412D,
0.291239333333333,0,0xDC0F,
0.291247208333333,0,0xC12D,
0.291262916666667,0,0xDD22,
0.291270791666667,0,0xC22D,
0.291286458333333,0,0xDF60,
0.291294333333333,0,0xC32D,
0.291310083333333,0,0xE129,
0.291317916666667,0,0xC42D,
0.291333666666667,0,0xA97F,
0.291341500000000,0,0xC52D,
0.291357208333333,0,0xFF4B,
0.291365083333333,0,0xC62D,
0.291380791666667,0,0xC00F,
0.291388666666667,0,0xC72D,
0.291404375000000,0,0xA3A5,
0.291412250000000,0,0xC82D,
0.291427958333333,0,0x9E39,
0.291435791666667,0,0xC92D,
0.291451500000000,0,0x9E3C,
0.291459375000000,0,0xCA2D,
0.299208583333333,0,0xEC3F,
0.299216250000000,0,0x0603,
0.299243791666667,0,0x0004,
0.299251458333333,0,0x0315,
0.299267541666667,0,0x0A01,
0.299275458333333,0,0x8315,
0.299291291666667,0,0x0F00,
0.299299208333333,0,0x8415,
0.299315041666667,0,0x0000,
0.299322958333333,0,0x851E,
0.299338791666667,0,0xEF3F,
0.299346708333333,0,0x8615,
0.299377375000000,0,0x0004,
0.299385041666667,0,0x0319,
0.299401166666667,0,0x0A01,
0.299409041666667,0,0x8319,
0.299424875000000,0,0x0F00,
0.299432833333333,0,0x8419,
0.299448666666667,0,0x0000,
0.299456583333333,0,0x851E,
0.299472416666667,0,0xEF3F,
0.299480333333333,0,0x8619,
0.299510625000000,0,0x0004,
0.299518291666667,0,0x031D,
0.299534750000000,0,0x0A01,
0.299542666666667,0,0x831D,
0.299558541666667,0,0x0F00,
0.299566458333333,0,0x841D,
0.299582291666667,0,0x0000,
0.299590208333333,0,0x851E,
0.299606041666667,0,0xEF3F,
0.299614000000000,0,0x861D,
0.299643666666667,0,0x0004,
0.299651333333333,0,0x0311,
0.299667458333333,0,0x0A01,
0.299675375000000,0,0x8311,
0.299691208333333,0,0x0F00,
0.299699125000000,0,0x8411,
0.299714958333333,0,0x0000,
0.299722875000000,0,0x851E,
0.299738708333333,0,0xEF3F,
0.299746625000000,0,0x8611,
0.299777083333333,0,0x0004,
0.299784750000000,0,0x0315,
0.299801041666667,0,0x0A01,
0.299809000000000,0,0x8315,
0.299824791666667,0,0x0F00,
0.299832708333333,0,0x8415,
0.299848541666667,0,0x0000,
0.299856458333333,0,0x851E,
0.299872291666667,0,0xE73F,
0.299880208333333,0,0x8615,
0.299909916666667,0,0x0001,
0.299917583333333,0,0x1D19,
0.299933625000000,0,0x1551,
0.299941541666667,0,0x9D19,
0.299969333333333,0,0x0003,
0.299977000000000,0,0x241D,
0.299993000000000,0,0x0048,
0.300000916666667,0,0xA41E,
0.300016750000000,0,0x0040,
0.300024666666667,0,0xA51E,
0.300040500000000,0,0x8000,
0.300048416666667,0,0xA61E,
0.300077666666667,0,0x0005,
0.300085375000000,0,0x2D11,
0.300101375000000,0,0xC5E6,
0.300109250000000,0,0xAD1E,
0.300125125000000,0,0xFFF0,
0.300133000000000,0,0xAE1E,
0.300148875000000,0,0xBDCD,
0.300156750000000,0,0xAF1E,
0.300172583333333,0,0x8000,
0.300180500000000,0,0xB01E,
0.300196333333333,0,0x8301,
0.300204291666667,0,0xB11E,
0.300234208333333,0,0x0006,
0.300241916666667,0,0x3B15,
0.300258208333333,0,0xB3E8,
0.300266083333333,0,0xBB1E,
0.300281958333333,0,0xB32F,
0.300289875000000,0,0xBC1E,
0.300305708333333,0,0xB2C1,
0.300313625000000,0,0xBD1E,
0.300329416666667,0,0xB206,
0.300337333333333,0,0xBE1E,
0.300353208333333,0,0xB209,
0.300361125000000,0,0xBF1E,
0.300376916666667,0,0xB278,
0.300384875000000,0,0xC01E,
0.300415333333333,0,0x000A,
0.300423000000000,0,0x4119,
0.300439250000000,0,0xC0C4,
0.300447208333333,0,0xC11E,
0.300463000000000,0,0xC0C9,
0.300470916666667,0,0xC21E,
0.300486750000000,0,0xC0C3,
0.300494708333333,0,0xC31E,
0.300510541666667,0,0xC0C6,
0.300518416666667,0,0xC41E,
0.300534250000000,0,0xC0C9,
0.300542208333333,0,0xC51E,
0.300558041666667,0,0xDDD1,
0.300565916666667,0,0xC61E,
0.300581791666667,0,0x83AF,
0.300589708333333,0,0xC71E,
0.300605541666667,0,0xA3BD,
0.300613458333333,0,0xC81E,
0.300629291666667,0,0x9E38,
0.300637208333333,0,0xC91E,
0.300653041666667,0,0x9E39,
0.300660958333333,0,0xCA1E,
0.300692250000000,0,0x0004,
0.300699916666667,0,0x032D,
0.300716208333333,0,0x0A01,
0.300724083333333,0,0x832D,
0.300739791666667,0,0x0F00,
0.300747625000000,0,0x842D,
0.300763375000000,0,0x0000,
0.300771208333333,0,0x852E,
0.300786916666667,0,0xE73F,
0.300794791666667,0,0x862D,
0.300825291666667,0,0x0001,
0.300832958333333,0,0x1D21,
0.300849291666667,0,0x0055,
0.300857166666667,0,0x9D21,
0.300885083333333,0,0x0003,
0.300892750000000,0,0x2425,
0.300908750000000,0,0x004C,
0.300916625000000,0,0xA42E,
0.300932333333333,0,0x0040,
0.300940166666667,0,0xA52E,
0.300955916666667,0,0x8000,
0.300963750000000,0,0xA62E,
0.300991916666667,0,0x0005,
0.300999625000000,0,0x2D29,
0.301015833333333,0,0xD072,
0.301023708333333,0,0xAD2E,
0.301039416666667,0,0xFFF2,
0.301047250000000,0,0xAE2E,
0.301062958333333,0,0xFBD5,
0.301070833333333,0,0xAF2E,
0.301086541666667,0,0x8000,
0.301094416666667,0,0xB02E,
0.301110125000000,0,0x8300,
0.301118000000000,0,0xB12E,
0.301148541666667,0,0x0006,
0.301156208333333,0,0x3B2D,
0.301172500000000,0,0xE525,
0.301180375000000,0,0xBB2E,
0.301196083333333,0,0x8000,
0.301203958333333,0,0xBC2E,
0.301219666666667,0,0x8000,
0.301227541666667,0,0xBD2E,
0.301243250000000,0,0x8002,
0.301251125000000,0,0xBE2E,
0.301266833333333,0,0xE5C5,
0.301274708333333,0,0xBF2E,
0.301290416666667,0,0xE5DE,
0.301298250000000,0,0xC02E,
0.301328625000000,0,0x000A,
0.301336291666667,0,0x4121,
0.301352291666667,0,0xDC14,
0.301360125000000,0,0xC12E,
0.301375833333333,0,0xDD28,
0.301383708333333,0,0xC22E,
0.301399458333333,0,0xDF66,
0.301407291666667,0,0xC32E,
0.301423000000000,0,0xE12D,
0.301430875000000,0,0xC42E,
0.301446583333333,0,0xA985,
0.301454416666667,0,0xC52E,
0.301470125000000,0,0xFF4C,
0.301478000000000,0,0xC62E,
0.301493708333333,0,0xC016,
0.301501583333333,0,0xC72E,
0.301517291666667,0,0xA3A1,
0.301525125000000,0,0xC82E,
0.301540833333333,0,0x9E3E,
0.301548708333333,0,0xC92E,
0.301564416666667,0,0x9E41,
0.301572291666667,0,0xCA2E,
0.309090291666667,0,0xFC3F,
0.309097958333333,0,0x0607,
0.309125208333333,0,0x0004,
0.309132875000000,0,0x0319,
0.309149000000000,0,0x0A01,
0.309156916666667,0,0x8319,
0.309172750000000,0,0x0F00,
0.309180666666667,0,0x8419,
0.309196500000000,0,0x0000,
0.309204416666667,0,0x851F,
0.309220250000000,0,0xFF3F,
0.309228166666667,0,0x8619,
0.309259916666667,0,0x0004,
0.309267583333333,0,0x031D,
0.309283625000000,0,0x0A01,
0.309291541666667,0,0x831D,
0.309307375000000,0,0x0F00,
0.309315291666667,0,0x841D,
0.309331125000000,0,0x0000,
0.309339041666667,0,0x851F,
0.309354875000000,0,0xFF3F,
0.309362791666667,0,0x861D,
0.309393375000000,0,0x0004,
0.309401083333333,0,0x0311,
0.309417250000000,0,0x0A01,
0.309425166666667,0,0x8311,
0.309441000000000,0,0x0F00,
0.309448958333333,0,0x8411,
0.309464791666667,0,0x0000,
0.309472708333333,0,0x851F,
0.309488541666667,0,0xFF3F,
0.309496458333333,0,0x8611,
0.309527250000000,0,0x0004,
0.309534916666667,0,0x0315,
0.309550916666667,0,0x0A01,
0.309558833333333,0,0x8315,
0.309574666666667,0,0x0F00,
0.309582625000000,0,0x8415,
0.309598458333333,0,0x0000,
0.309606375000000,0,0x851F,
0.309622208333333,0,0xFF3F,
0.309630125000000,0,0x8615,
0.309660625000000,0,0x0004,
0.309668333333333,0,0x0319,
0.309684583333333,0,0x0A01,
0.309692500000000,0,0x8319,
0.309708333333333,0,0x0F00,
0.309716250000000,0,0x8419,
0.309732083333333,0,0x0000,
0.309740000000000,0,0x851F,
0.309755833333333,0,0xF73F,
0.309763750000000,0,0x8619,
0.309794541666667,0,0x0001,
0.309802208333333,0,0x1D1D,
0.309818666666667,0,0x1551,
0.309826583333333,0,0x9D1D,
0.309855083333333,0,0x0003,
0.309862750000000,0,0x2411,
0.309879041666667,0,0x0048,
0.309887000000000,0,0xA41F,
0.309902791666667,0,0x0040,
0.309910750000000,0,0xA51F,
0.309926583333333,0,0x8000,
0.309934458333333,0,0xA61F,
0.309963916666667,0,0x0005,
0.309971583333333,0,0x2D15,
0.309987916666667,0,0xC6ED,
0.309995875000000,0,0xAD1F,
0.310011708333333,0,0xFFF0,
0.310019625000000,0,0xAE1F,
0.310035458333333,0,0xBB0B,
0.310043375000000,0,0xAF1F,
0.310059208333333,0,0xFFFF,
0.310067125000000,0,0xB01F,
0.310082958333333,0,0x830D,
0.310090875000000,0,0xB11F,
0.310121375000000,0,0x0006,
0.310129083333333,0,0x3B19,
0.310145333333333,0,0xB3E5,
0.310153250000000,0,0xBB1F,
0.310169083333333,0,0xB32F,
0.310177000000000,0,0xBC1F,
0.310192833333333,0,0xB2BF,
0.310200750000000,0,0xBD1F,
0.310216583333333,0,0xB203,
0.310224500000000,0,0xBE1F,
0.310240333333333,0,0xB205,
0.310248291666667,0,0xBF1F,
0.310264083333333,0,0xB278,
0.310272041666667,0,0xC01F,
0.310302250000000,0,0x000A,
0.310309916666667,0,0x411D,
0.310325958333333,0,0xC0C4,
0.310333875000000,0,0xC11F,
0.310349708333333,0,0xC0C4,
0.310357625000000,0,0xC21F,
0.310373458333333,0,0xC0C3,
0.310381375000000,0,0xC31F,
0.310397208333333,0,0xC0C4,
0.310405125000000,0,0xC41F,
0.310420958333333,0,0xC0C6,
0.310428875000000,0,0xC51F,
0.310444708333333,0,0xDDCB,
0.310452625000000,0,0xC61F,
0.310468458333333,0,0x83AD,
0.310476375000000,0,0xC71F,
0.310492208333333,0,0xA3BF,
0.310500125000000,0,0xC81F,
0.310515958333333,0,0x9E38,
0.310523875000000,0,0xC91F,
0.310539708333333,0,0x9E3A,
0.310547625000000,0,0xCA1F,
0.310579375000000,0,0x0004,
0.310587083333333,0,0x0321,
0.310603208333333,0,0x0A01,
0.310611083333333,0,0x8321,
0.310626791666667,0,0x0F00,
0.310634625000000,0,0x8421,
0.310650375000000,0,0x0000,
0.310658208333333,0,0x852F,
0.310673916666667,0,0xF73F,
0.310681791666667,0,0x8621,
0.310711958333333,0,0x0001,
0.310719625000000,0,0x1D25,
0.310735833333333,0,0x0055,
0.310743666666667,0,0x9D25,
0.310772125000000,0,0x0003,
0.310779833333333,0,0x2429,
0.310796250000000,0,0x004C,
0.310804083333333,0,0xA42F,
0.310819791666667,0,0x0040,
0.310827666666667,0,0xA52F,
0.310843375000000,0,0x8000,
0.310851250000000,0,0xA62F,
0.310880250000000,0,0x0005,
0.310887958333333,0,0x2D2D,
0.310904291666667,0,0xD17B,
0.310912166666667,0,0xAD2F,
0.310927875000000,0,0xFFF2,
0.310935750000000,0,0xAE2F,
0.310951458333333,0,0xF9E2,
0.310959333333333,0,0xAF2F,
0.310975041666667,0,0xFFFF,
0.310982875000000,0,0xB02F,
0.310998625000000,0,0x830D,
0.311006458333333,0,0xB12F,
0.311037291666667,0,0x0006,
0.311044958333333,0,0x3B21,
0.311061000000000,0,0xE524,
0.311068833333333,0,0xBB2F,
0.311084541666667,0,0x8002,
0.311092416666667,0,0xBC2F,
0.311108125000000,0,0x8000,
0.311116000000000,0,0xBD2F,
0.311131708333333,0,0x8001,
0.311139583333333,0,0xBE2F,
0.311155291666667,0,0xE5C6,
0.311163125000000,0,0xBF2F,
0.311178875000000,0,0xE5DB,
0.311186708333333,0,0xC02F,
0.311216750000000,0,0x000A,
0.311224458333333,0,0x4125,
0.311240750000000,0,0xDC14,
0.311248583333333,0,0xC12F,
0.311264333333333,0,0xDD28,
0.311272208333333,0,0xC22F,
0.311287916666667,0,0xDF63,
0.311295750000000,0,0xC32F,
0.311311458333333,0,0xE126,
0.311319333333333,0,0xC42F,
0.311335041666667,0,0xA983,
0.311342916666667,0,0xC52F,
0.311358625000000,0,0xFF4C,
0.311366500000000,0,0xC62F,
0.311382208333333,0,0xC015,
0.311390083333333,0,0xC72F,
0.311405750000000,0,0xA3A6,
0.311413625000000,0,0xC82F,
0.311429333333333,0,0x9E38,
0.311437208333333,0,0xC92F,
0.311452916666667,0,0x9E3E,
0.311460791666667,0,0xCA2F,
0.319104625000000,0,0x0C3F,
0.319112333333333,0,0x060B,
0.319139958333333,0,0x0004,
0.319147625000000,0,0x031D,
0.319163750000000,0,0x0A01,
0.319171666666667,0,0x831D,
0.319187500000000,0,0x0F00,
0.319195416666667,0,0x841D,
0.319211250000000,0,0x0000,
0.319219166666667,0,0x8510,
0.319235000000000,0,0x0F3F,
0.319242916666667,0,0x861D,
0.319274125000000,0,0x0004,
0.319281833333333,0,0x0311,
0.319297875000000,0,0x0A01,
0.319305791666667,0,0x8311,
0.319321625000000,0,0x0F00,
0.319329541666667,0,0x8411,
0.319345375000000,0,0x0000,
0.319353291666667,0,0x8510,
0.319369125000000,0,0x0F3F,
0.319377041666667,0,0x8611,
0.319407833333333,0,0x0004,
0.319415541666667,0,0x0315,
0.319432000000000,0,0x0A01,
0.319439916666667,0,0x8315,
0.319455750000000,0,0x0F00,
0.319463666666667,0,0x8415,
0.319479500000000,0,0x0000,
0.319487416666667,0,0x8510,
0.319503291666667,0,0x0F3F,
0.319511208333333,0,0x8615,
0.319542041666667,0,0x0004,
0.319549750000000,0,0x0319,
0.319566125000000,0,0x0A01,
0.319574041666667,0,0x8319,
0.319589875000000,0,0x0F00,
0.319597791666667,0,0x8419,
0.319613625000000,0,0x0000,
0.319621583333333,0,0x8510,
0.319637416666667,0,0x0F3F,
0.319645333333333,0,0x8619,
0.319675875000000,0,0x0004,
0.319683541666667,0,0x031D,
0.319699750000000,0,0x0A01,
0.319707666666667,0,0x831D,
0.319723500000000,0,0x0F00,
0.319731416666667,0,0x841D,
0.319747250000000,0,0x0000,
0.319755166666667,0,0x8510,
0.319771000000000,0,0x073F,
0.319778916666667,0,0x861D,
0.319809625000000,0,0x0001,
0.319817333333333,0,0x1D11,
0.319833333333333,0,0x1551,
0.319841291666667,0,0x9D11,
0.319870125000000,0,0x0003,
0.319877791666667,0,0x2415,
0.319894208333333,0,0x0048,
0.319902125000000,0,0xA410,
0.319917958333333,0,0x0040,
0.319925875000000,0,0xA510,
0.319941708333333,0,0x8000,
0.319949625000000,0,0xA610,
0.319978291666667,0,0x0005,
0.319986000000000,0,0x2D19,
0.320002041666667,0,0xC7F7,
0.320009958333333,0,0xAD10,
0.320025833333333,0,0xFFF0,
0.320033750000000,0,0xAE10,
0.320049583333333,0,0xB8B4,
0.320057500000000,0,0xAF10,
0.320073333333333,0,0xFFFF,
0.320081250000000,0,0xB010,
0.320097083333333,0,0x8309,
0.320105000000000,0,0xB110,
0.320134708333333,0,0x0006,
0.320142416666667,0,0x3B1D,
0.320158416666667,0,0xB3E5,
0.320166333333333,0,0xBB10,
0.320182166666667,0,0xB332,
0.320190083333333,0,0xBC10,
0.320205916666667,0,0xB2C2,
0.320213833333333,0,0xBD10,
0.320229666666667,0,0xB204,
0.320237583333333,0,0xBE10,
0.320253375000000,0,0xB205,
0.320261333333333,0,0xBF10,
0.320277166666667,0,0xB276,
0.320285083333333,0,0xC010,
0.320315666666667,0,0x000A,
0.320323333333333,0,0x4111,
0.320339500000000,0,0xC0C3,
0.320347416666667,0,0xC110,
0.320363250000000,0,0xC0C4,
0.320371125000000,0,0xC210,
0.320387000000000,0,0xC0C2,
0.320394916666667,0,0xC310,
0.320410708333333,0,0xC0C6,
0.320418625000000,0,0xC410,
0.320434458333333,0,0xC0C7,
0.320442375000000,0,0xC510,
0.320458208333333,0,0xDDC9,
0.320466125000000,0,0xC610,
0.320481916666667,0,0x83B0,
0.320489875000000,0,0xC710,
0.320505666666667,0,0xA3C0,
0.320513625000000,0,0xC810,
0.320529416666667,0,0x9E3A,
0.320537333333333,0,0xC910,
0.320553166666667,0,0x9E37,
0.320561083333333,0,0xCA10,
0.320593458333333,0,0x0004,
0.320601166666667,0,0x0325,
0.320617333333333,0,0x0A01,
0.320625166666667,0,0x8325,
0.320640875000000,0,0x0F00,
0.320648750000000,0,0x8425,
0.320664458333333,0,0x0000,
0.320672333333333,0,0x8520,
0.320688041666667,0,0x073F,
0.320695875000000,0,0x8625,
0.320726125000000,0,0x0001,
0.320733791666667,0,0x1D29,
0.320749916666667,0,0x0055,
0.320757791666667,0,0x9D29,
0.320785666666667,0,0x0003,
0.320793333333333,0,0x242D,
0.320809333333333,0,0x004C,
0.320817208333333,0,0xA420,
0.320832916666667,0,0x0040,
0.320840791666667,0,0xA520,
0.320856500000000,0,0x8000,
0.320864333333333,0,0xA620,
0.320892750000000,0,0x0005,
0.320900416666667,0,0x2D21,
0.320916416666667,0,0xD287,
0.320924291666667,0,0xAD20,
0.320940000000000,0,0xFFF2,
0.320947875000000,0,0xAE20,
0.320963583333333,0,0xF7CB,
0.320971416666667,0,0xAF20,
0.320987125000000,0,0xFFFF,
0.320995000000000,0,0xB020,
0.321010750000000,0,0x830F,
0.321018583333333,0,0xB120,
0.321048958333333,0,0x0006,
0.321056625000000,0,0x3B25,
0.321072625000000,0,0xE526,
0.321080458333333,0,0xBB20,
0.321096166666667,0,0x8001,
0.321104041666667,0,0xBC20,
0.321119750000000,0,0x8000,
0.321127625000000,0,0xBD20,
0.321143333333333,0,0x8000,
0.321151166666667,0,0xBE20,
0.321166875000000,0,0xE5C3,
0.321174750000000,0,0xBF20,
0.321190458333333,0,0xE5DC,
0.321198333333333,0,0xC020,
0.321228958333333,0,0x000A,
0.321236666666667,0,0x4129,
0.321252833333333,0,0xDC16,
0.321260666666667,0,0xC120,
0.321276416666667,0,0xDD2A,
0.321284291666667,0,0xC220,
0.321299958333333,0,0xDF65,
0.321307833333333,0,0xC320,
0.321323583333333,0,0xE12E,
0.321331416666667,0,0xC420,
0.321347125000000,0,0xA986,
0.321355000000000,0,0xC520,
0.321370708333333,0,0xFF4C,
0.321378583333333,0,0xC620,
0.321394291666667,0,0xC015,
0.321402166666667,0,0xC720,
0.321417875000000,0,0xA3A3,
0.321425750000000,0,0xC820,
0.321441458333333,0,0x9E3E,
0.321449333333333,0,0xC920,
0.321465041666667,0,0x9E3E,
0.321472875000000,0,0xCA20,
0.329097083333333,0,0x1C3F,
0.329104750000000,0,0x060F,
0.329132083333333,0,0x0004,
0.329139750000000,0,0x0311,
0.329155833333333,0,0x0A01,
0.329163750000000,0,0x8311,
0.329179583333333,0,0x0F00,
0.329187500000000,0,0x8411,
0.329203333333333,0,0x0000,
0.329211291666667,0,0x8511,
0.329227083333333,0,0x1F3F,
0.329235000000000,0,0x8611,
0.329265458333333,0,0x0004,
0.329273125000000,0,0x0315,
0.329289458333333,0,0x0A01,
0.329297375000000,0,0x8315,
0.329313208333333,0,0x0F00,
0.329321125000000,0,0x8415,
0.329336958333333,0,0x0000,
0.329344875000000,0,0x8511,
0.329360708333333,0,0x1F3F,
0.329368625000000,0,0x8615,
0.329399375000000,0,0x0004,
0.329407041666667,0,0x0319,
0.329423041666667,0,0x0A01,
0.329430958333333,0,0x8319,
0.329446791666667,0,0x0F00,
0.329454750000000,0,0x8419,
0.329470583333333,0,0x0000,
0.329478500000000,0,0x8511,
0.329494333333333,0,0x1F3F,
0.329502250000000,0,0x8619,
0.329532958333333,0,0x0004,
0.329540625000000,0,0x031D,
0.329556666666667,0,0x0A01,
0.329564583333333,0,0x831D,
0.329580416666667,0,0x0F00,
0.329588375000000,0,0x841D,
0.329604208333333,0,0x0000,
0.329612125000000,0,0x8511,
0.329627958333333,0,0x1F3F,
0.329635875000000,0,0x861D,
0.329666666666667,0,0x0004,
0.329674333333333,0,0x0311,
0.329690291666667,0,0x0A01,
0.329698208333333,0,0x8311,
0.329714041666667,0,0x0F00,
0.329721958333333,0,0x8411,
0.329737750000000,0,0x0000,
0.329745666666667,0,0x8511,
0.329761500000000,0,0x173F,
0.329769416666667,0,0x8611,
0.329799666666667,0,0x0001,
0.329807333333333,0,0x1D15,
0.329823333333333,0,0x1551,
0.329831250000000,0,0x9D15,
0.329859166666667,0,0x0003,
0.329866833333333,0,0x2419,
0.329883208333333,0,0x0048,
0.329891125000000,0,0xA411,
0.329906916666667,0,0x0040,
0.329914875000000,0,0xA511,
0.329930666666667,0,0x8000,
0.329938625000000,0,0xA611,
0.329967000000000,0,0x0005,
0.329974666666667,0,0x2D1D,
0.329991041666667,0,0xC901,
0.329998958333333,0,0xAD11,
0.330014791666667,0,0xFFF0,
0.330022708333333,0,0xAE11,
0.330038541666667,0,0xB5C1,
0.330046458333333,0,0xAF11,
0.330062291666667,0,0x8000,
0.330070208333333,0,0xB011,
0.330086041666667,0,0x8306,
0.330093958333333,0,0xB111,
0.330123625000000,0,0x0006,
0.330131333333333,0,0x3B11,
0.330147375000000,0,0xB3E6,
0.330155291666667,0,0xBB11,
0.330171125000000,0,0xB332,
0.330179041666667,0,0xBC11,
0.330194875000000,0,0xB2C2,
0.330202791666667,0,0xBD11,
0.330218625000000,0,0xB203,
0.330226541666667,0,0xBE11,
0.330242375000000,0,0xB207,
0.330250291666667,0,0xBF11,
0.330266125000000,0,0xB279,
0.330274041666667,0,0xC011,
0.330304541666667,0,0x000A,
0.330312208333333,0,0x4115,
0.330328458333333,0,0xC0C5,
0.330336375000000,0,0xC111,
0.330352208333333,0,0xC0C3,
0.330360125000000,0,0xC211,
0.330375958333333,0,0xC0C5,
0.330383875000000,0,0xC311,
0.330399708333333,0,0xC0C5,
0.330407625000000,0,0xC411,
0.330423458333333,0,0xC0C3,
0.330431375000000,0,0xC511,
0.330447208333333,0,0xDDC9,
0.330455125000000,0,0xC611,
0.330470958333333,0,0x83AE,
0.330478875000000,0,0xC711,
0.330494708333333,0,0xA3BE,
0.330502625000000,0,0xC811,
0.330518458333333,0,0x9E3B,
0.330526375000000,0,0xC911,
0.330542208333333,0,0x9E3A,
0.330550166666667,0,0xCA11,
0.330582083333333,0,0x0004,
0.330589791666667,0,0x0329,
0.330606041666667,0,0x0A01,
0.330613875000000,0,0x8329,
0.330629583333333,0,0x0F00,
0.330637458333333,0,0x8429,
0.330653166666667,0,0x0000,
0.330661041666667,0,0x8521,
0.330676750000000,0,0x173F,
0.330684625000000,0,0x8629,
0.330714625000000,0,0x0001,
0.330722291666667,0,0x1D2D,
0.330738625000000,0,0x0055,
0.330746500000000,0,0x9D2D,
0.330774625000000,0,0x0003,
0.330782291666667,0,0x2421,
0.330798541666667,0,0x004C,
0.330806416666667,0,0xA421,
0.330822125000000,0,0x0040,
0.330829958333333,0,0xA521,
0.330845708333333,0,0x8000,
0.330853541666667,0,0xA621,
0.330882208333333,0,0x0005,
0.330889916666667,0,0x2D25,
0.330906083333333,0,0xD393,
0.330913958333333,0,0xAD21,
0.330929666666667,0,0xFFF2,
0.330937541666667,0,0xAE21,
0.330953250000000,0,0xF5BF,
0.330961083333333,0,0xAF21,
0.330976791666667,0,0x8000,
0.330984666666667,0,0xB021,
0.331000375000000,0,0x8303,
0.331008250000000,0,0xB121,
0.331039208333333,0,0x0006,
0.331046875000000,0,0x3B29,
0.331063250000000,0,0xE525,
0.331071125000000,0,0xBB21,
0.331086833333333,0,0x8000,
0.331094708333333,0,0xBC21,
0.331110416666667,0,0x8000,
0.331118250000000,0,0xBD21,
0.331133958333333,0,0x8000,
0.331141833333333,0,0xBE21,
0.331157541666667,0,0xE5C7,
0.331165416666667,0,0xBF21,
0.331181125000000,0,0xE5E0,
0.331189000000000,0,0xC021,
0.331219666666667,0,0x000A,
0.331227333333333,0,0x412D,
0.331243500000000,0,0xDC14,
0.331251375000000,0,0xC121,
0.331267083333333,0,0xDD24,
0.331274958333333,0,0xC221,
0.331290666666667,0,0xDF61,
0.331298500000000,0,0xC321,
0.331314208333333,0,0xE12B,
0.331322083333333,0,0xC421,
0.331337791666667,0,0xA983,
0.331345666666667,0,0xC521,
0.331361375000000,0,0xFF4F,
0.331369208333333,0,0xC621,
0.331384958333333,0,0xC015,
0.331392791666667,0,0xC721,
0.331408500000000,0,0xA3A2,
0.331416375000000,0,0xC821,
0.331432083333333,0,0x9E38,
0.331439958333333,0,0xC921,
0.331455666666667,0,0x9E3E,
0.331463500000000,0,0xCA21,
0.339055458333333,0,0x2C3F,
0.339063125000000,0,0x0603,
0.339090208333333,0,0x0004,
0.339097875000000,0,0x0315,
0.339113958333333,0,0x0A01,
0.339121875000000,0,0x8315,
0.339137708333333,0,0x0F00,
0.339145625000000,0,0x8415,
0.339161458333333,0,0x0000,
0.339169375000000,0,0x8512,
0.339185208333333,0,0x2F3F,
0.339193125000000,0,0x8615,
0.339225083333333,0,0x0004,
0.339232750000000,0,0x0319,
0.339249041666667,0,0x0A01,
0.339256958333333,0,0x8319,
0.339272791666667,0,0x0F00,
0.339280750000000,0,0x8419,
0.339296583333333,0,0x0000,
0.339304500000000,0,0x8512,
0.339320333333333,0,0x2F3F,
0.339328250000000,0,0x8619,
0.339359541666667,0,0x0004,
0.339367208333333,0,0x031D,
0.339383166666667,0,0x0A01,
0.339391083333333,0,0x831D,
0.339406958333333,0,0x0F00,
0.339414875000000,0,0x841D,
0.339430708333333,0,0x0000,
0.339438625000000,0,0x8512,
0.339454458333333,0,0x2F3F,
0.339462375000000,0,0x861D,
0.339493041666667,0,0x0004,
0.339500708333333,0,0x0311,
0.339516791666667,0,0x0A01,
0.339524708333333,0,0x8311,
0.339540541666667,0,0x0F00,
0.339548458333333,0,0x8411,
0.339564291666667,0,0x0000,
0.339572208333333,0,0x8512,
0.339588041666667,0,0x2F3F,
0.339595958333333,0,0x8611,
0.339627416666667,0,0x0004,
0.339635083333333,0,0x0315,
0.339651375000000,0,0x0A01,
0.339659291666667,0,0x8315,
0.339675125000000,0,0x0F00,
0.339683041666667,0,0x8415,
0.339698875000000,0,0x0000,
0.339706791666667,0,0x8512,
0.339722625000000,0,0x273F,
0.339730541666667,0,0x8615,
0.339761625000000,0,0x0001,
0.339769291666667,0,0x1D19,
0.339785458333333,0,0x1551,
0.339793375000000,0,0x9D19,
0.339822125000000,0,0x0003,
0.339829833333333,0,0x241D,
0.339845833333333,0,0x0048,
0.339853750000000,0,0xA412,
0.339869541666667,0,0x0040,
0.339877458333333,0,0xA512,
0.339893291666667,0,0x8000,
0.339901208333333,0,0xA612,
0.339930083333333,0,0x0005,
0.339937750000000,0,0x2D11,
0.339954166666667,0,0xCA0A,
0.339962083333333,0,0xAD12,
0.339977916666667,0,0xFFF0,
0.339985833333333,0,0xAE12,
0.340001625000000,0,0xB30E,
0.340009583333333,0,0xAF12,
0.340025375000000,0,0xFFFF,
0.340033333333333,0,0xB012,
0.340049125000000,0,0x8309,
0.340057041666667,0,0xB112,
0.340087083333333,0,0x0006,
0.340094791666667,0,0x3B15,
0.340111000000000,0,0xB3E3,
0.340118916666667,0,0xBB12,
0.340134750000000,0,0xB330,
0.340142666666667,0,0xBC12,
0.340158500000000,0,0xB2C1,
0.340166416666667,0,0xBD12,
0.340182250000000,0,0xB203,
0.340190166666667,0,0xBE12,
0.340206000000000,0,0xB206,
0.340213916666667,0,0xBF12,
0.340229750000000,0,0xB278,
0.340237666666667,0,0xC012,
0.340267541666667,0,0x000A,
0.340275208333333,0,0x4119,
0.340291625000000,0,0xC0CB,
0.340299500000000,0,0xC112,
0.340315375000000,0,0xC0CB,
0.340323291666667,0,0xC212,
0.340339125000000,0,0xC0C7,
0.340347000000000,0,0xC312,
0.340362833333333,0,0xC0C9,
0.340370750000000,0,0xC412,
0.340386583333333,0,0xC0C9,
0.340394500000000,0,0xC512,
0.340410333333333,0,0xDDCE,
0.340418250000000,0,0xC612,
0.340434083333333,0,0x83B0,
0.340442000000000,0,0xC712,
0.340457833333333,0,0xA3BE,
0.340465750000000,0,0xC812,
0.340481583333333,0,0x9E3E,
0.340489500000000,0,0xC912,
0.340505333333333,0,0x9E3B,
0.340513250000000,0,0xCA12,
0.340545833333333,0,0x0004,
0.340553541666667,0,0x032D,
0.340569708333333,0,0x0A01,
0.340577583333333,0,0x832D,
0.340593291666667,0,0x0F00,
0.340601166666667,0,0x842D,
0.340616875000000,0,0x0000,
0.340624708333333,0,0x8522,
0.340640416666667,0,0x273F,
0.340648291666667,0,0x862D,
0.340678416666667,0,0x0001,
0.340686125000000,0,0x1D21,
0.340702291666667,0,0x0055,
0.340710166666667,0,0x9D21,
0.340738500000000,0,0x0003,
0.340746166666667,0,0x2425,
0.340762208333333,0,0x004C,
0.340770083333333,0,0xA422,
0.340785791666667,0,0x0040,
0.340793666666667,0,0xA522,
0.340809375000000,0,0x8000,
0.340817208333333,0,0xA622,
0.340846250000000,0,0x0005,
0.340853958333333,0,0x2D29,
0.340870250000000,0,0xD49E,
0.340878083333333,0,0xAD22,
0.340893833333333,0,0xFFF2,
0.340901666666667,0,0xAE22,
0.340917375000000,0,0xF303,
0.340925250000000,0,0xAF22,
0.340940958333333,0,0x8000,
0.340948791666667,0,0xB022,
0.340964500000000,0,0x8301,
0.340972375000000,0,0xB122,
0.341001875000000,0,0x0006,
0.341009583333333,0,0x3B2D,
0.341025916666667,0,0xE528,
0.341033791666667,0,0xBB22,
0.341049500000000,0,0x8001,
0.341057333333333,0,0xBC22,
0.341073041666667,0,0x8000,
0.341080916666667,0,0xBD22,
0.341096625000000,0,0x8001,
0.341104500000000,0,0xBE22,
0.341120208333333,0,0xE5C6,
0.341128041666667,0,0xBF22,
0.341143791666667,0,0xE5E2,
0.341151625000000,0,0xC022,
0.341181916666667,0,0x000A,
0.341189583333333,0,0x4121,
0.341205666666667,0,0xDC0F,
0.341213500000000,0,0xC122,
0.341229208333333,0,0xDD20,
0.341237083333333,0,0xC222,
0.341252791666667,0,0xDF5F,
0.341260625000000,0,0xC322,
0.341276375000000,0,0xE128,
0.341284208333333,0,0xC422,
0.341299916666667,0,0xA984,
0.341307791666667,0,0xC522,
0.341323500000000,0,0xFF49,
0.341331333333333,0,0xC622,
0.341347083333333,0,0xC013,
0.341354916666667,0,0xC722,
0.341370625000000,0,0xA3A2,
0.341378500000000,0,0xC822,
0.341394208333333,0,0x9E37,
0.341402041666667,0,0xC922,
0.341417750000000,0,0x9E3D,
0.341425625000000,0,0xCA22,
0.349112041666667,0,0x3C3F,
0.349119750000000,0,0x0607,
0.349147291666667,0,0x0004,
0.349154958333333,0,0x0319,
0.349170916666667,0,0x0A01,
0.349178833333333,0,0x8319,
0.349194708333333,0,0x0F00,
0.349202625000000,0,0x8419,
0.349218458333333,0,0x0000,
0.349226375000000,0,0x8513,
0.349242208333333,0,0x3F3F,
0.349250125000000,0,0x8619,
0.349281125000000,0,0x0004,
0.349288791666667,0,0x031D,
0.349305083333333,0,0x0A01,
0.349313000000000,0,0x831D,
0.349328833333333,0,0x0F00,
0.349336750000000,0,0x841D,
0.349352583333333,0,0x0000,
0.349360541666667,0,0x8513,
0.349376375000000,0,0x3F3F,
0.349384291666667,0,0x861D,
0.349415666666667,0,0x0004,
0.349423333333333,0,0x0311,
0.349439750000000,0,0x0A01,
0.349447666666667,0,0x8311,
0.349463500000000,0,0x0F00,
0.349471416666667,0,0x8411,
0.349487250000000,0,0x0000,
0.349495166666667,0,0x8513,
0.349511041666667,0,0x3F3F,
0.349518958333333,0,0x8611,
0.349550041666667,0,0x0004,
0.349557750000000,0,0x0315,
0.349573875000000,0,0x0A01,
0.349581791666667,0,0x8315,
0.349597625000000,0,0x0F00,
0.349605583333333,0,0x8415,
0.349621416666667,0,0x0000,
0.349629291666667,0,0x8513,
0.349645166666667,0,0x3F3F,
0.349653083333333,0,0x8615,
0.349683958333333,0,0x0004,
0.349691666666667,0,0x0319,
0.349708000000000,0,0x0A01,
0.349715916666667,0,0x8319,
0.349731750000000,0,0x0F00,
0.349739666666667,0,0x8419,
0.349755500000000,0,0x0000,
0.349763416666667,0,0x8513,
0.349779250000000,0,0x373F,
0.349787166666667,0,0x8619,
0.349818333333333,0,0x0001,
0.349826000000000,0,0x1D1D,
0.349842083333333,0,0x1551,
0.349850000000000,0,0x9D1D,
0.349877875000000,0,0x0003,
0.349885583333333,0,0x2411,
0.349901916666667,0,0x0048,
0.349909833333333,0,0xA413,
0.349925666666667,0,0x0040,
0.349933583333333,0,0xA513,
0.349949416666667,0,0x8000,
0.349957333333333,0,0xA613,
0.349986333333333,0,0x0005,
0.349994000000000,0,0x2D15,
0.350010291666667,0,0xCB15,
0.350018166666667,0,0xAD13,
0.350034000000000,0,0xFFF0,
0.350041958333333,0,0xAE13,
0.350057750000000,0,0xB01B,
0.350065666666667,0,0xAF13,
0.350081500000000,0,0xFFFF,
0.350089416666667,0,0xB013,
0.350105250000000,0,0x830E,
0.350113166666667,0,0xB113,
0.350143208333333,0,0x0006,
0.350150916666667,0,0x3B19,
0.350167125000000,0,0xB3E2,
0.350175041666667,0,0xBB13,
0.350190875000000,0,0xB331,
0.350198791666667,0,0xBC13,
0.350214625000000,0,0xB2C1,
0.350222541666667,0,0xBD13,
0.350238375000000,0,0xB201,
0.350246291666667,0,0xBE13,
0.350262125000000,0,0xB208,
0.350270041666667,0,0xBF13,
0.350285875000000,0,0xB27A,
0.350293791666667,0,0xC013,
0.350323958333333,0,0x000A,
0.350331666666667,0,0x411D,
0.350347750000000,0,0xC0C9,
0.350355625000000,0,0xC113,
0.350371500000000,0,0xC0C6,
0.350379416666667,0,0xC213,
0.350395250000000,0,0xC0C5,
0.350403166666667,0,0xC313,
0.350419000000000,0,0xC0C5,
0.350426875000000,0,0xC413,
0.350442750000000,0,0xC0C5,
0.350450625000000,0,0xC513,
0.350466500000000,0,0xDDCE,
0.350474416666667,0,0xC613,
0.350490250000000,0,0x83B0,
0.350498166666667,0,0xC713,
0.350514000000000,0,0xA3BF,
0.350521916666667,0,0xC813,
0.350537750000000,0,0x9E38,
0.350545666666667,0,0xC913,
0.350561500000000,0,0x9E3B,
0.350569416666667,0,0xCA13,
0.350601791666667,0,0x0004,
0.350609458333333,0,0x0321,
0.350625791666667,0,0x0A01,
0.350633666666667,0,0x8321,
0.350649375000000,0,0x0F00,
0.350657250000000,0,0x8421,
0.350672916666667,0,0x0000,
0.350680791666667,0,0x8523,
0.350696500000000,0,0x373F,
0.350704333333333,0,0x8621,
0.350735000000000,0,0x0001,
0.350742666666667,0,0x1D25,
0.350758875000000,0,0x0055,
0.350766708333333,0,0x9D25,
0.350794458333333,0,0x0003,
0.350802125000000,0,0x2429,
0.350818291666667,0,0x004C,
0.350826125000000,0,0xA423,
0.350841833333333,0,0x0040,
0.350849708333333,0,0xA523,
0.350865416666667,0,0x8000,
0.350873250000000,0,0xA623,
0.350902000000000,0,0x0005,
0.350909708333333,0,0x2D2D,
0.350925791666667,0,0xD5AC,
0.350933666666667,0,0xAD23,
0.350949375000000,0,0xFFF2,
0.350957250000000,0,0xAE23,
0.350972958333333,0,0xF0E0,
0.350980791666667,0,0xAF23,
0.350996541666667,0,0xFFFF,
0.351004375000000,0,0xB023,
0.351020083333333,0,0x8307,
0.351027958333333,0,0xB123,
0.351058291666667,0,0x0006,
0.351065958333333,0,0x3B21,
0.351081958333333,0,0xE524,
0.351089833333333,0,0xBB23,
0.351105541666667,0,0x8001,
0.351113416666667,0,0xBC23,
0.351129125000000,0,0x8002,
0.351137000000000,0,0xBD23,
0.351152708333333,0,0x8002,
0.351160541666667,0,0xBE23,
0.351176291666667,0,0xE5C2,
0.351184125000000,0,0xBF23,
0.351199833333333,0,0xE5D8,
0.351207708333333,0,0xC023,
0.351238000000000,0,0x000A,
0.351245708333333,0,0x4125,
0.351261750000000,0,0xDC10,
0.351269583333333,0,0xC123,
0.351285291666667,0,0xDD27,
0.351293166666667,0,0xC223,
0.351308875000000,0,0xDF68,
0.351316708333333,0,0xC323,
0.351332416666667,0,0xE131,
0.351340291666667,0,0xC423,
0.351356000000000,0,0xA982,
0.351363833333333,0,0xC523,
0.351379541666667,0,0xFF4C,
0.351387416666667,0,0xC623,
0.351403125000000,0,0xC019,
0.351411000000000,0,0xC723,
0.351426708333333,0,0xA3A4,
0.351434583333333,0,0xC823,
0.351450250000000,0,0x9E38,
0.351458125000000,0,0xC923,
0.351473875000000,0,0x9E3B,
0.351481708333333,0,0xCA23,
0.359204291666667,0,0x4C3F,
0.359212000000000,0,0x060B,
0.359239833333333,0,0x0004,
0.359247500000000,0,0x031D,
0.359263500000000,0,0x0A01,
0.359271416666667,0,0x831D,
0.359287250000000,0,0x0F00,
0.359295166666667,0,0x841D,
0.359311000000000,0,0x0000,
0.359318916666667,0,0x8514,
0.359334750000000,0,0x4F3F,
0.359342666666667,0,0x861D,
0.359373416666667,0,0x0004,
0.359381083333333,0,0x0311,
0.359397083333333,0,0x0A01,
0.359405000000000,0,0x8311,
0.359420833333333,0,0x0F00,
0.359428750000000,0,0x8411,
0.359444583333333,0,0x0000,
0.359452500000000,0,0x8514,
0.359468333333333,0,0x4F3F,
0.359476291666667,0,0x8611,
0.359507166666667,0,0x0004,
0.359514875000000,0,0x0315,
0.359531208333333,0,0x0A01,
0.359539125000000,0,0x8315,
0.359554958333333,0,0x0F00,
0.359562875000000,0,0x8415,
0.359578708333333,0,0x0000,
0.359586666666667,0,0x8514,
0.359602500000000,0,0x4F3F,
0.359610416666667,0,0x8615,
0.359640625000000,0,0x0004,
0.359648291666667,0,0x0319,
0.359664333333333,0,0x0A01,
0.359672250000000,0,0x8319,
0.359688083333333,0,0x0F00,
0.359696000000000,0,0x8419,
0.359711833333333,0,0x0000,
0.359719791666667,0,0x8514,
0.359735583333333,0,0x4F3F,
0.359743500000000,0,0x8619,
0.359773958333333,0,0x0004,
0.359781625000000,0,0x031D,
0.359797916666667,0,0x0A01,
0.359805833333333,0,0x831D,
0.359821666666667,0,0x0F00,
0.359829583333333,0,0x841D,
0.359845416666667,0,0x0000,
0.359853333333333,0,0x8514,
0.359869166666667,0,0x473F,
0.359877083333333,0,0x861D,
0.359907541666667,0,0x0001,
0.359915250000000,0,0x1D11,
0.359931500000000,0,0x1551,
0.359939416666667,0,0x9D11,
0.359967458333333,0,0x0003,
0.359975125000000,0,0x2415,
0.359991375000000,0,0x0048,
0.359999250000000,0,0xA414,
0.360015125000000,0,0x0040,
0.360023041666667,0,0xA514,
0.360038875000000,0,0x8000,
0.360046791666667,0,0xA614,
0.360075791666667,0,0x0005,
0.360083500000000,0,0x2D19,
0.360099708333333,0,0xCC22,
0.360107625000000,0,0xAD14,
0.360123458333333,0,0xFFF0,
0.360131416666667,0,0xAE14,
0.360147208333333,0,0xADA4,
0.360155125000000,0,0xAF14,
0.360170958333333,0,0x8000,
0.360178875000000,0,0xB014,
0.360194708333333,0,0x8301,
0.360202625000000,0,0xB114,
0.360233208333333,0,0x0006,
0.360240875000000,0,0x3B1D,
0.360257083333333,0,0xB3E6,
0.360265000000000,0,0xBB14,
0.360280833333333,0,0xB331,
0.360288750000000,0,0xBC14,
0.360304583333333,0,0xB2C5,
0.360312500000000,0,0xBD14,
0.360328333333333,0,0xB204,
0.360336250000000,0,0xBE14,
0.360352083333333,0,0xB202,
0.360360000000000,0,0xBF14,
0.360375833333333,0,0xB276,
0.360383750000000,0,0xC014,
0.360414708333333,0,0x000A,
0.360422375000000,0,0x4111,
0.360438666666667,0,0xC0C2,
0.360446625000000,0,0xC114,
0.360462458333333,0,0xC0C4,
0.360470375000000,0,0xC214,
0.360486208333333,0,0xC0C5,
0.360494125000000,0,0xC314,
0.360509958333333,0,0xC0C1,
0.360517875000000,0,0xC414,
0.360533708333333,0,0xC0C4,
0.360541625000000,0,0xC514,
0.360557458333333,0,0xDDC8,
0.360565375000000,0,0xC614,
0.360581166666667,0,0x83AB,
0.360589125000000,0,0xC714,
0.360604958333333,0,0xA3BE,
0.360612875000000,0,0xC814,
0.360628666666667,0,0x9E36,
0.360636625000000,0,0xC914,
0.360652458333333,0,0x9E3E,
0.360660333333333,0,0xCA14,
0.360692166666667,0,0x0004,
0.360699833333333,0,0x0325,
0.360716125000000,0,0x0A01,
0.360724000000000,0,0x8325,
0.360739708333333,0,0x0F00,
0.360747583333333,0,0x8425,
0.360763291666667,0,0x0000,
0.360771166666667,0,0x8524,
0.360786875000000,0,0x473F,
0.360794708333333,0,0x8625,
0.360824750000000,0,0x0001,
0.360832416666667,0,0x1D29,
0.360848750000000,0,0x0055,
0.360856583333333,0,0x9D29,
0.360884541666667,0,0x0003,
0.360892208333333,0,0x242D,
0.360908625000000,0,0x004C,
0.360916500000000,0,0xA424,
0.360932208333333,0,0x0040,
0.360940083333333,0,0xA524,
0.360955791666667,0,0x8000,
0.360963625000000,0,0xA624,
0.360992208333333,0,0x0005,
0.360999875000000,0,0x2D21,
0.361016166666667,0,0xD6BA,
0.361024041666667,0,0xAD24,
0.361039750000000,0,0xFFF2,
0.361047583333333,0,0xAE24,
0.361063291666667,0,0xEF2D,
0.361071166666667,0,0xAF24,
0.361086875000000,0,0xFFFF,
0.361094708333333,0,0xB024,
0.361110416666667,0,0x830A,
0.361118291666667,0,0xB124,
0.361148583333333,0,0x0006,
0.361156250000000,0,0x3B25,
0.361172291666667,0,0xE526,
0.361180166666667,0,0xBB24,
0.361195875000000,0,0x8001,
0.361203708333333,0,0xBC24,
0.361219416666667,0,0x8001,
0.361227291666667,0,0xBD24,
0.361243000000000,0,0x8000,
0.361250875000000,0,0xBE24,
0.361266583333333,0,0xE5CA,
0.361274416666667,0,0xBF24,
0.361290166666667,0,0xE5E3,
0.361298000000000,0,0xC024,
0.361328250000000,0,0x000A,
0.361335958333333,0,0x4129,
0.361352000000000,0,0xDC14,
0.361359875000000,0,0xC124,
0.361375583333333,0,0xDD24,
0.361383458333333,0,0xC224,
0.361399166666667,0,0xDF63,
0.361407041666667,0,0xC324,
0.361422750000000,0,0xE12E,
0.361430625000000,0,0xC424,
0.361446333333333,0,0xA983,
0.361454208333333,0,0xC524,
0.361469916666667,0,0xFF4D,
0.361477750000000,0,0xC624,
0.361493458333333,0,0xC016,
0.361501333333333,0,0xC724,
0.361517041666667,0,0xA3A1,
0.361524916666667,0,0xC824,
0.361540625000000,0,0x9E39,
0.361548500000000,0,0xC924,
0.361564208333333,0,0x9E40,
0.361572041666667,0,0xCA24,
0.369376125000000,0,0x5C3F,
0.369383791666667,0,0x060F,
0.369412041666667,0,0x0004,
0.369419708333333,0,0x0311,
0.369435708333333,0,0x0A01,
0.369443625000000,0,0x8311,
0.369459458333333,0,0x0F00,
0.369467375000000,0,0x8411,
0.369483208333333,0,0x0000,
0.369491125000000,0,0x8515,
0.369506958333333,0,0x5F3F,
0.369514875000000,0,0x8611,
0.369545916666667,0,0x0004,
0.369553583333333,0,0x0315,
0.369569833333333,0,0x0A01,
0.369577750000000,0,0x8315,
0.369593583333333,0,0x0F00,
0.369601541666667,0,0x8415,
0.369617375000000,0,0x0000,
0.369625291666667,0,0x8515,
0.369641125000000,0,0x5F3F,
0.369649041666667,0,0x8615,
0.369680625000000,0,0x0004,
0.369688291666667,0,0x0319,
0.369704500000000,0,0x0A01,
0.369712416666667,0,0x8319,
0.369728250000000,0,0x0F00,
0.369736208333333,0,0x8419,
0.369752041666667,0,0x0000,
0.369759958333333,0,0x8515,
0.369775791666667,0,0x5F3F,
0.369783708333333,0,0x8619,
0.369814916666667,0,0x0004,
0.369822583333333,0,0x031D,
0.369838666666667,0,0x0A01,
0.369846583333333,0,0x831D,
0.369862416666667,0,0x0F00,
0.369870333333333,0,0x841D,
0.369886208333333,0,0x0000,
0.369894125000000,0,0x8515,
0.369909958333333,0,0x5F3F,
0.369917875000000,0,0x861D,
0.369948208333333,0,0x0004,
0.369955875000000,0,0x0311,
0.369972333333333,0,0x0A01,
0.369980250000000,0,0x8311,
0.369996083333333,0,0x0F00,
0.370004000000000,0,0x8411,
0.370019833333333,0,0x0000,
0.370027750000000,0,0x8515,
0.370043583333333,0,0x573F,
0.370051500000000,0,0x8611,
0.370082083333333,0,0x0001,
0.370089750000000,0,0x1D15,
0.370105916666667,0,0x1551,
0.370113833333333,0,0x9D15,
0.370142250000000,0,0x0003,
0.370149958333333,0,0x2419,
0.370166291666667,0,0x0048,
0.370174208333333,0,0xA415,
0.370190041666667,0,0x0040,
0.370197958333333,0,0xA515,
0.370213791666667,0,0x8000,
0.370221708333333,0,0xA615,
0.370250708333333,0,0x0005,
0.370258375000000,0,0x2D1D,
0.370274666666667,0,0xCD30,
0.370282583333333,0,0xAD15,
0.370298416666667,0,0xFFF0,
0.370306291666667,0,0xAE15,
0.370322166666667,0,0xAB13,
0.370330041666667,0,0xAF15,
0.370345875000000,0,0x8000,
0.370353833333333,0,0xB015,
0.370369666666667,0,0x8302,
0.370377541666667,0,0xB115,
0.370407041666667,0,0x0006,
0.370414708333333,0,0x3B11,
0.370431000000000,0,0xB3E6,
0.370438916666667,0,0xBB15,
0.370454750000000,0,0xB337,
0.370462666666667,0,0xBC15,
0.370478500000000,0,0xB2C4,
0.370486416666667,0,0xBD15,
0.370502250000000,0,0xB205,
0.370510166666667,0,0xBE15,
0.370526000000000,0,0xB205,
0.370533916666667,0,0xBF15,
0.370549750000000,0,0xB27B,
0.370557666666667,0,0xC015,
0.370587291666667,0,0x000A,
0.370594958333333,0,0x4115,
0.370611083333333,0,0xC0C3,
0.370619000000000,0,0xC115,
0.370634875000000,0,0xC0C5,
0.370642750000000,0,0xC215,
0.370658583333333,0,0xC0C2,
0.370666541666667,0,0xC315,
0.370682375000000,0,0xC0C5,
0.370690291666667,0,0xC415,
0.370706125000000,0,0xC0C5,
0.370714000000000,0,0xC515,
0.370729875000000,0,0xDDCB,
0.370737791666667,0,0xC615,
0.370753625000000,0,0x83AB,
0.370761541666667,0,0xC715,
0.370777375000000,0,0xA3BD,
0.370785291666667,0,0xC815,
0.370801125000000,0,0x9E37,
0.370809041666667,0,0xC915,
0.370824875000000,0,0x9E3A,
0.370832791666667,0,0xCA15,
0.370865583333333,0,0x0004,
0.370873250000000,0,0x0329,
0.370889166666667,0,0x0A01,
0.370897000000000,0,0x8329,
0.370912708333333,0,0x0F00,
0.370920583333333,0,0x8429,
0.370936291666667,0,0x0000,
0.370944166666667,0,0x8525,
0.370959875000000,0,0x573F,
0.370967750000000,0,0x8629,
0.370998041666667,0,0x0001,
0.371005750000000,0,0x1D2D,
0.371021750000000,0,0x0055,
0.371029625000000,0,0x9D2D,
0.371059000000000,0,0x0003,
0.371066666666667,0,0x2421,
0.371082666666667,0,0x004C,
0.371090500000000,0,0xA425,
0.371106250000000,0,0x0040,
0.371114125000000,0,0xA525,
0.371129791666667,0,0x8000,
0.371137666666667,0,0xA625,
0.371167333333333,0,0x0005,
0.371175000000000,0,0x2D25,
0.371191208333333,0,0xD7CA,
0.371199083333333,0,0xAD25,
0.371214791666667,0,0xFFF2,
0.371222625000000,0,0xAE25,
0.371238375000000,0,0xEC86,
0.371246208333333,0,0xAF25,
0.371261916666667,0,0x8000,
0.371269791666667,0,0xB025,
0.371285500000000,0,0x8304,
0.371293375000000,0,0xB125,
0.371323250000000,0,0x0006,
0.371330958333333,0,0x3B29,
0.371347375000000,0,0xE529,
0.371355250000000,0,0xBB25,
0.371370958333333,0,0x8000,
0.371378833333333,0,0xBC25,
0.371394541666667,0,0x8000,
0.371402416666667,0,0xBD25,
0.371418125000000,0,0x8000,
0.371425958333333,0,0xBE25,
0.371441708333333,0,0xE5C7,
0.371449541666667,0,0xBF25,
0.371465291666667,0,0xE5E3,
0.371473125000000,0,0xC025,
0.371502750000000,0,0x000A,
0.371510458333333,0,0x412D,
0.371526666666667,0,0xDC0F,
0.371534541666667,0,0xC125,
0.371550250000000,0,0xDD22,
0.371558083333333,0,0xC225,
0.371573791666667,0,0xDF66,
0.371581666666667,0,0xC325,
0.371597375000000,0,0xE12E,
0.371605250000000,0,0xC425,
0.371620958333333,0,0xA983,
0.371628791666667,0,0xC525,
0.371644541666667,0,0xFF4F,
0.371652375000000,0,0xC625,
0.371668083333333,0,0xC015,
0.371675958333333,0,0xC725,
0.371691666666667,0,0xA3A3,
0.371699541666667,0,0xC825,
0.371715250000000,0,0x9E3A,
0.371723125000000,0,0xC925,
0.371738833333333,0,0x9E40,
0.371746708333333,0,0xCA25,
0.379100333333333,0,0x6C3F,
0.379108000000000,0,0x0603,
0.379135875000000,0,0x0004,
0.379143583333333,0,0x0315,
0.379160000000000,0,0x0A01,
0.379167916666667,0,0x8315,
0.379183750000000,0,0x0F00,
0.379191666666667,0,0x8415,
0.379207500000000,0,0x0000,
0.379215416666667,0,0x8516,
0.379231250000000,0,0x6F3F,
0.379239166666667,0,0x8615,
0.379269625000000,0,0x0004,
0.379277291666667,0,0x0319,
0.379293583333333,0,0x0A01,
0.379301541666667,0,0x8319,
0.379317375000000,0,0x0F00,
0.379325250000000,0,0x8419,
0.379341125000000,0,0x0000,
0.379349041666667,0,0x8516,
0.379364875000000,0,0x6F3F,
0.379372791666667,0,0x8619,
0.379403291666667,0,0x0004,
0.379410958333333,0,0x031D,
0.379427250000000,0,0x0A01,
0.379435166666667,0,0x831D,
0.379451000000000,0,0x0F00,
0.379458916666667,0,0x841D,
0.379474791666667,0,0x0000,
0.379482666666667,0,0x8516,
0.379498500000000,0,0x6F3F,
0.379506458333333,0,0x861D,
0.379537041666667,0,0x0004,
0.379544750000000,0,0x0311,
0.379560916666667,0,0x0A01,
0.379568791666667,0,0x8311,
0.379584666666667,0,0x0F00,
0.379592541666667,0,0x8411,
0.379608375000000,0,0x0000,
0.379616333333333,0,0x8516,
0.379632166666667,0,0x6F3F,
0.379640083333333,0,0x8611,
0.379670875000000,0,0x0004,
0.379678583333333,0,0x0315,
0.379695000000000,0,0x0A01,
0.379702916666667,0,0x8315,
0.379718750000000,0,0x0F00,
0.379726666666667,0,0x8415,
0.379742500000000,0,0x0000,
0.379750416666667,0,0x8516,
0.379766250000000,0,0x673F,
0.379774166666667,0,0x8615,
0.379804083333333,0,0x0001,
0.379811750000000,0,0x1D19,
0.379828083333333,0,0x1551,
0.379836000000000,0,0x9D19,
0.379864291666667,0,0x0003,
0.379871958333333,0,0x241D,
0.379887958333333,0,0x0048,
0.379895875000000,0,0xA416,
0.379911708333333,0,0x0040,
0.379919625000000,0,0xA516,
0.379935458333333,0,0x8000,
0.379943375000000,0,0xA616,
0.379972375000000,0,0x0005,
0.379980083333333,0,0x2D11,
0.379996291666667,0,0xCE33,
0.380004208333333,0,0xAD16,
0.380020041666667,0,0xFFF0,
0.380027958333333,0,0xAE16,
0.380043833333333,0,0xA851,
0.380051708333333,0,0xAF16,
0.380067541666667,0,0xFFFF,
0.380075458333333,0,0xB016,
0.380091291666667,0,0x8308,
0.380099208333333,0,0xB116,
0.380129333333333,0,0x0006,
0.380137000000000,0,0x3B15,
0.380153166666667,0,0xB3E6,
0.380161041666667,0,0xBB16,
0.380176875000000,0,0xB331,
0.380184791666667,0,0xBC16,
0.380200625000000,0,0xB2C1,
0.380208541666667,0,0xBD16,
0.380224375000000,0,0xB203,
0.380232291666667,0,0xBE16,
0.380248125000000,0,0xB204,
0.380256041666667,0,0xBF16,
0.380271916666667,0,0xB278,
0.380279791666667,0,0xC016,
0.380310708333333,0,0x000A,
0.380318375000000,0,0x4119,
0.380334708333333,0,0xC0C5,
0.380342625000000,0,0xC116,
0.380358458333333,0,0xC0C7,
0.380366375000000,0,0xC216,
0.380382208333333,0,0xC0C7,
0.380390125000000,0,0xC316,
0.380405958333333,0,0xC0C8,
0.380413875000000,0,0xC416,
0.380429708333333,0,0xC0C6,
0.380437625000000,0,0xC516,
0.380453458333333,0,0xDDCA,
0.380461375000000,0,0xC616,
0.380477208333333,0,0x83B0,
0.380485125000000,0,0xC716,
0.380500958333333,0,0xA3C0,
0.380508875000000,0,0xC816,
0.380524708333333,0,0x9E3B,
0.380532666666667,0,0xC916,
0.380548500000000,0,0x9E3C,
0.380556416666667,0,0xCA16,
0.380588708333333,0,0x0004,
0.380596416666667,0,0x032D,
0.380612750000000,0,0x0A01,
0.380620583333333,0,0x832D,
0.380636333333333,0,0x0F00,
0.380644208333333,0,0x842D,
0.380659916666667,0,0x0000,
0.380667791666667,0,0x8526,
0.380683500000000,0,0x673F,
0.380691333333333,0,0x862D,
0.380722083333333,0,0x0001,
0.380729791666667,0,0x1D21,
0.380745875000000,0,0x0055,
0.380753750000000,0,0x9D21,
0.380781750000000,0,0x0003,
0.380789416666667,0,0x2425,
0.380805333333333,0,0x004C,
0.380813208333333,0,0xA426,
0.380828916666667,0,0x0040,
0.380836791666667,0,0xA526,
0.380852500000000,0,0x8000,
0.380860375000000,0,0xA626,
0.380888708333333,0,0x0005,
0.380896375000000,0,0x2D29,
0.380912416666667,0,0xD8CF,
0.380920291666667,0,0xAD26,
0.380936000000000,0,0xFFF2,
0.380943833333333,0,0xAE26,
0.380959541666667,0,0xEA34,
0.380967416666667,0,0xAF26,
0.380983125000000,0,0x8000,
0.380991000000000,0,0xB026,
0.381006708333333,0,0x8301,
0.381014541666667,0,0xB126,
0.381045250000000,0,0x0006,
0.381052916666667,0,0x3B2D,
0.381069083333333,0,0xE521,
0.381076916666667,0,0xBB26,
0.381092625000000,0,0x8000,
0.381100500000000,0,0xBC26,
0.381116208333333,0,0x8001,
0.381124083333333,0,0xBD26,
0.381139791666667,0,0x8004,
0.381147625000000,0,0xBE26,
0.381163333333333,0,0xE5C6,
0.381171208333333,0,0xBF26,
0.381186916666667,0,0xE5DB,
0.381194791666667,0,0xC026,
0.381225541666667,0,0x000A,
0.381233250000000,0,0x4121,
0.381249291666667,0,0xDC12,
0.381257166666667,0,0xC126,
0.381272875000000,0,0xDD25,
0.381280750000000,0,0xC226,
0.381296458333333,0,0xDF64,
0.381304291666667,0,0xC326,
0.381320000000000,0,0xE12D,
0.381327916666667,0,0xC426,
0.381343625000000,0,0xA97F,
0.381351458333333,0,0xC526,
0.381367166666667,0,0xFF4B,
0.381375041666667,0,0xC626,
0.381390750000000,0,0xC013,
0.381398625000000,0,0xC726,
0.381414333333333,0,0xA3A2,
0.381422208333333,0,0xC826,
0.381437875000000,0,0x9E3A,
0.381445750000000,0,0xC926,
0.381461500000000,0,0x9E3D,
0.381469333333333,0,0xCA26,
0.389121166666667,0,0x7C3F,
0.389128833333333,0,0x0607,
0.389156375000000,0,0x0004,
0.389164083333333,0,0x0319,
0.389180375000000,0,0x0A01,
0.389188333333333,0,0x8319,
0.389204166666667,0,0x0F00,
0.389212083333333,0,0x8419,
0.389227916666667,0,0x0000,
0.389235833333333,0,0x8517,
0.389251708333333,0,0x7F3F,
0.389259625000000,0,0x8619,
0.389290041666667,0,0x0004,
0.389297708333333,0,0x031D,
0.389314041666667,0,0x0A01,
0.389322000000000,0,0x831D,
0.389337833333333,0,0x0F00,
0.389345750000000,0,0x841D,
0.389361583333333,0,0x0000,
0.389369500000000,0,0x8517,
0.389385375000000,0,0x7F3F,
0.389393250000000,0,0x861D,
0.389424708333333,0,0x0004,
0.389432375000000,0,0x0311,
0.389448708333333,0,0x0A01,
0.389456625000000,0,0x8311,
0.389472500000000,0,0x0F00,
0.389480416666667,0,0x8411,
0.389496250000000,0,0x0000,
0.389504208333333,0,0x8517,
0.389520041666667,0,0x7F3F,
0.389527958333333,0,0x8611,
0.389558791666667,0,0x0004,
0.389566458333333,0,0x0315,
0.389582916666667,0,0x0A01,
0.389590833333333,0,0x8315,
0.389606666666667,0,0x0F00,
0.389614583333333,0,0x8415,
0.389630416666667,0,0x0000,
0.389638375000000,0,0x8517,
0.389654208333333,0,0x7F3F,
0.389662125000000,0,0x8615,
0.389692250000000,0,0x0004,
0.389699916666667,0,0x0319,
0.389716041666667,0,0x0A01,
0.389723958333333,0,0x8319,
0.389739791666667,0,0x0F00,
0.389747708333333,0,0x8419,
0.389763541666667,0,0x0000,
0.389771416666667,0,0x8517,
0.389787250000000,0,0x773F,
0.389795208333333,0,0x8619,
0.389826166666667,0,0x0001,
0.389833833333333,0,0x1D1D,
0.389850083333333,0,0x1551,
0.389858000000000,0,0x9D1D,
0.389886208333333,0,0x0003,
0.389893875000000,0,0x2411,
0.389909958333333,0,0x0048,
0.389917875000000,0,0xA417,
0.389933708333333,0,0x0040,
0.389941625000000,0,0xA517,
0.389957458333333,0,0x8000,
0.389965375000000,0,0xA617,
0.389993875000000,0,0x0005,
0.390001541666667,0,0x2D15,
0.390017833333333,0,0xCF3E,
0.390025750000000,0,0xAD17,
0.390041583333333,0,0xFFF0,
0.390049500000000,0,0xAE17,
0.390065333333333,0,0xA5A1,
0.390073250000000,0,0xAF17,
0.390089083333333,0,0xFFFF,
0.390097000000000,0,0xB017,
0.390112833333333,0,0x830B,
0.390120750000000,0,0xB117,
0.390150666666667,0,0x0006,
0.390158375000000,0,0x3B19,
0.390174666666667,0,0xB3E5,
0.390182583333333,0,0xBB17,
0.390198416666667,0,0xB32D,
0.390206333333333,0,0xBC17,
0.390222166666667,0,0xB2C3,
0.390230083333333,0,0xBD17,
0.390245916666667,0,0xB207,
0.390253833333333,0,0xBE17,
0.390269666666667,0,0xB203,
0.390277583333333,0,0xBF17,
0.390293416666667,0,0xB275,
0.390301333333333,0,0xC017,
0.390331500000000,0,0x000A,
0.390339208333333,0,0x411D,
0.390355250000000,0,0xC0C5,
0.390363166666667,0,0xC117,
0.390379000000000,0,0xC0C3,
0.390386916666667,0,0xC217,
0.390402750000000,0,0xC0C1,
0.390410666666667,0,0xC317,
0.390426500000000,0,0xC0C4,
0.390434416666667,0,0xC417,
0.390450250000000,0,0xC0C5,
0.390458208333333,0,0xC517,
0.390474000000000,0,0xDDCA,
0.390481958333333,0,0xC617,
0.390497791666667,0,0x83AB,
0.390505708333333,0,0xC717,
0.390521541666667,0,0xA3BC,
0.390529458333333,0,0xC817,
0.390545291666667,0,0x9E37,
0.390553208333333,0,0xC917,
0.390569041666667,0,0x9E3B,
0.390577000000000,0,0xCA17,
0.390609041666667,0,0x0004,
0.390616750000000,0,0x0321,
0.390633125000000,0,0x0A01,
0.390641000000000,0,0x8321,
0.390656708333333,0,0x0F00,
0.390664541666667,0,0x8421,
0.390680250000000,0,0x0000,
0.390688125000000,0,0x8527,
0.390703875000000,0,0x773F,
0.390711708333333,0,0x8621,
0.390742500000000,0,0x0001,
0.390750166666667,0,0x1D25,
0.390766208333333,0,0x0055,
0.390774083333333,0,0x9D25,
0.390801916666667,0,0x0003,
0.390809583333333,0,0x2429,
0.390825625000000,0,0x004C,
0.390833500000000,0,0xA427,
0.390849208333333,0,0x0040,
0.390857083333333,0,0xA527,
0.390872791666667,0,0x8000,
0.390880625000000,0,0xA627,
0.390909083333333,0,0x0005,
0.390916750000000,0,0x2D2D,
0.390933166666667,0,0xD9DB,
0.390941041666667,0,0xAD27,
0.390956750000000,0,0xFFF2,
0.390964625000000,0,0xAE27,
0.390980333333333,0,0xE81B,
0.390988166666667,0,0xAF27,
0.391003916666667,0,0x8000,
0.391011750000000,0,0xB027,
0.391027500000000,0,0x8304,
0.391035333333333,0,0xB127,
0.391066791666667,0,0x0006,
0.391074458333333,0,0x3B21,
0.391090833333333,0,0xE521,
0.391098708333333,0,0xBB27,
0.391114416666667,0,0x8000,
0.391122250000000,0,0xBC27,
0.391137958333333,0,0x8000,
0.391145833333333,0,0xBD27,
0.391161541666667,0,0x8000,
0.391169416666667,0,0xBE27,
0.391185125000000,0,0xE5C5,
0.391192958333333,0,0xBF27,
0.391208708333333,0,0xE5E1,
0.391216541666667,0,0xC027,
0.391246833333333,0,0x000A,
0.391254541666667,0,0x4125,
0.391270583333333,0,0xDC0E,
0.391278458333333,0,0xC127,
0.391294125000000,0,0xDD22,
0.391302000000000,0,0xC227,
0.391317708333333,0,0xDF63,
0.391325583333333,0,0xC327,
0.391341291666667,0,0xE12A,
0.391349166666667,0,0xC427,
0.391364875000000,0,0xA980,
0.391372708333333,0,0xC527,
0.391388458333333,0,0xFF4C,
0.391396291666667,0,0xC627,
0.391412041666667,0,0xC015,
0.391419875000000,0,0xC727,
0.391435583333333,0,0xA3A0,
0.391443458333333,0,0xC827,
0.391459166666667,0,0x9E36,
0.391467041666667,0,0xC927,
0.391482750000000,0,0x9E3E,
0.391490625000000,0,0xCA27,
0.399091458333333,0,0x8C3F,
0.399099125000000,0,0x060B,
0.399126791666667,0,0x0004,
0.399134458333333,0,0x031D,
0.399150583333333,0,0x0A01,
0.399158541666667,0,0x831D,
0.399174333333333,0,0x0F00,
0.399182291666667,0,0x841D,
0.399198125000000,0,0x0000,
0.399206041666667,0,0x8518,
0.399221875000000,0,0x8F3F,
0.399229791666667,0,0x861D,
0.399260750000000,0,0x0004,
0.399268458333333,0,0x0311,
0.399284708333333,0,0x0A01,
0.399292625000000,0,0x8311,
0.399308458333333,0,0x0F00,
0.399316375000000,0,0x8411,
0.399332208333333,0,0x0000,
0.399340125000000,0,0x8518,
0.399355958333333,0,0x8F3F,
0.399363916666667,0,0x8611,
0.399395208333333,0,0x0004,
0.399402916666667,0,0x0315,
0.399419333333333,0,0x0A01,
0.399427250000000,0,0x8315,
0.399443083333333,0,0x0F00,
0.399451000000000,0,0x8415,
0.399466833333333,0,0x0000,
0.399474750000000,0,0x8518,
0.399490583333333,0,0x8F3F,
0.399498500000000,0,0x8615,
0.399528500000000,0,0x0004,
0.399536166666667,0,0x0319,
0.399552416666667,0,0x0A01,
0.399560333333333,0,0x8319,
0.399576166666667,0,0x0F00,
0.399584083333333,0,0x8419,
0.399599916666667,0,0x0000,
0.399607833333333,0,0x8518,
0.399623666666667,0,0x8F3F,
0.399631583333333,0,0x8619,
0.399662291666667,0,0x0004,
0.399669958333333,0,0x031D,
0.399686000000000,0,0x0A01,
0.399693916666667,0,0x831D,
0.399709750000000,0,0x0F00,
0.399717666666667,0,0x841D,
0.399733500000000,0,0x0000,
0.399741416666667,0,0x8518,
0.399757250000000,0,0x873F,
0.399765166666667,0,0x861D,
0.399795666666667,0,0x0001,
0.399803333333333,0,0x1D11,
0.399819583333333,0,0x1551,
0.399827500000000,0,0x9D11,
0.399855875000000,0,0x0003,
0.399863541666667,0,0x2415,
0.399879916666667,0,0x0048,
0.399887833333333,0,0xA418,
0.399903666666667,0,0x0040,
0.399911583333333,0,0xA518,
0.399927416666667,0,0x8000,
0.399935375000000,0,0xA618,
0.399964625000000,0,0x0005,
0.399972291666667,0,0x2D19,
0.399988791666667,0,0xD047,
0.399996708333333,0,0xAD18,
0.400012541666667,0,0xFFF0,
0.400020458333333,0,0xAE18,
0.400036291666667,0,0xA36C,
0.400044208333333,0,0xAF18,
0.400060041666667,0,0xFFFF,
0.400067958333333,0,0xB018,
0.400083791666667,0,0x830F,
0.400091708333333,0,0xB118,
0.400120875000000,0,0x0006,
0.400128541666667,0,0x3B1D,
0.400144625000000,0,0xB3E3,
0.400152541666667,0,0xBB18,
0.400168375000000,0,0xB330,
0.400176291666667,0,0xBC18,
0.400192166666667,0,0xB2C3,
0.400200041666667,0,0xBD18,
0.400215875000000,0,0xB201,
0.400223791666667,0,0xBE18,
0.400239625000000,0,0xB205,
0.400247541666667,0,0xBF18,
0.400263375000000,0,0xB279,
0.400271291666667,0,0xC018,
0.400301250000000,0,0x000A,
0.400308916666667,0,0x4111,
0.400325208333333,0,0xC0C4,
0.400333166666667,0,0xC118,
0.400349000000000,0,0xC0C5,
0.400356916666667,0,0xC218,
0.400372750000000,0,0xC0C3,
0.400380666666667,0,0xC318,
0.400396500000000,0,0xC0C4,
0.400404416666667,0,0xC418,
0.400420291666667,0,0xC0C7,
0.400428208333333,0,0xC518,
0.400444041666667,0,0xDDCC,
0.400451958333333,0,0xC618,
0.400467791666667,0,0x83AE,
0.400475708333333,0,0xC718,
0.400491541666667,0,0xA3BE,
0.400499458333333,0,0xC818,
0.400515333333333,0,0x9E3B,
0.400523250000000,0,0xC918,
0.400539083333333,0,0x9E3B,
0.400547000000000,0,0xCA18,
0.400578958333333,0,0x0004,
0.400586625000000,0,0x0325,
0.400602833333333,0,0x0A01,
0.400610708333333,0,0x8325,
0.400626416666667,0,0x0F00,
0.400634291666667,0,0x8425,
0.400650000000000,0,0x0000,
0.400657875000000,0,0x8528,
0.400673583333333,0,0x873F,
0.400681416666667,0,0x8625,
0.400711625000000,0,0x0001,
0.400719333333333,0,0x1D29,
0.400735458333333,0,0x0055,
0.400743291666667,0,0x9D29,
0.400771791666667,0,0x0003,
0.400779458333333,0,0x242D,
0.400795875000000,0,0x004C,
0.400803708333333,0,0xA428,
0.400819416666667,0,0x0040,
0.400827291666667,0,0xA528,
0.400843000000000,0,0x8000,
0.400850875000000,0,0xA628,
0.400879000000000,0,0x0005,
0.400886708333333,0,0x2D21,
0.400902916666667,0,0xDAE7,
0.400910750000000,0,0xAD28,
0.400926500000000,0,0xFFF2,
0.400934333333333,0,0xAE28,
0.400950041666667,0,0xE65C,
0.400957916666667,0,0xAF28,
0.400973625000000,0,0x8000,
0.400981458333333,0,0xB028,
0.400997208333333,0,0x8301,
0.401005041666667,0,0xB128,
0.401034583333333,0,0x0006,
0.401042250000000,0,0x3B25,
0.401058583333333,0,0xE520,
0.401066458333333,0,0xBB28,
0.401082166666667,0,0x8000,
0.401090000000000,0,0xBC28,
0.401105750000000,0,0x8000,
0.401113583333333,0,0xBD28,
0.401129333333333,0,0x8002,
0.401137166666667,0,0xBE28,
0.401152875000000,0,0xE5C2,
0.401160750000000,0,0xBF28,
0.401176458333333,0,0xE5DC,
0.401184291666667,0,0xC028,
0.401214000000000,0,0x000A,
0.401221666666667,0,0x4129,
0.401237833333333,0,0xDC12,
0.401245708333333,0,0xC128,
0.401261416666667,0,0xDD24,
0.401269291666667,0,0xC228,
0.401285000000000,0,0xDF66,
0.401292833333333,0,0xC328,
0.401308541666667,0,0xE127,
0.401316416666667,0,0xC428,
0.401332125000000,0,0xA981,
0.401340000000000,0,0xC528,
0.401355708333333,0,0xFF50,
0.401363583333333,0,0xC628,
0.401379291666667,0,0xC013,
0.401387166666667,0,0xC728,
0.401402875000000,0,0xA3A3,
0.401410708333333,0,0xC828,
0.401426458333333,0,0x9E3A,
0.401434291666667,0,0xC928,
0.401450041666667,0,0x9E3C,
0.401457875000000,0,0xCA28,
0.409117541666667,0,0x9C3F,
0.409125208333333,0,0x060F,
0.409153041666667,0,0x0004,
0.409160750000000,0,0x0311,
0.409176833333333,0,0x0A01,
0.409184750000000,0,0x8311,
0.409200583333333,0,0x0F00,
0.409208541666667,0,0x8411,
0.409224375000000,0,0x0000,
0.409232291666667,0,0x8519,
0.409248166666667,0,0x9F3F,
0.409256083333333,0,0x8611,
0.409286916666667,0,0x0004,
0.409294625000000,0,0x0315,
0.409311000000000,0,0x0A01,
0.409318916666667,0,0x8315,
0.409334750000000,0,0x0F00,
0.409342708333333,0,0x8415,
0.409358500000000,0,0x0000,
0.409366458333333,0,0x8519,
0.409382291666667,0,0x9F3F,
0.409390166666667,0,0x8615,
0.409421000000000,0,0x0004,
0.409428666666667,0,0x0319,
0.409445125000000,0,0x0A01,
0.409453041666667,0,0x8319,
0.409468916666667,0,0x0F00,
0.409476833333333,0,0x8419,
0.409492666666667,0,0x0000,
0.409500583333333,0,0x8519,
0.409516416666667,0,0x9F3F,
0.409524333333333,0,0x8619,
0.409555208333333,0,0x0004,
0.409562875000000,0,0x031D,
0.409579291666667,0,0x0A01,
0.409587166666667,0,0x831D,
0.409603041666667,0,0x0F00,
0.409610958333333,0,0x841D,
0.409626791666667,0,0x0000,
0.409634708333333,0,0x8519,
0.409650541666667,0,0x9F3F,
0.409658458333333,0,0x861D,
0.409689000000000,0,0x0004,
0.409696666666667,0,0x0311,
0.409712875000000,0,0x0A01,
0.409720791666667,0,0x8311,
0.409736625000000,0,0x0F00,
0.409744541666667,0,0x8411,
0.409760375000000,0,0x0000,
0.409768291666667,0,0x8519,
0.409784125000000,0,0x973F,
0.409792041666667,0,0x8611,
0.409822166666667,0,0x0001,
0.409829833333333,0,0x1D15,
0.409845958333333,0,0x1551,
0.409853916666667,0,0x9D15,
0.409882375000000,0,0x0003,
0.409890083333333,0,0x2419,
0.409906333333333,0,0x0048,
0.409914250000000,0,0xA419,
0.409930083333333,0,0x0040,
0.409938041666667,0,0xA519,
0.409953833333333,0,0x8000,
0.409961750000000,0,0xA619,
0.409990666666667,0,0x0005,
0.409998333333333,0,0x2D1D,
0.410014708333333,0,0xD151,
0.410022625000000,0,0xAD19,
0.410038458333333,0,0xFFF0,
0.410046375000000,0,0xAE19,
0.410062208333333,0,0xA086,
0.410070125000000,0,0xAF19,
0.410085958333333,0,0xFFFF,
0.410093875000000,0,0xB019,
0.410109708333333,0,0x830B,
0.410117625000000,0,0xB119,
0.410148250000000,0,0x0006,
0.410155916666667,0,0x3B11,
0.410172041666667,0,0xB3E0,
0.410179958333333,0,0xBB19,
0.410195791666667,0,0xB330,
0.410203750000000,0,0xBC19,
0.410219541666667,0,0xB2C5,
0.410227458333333,0,0xBD19,
0.410243291666667,0,0xB208,
0.410251208333333,0,0xBE19,
0.410267041666667,0,0xB204,
0.410274958333333,0,0xBF19,
0.410290791666667,0,0xB277,
0.410298708333333,0,0xC019,
0.410329666666667,0,0x000A,
0.410337333333333,0,0x4115,
0.410353666666667,0,0xC0C7,
0.410361583333333,0,0xC119,
0.410377416666667,0,0xC0C6,
0.410385333333333,0,0xC219,
0.410401166666667,0,0xC0C6,
0.410409083333333,0,0xC319,
0.410424916666667,0,0xC0CA,
0.410432833333333,0,0xC419,
0.410448666666667,0,0xC0C4,
0.410456583333333,0,0xC519,
0.410472416666667,0,0xDDC8,
0.410480333333333,0,0xC619,
0.410496166666667,0,0x83AE,
0.410504083333333,0,0xC719,
0.410519916666667,0,0xA3BE,
0.410527833333333,0,0xC819,
0.410543666666667,0,0x9E3B,
0.410551583333333,0,0xC919,
0.410567416666667,0,0x9E3C,
0.410575333333333,0,0xCA19,
0.410607666666667,0,0x0004,
0.410615333333333,0,0x0329,
0.410631458333333,0,0x0A01,
0.410639333333333,0,0x8329,
0.410655041666667,0,0x0F00,
0.410662875000000,0,0x8429,
0.410678625000000,0,0x0000,
0.410686500000000,0,0x8529,
0.410702166666667,0,0x973F,
0.410710041666667,0,0x8629,
0.410741041666667,0,0x0001,
0.410748750000000,0,0x1D2D,
0.410765041666667,0,0x0055,
0.410772916666667,0,0x9D2D,
0.410800458333333,0,0x0003,
0.410808125000000,0,0x2421,
0.410824458333333,0,0x004C,
0.410832333333333,0,0xA429,
0.410848041666667,0,0x0040,
0.410855916666667,0,0xA529,
0.410871625000000,0,0x8000,
0.410879500000000,0,0xA629,
0.410908083333333,0,0x0005,
0.410915750000000,0,0x2D25,
0.410932041666667,0,0xDBF3,
0.410939916666667,0,0xAD29,
0.410955625000000,0,0xFFF2,
0.410963500000000,0,0xAE29,
0.410979208333333,0,0xE402,
0.410987041666667,0,0xAF29,
0.411002750000000,0,0xFFFF,
0.411010625000000,0,0xB029,
0.411026333333333,0,0x830D,
0.411034208333333,0,0xB129,
0.411065791666667,0,0x0006,
0.411073458333333,0,0x3B29,
0.411089708333333,0,0xE525,
0.411097541666667,0,0xBB29,
0.411113250000000,0,0x8000,
0.411121125000000,0,0xBC29,
0.411136833333333,0,0x8000,
0.411144708333333,0,0xBD29,
0.411160416666667,0,0x8000,
0.411168291666667,0,0xBE29,
0.411184000000000,0,0xE5C6,
0.411191875000000,0,0xBF29,
0.411207583333333,0,0xE5DF,
0.411215458333333,0,0xC029,
0.411246583333333,0,0x000A,
0.411254291666667,0,0x412D,
0.411270458333333,0,0xDC10,
0.411278291666667,0,0xC129,
0.411294041666667,0,0xDD20,
0.411301916666667,0,0xC229,
0.411317625000000,0,0xDF62,
0.411325500000000,0,0xC329,
0.411341208333333,0,0xE128,
0.411349041666667,0,0xC429,
0.411364791666667,0,0xA980,
0.411372625000000,0,0xC529,
0.411388333333333,0,0xFF4C,
0.411396208333333,0,0xC629,
0.411411916666667,0,0xC013,
0.411419791666667,0,0xC729,
0.411435500000000,0,0xA3A4,
0.411443375000000,0,0xC829,
0.411459083333333,0,0x9E38,
0.411466958333333,0,0xC929,
0.411482666666667,0,0x9E3E,
0.411490500000000,0,0xCA29,
0.419244041666667,0,0xAC3F,
0.419251708333333,0,0x0603,
0.419279333333333,0,0x0004,
0.419287000000000,0,0x0315,
0.419303166666667,0,0x0A01,
0.419311125000000,0,0x8315,
0.419326916666667,0,0x0F00,
0.419334875000000,0,0x8415,
0.419350708333333,0,0x0000,
0.419358625000000,0,0x851A,
0.419374458333333,0,0xAF3F,
0.419382416666667,0,0x8615,
0.419412458333333,0,0x0004,
0.419420125000000,0,0x0319,
0.419436333333333,0,0x0A01,
0.419444291666667,0,0x8319,
0.419460083333333,0,0x0F00,
0.419468041666667,0,0x8419,
0.419483875000000,0,0x0000,
0.419491791666667,0,0x851A,
0.419507625000000,0,0xAF3F,
0.419515541666667,0,0x8619,
0.419545666666667,0,0x0004,
0.419553333333333,0,0x031D,
0.419569500000000,0,0x0A01,
0.419577416666667,0,0x831D,
0.419593250000000,0,0x0F00,
0.419601166666667,0,0x841D,
0.419617041666667,0,0x0000,
0.419624916666667,0,0x851A,
0.419640791666667,0,0xAF3F,
0.419648708333333,0,0x861D,
0.419679125000000,0,0x0004,
0.419686791666667,0,0x0311,
0.419703125000000,0,0x0A01,
0.419711041666667,0,0x8311,
0.419726916666667,0,0x0F00,
0.419734833333333,0,0x8411,
0.419750666666667,0,0x0000,
0.419758583333333,0,0x851A,
0.419774416666667,0,0xAF3F,
0.419782333333333,0,0x8611,
0.419812416666667,0,0x0004,
0.419820083333333,0,0x0315,
0.419836250000000,0,0x0A01,
0.419844166666667,0,0x8315,
0.419860000000000,0,0x0F00,
0.419867916666667,0,0x8415,
0.419883750000000,0,0x0000,
0.419891666666667,0,0x851A,
0.419907500000000,0,0xA73F,
0.419915416666667,0,0x8615,
0.419945500000000,0,0x0001,
0.419953208333333,0,0x1D19,
0.419969333333333,0,0x1551,
0.419977250000000,0,0x9D19,
0.420005208333333,0,0x0003,
0.420012916666667,0,0x241D,
0.420029208333333,0,0x0048,
0.420037125000000,0,0xA41A,
0.420053000000000,0,0x0040,
0.420060875000000,0,0xA51A,
0.420076708333333,0,0x8000,
0.420084666666667,0,0xA61A,
0.420112833333333,0,0x0005,
0.420120541666667,0,0x2D11,
0.420136625000000,0,0xD25F,
0.420144541666667,0,0xAD1A,
0.420160375000000,0,0xFFF0,
0.420168291666667,0,0xAE1A,
0.420184125000000,0,0x9E10,
0.420192041666667,0,0xAF1A,
0.420207875000000,0,0x8000,
0.420215791666667,0,0xB01A,
0.420231666666667,0,0x8306,
0.420239583333333,0,0xB11A,
0.420269458333333,0,0x0006,
0.420277166666667,0,0x3B15,
0.420293500000000,0,0xB3E6,
0.420301416666667,0,0xBB1A,
0.420317250000000,0,0xB32F,
0.420325166666667,0,0xBC1A,
0.420341041666667,0,0xB2C3,
0.420348958333333,0,0xBD1A,
0.420364791666667,0,0xB205,
0.420372708333333,0,0xBE1A,
0.420388541666667,0,0xB203,
0.420396458333333,0,0xBF1A,
0.420412291666667,0,0xB272,
0.420420208333333,0,0xC01A,
0.420450208333333,0,0x000A,
0.420457916666667,0,0x4119,
0.420474125000000,0,0xC0C1,
0.420482083333333,0,0xC11A,
0.420497916666667,0,0xC0C0,
0.420505791666667,0,0xC21A,
0.420521666666667,0,0xC0BF,
0.420529541666667,0,0xC31A,
0.420545416666667,0,0xC0BE,
0.420553333333333,0,0xC41A,
0.420569166666667,0,0xC0C1,
0.420577083333333,0,0xC51A,
0.420592916666667,0,0xDDC4,
0.420600833333333,0,0xC61A,
0.420616666666667,0,0x83AA,
0.420624583333333,0,0xC71A,
0.420640416666667,0,0xA3C0,
0.420648333333333,0,0xC81A,
0.420664166666667,0,0x9E38,
0.420672083333333,0,0xC91A,
0.420687916666667,0,0x9E3D,
0.420695833333333,0,0xCA1A,
0.420728000000000,0,0x0004,
0.420735666666667,0,0x032D,
0.420751625000000,0,0x0A01,
0.420759500000000,0,0x832D,
0.420775208333333,0,0x0F00,
0.420783041666667,0,0x842D,
0.420798791666667,0,0x0000,
0.420806666666667,0,0x852A,
0.420822375000000,0,0xA73F,
0.420830208333333,0,0x862D,
0.420860416666667,0,0x0001,
0.420868083333333,0,0x1D21,
0.420884250000000,0,0x0055,
0.420892125000000,0,0x9D21,
0.420920291666667,0,0x0003,
0.420927958333333,0,0x2425,
0.420944166666667,0,0x004C,
0.420952041666667,0,0xA42A,
0.420967750000000,0,0x0040,
0.420975625000000,0,0xA52A,
0.420991333333333,0,0x8000,
0.420999208333333,0,0xA62A,
0.421028041666667,0,0x0005,
0.421035708333333,0,0x2D29,
0.421051750000000,0,0xDD02,
0.421059583333333,0,0xAD2A,
0.421075291666667,0,0xFFF2,
0.421083166666667,0,0xAE2A,
0.421098875000000,0,0xE219,
0.421106750000000,0,0xAF2A,
0.421122458333333,0,0x8000,
0.421130291666667,0,0xB02A,
0.421146041666667,0,0x8300,
0.421153875000000,0,0xB12A,
0.421184416666667,0,0x0006,
0.421192083333333,0,0x3B2D,
0.421208375000000,0,0xE522,
0.421216250000000,0,0xBB2A,
0.421231958333333,0,0x8001,
0.421239833333333,0,0xBC2A,
0.421255541666667,0,0x8000,
0.421263416666667,0,0xBD2A,
0.421279125000000,0,0x8000,
0.421287000000000,0,0xBE2A,
0.421302708333333,0,0xE5C8,
0.421310541666667,0,0xBF2A,
0.421326291666667,0,0xE5DF,
0.421334125000000,0,0xC02A,
0.421364333333333,0,0x000A,
0.421372000000000,0,0x4121,
0.421388166666667,0,0xDC17,
0.421396000000000,0,0xC12A,
0.421411750000000,0,0xDD27,
0.421419625000000,0,0xC22A,
0.421435333333333,0,0xDF5E,
0.421443166666667,0,0xC32A,
0.421458875000000,0,0xE130,
0.421466750000000,0,0xC42A,
0.421482458333333,0,0xA982,
0.421490333333333,0,0xC52A,
0.421506041666667,0,0xFF4C,
0.421513875000000,0,0xC62A,
0.421529625000000,0,0xC016,
0.421537458333333,0,0xC72A,
0.421553166666667,0,0xA3A3,
0.421561041666667,0,0xC82A,
0.421576750000000,0,0x9E3B,
0.421584625000000,0,0xC92A,
0.421600333333333,0,0x9E41,
0.421608208333333,0,0xCA2A,
0.429100083333333,0,0xBC3F,
0.429107750000000,0,0x0607,
0.429135416666667,0,0x0004,
0.429143083333333,0,0x0319,
0.429159291666667,0,0x0A01,
0.429167250000000,0,0x8319,
0.429183083333333,0,0x0F00,
0.429191000000000,0,0x8419,
0.429206833333333,0,0x0000,
0.429214750000000,0,0x851B,
0.429230583333333,0,0xBF3F,
0.429238500000000,0,0x8619,
0.429269833333333,0,0x0004,
0.429277541666667,0,0x031D,
0.429293916666667,0,0x0A01,
0.429301833333333,0,0x831D,
0.429317666666667,0,0x0F00,
0.429325583333333,0,0x841D,
0.429341458333333,0,0x0000,
0.429349333333333,0,0x851B,
0.429365208333333,0,0xBF3F,
0.429373125000000,0,0x861D,
0.429403625000000,0,0x0004,
0.429411291666667,0,0x0311,
0.429427583333333,0,0x0A01,
0.429435500000000,0,0x8311,
0.429451333333333,0,0x0F00,
0.429459250000000,0,0x8411,
0.429475083333333,0,0x0000,
0.429483041666667,0,0x851B,
0.429498875000000,0,0xBF3F,
0.429506791666667,0,0x8611,
0.429537791666667,0,0x0004,
0.429545500000000,0,0x0315,
0.429561750000000,0,0x0A01,
0.429569625000000,0,0x8315,
0.429585500000000,0,0x0F00,
0.429593375000000,0,0x8415,
0.429609250000000,0,0x0000,
0.429617166666667,0,0x851B,
0.429633000000000,0,0xBF3F,
0.429640916666667,0,0x8615,
0.429670625000000,0,0x0004,
0.429678291666667,0,0x0319,
0.429694333333333,0,0x0A01,
0.429702250000000,0,0x8319,
0.429718083333333,0,0x0F00,
0.429726041666667,0,0x8419,
0.429741875000000,0,0x0000,
0.429749791666667,0,0x851B,
0.429765625000000,0,0xB73F,
0.429773541666667,0,0x8619,
0.429804000000000,0,0x0001,
0.429811666666667,0,0x1D1D,
0.429827958333333,0,0x1551,
0.429835875000000,0,0x9D1D,
0.429863833333333,0,0x0003,
0.429871500000000,0,0x2411,
0.429887791666667,0,0x0048,
0.429895708333333,0,0xA41B,
0.429911541666667,0,0x0040,
0.429919458333333,0,0xA51B,
0.429935291666667,0,0x8000,
0.429943250000000,0,0xA61B,
0.429972208333333,0,0x0005,
0.429979916666667,0,0x2D15,
0.429996166666667,0,0xD365,
0.430004083333333,0,0xAD1B,
0.430019958333333,0,0xFFF0,
0.430027875000000,0,0xAE1B,
0.430043708333333,0,0x9ABA,
0.430051625000000,0,0xAF1B,
0.430067458333333,0,0xFFFF,
0.430075375000000,0,0xB01B,
0.430091208333333,0,0x830F,
0.430099125000000,0,0xB11B,
0.430128916666667,0,0x0006,
0.430136625000000,0,0x3B19,
0.430152583333333,0,0xB3E7,
0.430160500000000,0,0xBB1B,
0.430176333333333,0,0xB333,
0.430184250000000,0,0xBC1B,
0.430200083333333,0,0xB2C3,
0.430208000000000,0,0xBD1B,
0.430223875000000,0,0xB205,
0.430231750000000,0,0xBE1B,
0.430247583333333,0,0xB204,
0.430255541666667,0,0xBF1B,
0.430271375000000,0,0xB279,
0.430279291666667,0,0xC01B,
0.430309416666667,0,0x000A,
0.430317125000000,0,0x411D,
0.430333208333333,0,0xC0C8,
0.430341125000000,0,0xC11B,
0.430357000000000,0,0xC0C6,
0.430364916666667,0,0xC21B,
0.430380750000000,0,0xC0C6,
0.430388666666667,0,0xC31B,
0.430404500000000,0,0xC0C5,
0.430412416666667,0,0xC41B,
0.430428250000000,0,0xC0C5,
0.430436166666667,0,0xC51B,
0.430452000000000,0,0xDDCC,
0.430459958333333,0,0xC61B,
0.430475791666667,0,0x83AE,
0.430483708333333,0,0xC71B,
0.430499541666667,0,0xA3BC,
0.430507458333333,0,0xC81B,
0.430523291666667,0,0x9E3B,
0.430531208333333,0,0xC91B,
0.430547041666667,0,0x9E3C,
0.430554958333333,0,0xCA1B,
0.430586708333333,0,0x0004,
0.430594375000000,0,0x0321,
0.430610375000000,0,0x0A01,
0.430618250000000,0,0x8321,
0.430633958333333,0,0x0F00,
0.430641833333333,0,0x8421,
0.430657541666667,0,0x0000,
0.430665375000000,0,0x852B,
0.430681083333333,0,0xB73F,
0.430688958333333,0,0x8621,
0.430719000000000,0,0x0001,
0.430726666666667,0,0x1D25,
0.430742958333333,0,0x0055,
0.430750833333333,0,0x9D25,
0.430778416666667,0,0x0003,
0.430786083333333,0,0x2429,
0.430802375000000,0,0x004C,
0.430810250000000,0,0xA42B,
0.430825958333333,0,0x0040,
0.430833833333333,0,0xA52B,
0.430849541666667,0,0x8000,
0.430857416666667,0,0xA62B,
0.430886125000000,0,0x0005,
0.430893791666667,0,0x2D2D,
0.430909958333333,0,0xDE0A,
0.430917791666667,0,0xAD2B,
0.430933500000000,0,0xFFF2,
0.430941375000000,0,0xAE2B,
0.430957083333333,0,0xE086,
0.430964958333333,0,0xAF2B,
0.430980666666667,0,0x8000,
0.430988541666667,0,0xB02B,
0.431004250000000,0,0x8303,
0.431012083333333,0,0xB12B,
0.431042250000000,0,0x0006,
0.431049958333333,0,0x3B21,
0.431066125000000,0,0xE527,
0.431073958333333,0,0xBB2B,
0.431089666666667,0,0x8000,
0.431097541666667,0,0xBC2B,
0.431113250000000,0,0x8000,
0.431121125000000,0,0xBD2B,
0.431136833333333,0,0x8001,
0.431144666666667,0,0xBE2B,
0.431160375000000,0,0xE5C7,
0.431168250000000,0,0xBF2B,
0.431183958333333,0,0xE5E1,
0.431191833333333,0,0xC02B,
0.431222291666667,0,0x000A,
0.431229958333333,0,0x4125,
0.431246333333333,0,0xDC13,
0.431254166666667,0,0xC12B,
0.431269916666667,0,0xDD24,
0.431277750000000,0,0xC22B,
0.431293458333333,0,0xDF63,
0.431301291666667,0,0xC32B,
0.431317041666667,0,0xE127,
0.431324875000000,0,0xC42B,
0.431340583333333,0,0xA980,
0.431348458333333,0,0xC52B,
0.431364166666667,0,0xFF4E,
0.431372041666667,0,0xC62B,
0.431387750000000,0,0xC012,
0.431395625000000,0,0xC72B,
0.431411291666667,0,0xA3A2,
0.431419166666667,0,0xC82B,
0.431434916666667,0,0x9E37,
0.431442750000000,0,0xC92B,
0.431458458333333,0,0x9E3D,
0.431466333333333,0,0xCA2B,
0.439053833333333,0,0xCC3F,
0.439061541666667,0,0x060B,
0.439088500000000,0,0x0004,
0.439096166666667,0,0x031D,
0.439112208333333,0,0x0A01,
0.439120125000000,0,0x831D,
0.439135958333333,0,0x0F00,
0.439143875000000,0,0x841D,
0.439159708333333,0,0x0000,
0.439167625000000,0,0x851C,
0.439183500000000,0,0xCF3F,
0.439191416666667,0,0x861D,
0.439221916666667,0,0x0004,
0.439229625000000,0,0x0311,
0.439245875000000,0,0x0A01,
0.439253791666667,0,0x8311,
0.439269666666667,0,0x0F00,
0.439277583333333,0,0x8411,
0.439293416666667,0,0x0000,
0.439301333333333,0,0x851C,
0.439317166666667,0,0xCF3F,
0.439325083333333,0,0x8611,
0.439355125000000,0,0x0004,
0.439362833333333,0,0x0315,
0.439379041666667,0,0x0A01,
0.439386958333333,0,0x8315,
0.439402791666667,0,0x0F00,
0.439410750000000,0,0x8415,
0.439426583333333,0,0x0000,
0.439434458333333,0,0x851C,
0.439450333333333,0,0xCF3F,
0.439458250000000,0,0x8615,
0.439489041666667,0,0x0004,
0.439496708333333,0,0x0319,
0.439513166666667,0,0x0A01,
0.439521125000000,0,0x8319,
0.439536958333333,0,0x0F00,
0.439544875000000,0,0x8419,
0.439560708333333,0,0x0000,
0.439568625000000,0,0x851C,
0.439584458333333,0,0xCF3F,
0.439592375000000,0,0x8619,
0.439622458333333,0,0x0004,
0.439630125000000,0,0x031D,
0.439646291666667,0,0x0A01,
0.439654208333333,0,0x831D,
0.439670041666667,0,0x0F00,
0.439677958333333,0,0x841D,
0.439693791666667,0,0x0000,
0.439701708333333,0,0x851C,
0.439717583333333,0,0xC73F,
0.439725458333333,0,0x861D,
0.439755458333333,0,0x0001,
0.439763166666667,0,0x1D11,
0.439779416666667,0,0x1551,
0.439787291666667,0,0x9D11,
0.439815666666667,0,0x0003,
0.439823375000000,0,0x2415,
0.439839791666667,0,0x0048,
0.439847666666667,0,0xA41C,
0.439863500000000,0,0x0040,
0.439871458333333,0,0xA51C,
0.439887250000000,0,0x8000,
0.439895208333333,0,0xA61C,
0.439924458333333,0,0x0005,
0.439932166666667,0,0x2D19,
0.439948125000000,0,0xD46D,
0.439956041666667,0,0xAD1C,
0.439971875000000,0,0xFFF0,
0.439979833333333,0,0xAE1C,
0.439995625000000,0,0x97F2,
0.440003583333333,0,0xAF1C,
0.440019416666667,0,0xFFFF,
0.440027291666667,0,0xB01C,
0.440043125000000,0,0x830A,
0.440051083333333,0,0xB11C,
0.440081166666667,0,0x0006,
0.440088833333333,0,0x3B1D,
0.440105000000000,0,0xB3E8,
0.440112916666667,0,0xBB1C,
0.440128750000000,0,0xB332,
0.440136666666667,0,0xBC1C,
0.440152500000000,0,0xB2BE,
0.440160416666667,0,0xBD1C,
0.440176250000000,0,0xB202,
0.440184166666667,0,0xBE1C,
0.440200000000000,0,0xB202,
0.440207916666667,0,0xBF1C,
0.440223791666667,0,0xB274,
0.440231708333333,0,0xC01C,
0.440262458333333,0,0x000A,
0.440270125000000,0,0x4111,
0.440286125000000,0,0xC0C2,
0.440294041666667,0,0xC11C,
0.440309833333333,0,0xC0C4,
0.440317791666667,0,0xC21C,
0.440333583333333,0,0xC0C4,
0.440341541666667,0,0xC31C,
0.440357375000000,0,0xC0C5,
0.440365291666667,0,0xC41C,
0.440381125000000,0,0xC0C3,
0.440389041666667,0,0xC51C,
0.440404875000000,0,0xDDCD,
0.440412791666667,0,0xC61C,
0.440428625000000,0,0x83AB,
0.440436541666667,0,0xC71C,
0.440452375000000,0,0xA3BE,
0.440460291666667,0,0xC81C,
0.440476125000000,0,0x9E36,
0.440484083333333,0,0xC91C,
0.440499916666667,0,0x9E39,
0.440507833333333,0,0xCA1C,
0.440539333333333,0,0x0004,
0.440547041666667,0,0x0325,
0.440563250000000,0,0x0A01,
0.440571125000000,0,0x8325,
0.440586833333333,0,0x0F00,
0.440594708333333,0,0x8425,
0.440610416666667,0,0x0000,
0.440618291666667,0,0x852C,
0.440634041666667,0,0xC73F,
0.440641875000000,0,0x8625,
0.440672416666667,0,0x0001,
0.440680083333333,0,0x1D29,
0.440696375000000,0,0x0055,
0.440704250000000,0,0x9D29,
0.440732833333333,0,0x0003,
0.440740500000000,0,0x242D,
0.440756791666667,0,0x004C,
0.440764666666667,0,0xA42C,
0.440780375000000,0,0x0040,
0.440788250000000,0,0xA52C,
0.440803958333333,0,0x8000,
0.440811791666667,0,0xA62C,
0.440840541666667,0,0x0005,
0.440848208333333,0,0x2D21,
0.440864375000000,0,0xDF15,
0.440872250000000,0,0xAD2C,
0.440887958333333,0,0xFFF2,
0.440895833333333,0,0xAE2C,
0.440911541666667,0,0xDEBB,
0.440919375000000,0,0xAF2C,
0.440935083333333,0,0x8000,
0.440942958333333,0,0xB02C,
0.440958666666667,0,0x8302,
0.440966541666667,0,0xB12C,
0.440997125000000,0,0x0006,
0.441004791666667,0,0x3B25,
0.441021041666667,0,0xE526,
0.441028916666667,0,0xBB2C,
0.441044625000000,0,0x8000,
0.441052458333333,0,0xBC2C,
0.441068208333333,0,0x8003,
0.441076041666667,0,0xBD2C,
0.441091791666667,0,0x8000,
0.441099666666667,0,0xBE2C,
0.441115375000000,0,0xE5C7,
0.441123208333333,0,0xBF2C,
0.441138958333333,0,0xE5E0,
0.441146791666667,0,0xC02C,
0.441177250000000,0,0x000A,
0.441184958333333,0,0x4129,
0.441201333333333,0,0xDC14,
0.441209208333333,0,0xC12C,
0.441224916666667,0,0xDD24,
0.441232791666667,0,0xC22C,
0.441248458333333,0,0xDF64,
0.441256333333333,0,0xC32C,
0.441272041666667,0,0xE12A,
0.441279916666667,0,0xC42C,
0.441295625000000,0,0xA97F,
0.441303500000000,0,0xC52C,
0.441319208333333,0,0xFF50,
0.441327041666667,0,0xC62C,
0.441342791666667,0,0xC017,
0.441350625000000,0,0xC72C,
0.441366375000000,0,0xA3A2,
0.441374250000000,0,0xC82C,
0.441389916666667,0,0x9E3B,
0.441397791666667,0,0xC92C,
0.441413500000000,0,0x9E3F,
0.441421375000000,0,0xCA2C,
0.449119083333333,0,0xDC3F,
0.449126750000000,0,0x060F,
0.449154208333333,0,0x0004,
0.449161875000000,0,0x0311,
0.449177916666667,0,0x0A01,
0.449185833333333,0,0x8311,
0.449201666666667,0,0x0F00,
0.449209583333333,0,0x8411,
0.449225416666667,0,0x0000,
0.449233375000000,0,0x851D,
0.449249208333333,0,0xDF3F,
0.449257125000000,0,0x8611,
0.449287666666667,0,0x0004,
0.449295333333333,0,0x0315,
0.449311541666667,0,0x0A01,
0.449319500000000,0,0x8315,
0.449335333333333,0,0x0F00,
0.449343250000000,0,0x8415,
0.449359083333333,0,0x0000,
0.449367000000000,0,0x851D,
0.449382833333333,0,0xDF3F,
0.449390750000000,0,0x8615,
0.449422125000000,0,0x0004,
0.449429791666667,0,0x0319,
0.449446208333333,0,0x0A01,
0.449454125000000,0,0x8319,
0.449469958333333,0,0x0F00,
0.449477916666667,0,0x8419,
0.449493750000000,0,0x0000,
0.449501666666667,0,0x851D,
0.449517500000000,0,0xDF3F,
0.449525416666667,0,0x8619,
0.449556125000000,0,0x0004,
0.449563833333333,0,0x031D,
0.449579875000000,0,0x0A01,
0.449587791666667,0,0x831D,
0.449603666666667,0,0x0F00,
0.449611583333333,0,0x841D,
0.449627416666667,0,0x0000,
0.449635333333333,0,0x851D,
0.449651166666667,0,0xDF3F,
0.449659125000000,0,0x861D,
0.449689708333333,0,0x0004,
0.449697375000000,0,0x0311,
0.449713541666667,0,0x0A01,
0.449721458333333,0,0x8311,
0.449737291666667,0,0x0F00,
0.449745208333333,0,0x8411,
0.449761041666667,0,0x0000,
0.449768958333333,0,0x851D,
0.449784791666667,0,0xD73F,
0.449792708333333,0,0x8611,
0.449823375000000,0,0x0001,
0.449831041666667,0,0x1D15,
0.449847166666667,0,0x1551,
0.449855083333333,0,0x9D15,
0.449882791666667,0,0x0003,
0.449890458333333,0,0x2419,
0.449906541666667,0,0x0048,
0.449914458333333,0,0xA41D,
0.449930291666667,0,0x0040,
0.449938208333333,0,0xA51D,
0.449954041666667,0,0x8000,
0.449961958333333,0,0xA61D,
0.449990916666667,0,0x0005,
0.449998625000000,0,0x2D1D,
0.450014916666667,0,0xD579,
0.450022833333333,0,0xAD1D,
0.450038666666667,0,0xFFF0,
0.450046583333333,0,0xAE1D,
0.450062416666667,0,0x94CD,
0.450070333333333,0,0xAF1D,
0.450086208333333,0,0x8000,
0.450094125000000,0,0xB01D,
0.450109958333333,0,0x8303,
0.450117875000000,0,0xB11D,
0.450147083333333,0,0x0006,
0.450154750000000,0,0x3B11,
0.450170791666667,0,0xB3E6,
0.450178750000000,0,0xBB1D,
0.450194583333333,0,0xB331,
0.450202500000000,0,0xBC1D,
0.450218333333333,0,0xB2C1,
0.450226250000000,0,0xBD1D,
0.450242083333333,0,0xB205,
0.450250000000000,0,0xBE1D,
0.450265833333333,0,0xB203,
0.450273791666667,0,0xBF1D,
0.450289583333333,0,0xB275,
0.450297541666667,0,0xC01D,
0.450327666666667,0,0x000A,
0.450335375000000,0,0x4115,
0.450351458333333,0,0xC0C3,
0.450359375000000,0,0xC11D,
0.450375208333333,0,0xC0C7,
0.450383125000000,0,0xC21D,
0.450398958333333,0,0xC0C6,
0.450406875000000,0,0xC31D,
0.450422708333333,0,0xC0C4,
0.450430625000000,0,0xC41D,
0.450446500000000,0,0xC0C9,
0.450454416666667,0,0xC51D,
0.450470250000000,0,0xDDCA,
0.450478166666667,0,0xC61D,
0.450494000000000,0,0x83A9,
0.450501916666667,0,0xC71D,
0.450517750000000,0,0xA3C1,
0.450525666666667,0,0xC81D,
0.450541500000000,0,0x9E38,
0.450549416666667,0,0xC91D,
0.450565250000000,0,0x9E3B,
0.450573166666667,0,0xCA1D,
0.450605500000000,0,0x0004,
0.450613166666667,0,0x0329,
0.450629208333333,0,0x0A01,
0.450637083333333,0,0x8329,
0.450652791666667,0,0x0F00,
0.450660666666667,0,0x8429,
0.450676375000000,0,0x0000,
0.450684208333333,0,0x852D,
0.450699958333333,0,0xD73F,
0.450707791666667,0,0x8629,
0.450738166666667,0,0x0001,
0.450745833333333,0,0x1D2D,
0.450761833333333,0,0x0055,
0.450769666666667,0,0x9D2D,
0.450798208333333,0,0x0003,
0.450805916666667,0,0x2421,
0.450822208333333,0,0x004C,
0.450830083333333,0,0xA42D,
0.450845791666667,0,0x0040,
0.450853666666667,0,0xA52D,
0.450869375000000,0,0x8000,
0.450877250000000,0,0xA62D,
0.450906750000000,0,0x0005,
0.450914458333333,0,0x2D25,
0.450930750000000,0,0xE023,
0.450938625000000,0,0xAD2D,
0.450954333333333,0,0xFFF2,
0.450962208333333,0,0xAE2D,
0.450977916666667,0,0xDC8E,
0.450985750000000,0,0xAF2D,
0.451001458333333,0,0xFFFF,
0.451009333333333,0,0xB02D,
0.451025041666667,0,0x8309,
0.451032916666667,0,0xB12D,
0.451063875000000,0,0x0006,
0.451071583333333,0,0x3B29,
0.451087916666667,0,0xE526,
0.451095750000000,0,0xBB2D,
0.451111458333333,0,0x8000,
0.451119333333333,0,0xBC2D,
0.451135041666667,0,0x8000,
0.451142916666667,0,0xBD2D,
0.451158625000000,0,0x8001,
0.451166500000000,0,0xBE2D,
0.451182208333333,0,0xE5C8,
0.451190041666667,0,0xBF2D,
0.451205791666667,0,0xE5DF,
0.451213666666667,0,0xC02D,
0.451244541666667,0,0x000A,
0.451252250000000,0,0x412D,
0.451268625000000,0,0xDC0E,
0.451276500000000,0,0xC12D,
0.451292208333333,0,0xDD26,
0.451300083333333,0,0xC22D,
0.451315791666667,0,0xDF65,
0.451323666666667,0,0xC32D,
0.451339375000000,0,0xE128,
0.451347208333333,0,0xC42D,
0.451362958333333,0,0xA982,
0.451370833333333,0,0xC52D,
0.451386541666667,0,0xFF4E,
0.451394375000000,0,0xC62D,
0.451410125000000,0,0xC018,
0.451417958333333,0,0xC72D,
0.451433708333333,0,0xA39E,
0.451441541666667,0,0xC82D,
0.451457250000000,0,0x9E3A,
0.451465125000000,0,0xC92D,
0.451480833333333,0,0x9E3C,
0.451488708333333,0,0xCA2D,
0.459072583333333,0,0xEC3F,
0.459080250000000,0,0x0603,
0.459107250000000,0,0x0004,
0.459114916666667,0,0x0315,
0.459131125000000,0,0x0A01,
0.459139041666667,0,0x8315,
0.459154875000000,0,0x0F00,
0.459162791666667,0,0x8415,
0.459178625000000,0,0x0000,
0.459186541666667,0,0x851E,
0.459202416666667,0,0xEF3F,
0.459210333333333,0,0x8615,
0.459240583333333,0,0x0004,
0.459248250000000,0,0x0319,
0.459264291666667,0,0x0A01,
0.459272208333333,0,0x8319,
0.459288041666667,0,0x0F00,
0.459295958333333,0,0x8419,
0.459311791666667,0,0x0000,
0.459319708333333,0,0x851E,
0.459335583333333,0,0xEF3F,
0.459343500000000,0,0x8619,
0.459374833333333,0,0x0004,
0.459382500000000,0,0x031D,
0.459398458333333,0,0x0A01,
0.459406375000000,0,0x831D,
0.459422208333333,0,0x0F00,
0.459430125000000,0,0x841D,
0.459446000000000,0,0x0000,
0.459453916666667,0,0x851E,
0.459469750000000,0,0xEF3F,
0.459477666666667,0,0x861D,
0.459507916666667,0,0x0004,
0.459515625000000,0,0x0311,
0.459531666666667,0,0x0A01,
0.459539583333333,0,0x8311,
0.459555416666667,0,0x0F00,
0.459563333333333,0,0x8411,
0.459579208333333,0,0x0000,
0.459587083333333,0,0x851E,
0.459602958333333,0,0xEF3F,
0.459610875000000,0,0x8611,
0.459641708333333,0,0x0004,
0.459649375000000,0,0x0315,
0.459665791666667,0,0x0A01,
0.459673708333333,0,0x8315,
0.459689541666667,0,0x0F00,
0.459697458333333,0,0x8415,
0.459713291666667,0,0x0000,
0.459721208333333,0,0x851E,
0.459737041666667,0,0xE73F,
0.459745000000000,0,0x8615,
0.459775708333333,0,0x0001,
0.459783375000000,0,0x1D19,
0.459799416666667,0,0x1551,
0.459807333333333,0,0x9D19,
0.459835916666667,0,0x0003,
0.459843583333333,0,0x241D,
0.459859750000000,0,0x0048,
0.459867708333333,0,0xA41E,
0.459883541666667,0,0x0040,
0.459891458333333,0,0xA51E,
0.459907291666667,0,0x8000,
0.459915166666667,0,0xA61E,
0.459944208333333,0,0x0005,
0.459951875000000,0,0x2D11,
0.459968166666667,0,0xD682,
0.459976041666667,0,0xAD1E,
0.459991916666667,0,0xFFF0,
0.459999791666667,0,0xAE1E,
0.460015666666667,0,0x9245,
0.460023541666667,0,0xAF1E,
0.460039375000000,0,0xFFFF,
0.460047333333333,0,0xB01E,
0.460063166666667,0,0x8306,
0.460071083333333,0,0xB11E,
0.460100875000000,0,0x0006,
0.460108541666667,0,0x3B15,
0.460125000000000,0,0xB3E6,
0.460132916666667,0,0xBB1E,
0.460148750000000,0,0xB335,
0.460156666666667,0,0xBC1E,
0.460172500000000,0,0xB2C4,
0.460180416666667,0,0xBD1E,
0.460196250000000,0,0xB204,
0.460204166666667,0,0xBE1E,
0.460220000000000,0,0xB206,
0.460227916666667,0,0xBF1E,
0.460243750000000,0,0xB279,
0.460251666666667,0,0xC01E,
0.460282125000000,0,0x000A,
0.460289833333333,0,0x4119,
0.460306083333333,0,0xC0C7,
0.460314000000000,0,0xC11E,
0.460329833333333,0,0xC0C5,
0.460337750000000,0,0xC21E,
0.460353583333333,0,0xC0C5,
0.460361500000000,0,0xC31E,
0.460377333333333,0,0xC0C7,
0.460385250000000,0,0xC41E,
0.460401083333333,0,0xC0C7,
0.460409000000000,0,0xC51E,
0.460424833333333,0,0xDDCB,
0.460432750000000,0,0xC61E,
0.460448625000000,0,0x83AB,
0.460456541666667,0,0xC71E,
0.460472333333333,0,0xA3BF,
0.460480291666667,0,0xC81E,
0.460496125000000,0,0x9E3A,
0.460504041666667,0,0xC91E,
0.460519875000000,0,0x9E3C,
0.460527791666667,0,0xCA1E,
0.460560125000000,0,0x0004,
0.460567791666667,0,0x032D,
0.460584166666667,0,0x0A01,
0.460592000000000,0,0x832D,
0.460607708333333,0,0x0F00,
0.460615583333333,0,0x842D,
0.460631291666667,0,0x0000,
0.460639125000000,0,0x852E,
0.460654875000000,0,0xE73F,
0.460662708333333,0,0x862D,
0.460693208333333,0,0x0001,
0.460700875000000,0,0x1D21,
0.460717208333333,0,0x0055,
0.460725083333333,0,0x9D21,
0.460752500000000,0,0x0003,
0.460760208333333,0,0x2425,
0.460776125000000,0,0x004C,
0.460784000000000,0,0xA42E,
0.460799708333333,0,0x0040,
0.460807583333333,0,0xA52E,
0.460823291666667,0,0x8000,
0.460831125000000,0,0xA62E,
0.460859541666667,0,0x0005,
0.460867208333333,0,0x2D29,
0.460883208333333,0,0xE12E,
0.460891041666667,0,0xAD2E,
0.460906750000000,0,0xFFF2,
0.460914625000000,0,0xAE2E,
0.460930333333333,0,0xDA5D,
0.460938208333333,0,0xAF2E,
0.460953916666667,0,0xFFFF,
0.460961750000000,0,0xB02E,
0.460977458333333,0,0x830B,
0.460985333333333,0,0xB12E,
0.461015083333333,0,0x0006,
0.461022750000000,0,0x3B2D,
0.461038833333333,0,0xE525,
0.461046708333333,0,0xBB2E,
0.461062416666667,0,0x8000,
0.461070291666667,0,0xBC2E,
0.461086000000000,0,0x8000,
0.461093833333333,0,0xBD2E,
0.461109541666667,0,0x8003,
0.461117416666667,0,0xBE2E,
0.461133125000000,0,0xE5C4,
0.461140958333333,0,0xBF2E,
0.461156708333333,0,0xE5DB,
0.461164541666667,0,0xC02E,
0.461194916666667,0,0x000A,
0.461202583333333,0,0x4121,
0.461218583333333,0,0xDC11,
0.461226416666667,0,0xC12E,
0.461242125000000,0,0xDD21,
0.461250000000000,0,0xC22E,
0.461265708333333,0,0xDF60,
0.461273541666667,0,0xC32E,
0.461289250000000,0,0xE12A,
0.461297125000000,0,0xC42E,
0.461312833333333,0,0xA980,
0.461320708333333,0,0xC52E,
0.461336416666667,0,0xFF4A,
0.461344291666667,0,0xC62E,
0.461360000000000,0,0xC015,
0.461367833333333,0,0xC72E,
0.461383541666667,0,0xA3A3,
0.461391416666667,0,0xC82E,
0.461407125000000,0,0x9E36,
0.461415000000000,0,0xC92E,
0.461430708333333,0,0x9E3D,
0.461438541666667,0,0xCA2E,
0.469301625000000,0,0xFC3F,
0.469309291666667,0,0x0607,
0.469336708333333,0,0x0004,
0.469344375000000,0,0x0319,
0.469360625000000,0,0x0A01,
0.469368541666667,0,0x8319,
0.469384375000000,0,0x0F00,
0.469392291666667,0,0x8419,
0.469408125000000,0,0x0000,
0.469416041666667,0,0x851F,
0.469431875000000,0,0xFF3F,
0.469439791666667,0,0x8619,
0.469470791666667,0,0x0004,
0.469478500000000,0,0x031D,
0.469494750000000,0,0x0A01,
0.469502625000000,0,0x831D,
0.469518458333333,0,0x0F00,
0.469526416666667,0,0x841D,
0.469542250000000,0,0x0000,
0.469550166666667,0,0x851F,
0.469566000000000,0,0xFF3F,
0.469573958333333,0,0x861D,
0.469604125000000,0,0x0004,
0.469611833333333,0,0x0311,
0.469627875000000,0,0x0A01,
0.469635791666667,0,0x8311,
0.469651625000000,0,0x0F00,
0.469659541666667,0,0x8411,
0.469675416666667,0,0x0000,
0.469683333333333,0,0x851F,
0.469699166666667,0,0xFF3F,
0.469707083333333,0,0x8611,
0.469737958333333,0,0x0004,
0.469745666666667,0,0x0315,
0.469762041666667,0,0x0A01,
0.469769958333333,0,0x8315,
0.469785791666667,0,0x0F00,
0.469793708333333,0,0x8415,
0.469809541666667,0,0x0000,
0.469817458333333,0,0x851F,
0.469833291666667,0,0xFF3F,
0.469841208333333,0,0x8615,
0.469871166666667,0,0x0004,
0.469878875000000,0,0x0319,
0.469895125000000,0,0x0A01,
0.469903041666667,0,0x8319,
0.469918875000000,0,0x0F00,
0.469926791666667,0,0x8419,
0.469942625000000,0,0x0000,
0.469950541666667,0,0x851F,
0.469966375000000,0,0xF73F,
0.469974291666667,0,0x8619,
0.470004666666667,0,0x0001,
0.470012375000000,0,0x1D1D,
0.470028708333333,0,0x1551,
0.470036625000000,0,0x9D1D,
0.470065166666667,0,0x0003,
0.470072875000000,0,0x2411,
0.470089083333333,0,0x0048,
0.470097000000000,0,0xA41F,
0.470112833333333,0,0x0040,
0.470120750000000,0,0xA51F,
0.470136583333333,0,0x8000,
0.470144500000000,0,0xA61F,
0.470173875000000,0,0x0005,
0.470181583333333,0,0x2D15,
0.470197875000000,0,0xD792,
0.470205791666667,0,0xAD1F,
0.470221625000000,0,0xFFF0,
0.470229541666667,0,0xAE1F,
0.470245416666667,0,0x8FA1,
0.470253291666667,0,0xAF1F,
0.470269125000000,0,0x8000,
0.470277041666667,0,0xB01F,
0.470292875000000,0,0x8303,
0.470300791666667,0,0xB11F,
0.470330833333333,0,0x0006,
0.470338541666667,0,0x3B19,
0.470354708333333,0,0xB3E3,
0.470362625000000,0,0xBB1F,
0.470378458333333,0,0xB32D,
0.470386375000000,0,0xBC1F,
0.470402208333333,0,0xB2C3,
0.470410125000000,0,0xBD1F,
0.470425916666667,0,0xB206,
0.470433875000000,0,0xBE1F,
0.470449708333333,0,0xB207,
0.470457583333333,0,0xBF1F,
0.470473458333333,0,0xB27A,
0.470481375000000,0,0xC01F,
0.470512125000000,0,0x000A,
0.470519791666667,0,0x411D,
0.470535791666667,0,0xC0C3,
0.470543708333333,0,0xC11F,
0.470559541666667,0,0xC0C3,
0.470567458333333,0,0xC21F,
0.470583291666667,0,0xC0C3,
0.470591208333333,0,0xC31F,
0.470607000000000,0,0xC0C6,
0.470614958333333,0,0xC41F,
0.470630750000000,0,0xC0C3,
0.470638666666667,0,0xC51F,
0.470654500000000,0,0xDDC6,
0.470662416666667,0,0xC61F,
0.470678250000000,0,0x83A7,
0.470686166666667,0,0xC71F,
0.470702000000000,0,0xA3BE,
0.470709916666667,0,0xC81F,
0.470725750000000,0,0x9E39,
0.470733625000000,0,0xC91F,
0.470749458333333,0,0x9E37,
0.470757416666667,0,0xCA1F,
0.470788833333333,0,0x0004,
0.470796541666667,0,0x0321,
0.470812666666667,0,0x0A01,
0.470820541666667,0,0x8321,
0.470836250000000,0,0x0F00,
0.470844125000000,0,0x8421,
0.470859833333333,0,0x0000,
0.470867708333333,0,0x852F,
0.470883416666667,0,0xF73F,
0.470891250000000,0,0x8621,
0.470921833333333,0,0x0001,
0.470929500000000,0,0x1D25,
0.470945750000000,0,0x0055,
0.470953625000000,0,0x9D25,
0.470981666666667,0,0x0003,
0.470989333333333,0,0x2429,
0.471005666666667,0,0x004C,
0.471013541666667,0,0xA42F,
0.471029250000000,0,0x0040,
0.471037125000000,0,0xA52F,
0.471052833333333,0,0x8000,
0.471060666666667,0,0xA62F,
0.471089791666667,0,0x0005,
0.471097458333333,0,0x2D2D,
0.471113708333333,0,0xE240,
0.471121583333333,0,0xAD2F,
0.471137291666667,0,0xFFF2,
0.471145166666667,0,0xAE2F,
0.471160875000000,0,0xD839,
0.471168708333333,0,0xAF2F,
0.471184416666667,0,0xFFFF,
0.471192291666667,0,0xB02F,
0.471208000000000,0,0x830F,
0.471215875000000,0,0xB12F,
0.471245083333333,0,0x0006,
0.471252750000000,0,0x3B21,
0.471268916666667,0,0xE528,
0.471276750000000,0,0xBB2F,
0.471292500000000,0,0x8002,
0.471300333333333,0,0xBC2F,
0.471316041666667,0,0x8004,
0.471323916666667,0,0xBD2F,
0.471339625000000,0,0x8001,
0.471347500000000,0,0xBE2F,
0.471363208333333,0,0xE5C7,
0.471371041666667,0,0xBF2F,
0.471386750000000,0,0xE5E0,
0.471394625000000,0,0xC02F,
0.471424958333333,0,0x000A,
0.471432625000000,0,0x4125,
0.471448625000000,0,0xDC11,
0.471456500000000,0,0xC12F,
0.471472208333333,0,0xDD28,
0.471480083333333,0,0xC22F,
0.471495791666667,0,0xDF63,
0.471503625000000,0,0xC32F,
0.471519333333333,0,0xE12E,
0.471527208333333,0,0xC42F,
0.471542916666667,0,0xA982,
0.471550791666667,0,0xC52F,
0.471566500000000,0,0xFF4F,
0.471574375000000,0,0xC62F,
0.471590083333333,0,0xC012,
0.471597916666667,0,0xC72F,
0.471613625000000,0,0xA3A0,
0.471621500000000,0,0xC82F,
0.471637250000000,0,0x9E3A,
0.471645083333333,0,0xC92F,
0.471660791666667,0,0x9E41,
0.471668666666667,0,0xCA2F,
0.479206625000000,0,0x0C3F,
0.479214333333333,0,0x060B,
0.479241833333333,0,0x0004,
0.479249541666667,0,0x031D,
0.479265916666667,0,0x0A01,
0.479273833333333,0,0x831D,
0.479289666666667,0,0x0F00,
0.479297583333333,0,0x841D,
0.479313458333333,0,0x0000,
0.479321333333333,0,0x8510,
0.479337208333333,0,0x0F3F,
0.479345125000000,0,0x861D,
0.479376000000000,0,0x0004,
0.479383666666667,0,0x0311,
0.479400041666667,0,0x0A01,
0.479407958333333,0,0x8311,
0.479423791666667,0,0x0F00,
0.479431708333333,0,0x8411,
0.479447541666667,0,0x0000,
0.479455500000000,0,0x8510,
0.479471333333333,0,0x0F3F,
0.479479250000000,0,0x8611,
0.479509833333333,0,0x0004,
0.479517500000000,0,0x0315,
0.479533666666667,0,0x0A01,
0.479541583333333,0,0x8315,
0.479557416666667,0,0x0F00,
0.479565333333333,0,0x8415,
0.479581166666667,0,0x0000,
0.479589083333333,0,0x8510,
0.479604916666667,0,0x0F3F,
0.479612833333333,0,0x8615,
0.479644125000000,0,0x0004,
0.479651791666667,0,0x0319,
0.479668250000000,0,0x0A01,
0.479676166666667,0,0x8319,
0.479692000000000,0,0x0F00,
0.479699916666667,0,0x8419,
0.479715750000000,0,0x0000,
0.479723666666667,0,0x8510,
0.479739500000000,0,0x0F3F,
0.479747416666667,0,0x8619,
0.479778375000000,0,0x0004,
0.479786041666667,0,0x031D,
0.479802291666667,0,0x0A01,
0.479810208333333,0,0x831D,
0.479826041666667,0,0x0F00,
0.479833958333333,0,0x841D,
0.479849791666667,0,0x0000,
0.479857708333333,0,0x8510,
0.479873500000000,0,0x073F,
0.479881416666667,0,0x861D,
0.479912000000000,0,0x0001,
0.479919666666667,0,0x1D11,
0.479935833333333,0,0x1551,
0.479943750000000,0,0x9D11,
0.479972125000000,0,0x0003,
0.479979833333333,0,0x2415,
0.479996166666667,0,0x0048,
0.480004083333333,0,0xA410,
0.480019916666667,0,0x0040,
0.480027833333333,0,0xA510,
0.480043666666667,0,0x8000,
0.480051583333333,0,0xA610,
0.480080833333333,0,0x0005,
0.480088500000000,0,0x2D19,
0.480104500000000,0,0xD899,
0.480112416666667,0,0xAD10,
0.480128250000000,0,0xFFF0,
0.480136125000000,0,0xAE10,
0.480151958333333,0,0x8C2F,
0.480159875000000,0,0xAF10,
0.480175708333333,0,0xFFFF,
0.480183625000000,0,0xB010,
0.480199458333333,0,0x830C,
0.480207375000000,0,0xB110,
0.480237875000000,0,0x0006,
0.480245541666667,0,0x3B1D,
0.480261750000000,0,0xB3E5,
0.480269666666667,0,0xBB10,
0.480285500000000,0,0xB331,
0.480293416666667,0,0xBC10,
0.480309250000000,0,0xB2C3,
0.480317166666667,0,0xBD10,
0.480333000000000,0,0xB205,
0.480340916666667,0,0xBE10,
0.480356750000000,0,0xB204,
0.480364666666667,0,0xBF10,
0.480380458333333,0,0xB279,
0.480388375000000,0,0xC010,
0.480418666666667,0,0x000A,
0.480426333333333,0,0x4111,
0.480442791666667,0,0xC0C5,
0.480450708333333,0,0xC110,
0.480466500000000,0,0xC0C6,
0.480474416666667,0,0xC210,
0.480490250000000,0,0xC0C2,
0.480498166666667,0,0xC310,
0.480514000000000,0,0xC0C2,
0.480521916666667,0,0xC410,
0.480537750000000,0,0xC0C4,
0.480545666666667,0,0xC510,
0.480561500000000,0,0xDDC3,
0.480569416666667,0,0xC610,
0.480585250000000,0,0x83A7,
0.480593125000000,0,0xC710,
0.480608958333333,0,0xA3BD,
0.480616875000000,0,0xC810,
0.480632708333333,0,0x9E38,
0.480640625000000,0,0xC910,
0.480656416666667,0,0x9E3D,
0.480664375000000,0,0xCA10,
0.480695458333333,0,0x0004,
0.480703166666667,0,0x0325,
0.480719541666667,0,0x0A01,
0.480727375000000,0,0x8325,
0.480743083333333,0,0x0F00,
0.480750958333333,0,0x8425,
0.480766666666667,0,0x0000,
0.480774500000000,0,0x8520,
0.480790250000000,0,0x073F,
0.480798125000000,0,0x8625,
0.480828541666667,0,0x0001,
0.480836208333333,0,0x1D29,
0.480852625000000,0,0x0055,
0.480860458333333,0,0x9D29,
0.480888541666667,0,0x0003,
0.480896208333333,0,0x242D,
0.480912500000000,0,0x004C,
0.480920375000000,0,0xA420,
0.480936083333333,0,0x0040,
0.480943958333333,0,0xA520,
0.480959666666667,0,0x8000,
0.480967541666667,0,0xA620,
0.480996708333333,0,0x0005,
0.481004375000000,0,0x2D21,
0.481020541666667,0,0xE349,
0.481028416666667,0,0xAD20,
0.481044125000000,0,0xFFF2,
0.481052000000000,0,0xAE20,
0.481067708333333,0,0xD5C2,
0.481075541666667,0,0xAF20,
0.481091291666667,0,0x8000,
0.481099125000000,0,0xB020,
0.481114833333333,0,0x8302,
0.481122708333333,0,0xB120,
0.481153666666667,0,0x0006,
0.481161333333333,0,0x3B25,
0.481177708333333,0,0xE522,
0.481185583333333,0,0xBB20,
0.481201291666667,0,0x8000,
0.481209125000000,0,0xBC20,
0.481224833333333,0,0x8001,
0.481232708333333,0,0xBD20,
0.481248416666667,0,0x8004,
0.481256291666667,0,0xBE20,
0.481272000000000,0,0xE5C9,
0.481279833333333,0,0xBF20,
0.481295541666667,0,0xE5E1,
0.481303416666667,0,0xC020,
0.481333416666667,0,0x000A,
0.481341083333333,0,0x4129,
0.481357458333333,0,0xDC13,
0.481365291666667,0,0xC120,
0.481381000000000,0,0xDD27,
0.481388875000000,0,0xC220,
0.481404583333333,0,0xDF6A,
0.481412458333333,0,0xC320,
0.481428166666667,0,0xE130,
0.481436000000000,0,0xC420,
0.481451708333333,0,0xA983,
0.481459583333333,0,0xC520,
0.481475291666667,0,0xFF51,
0.481483166666667,0,0xC620,
0.481498875000000,0,0xC014,
0.481506750000000,0,0xC720,
0.481522458333333,0,0xA3A3,
0.481530333333333,0,0xC820,
0.481546041666667,0,0x9E3D,
0.481553916666667,0,0xC920,
0.481569625000000,0,0x9E3D,
0.481577500000000,0,0xCA20,
0.489117208333333,0,0x1C3F,
0.489124875000000,0,0x060F,
0.489152208333333,0,0x0004,
0.489159875000000,0,0x0311,
0.489176125000000,0,0x0A01,
0.489184041666667,0,0x8311,
0.489199875000000,0,0x0F00,
0.489207833333333,0,0x8411,
0.489223666666667,0,0x0000,
0.489231583333333,0,0x8511,
0.489247416666667,0,0x1F3F,
0.489255333333333,0,0x8611,
0.489285916666667,0,0x0004,
0.489293583333333,0,0x0315,
0.489309791666667,0,0x0A01,
0.489317708333333,0,0x8315,
0.489333541666667,0,0x0F00,
0.489341458333333,0,0x8415,
0.489357333333333,0,0x0000,
0.489365208333333,0,0x8511,
0.489381041666667,0,0x1F3F,
0.489389000000000,0,0x8615,
0.489420125000000,0,0x0004,
0.489427791666667,0,0x0319,
0.489443916666667,0,0x0A01,
0.489451833333333,0,0x8319,
0.489467666666667,0,0x0F00,
0.489475583333333,0,0x8419,
0.489491416666667,0,0x0000,
0.489499333333333,0,0x8511,
0.489515166666667,0,0x1F3F,
0.489523083333333,0,0x8619,
0.489553750000000,0,0x0004,
0.489561458333333,0,0x031D,
0.489577500000000,0,0x0A01,
0.489585458333333,0,0x831D,
0.489601291666667,0,0x0F00,
0.489609208333333,0,0x841D,
0.489625041666667,0,0x0000,
0.489632958333333,0,0x8511,
0.489648791666667,0,0x1F3F,
0.489656708333333,0,0x861D,
0.489686291666667,0,0x0004,
0.489694000000000,0,0x0311,
0.489710125000000,0,0x0A01,
0.489718041666667,0,0x8311,
0.489733875000000,0,0x0F00,
0.489741791666667,0,0x8411,
0.489757625000000,0,0x0000,
0.489765541666667,0,0x8511,
0.489781375000000,0,0x173F,
0.489789291666667,0,0x8611,
0.489820000000000,0,0x0001,
0.489827666666667,0,0x1D15,
0.489843708333333,0,0x1551,
0.489851625000000,0,0x9D15,
0.489879666666667,0,0x0003,
0.489887375000000,0,0x2419,
0.489903541666667,0,0x0048,
0.489911458333333,0,0xA411,
0.489927291666667,0,0x0040,
0.489935208333333,0,0xA511,
0.489951041666667,0,0x8000,
0.489958958333333,0,0xA611,
0.489987708333333,0,0x0005,
0.489995375000000,0,0x2D1D,
0.490011416666667,0,0xD9A1,
0.490019333333333,0,0xAD11,
0.490035166666667,0,0xFFF0,
0.490043083333333,0,0xAE11,
0.490058916666667,0,0x8948,
0.490066875000000,0,0xAF11,
0.490082666666667,0,0xFFFF,
0.490090625000000,0,0xB011,
0.490106458333333,0,0x8309,
0.490114333333333,0,0xB111,
0.490143916666667,0,0x0006,
0.490151583333333,0,0x3B11,
0.490167791666667,0,0xB3E6,
0.490175750000000,0,0xBB11,
0.490191541666667,0,0xB32D,
0.490199500000000,0,0xBC11,
0.490215333333333,0,0xB2C5,
0.490223250000000,0,0xBD11,
0.490239083333333,0,0xB207,
0.490247000000000,0,0xBE11,
0.490262875000000,0,0xB204,
0.490270791666667,0,0xBF11,
0.490286625000000,0,0xB276,
0.490294541666667,0,0xC011,
0.490325041666667,0,0x000A,
0.490332708333333,0,0x4115,
0.490348958333333,0,0xC0C4,
0.490356875000000,0,0xC111,
0.490372708333333,0,0xC0C0,
0.490380625000000,0,0xC211,
0.490396458333333,0,0xC0C2,
0.490404375000000,0,0xC311,
0.490420208333333,0,0xC0C1,
0.490428125000000,0,0xC411,
0.490444000000000,0,0xC0C0,
0.490451875000000,0,0xC511,
0.490467750000000,0,0xDDC6,
0.490475625000000,0,0xC611,
0.490491458333333,0,0x83A7,
0.490499416666667,0,0xC711,
0.490515250000000,0,0xA3BC,
0.490523166666667,0,0xC811,
0.490539000000000,0,0x9E37,
0.490546916666667,0,0xC911,
0.490562791666667,0,0x9E3F,
0.490570708333333,0,0xCA11,
0.490602666666667,0,0x0004,
0.490610375000000,0,0x0329,
0.490626791666667,0,0x0A01,
0.490634625000000,0,0x8329,
0.490650375000000,0,0x0F00,
0.490658208333333,0,0x8429,
0.490673916666667,0,0x0000,
0.490681791666667,0,0x8521,
0.490697500000000,0,0x173F,
0.490705333333333,0,0x8629,
0.490736000000000,0,0x0001,
0.490743708333333,0,0x1D2D,
0.490759875000000,0,0x0055,
0.490767708333333,0,0x9D2D,
0.490796041666667,0,0x0003,
0.490803708333333,0,0x2421,
0.490819750000000,0,0x004C,
0.490827625000000,0,0xA421,
0.490843333333333,0,0x0040,
0.490851166666667,0,0xA521,
0.490866916666667,0,0x8000,
0.490874750000000,0,0xA621,
0.490903791666667,0,0x0005,
0.490911458333333,0,0x2D25,
0.490927791666667,0,0xE453,
0.490935666666667,0,0xAD21,
0.490951375000000,0,0xFFF2,
0.490959250000000,0,0xAE21,
0.490974916666667,0,0xD362,
0.490982791666667,0,0xAF21,
0.490998500000000,0,0x8000,
0.491006375000000,0,0xB021,
0.491022083333333,0,0x8304,
0.491029958333333,0,0xB121,
0.491060166666667,0,0x0006,
0.491067833333333,0,0x3B29,
0.491083958333333,0,0xE525,
0.491091833333333,0,0xBB21,
0.491107541666667,0,0x8000,
0.491115416666667,0,0xBC21,
0.491131125000000,0,0x8002,
0.491138958333333,0,0xBD21,
0.491154666666667,0,0x8001,
0.491162541666667,0,0xBE21,
0.491178250000000,0,0xE5C3,
0.491186125000000,0,0xBF21,
0.491201833333333,0,0xE5DE,
0.491209666666667,0,0xC021,
0.491241250000000,0,0x000A,
0.491248916666667,0,0x412D,
0.491265166666667,0,0xDC0F,
0.491273041666667,0,0xC121,
0.491288750000000,0,0xDD27,
0.491296583333333,0,0xC221,
0.491312291666667,0,0xDF65,
0.491320166666667,0,0xC321,
0.491335875000000,0,0xE12D,
0.491343750000000,0,0xC421,
0.491359458333333,0,0xA980,
0.491367291666667,0,0xC521,
0.491383000000000,0,0xFF4F,
0.491390875000000,0,0xC621,
0.491406583333333,0,0xC015,
0.491414458333333,0,0xC721,
0.491430166666667,0,0xA3A3,
0.491438000000000,0,0xC821,
0.491453708333333,0,0x9E3C,
0.491461583333333,0,0xC921,
0.491477291666667,0,0x9E3E,
0.491485166666667,0,0xCA21,
0.499106875000000,0,0x2C3F,
0.499114541666667,0,0x0603,
0.499141791666667,0,0x0004,
0.499149500000000,0,0x0315,
0.499165833333333,0,0x0A01,
0.499173750000000,0,0x8315,
0.499189583333333,0,0x0F00,
0.499197500000000,0,0x8415,
0.499213375000000,0,0x0000,
0.499221291666667,0,0x8512,
0.499237125000000,0,0x2F3F,
0.499245041666667,0,0x8615,
0.499276291666667,0,0x0004,
0.499283958333333,0,0x0319,
0.499300000000000,0,0x0A01,
0.499307875000000,0,0x8319,
0.499323750000000,0,0x0F00,
0.499331666666667,0,0x8419,
0.499347500000000,0,0x0000,
0.499355416666667,0,0x8512,
0.499371250000000,0,0x2F3F,
0.499379166666667,0,0x8619,
0.499410833333333,0,0x0004,
0.499418500000000,0,0x031D,
0.499434583333333,0,0x0A01,
0.499442541666667,0,0x831D,
0.499458375000000,0,0x0F00,
0.499466291666667,0,0x841D,
0.499482125000000,0,0x0000,
0.499490041666667,0,0x8512,
0.499505916666667,0,0x2F3F,
0.499513833333333,0,0x861D,
0.499543791666667,0,0x0004,
0.499551458333333,0,0x0311,
0.499567791666667,0,0x0A01,
0.499575666666667,0,0x8311,
0.499591500000000,0,0x0F00,
0.499599458333333,0,0x8411,
0.499615291666667,0,0x0000,
0.499623208333333,0,0x8512,
0.499639041666667,0,0x2F3F,
0.499646958333333,0,0x8611,
0.499677166666667,0,0x0004,
0.499684833333333,0,0x0315,
0.499700916666667,0,0x0A01,
0.499708833333333,0,0x8315,
0.499724625000000,0,0x0F00,
0.499732583333333,0,0x8415,
0.499748416666667,0,0x0000,
0.499756333333333,0,0x8512,
0.499772166666667,0,0x273F,
0.499780083333333,0,0x8615,
0.499811041666667,0,0x0001,
0.499818708333333,0,0x1D19,
0.499835000000000,0,0x1551,
0.499842916666667,0,0x9D19,
0.499871666666667,0,0x0003,
0.499879333333333,0,0x241D,
0.499895375000000,0,0x0048,
0.499903291666667,0,0xA412,
0.499919125000000,0,0x0040,
0.499927041666667,0,0xA512,
0.499942875000000,0,0x8000,
0.499950833333333,0,0xA612,
0.499979291666667,0,0x0005,
0.499986958333333,0,0x2D11,
0.500003250000000,0,0xDAAB,
0.500011166666667,0,0xAD12,
0.500027000000000,0,0xFFF0,
0.500034958333333,0,0xAE12,
0.500050791666667,0,0x86DE,
0.500058708333333,0,0xAF12,
0.500074541666667,0,0xFFFF,
0.500082458333333,0,0xB012,
0.500098333333333,0,0x830D,
0.500106208333333,0,0xB112,
0.500135750000000,0,0x0006,
0.500143416666667,0,0x3B15,
0.500159666666667,0,0xB3E4,
0.500167583333333,0,0xBB12,
0.500183416666667,0,0xB330,
0.500191333333333,0,0xBC12,
0.500207208333333,0,0xB2C3,
0.500215125000000,0,0xBD12,
0.500230958333333,0,0xB205,
0.500238875000000,0,0xBE12,
0.500254708333333,0,0xB205,
0.500262625000000,0,0xBF12,
0.500278458333333,0,0xB276,
0.500286375000000,0,0xC012,
0.500316791666667,0,0x000A,
0.500324458333333,0,0x4119,
0.500340833333333,0,0xC0C3,
0.500348750000000,0,0xC112,
0.500364583333333,0,0xC0C2,
0.500372500000000,0,0xC212,
0.500388333333333,0,0xC0C3,
0.500396250000000,0,0xC312,
0.500412125000000,0,0xC0C2,
0.500420041666667,0,0xC412,
0.500435875000000,0,0xC0C5,
0.500443791666667,0,0xC512,
0.500459625000000,0,0xDDC5,
0.500467541666667,0,0xC612,
0.500483375000000,0,0x83A7,
0.500491291666667,0,0xC712,
0.500507125000000,0,0xA3BE,
0.500515083333333,0,0xC812,
0.500530875000000,0,0x9E3A,
0.500538833333333,0,0xC912,
0.500554666666667,0,0x9E3A,
0.500562583333333,0,0xCA12,
0.500595000000000,0,0x0004,
0.500602666666667,0,0x032D,
0.500618791666667,0,0x0A01,
0.500626625000000,0,0x832D,
0.500642375000000,0,0x0F00,
0.500650208333333,0,0x842D,
0.500665958333333,0,0x0000,
0.500673791666667,0,0x8522,
0.500689500000000,0,0x273F,
0.500697375000000,0,0x862D,
0.500727625000000,0,0x0001,
0.500735333333333,0,0x1D21,
0.500751375000000,0,0x0055,
0.500759250000000,0,0x9D21,
0.500787458333333,0,0x0003,
0.500795125000000,0,0x2425,
0.500811291666667,0,0x004C,
0.500819166666667,0,0xA422,
0.500834875000000,0,0x0040,
0.500842750000000,0,0xA522,
0.500858458333333,0,0x8000,
0.500866291666667,0,0xA622,
0.500895041666667,0,0x0005,
0.500902708333333,0,0x2D29,
0.500918875000000,0,0xE55E,
0.500926750000000,0,0xAD22,
0.500942416666667,0,0xFFF2,
0.500950291666667,0,0xAE22,
0.500966000000000,0,0xD04A,
0.500973875000000,0,0xAF22,
0.500989583333333,0,0xFFFF,
0.500997458333333,0,0xB022,
0.501013166666667,0,0x8308,
0.501021041666667,0,0xB122,
0.501050583333333,0,0x0006,
0.501058250000000,0,0x3B2D,
0.501074541666667,0,0xE52A,
0.501082416666667,0,0xBB22,
0.501098125000000,0,0x8001,
0.501106000000000,0,0xBC22,
0.501121708333333,0,0x8000,
0.501129583333333,0,0xBD22,
0.501145291666667,0,0x8000,
0.501153125000000,0,0xBE22,
0.501168875000000,0,0xE5C0,
0.501176708333333,0,0xBF22,
0.501192416666667,0,0xE5D9,
0.501200291666667,0,0xC022,
0.501230625000000,0,0x000A,
0.501238291666667,0,0x4121,
0.501254291666667,0,0xDC13,
0.501262166666667,0,0xC122,
0.501277875000000,0,0xDD1D,
0.501285750000000,0,0xC222,
0.501301458333333,0,0xDF67,
0.501309291666667,0,0xC322,
0.501325041666667,0,0xE12E,
0.501332916666667,0,0xC422,
0.501348625000000,0,0xA983,
0.501356458333333,0,0xC522,
0.501372208333333,0,0xFF4E,
0.501380041666667,0,0xC622,
0.501395791666667,0,0xC019,
0.501403625000000,0,0xC722,
0.501419333333333,0,0xA3A3,
0.501427208333333,0,0xC822,
0.501442916666667,0,0x9E3C,
0.501450791666667,0,0xC922,
0.501466500000000,0,0x9E3B,
0.501474375000000,0,0xCA22,
0.509140125000000,0,0x3C3F,
0.509147791666667,0,0x0607,
0.509175583333333,0,0x0004,
0.509183291666667,0,0x0319,
0.509199458333333,0,0x0A01,
0.509207375000000,0,0x8319,
0.509223250000000,0,0x0F00,
0.509231166666667,0,0x8419,
0.509247000000000,0,0x0000,
0.509254916666667,0,0x8513,
0.509270750000000,0,0x3F3F,
0.509278666666667,0,0x8619,
0.509309708333333,0,0x0004,
0.509317375000000,0,0x031D,
0.509333583333333,0,0x0A01,
0.509341541666667,0,0x831D,
0.509357375000000,0,0x0F00,
0.509365291666667,0,0x841D,
0.509381125000000,0,0x0000,
0.509389041666667,0,0x8513,
0.509404875000000,0,0x3F3F,
0.509412791666667,0,0x861D,
0.509443625000000,0,0x0004,
0.509451291666667,0,0x0311,
0.509467750000000,0,0x0A01,
0.509475666666667,0,0x8311,
0.509491500000000,0,0x0F00,
0.509499416666667,0,0x8411,
0.509515250000000,0,0x0000,
0.509523166666667,0,0x8513,
0.509539000000000,0,0x3F3F,
0.509546958333333,0,0x8611,
0.509578000000000,0,0x0004,
0.509585666666667,0,0x0315,
0.509601875000000,0,0x0A01,
0.509609791666667,0,0x8315,
0.509625625000000,0,0x0F00,
0.509633583333333,0,0x8415,
0.509649416666667,0,0x0000,
0.509657333333333,0,0x8513,
0.509673166666667,0,0x3F3F,
0.509681041666667,0,0x8615,
0.509712375000000,0,0x0004,
0.509720041666667,0,0x0319,
0.509736500000000,0,0x0A01,
0.509744416666667,0,0x8319,
0.509760250000000,0,0x0F00,
0.509768166666667,0,0x8419,
0.509784000000000,0,0x0000,
0.509791916666667,0,0x8513,
0.509807750000000,0,0x373F,
0.509815666666667,0,0x8619,
0.509846833333333,0,0x0001,
0.509854541666667,0,0x1D1D,
0.509870583333333,0,0x1551,
0.509878500000000,0,0x9D1D,
0.509906916666667,0,0x0003,
0.509914583333333,0,0x2411,
0.509930958333333,0,0x0048,
0.509938875000000,0,0xA413,
0.509954708333333,0,0x0040,
0.509962625000000,0,0xA513,
0.509978458333333,0,0x8000,
0.509986375000000,0,0xA613,
0.510015333333333,0,0x0005,
0.510023041666667,0,0x2D15,
0.510039333333333,0,0xDBB5,
0.510047208333333,0,0xAD13,
0.510063083333333,0,0xFFF0,
0.510071000000000,0,0xAE13,
0.510086833333333,0,0x8375,
0.510094750000000,0,0xAF13,
0.510110541666667,0,0xFFFF,
0.510118500000000,0,0xB013,
0.510134291666667,0,0x830D,
0.510142250000000,0,0xB113,
0.510172333333333,0,0x0006,
0.510180041666667,0,0x3B19,
0.510196166666667,0,0xB3E3,
0.510204083333333,0,0xBB13,
0.510219916666667,0,0xB32E,
0.510227833333333,0,0xBC13,
0.510243666666667,0,0xB2C3,
0.510251625000000,0,0xBD13,
0.510267458333333,0,0xB205,
0.510275375000000,0,0xBE13,
0.510291208333333,0,0xB206,
0.510299125000000,0,0xBF13,
0.510314958333333,0,0xB277,
0.510322875000000,0,0xC013,
0.510353791666667,0,0x000A,
0.510361458333333,0,0x411D,
0.510377791666667,0,0xC0C6,
0.510385750000000,0,0xC113,
0.510401541666667,0,0xC0C2,
0.510409458333333,0,0xC213,
0.510425291666667,0,0xC0C2,
0.510433208333333,0,0xC313,
0.510449041666667,0,0xC0C4,
0.510457000000000,0,0xC413,
0.510472791666667,0,0xC0C5,
0.510480750000000,0,0xC513,
0.510496583333333,0,0xDDC6,
0.510504500000000,0,0xC613,
0.510520333333333,0,0x83A7,
0.510528250000000,0,0xC713,
0.510544083333333,0,0xA3C0,
0.510552000000000,0,0xC813,
0.510567833333333,0,0x9E32,
0.510575750000000,0,0xC913,
0.510591583333333,0,0x9E39,
0.510599500000000,0,0xCA13,
0.510632375000000,0,0x0004,
0.510640041666667,0,0x0321,
0.510656166666667,0,0x0A01,
0.510664000000000,0,0x8321,
0.510679708333333,0,0x0F00,
0.510687583333333,0,0x8421,
0.510703291666667,0,0x0000,
0.510711166666667,0,0x8523,
0.510726875000000,0,0x373F,
0.510734708333333,0,0x8621,
0.510765583333333,0,0x0001,
0.510773250000000,0,0x1D25,
0.510789250000000,0,0x0055,
0.510797083333333,0,0x9D25,
0.510824875000000,0,0x0003,
0.510832541666667,0,0x2429,
0.510848708333333,0,0x004C,
0.510856541666667,0,0xA423,
0.510872250000000,0,0x0040,
0.510880125000000,0,0xA523,
0.510895833333333,0,0x8000,
0.510903708333333,0,0xA623,
0.510932458333333,0,0x0005,
0.510940166666667,0,0x2D2D,
0.510956291666667,0,0xE66B,
0.510964125000000,0,0xAD23,
0.510979833333333,0,0xFFF2,
0.510987708333333,0,0xAE23,
0.511003416666667,0,0xCDEF,
0.511011250000000,0,0xAF23,
0.511027000000000,0,0xFFFF,
0.511034833333333,0,0xB023,
0.511050541666667,0,0x830E,
0.511058416666667,0,0xB123,
0.511089958333333,0,0x0006,
0.511097625000000,0,0x3B21,
0.511113916666667,0,0xE523,
0.511121791666667,0,0xBB23,
0.511137500000000,0,0x8000,
0.511145375000000,0,0xBC23,
0.511161083333333,0,0x8000,
0.511168958333333,0,0xBD23,
0.511184666666667,0,0x8002,
0.511192541666667,0,0xBE23,
0.511208250000000,0,0xE5C6,
0.511216083333333,0,0xBF23,
0.511231833333333,0,0xE5DF,
0.511239708333333,0,0xC023,
0.511270291666667,0,0x000A,
0.511277958333333,0,0x4125,
0.511294208333333,0,0xDC12,
0.511302083333333,0,0xC123,
0.511317791666667,0,0xDD23,
0.511325666666667,0,0xC223,
0.511341375000000,0,0xDF63,
0.511349208333333,0,0xC323,
0.511364958333333,0,0xE12C,
0.511372791666667,0,0xC423,
0.511388500000000,0,0xA982,
0.511396375000000,0,0xC523,
0.511412083333333,0,0xFF4D,
0.511419958333333,0,0xC623,
0.511435666666667,0,0xC016,
0.511443500000000,0,0xC723,
0.511459250000000,0,0xA3A2,
0.511467125000000,0,0xC823,
0.511482833333333,0,0x9E37,
0.511490708333333,0,0xC923,
0.511506375000000,0,0x9E3C,
0.511514250000000,0,0xCA23,
0.519106875000000,0,0x4C3F,
0.519114541666667,0,0x060B,
0.519142333333333,0,0x0004,
0.519150000000000,0,0x031D,
0.519166000000000,0,0x0A01,
0.519173916666667,0,0x831D,
0.519189750000000,0,0x0F00,
0.519197666666667,0,0x841D,
0.519213500000000,0,0x0000,
0.519221416666667,0,0x8514,
0.519237250000000,0,0x4F3F,
0.519245166666667,0,0x861D,
0.519275708333333,0,0x0004,
0.519283375000000,0,0x0311,
0.519299583333333,0,0x0A01,
0.519307500000000,0,0x8311,
0.519323333333333,0,0x0F00,
0.519331291666667,0,0x8411,
0.519347083333333,0,0x0000,
0.519355041666667,0,0x8514,
0.519370875000000,0,0x4F3F,
0.519378791666667,0,0x8611,
0.519410000000000,0,0x0004,
0.519417666666667,0,0x0315,
0.519433750000000,0,0x0A01,
0.519441666666667,0,0x8315,
0.519457500000000,0,0x0F00,
0.519465416666667,0,0x8415,
0.519481250000000,0,0x0000,
0.519489166666667,0,0x8514,
0.519505000000000,0,0x4F3F,
0.519512958333333,0,0x8615,
0.519543583333333,0,0x0004,
0.519551250000000,0,0x0319,
0.519567375000000,0,0x0A01,
0.519575291666667,0,0x8319,
0.519591125000000,0,0x0F00,
0.519599041666667,0,0x8419,
0.519614875000000,0,0x0000,
0.519622791666667,0,0x8514,
0.519638625000000,0,0x4F3F,
0.519646541666667,0,0x8619,
0.519676083333333,0,0x0004,
0.519683791666667,0,0x031D,
0.519700000000000,0,0x0A01,
0.519707916666667,0,0x831D,
0.519723750000000,0,0x0F00,
0.519731666666667,0,0x841D,
0.519747500000000,0,0x0000,
0.519755416666667,0,0x8514,
0.519771250000000,0,0x473F,
0.519779166666667,0,0x861D,
0.519809958333333,0,0x0001,
0.519817625000000,0,0x1D11,
0.519834083333333,0,0x1551,
0.519841958333333,0,0x9D11,
0.519869375000000,0,0x0003,
0.519877041666667,0,0x2415,
0.519893416666667,0,0x0048,
0.519901333333333,0,0xA414,
0.519917166666667,0,0x0040,
0.519925083333333,0,0xA514,
0.519940916666667,0,0x8000,
0.519948833333333,0,0xA614,
0.519978166666667,0,0x0005,
0.519985833333333,0,0x2D19,
0.520002250000000,0,0xDCBE,
0.520010166666667,0,0xAD14,
0.520026000000000,0,0xFFF0,
0.520033916666667,0,0xAE14,
0.520049750000000,0,0x80A3,
0.520057666666667,0,0xAF14,
0.520073500000000,0,0xFFFF,
0.520081416666667,0,0xB014,
0.520097250000000,0,0x830F,
0.520105166666667,0,0xB114,
0.520135041666667,0,0x0006,
0.520142708333333,0,0x3B1D,
0.520159083333333,0,0xB3E7,
0.520167000000000,0,0xBB14,
0.520182833333333,0,0xB331,
0.520190750000000,0,0xBC14,
0.520206583333333,0,0xB2C4,
0.520214500000000,0,0xBD14,
0.520230333333333,0,0xB205,
0.520238250000000,0,0xBE14,
0.520254083333333,0,0xB203,
0.520262000000000,0,0xBF14,
0.520277833333333,0,0xB272,
0.520285750000000,0,0xC014,
0.520316083333333,0,0x000A,
0.520323750000000,0,0x4111,
0.520340166666667,0,0xC0C1,
0.520348083333333,0,0xC114,
0.520363875000000,0,0xC0C0,
0.520371791666667,0,0xC214,
0.520387625000000,0,0xC0C5,
0.520395541666667,0,0xC314,
0.520411375000000,0,0xC0C3,
0.520419291666667,0,0xC414,
0.520435125000000,0,0xC0C2,
0.520443041666667,0,0xC514,
0.520458833333333,0,0xDDC8,
0.520466750000000,0,0xC614,
0.520482583333333,0,0x83A6,
0.520490500000000,0,0xC714,
0.520506291666667,0,0xA3C1,
0.520514208333333,0,0xC814,
0.520530041666667,0,0x9E37,
0.520537958333333,0,0xC914,
0.520553791666667,0,0x9E3C,
0.520561666666667,0,0xCA14,
0.520592958333333,0,0x0004,
0.520600625000000,0,0x0325,
0.520617041666667,0,0x0A01,
0.520624916666667,0,0x8325,
0.520640625000000,0,0x0F00,
0.520648500000000,0,0x8425,
0.520664208333333,0,0x0000,
0.520672083333333,0,0x8524,
0.520687791666667,0,0x473F,
0.520695666666667,0,0x8625,
0.520725500000000,0,0x0001,
0.520733166666667,0,0x1D29,
0.520749166666667,0,0x0055,
0.520757041666667,0,0x9D29,
0.520785000000000,0,0x0003,
0.520792666666667,0,0x242D,
0.520809083333333,0,0x004C,
0.520816958333333,0,0xA424,
0.520832666666667,0,0x0040,
0.520840500000000,0,0xA524,
0.520856250000000,0,0x8000,
0.520864083333333,0,0xA624,
0.520893208333333,0,0x0005,
0.520900875000000,0,0x2D21,
0.520917166666667,0,0xE776,
0.520925000000000,0,0xAD24,
0.520940708333333,0,0xFFF2,
0.520948583333333,0,0xAE24,
0.520964291666667,0,0xCB45,
0.520972166666667,0,0xAF24,
0.520987875000000,0,0xFFFF,
0.520995750000000,0,0xB024,
0.521011458333333,0,0x830E,
0.521019291666667,0,0xB124,
0.521048750000000,0,0x0006,
0.521056458333333,0,0x3B25,
0.521072833333333,0,0xE526,
0.521080708333333,0,0xBB24,
0.521096416666667,0,0x8000,
0.521104291666667,0,0xBC24,
0.521120000000000,0,0x8000,
0.521127875000000,0,0xBD24,
0.521143583333333,0,0x8000,
0.521151416666667,0,0xBE24,
0.521167125000000,0,0xE5C9,
0.521175000000000,0,0xBF24,
0.521190708333333,0,0xE5E0,
0.521198583333333,0,0xC024,
0.521228666666667,0,0x000A,
0.521236333333333,0,0x4129,
0.521252583333333,0,0xDC0E,
0.521260458333333,0,0xC124,
0.521276166666667,0,0xDD1F,
0.521284041666667,0,0xC224,
0.521299750000000,0,0xDF61,
0.521307583333333,0,0xC324,
0.521323333333333,0,0xE128,
0.521331208333333,0,0xC424,
0.521346916666667,0,0xA97F,
0.521354750000000,0,0xC524,
0.521370458333333,0,0xFF49,
0.521378333333333,0,0xC624,
0.521394041666667,0,0xC00F,
0.521401916666667,0,0xC724,
0.521417625000000,0,0xA3A3,
0.521425500000000,0,0xC824,
0.521441208333333,0,0x9E37,
0.521449083333333,0,0xC924,
0.521464791666667,0,0x9E3D,
0.521472625000000,0,0xCA24,
0.529114291666667,0,0x5C3F,
0.529121958333333,0,0x060F,
0.529149125000000,0,0x0004,
0.529156791666667,0,0x0311,
0.529172958333333,0,0x0A01,
0.529180875000000,0,0x8311,
0.529196708333333,0,0x0F00,
0.529204625000000,0,0x8411,
0.529220458333333,0,0x0000,
0.529228375000000,0,0x8515,
0.529244250000000,0,0x5F3F,
0.529252166666667,0,0x8611,
0.529282541666667,0,0x0004,
0.529290208333333,0,0x0315,
0.529306625000000,0,0x0A01,
0.529314541666667,0,0x8315,
0.529330375000000,0,0x0F00,
0.529338291666667,0,0x8415,
0.529354125000000,0,0x0000,
0.529362041666667,0,0x8515,
0.529377875000000,0,0x5F3F,
0.529385791666667,0,0x8615,
0.529416541666667,0,0x0004,
0.529424208333333,0,0x0319,
0.529440250000000,0,0x0A01,
0.529448166666667,0,0x8319,
0.529464000000000,0,0x0F00,
0.529471958333333,0,0x8419,
0.529487791666667,0,0x0000,
0.529495708333333,0,0x8515,
0.529511541666667,0,0x5F3F,
0.529519458333333,0,0x8619,
0.529550250000000,0,0x0004,
0.529557916666667,0,0x031D,
0.529573916666667,0,0x0A01,
0.529581833333333,0,0x831D,
0.529597666666667,0,0x0F00,
0.529605583333333,0,0x841D,
0.529621416666667,0,0x0000,
0.529629333333333,0,0x8515,
0.529645166666667,0,0x5F3F,
0.529653125000000,0,0x861D,
0.529683250000000,0,0x0004,
0.529690916666667,0,0x0311,
0.529707000000000,0,0x0A01,
0.529714916666667,0,0x8311,
0.529730750000000,0,0x0F00,
0.529738666666667,0,0x8411,
0.529754541666667,0,0x0000,
0.529762416666667,0,0x8515,
0.529778291666667,0,0x573F,
0.529786166666667,0,0x8611,
0.529816666666667,0,0x0001,
0.529824333333333,0,0x1D15,
0.529840625000000,0,0x1551,
0.529848500000000,0,0x9D15,
0.529876416666667,0,0x0003,
0.529884125000000,0,0x2419,
0.529900500000000,0,0x0048,
0.529908416666667,0,0xA415,
0.529924250000000,0,0x0040,
0.529932166666667,0,0xA515,
0.529948000000000,0,0x8000,
0.529955875000000,0,0xA615,
0.529984958333333,0,0x0005,
0.529992625000000,0,0x2D1D,
0.530008833333333,0,0xDDC9,
0.530016750000000,0,0xAD15,
0.530032583333333,0,0xFFF0,
0.530040500000000,0,0xAE15,
0.530056375000000,0,0x7E89,
0.530064291666667,0,0xAF15,
0.530080125000000,0,0x8000,
0.530088041666667,0,0xB015,
0.530103875000000,0,0x8300,
0.530111791666667,0,0xB115,
0.530141208333333,0,0x0006,
0.530148916666667,0,0x3B11,
0.530165208333333,0,0xB3E1,
0.530173125000000,0,0xBB15,
0.530188958333333,0,0xB32E,
0.530196875000000,0,0xBC15,
0.530212750000000,0,0xB2C1,
0.530220666666667,0,0xBD15,
0.530236458333333,0,0xB200,
0.530244375000000,0,0xBE15,
0.530260250000000,0,0xB206,
0.530268166666667,0,0xBF15,
0.530284000000000,0,0xB276,
0.530291916666667,0,0xC015,
0.530321708333333,0,0x000A,
0.530329375000000,0,0x4115,
0.530345833333333,0,0xC0C3,
0.530353750000000,0,0xC115,
0.530369583333333,0,0xC0C4,
0.530377500000000,0,0xC215,
0.530393291666667,0,0xC0C1,
0.530401250000000,0,0xC315,
0.530417041666667,0,0xC0C6,
0.530425000000000,0,0xC415,
0.530440833333333,0,0xC0C5,
0.530448750000000,0,0xC515,
0.530464583333333,0,0xDDCA,
0.530472500000000,0,0xC615,
0.530488333333333,0,0x83A7,
0.530496250000000,0,0xC715,
0.530512083333333,0,0xA3BD,
0.530520000000000,0,0xC815,
0.530535833333333,0,0x9E38,
0.530543750000000,0,0xC915,
0.530559583333333,0,0x9E3D,
0.530567500000000,0,0xCA15,
0.530599291666667,0,0x0004,
0.530607000000000,0,0x0329,
0.530623166666667,0,0x0A01,
0.530631041666667,0,0x8329,
0.530646750000000,0,0x0F00,
0.530654625000000,0,0x8429,
0.530670333333333,0,0x0000,
0.530678208333333,0,0x8525,
0.530693875000000,0,0x573F,
0.530701750000000,0,0x8629,
0.530732541666667,0,0x0001,
0.530740250000000,0,0x1D2D,
0.530756250000000,0,0x0055,
0.530764125000000,0,0x9D2D,
0.530792083333333,0,0x0003,
0.530799750000000,0,0x2421,
0.530815708333333,0,0x004C,
0.530823583333333,0,0xA425,
0.530839250000000,0,0x0040,
0.530847125000000,0,0xA525,
0.530862833333333,0,0x8000,
0.530870708333333,0,0xA625,
0.530899500000000,0,0x0005,
0.530907166666667,0,0x2D25,
0.530923250000000,0,0xE882,
0.530931125000000,0,0xAD25,
0.530946833333333,0,0xFFF2,
0.530954666666667,0,0xAE25,
0.530970416666667,0,0xC9B8,
0.530978250000000,0,0xAF25,
0.530993958333333,0,0xFFFF,
0.531001833333333,0,0xB025,
0.531017541666667,0,0x830B,
0.531025416666667,0,0xB125,
0.531055541666667,0,0x0006,
0.531063208333333,0,0x3B29,
0.531079416666667,0,0xE51E,
0.531087250000000,0,0xBB25,
0.531103000000000,0,0x8000,
0.531110875000000,0,0xBC25,
0.531126583333333,0,0x8001,
0.531134416666667,0,0xBD25,
0.531150125000000,0,0x8003,
0.531158000000000,0,0xBE25,
0.531173708333333,0,0xE5C8,
0.531181583333333,0,0xBF25,
0.531197333333333,0,0xE5E0,
0.531205166666667,0,0xC025,
0.531236333333333,0,0x000A,
0.531244000000000,0,0x412D,
0.531260166666667,0,0xDC11,
0.531268041666667,0,0xC125,
0.531283750000000,0,0xDD25,
0.531291625000000,0,0xC225,
0.531307333333333,0,0xDF62,
0.531315208333333,0,0xC325,
0.531330916666667,0,0xE12C,
0.531338791666667,0,0xC425,
0.531354500000000,0,0xA982,
0.531362333333333,0,0xC525,
0.531378083333333,0,0xFF4D,
0.531385916666667,0,0xC625,
0.531401666666667,0,0xC016,
0.531409500000000,0,0xC725,
0.531425208333333,0,0xA3A1,
0.531433083333333,0,0xC825,
0.531448791666667,0,0x9E39,
0.531456666666667,0,0xC925,
0.531472375000000,0,0x9E3C,
0.531480250000000,0,0xCA25,
0.539213541666667,0,0x6C3F,
0.539221250000000,0,0x0603,
0.539249375000000,0,0x0004,
0.539257083333333,0,0x0315,
0.539273458333333,0,0x0A01,
0.539281375000000,0,0x8315,
0.539297208333333,0,0x0F00,
0.539305125000000,0,0x8415,
0.539320958333333,0,0x0000,
0.539328875000000,0,0x8516,
0.539344750000000,0,0x6F3F,
0.539352666666667,0,0x8615,
0.539383250000000,0,0x0004,
0.539390958333333,0,0x0319,
0.539407083333333,0,0x0A01,
0.539415000000000,0,0x8319,
0.539430833333333,0,0x0F00,
0.539438791666667,0,0x8419,
0.539454625000000,0,0x0000,
0.539462541666667,0,0x8516,
0.539478375000000,0,0x6F3F,
0.539486291666667,0,0x8619,
0.539517125000000,0,0x0004,
0.539524791666667,0,0x031D,
0.539541208333333,0,0x0A01,
0.539549166666667,0,0x831D,
0.539565000000000,0,0x0F00,
0.539572916666667,0,0x841D,
0.539588750000000,0,0x0000,
0.539596666666667,0,0x8516,
0.539612500000000,0,0x6F3F,
0.539620458333333,0,0x861D,
0.539651000000000,0,0x0004,
0.539658666666667,0,0x0311,
0.539674916666667,0,0x0A01,
0.539682833333333,0,0x8311,
0.539698666666667,0,0x0F00,
0.539706583333333,0,0x8411,
0.539722416666667,0,0x0000,
0.539730333333333,0,0x8516,
0.539746166666667,0,0x6F3F,
0.539754125000000,0,0x8611,
0.539784500000000,0,0x0004,
0.539792208333333,0,0x0315,
0.539808541666667,0,0x0A01,
0.539816458333333,0,0x8315,
0.539832291666667,0,0x0F00,
0.539840208333333,0,0x8415,
0.539856041666667,0,0x0000,
0.539863958333333,0,0x8516,
0.539879791666667,0,0x673F,
0.539887708333333,0,0x8615,
0.539917958333333,0,0x0001,
0.539925625000000,0,0x1D19,
0.539941625000000,0,0x1551,
0.539949541666667,0,0x9D19,
0.539977583333333,0,0x0003,
0.539985250000000,0,0x241D,
0.540001500000000,0,0x0048,
0.540009416666667,0,0xA416,
0.540025250000000,0,0x0040,
0.540033166666667,0,0xA516,
0.540049000000000,0,0x8000,
0.540056916666667,0,0xA616,
0.540085583333333,0,0x0005,
0.540093291666667,0,0x2D11,
0.540109375000000,0,0xDED5,
0.540117291666667,0,0xAD16,
0.540133125000000,0,0xFFF0,
0.540141041666667,0,0xAE16,
0.540156875000000,0,0x7B67,
0.540164791666667,0,0xAF16,
0.540180625000000,0,0x8000,
0.540188541666667,0,0xB016,
0.540204375000000,0,0x8303,
0.540212291666667,0,0xB116,
0.540242250000000,0,0x0006,
0.540249958333333,0,0x3B15,
0.540266208333333,0,0xB3E8,
0.540274125000000,0,0xBB16,
0.540289958333333,0,0xB32F,
0.540297875000000,0,0xBC16,
0.540313708333333,0,0xB2C4,
0.540321625000000,0,0xBD16,
0.540337458333333,0,0xB208,
0.540345375000000,0,0xBE16,
0.540361250000000,0,0xB207,
0.540369166666667,0,0xBF16,
0.540384958333333,0,0xB278,
0.540392916666667,0,0xC016,
0.540422791666667,0,0x000A,
0.540430500000000,0,0x4119,
0.540446833333333,0,0xC0C5,
0.540454750000000,0,0xC116,
0.540470583333333,0,0xC0C4,
0.540478500000000,0,0xC216,
0.540494333333333,0,0xC0C7,
0.540502250000000,0,0xC316,
0.540518083333333,0,0xC0C4,
0.540526000000000,0,0xC416,
0.540541833333333,0,0xC0C5,
0.540549750000000,0,0xC516,
0.540565583333333,0,0xDDC8,
0.540573500000000,0,0xC616,
0.540589333333333,0,0x83A7,
0.540597250000000,0,0xC716,
0.540613083333333,0,0xA3BE,
0.540621000000000,0,0xC816,
0.540636833333333,0,0x9E38,
0.540644750000000,0,0xC916,
0.540660583333333,0,0x9E39,
0.540668500000000,0,0xCA16,
0.540701000000000,0,0x0004,
0.540708708333333,0,0x032D,
0.540724916666667,0,0x0A01,
0.540732791666667,0,0x832D,
0.540748500000000,0,0x0F00,
0.540756333333333,0,0x842D,
0.540772041666667,0,0x0000,
0.540779916666667,0,0x8526,
0.540795625000000,0,0x673F,
0.540803500000000,0,0x862D,
0.540834458333333,0,0x0001,
0.540842125000000,0,0x1D21,
0.540858500000000,0,0x0055,
0.540866375000000,0,0x9D21,
0.540894208333333,0,0x0003,
0.540901875000000,0,0x2425,
0.540917916666667,0,0x004C,
0.540925791666667,0,0xA426,
0.540941500000000,0,0x0040,
0.540949375000000,0,0xA526,
0.540965083333333,0,0x8000,
0.540972958333333,0,0xA626,
0.541002208333333,0,0x0005,
0.541009875000000,0,0x2D29,
0.541026041666667,0,0xE991,
0.541033916666667,0,0xAD26,
0.541049583333333,0,0xFFF2,
0.541057458333333,0,0xAE26,
0.541073166666667,0,0xC6D9,
0.541081041666667,0,0xAF26,
0.541096750000000,0,0xFFFF,
0.541104625000000,0,0xB026,
0.541120333333333,0,0x830B,
0.541128166666667,0,0xB126,
0.541157708333333,0,0x0006,
0.541165375000000,0,0x3B2D,
0.541181708333333,0,0xE524,
0.541189583333333,0,0xBB26,
0.541205291666667,0,0x8000,
0.541213166666667,0,0xBC26,
0.541228875000000,0,0x8003,
0.541236708333333,0,0xBD26,
0.541252458333333,0,0x8005,
0.541260291666667,0,0xBE26,
0.541276041666667,0,0xE5C8,
0.541283875000000,0,0xBF26,
0.541299583333333,0,0xE5DF,
0.541307458333333,0,0xC026,
0.541337791666667,0,0x000A,
0.541345458333333,0,0x4121,
0.541361500000000,0,0xDC14,
0.541369333333333,0,0xC126,
0.541385041666667,0,0xDD22,
0.541392916666667,0,0xC226,
0.541408625000000,0,0xDF67,
0.541416458333333,0,0xC326,
0.541432208333333,0,0xE12C,
0.541440083333333,0,0xC426,
0.541455791666667,0,0xA983,
0.541463625000000,0,0xC526,
0.541479333333333,0,0xFF4C,
0.541487208333333,0,0xC626,
0.541502916666667,0,0xC014,
0.541510791666667,0,0xC726,
0.541526458333333,0,0xA39F,
0.541534333333333,0,0xC826,
0.541550041666667,0,0x9E39,
0.541557916666667,0,0xC926,
0.541573625000000,0,0x9E3E,
0.541581500000000,0,0xCA26,
0.549122708333333,0,0x7C3F,
0.549130416666667,0,0x0607,
0.549157666666667,0,0x0004,
0.549165333333333,0,0x0319,
0.549181625000000,0,0x0A01,
0.549189500000000,0,0x8319,
0.549205375000000,0,0x0F00,
0.549213291666667,0,0x8419,
0.549229125000000,0,0x0000,
0.549237041666667,0,0x8517,
0.549252875000000,0,0x7F3F,
0.549260833333333,0,0x8619,
0.549292250000000,0,0x0004,
0.549299958333333,0,0x031D,
0.549316250000000,0,0x0A01,
0.549324166666667,0,0x831D,
0.549340000000000,0,0x0F00,
0.549347916666667,0,0x841D,
0.549363750000000,0,0x0000,
0.549371666666667,0,0x8517,
0.549387541666667,0,0x7F3F,
0.549395458333333,0,0x861D,
0.549426208333333,0,0x0004,
0.549433875000000,0,0x0311,
0.549449875000000,0,0x0A01,
0.549457791666667,0,0x8311,
0.549473666666667,0,0x0F00,
0.549481583333333,0,0x8411,
0.549497416666667,0,0x0000,
0.549505291666667,0,0x8517,
0.549521166666667,0,0x7F3F,
0.549529083333333,0,0x8611,
0.549559708333333,0,0x0004,
0.549567416666667,0,0x0315,
0.549583500000000,0,0x0A01,
0.549591416666667,0,0x8315,
0.549607250000000,0,0x0F00,
0.549615166666667,0,0x8415,
0.549631000000000,0,0x0000,
0.549638916666667,0,0x8517,
0.549654750000000,0,0x7F3F,
0.549662666666667,0,0x8615,
0.549693666666667,0,0x0004,
0.549701333333333,0,0x0319,
0.549717583333333,0,0x0A01,
0.549725541666667,0,0x8319,
0.549741375000000,0,0x0F00,
0.549749291666667,0,0x8419,
0.549765125000000,0,0x0000,
0.549773041666667,0,0x8517,
0.549788875000000,0,0x773F,
0.549796791666667,0,0x8619,
0.549826750000000,0,0x0001,
0.549834416666667,0,0x1D1D,
0.549850708333333,0,0x1551,
0.549858625000000,0,0x9D1D,
0.549886958333333,0,0x0003,
0.549894666666667,0,0x2411,
0.549911083333333,0,0x0048,
0.549919000000000,0,0xA417,
0.549934833333333,0,0x0040,
0.549942750000000,0,0xA517,
0.549958583333333,0,0x8000,
0.549966500000000,0,0xA617,
0.549995375000000,0,0x0005,
0.550003083333333,0,0x2D15,
0.550019458333333,0,0xDFDD,
0.550027333333333,0,0xAD17,
0.550043208333333,0,0xFFF0,
0.550051083333333,0,0xAE17,
0.550066916666667,0,0x78B5,
0.550074833333333,0,0xAF17,
0.550090708333333,0,0xFFFF,
0.550098583333333,0,0xB017,
0.550114458333333,0,0x830A,
0.550122333333333,0,0xB117,
0.550152458333333,0,0x0006,
0.550160166666667,0,0x3B19,
0.550176291666667,0,0xB3E5,
0.550184208333333,0,0xBB17,
0.550200041666667,0,0xB332,
0.550207958333333,0,0xBC17,
0.550223833333333,0,0xB2C3,
0.550231708333333,0,0xBD17,
0.550247583333333,0,0xB204,
0.550255500000000,0,0xBE17,
0.550271333333333,0,0xB207,
0.550279250000000,0,0xBF17,
0.550295083333333,0,0xB27B,
0.550303000000000,0,0xC017,
0.550333416666667,0,0x000A,
0.550341083333333,0,0x411D,
0.550357458333333,0,0xC0C2,
0.550365333333333,0,0xC117,
0.550381208333333,0,0xC0C5,
0.550389125000000,0,0xC217,
0.550404958333333,0,0xC0C3,
0.550412833333333,0,0xC317,
0.550428666666667,0,0xC0C6,
0.550436583333333,0,0xC417,
0.550452416666667,0,0xC0C6,
0.550460333333333,0,0xC517,
0.550476166666667,0,0xDDCC,
0.550484125000000,0,0xC617,
0.550499916666667,0,0x83A7,
0.550507875000000,0,0xC717,
0.550523708333333,0,0xA3C0,
0.550531625000000,0,0xC817,
0.550547458333333,0,0x9E39,
0.550555375000000,0,0xC917,
0.550571250000000,0,0x9E3A,
0.550579166666667,0,0xCA17,
0.550611000000000,0,0x0004,
0.550618666666667,0,0x0321,
0.550634708333333,0,0x0A01,
0.550642541666667,0,0x8321,
0.550658250000000,0,0x0F00,
0.550666125000000,0,0x8421,
0.550681833333333,0,0x0000,
0.550689708333333,0,0x8527,
0.550705416666667,0,0x773F,
0.550713291666667,0,0x8621,
0.550744041666667,0,0x0001,
0.550751750000000,0,0x1D25,
0.550767791666667,0,0x0055,
0.550775625000000,0,0x9D25,
0.550804041666667,0,0x0003,
0.550811750000000,0,0x2429,
0.550827708333333,0,0x004C,
0.550835541666667,0,0xA427,
0.550851291666667,0,0x0040,
0.550859125000000,0,0xA527,
0.550874833333333,0,0x8000,
0.550882708333333,0,0xA627,
0.550911750000000,0,0x0005,
0.550919458333333,0,0x2D2D,
0.550935750000000,0,0xEA9A,
0.550943583333333,0,0xAD27,
0.550959291666667,0,0xFFF2,
0.550967166666667,0,0xAE27,
0.550982875000000,0,0xC43A,
0.550990750000000,0,0xAF27,
0.551006458333333,0,0xFFFF,
0.551014291666667,0,0xB027,
0.551030000000000,0,0x830C,
0.551037875000000,0,0xB127,
0.551069166666667,0,0x0006,
0.551076833333333,0,0x3B21,
0.551092875000000,0,0xE523,
0.551100750000000,0,0xBB27,
0.551116458333333,0,0x8000,
0.551124333333333,0,0xBC27,
0.551140000000000,0,0x8001,
0.551147875000000,0,0xBD27,
0.551163583333333,0,0x8001,
0.551171458333333,0,0xBE27,
0.551187166666667,0,0xE5C7,
0.551195041666667,0,0xBF27,
0.551210750000000,0,0xE5DE,
0.551218625000000,0,0xC027,
0.551249083333333,0,0x000A,
0.551256750000000,0,0x4125,
0.551273125000000,0,0xDC10,
0.551280958333333,0,0xC127,
0.551296708333333,0,0xDD25,
0.551304541666667,0,0xC227,
0.551320250000000,0,0xDF60,
0.551328125000000,0,0xC327,
0.551343833333333,0,0xE12B,
0.551351708333333,0,0xC427,
0.551367416666667,0,0xA980,
0.551375250000000,0,0xC527,
0.551391000000000,0,0xFF4B,
0.551398833333333,0,0xC627,
0.551414583333333,0,0xC013,
0.551422416666667,0,0xC727,
0.551438125000000,0,0xA3A2,
0.551446000000000,0,0xC827,
0.551461708333333,0,0x9E37,
0.551469541666667,0,0xC927,
0.551485291666667,0,0x9E3D,
0.551493125000000,0,0xCA27,
0.559104125000000,0,0x8C3F,
0.559111791666667,0,0x060B,
0.559138583333333,0,0x0004,
0.559146291666667,0,0x031D,
0.559162583333333,0,0x0A01,
0.559170541666667,0,0x831D,
0.559186375000000,0,0x0F00,
0.559194291666667,0,0x841D,
0.559210125000000,0,0x0000,
0.559218041666667,0,0x8518,
0.559233916666667,0,0x8F3F,
0.559241833333333,0,0x861D,
0.559272500000000,0,0x0004,
0.559280166666667,0,0x0311,
0.559296291666667,0,0x0A01,
0.559304208333333,0,0x8311,
0.559320041666667,0,0x0F00,
0.559327958333333,0,0x8411,
0.559343791666667,0,0x0000,
0.559351750000000,0,0x8518,
0.559367583333333,0,0x8F3F,
0.559375500000000,0,0x8611,
0.559406125000000,0,0x0004,
0.559413791666667,0,0x0315,
0.559429958333333,0,0x0A01,
0.559437875000000,0,0x8315,
0.559453708333333,0,0x0F00,
0.559461666666667,0,0x8415,
0.559477500000000,0,0x0000,
0.559485416666667,0,0x8518,
0.559501250000000,0,0x8F3F,
0.559509166666667,0,0x8615,
0.559539666666667,0,0x0004,
0.559547333333333,0,0x0319,
0.559563625000000,0,0x0A01,
0.559571541666667,0,0x8319,
0.559587375000000,0,0x0F00,
0.559595291666667,0,0x8419,
0.559611125000000,0,0x0000,
0.559619041666667,0,0x8518,
0.559634875000000,0,0x8F3F,
0.559642791666667,0,0x8619,
0.559673416666667,0,0x0004,
0.559681083333333,0,0x031D,
0.559697250000000,0,0x0A01,
0.559705125000000,0,0x831D,
0.559720958333333,0,0x0F00,
0.559728875000000,0,0x841D,
0.559744708333333,0,0x0000,
0.559752625000000,0,0x8518,
0.559768458333333,0,0x873F,
0.559776375000000,0,0x861D,
0.559807833333333,0,0x0001,
0.559815541666667,0,0x1D11,
0.559831791666667,0,0x1551,
0.559839708333333,0,0x9D11,
0.559867625000000,0,0x0003,
0.559875333333333,0,0x2415,
0.559891666666667,0,0x0048,
0.559899583333333,0,0xA418,
0.559915416666667,0,0x0040,
0.559923333333333,0,0xA518,
0.559939125000000,0,0x8000,
0.559947041666667,0,0xA618,
0.559975833333333,0,0x0005,
0.559983500000000,0,0x2D19,
0.559999500000000,0,0xE0E6,
0.560007416666667,0,0xAD18,
0.560023250000000,0,0xFFF0,
0.560031125000000,0,0xAE18,
0.560046958333333,0,0x7628,
0.560054875000000,0,0xAF18,
0.560070708333333,0,0xFFFF,
0.560078625000000,0,0xB018,
0.560094458333333,0,0x830B,
0.560102333333333,0,0xB118,
0.560131416666667,0,0x0006,
0.560139125000000,0,0x3B1D,
0.560155291666667,0,0xB3E9,
0.560163166666667,0,0xBB18,
0.560179000000000,0,0xB334,
0.560186916666667,0,0xBC18,
0.560202750000000,0,0xB2BF,
0.560210666666667,0,0xBD18,
0.560226500000000,0,0xB208,
0.560234416666667,0,0xBE18,
0.560250250000000,0,0xB206,
0.560258166666667,0,0xBF18,
0.560274000000000,0,0xB279,
0.560281916666667,0,0xC018,
0.560311791666667,0,0x000A,
0.560319458333333,0,0x4111,
0.560335791666667,0,0xC0C4,
0.560343708333333,0,0xC118,
0.560359541666667,0,0xC0C7,
0.560367458333333,0,0xC218,
0.560383291666667,0,0xC0C5,
0.560391208333333,0,0xC318,
0.560407000000000,0,0xC0C5,
0.560414916666667,0,0xC418,
0.560430750000000,0,0xC0C7,
0.560438666666667,0,0xC518,
0.560454500000000,0,0xDDCB,
0.560462416666667,0,0xC618,
0.560478250000000,0,0x83A9,
0.560486166666667,0,0xC718,
0.560501958333333,0,0xA3BE,
0.560509875000000,0,0xC818,
0.560525708333333,0,0x9E37,
0.560533625000000,0,0xC918,
0.560549458333333,0,0x9E3C,
0.560557375000000,0,0xCA18,
0.560588208333333,0,0x0004,
0.560595916666667,0,0x0325,
0.560612208333333,0,0x0A01,
0.560620041666667,0,0x8325,
0.560635791666667,0,0x0F00,
0.560643625000000,0,0x8425,
0.560659333333333,0,0x0000,
0.560667208333333,0,0x8528,
0.560682916666667,0,0x873F,
0.560690791666667,0,0x8625,
0.560721375000000,0,0x0001,
0.560729041666667,0,0x1D29,
0.560745291666667,0,0x0055,
0.560753166666667,0,0x9D29,
0.560780833333333,0,0x0003,
0.560788541666667,0,0x242D,
0.560804708333333,0,0x004C,
0.560812583333333,0,0xA428,
0.560828291666667,0,0x0040,
0.560836125000000,0,0xA528,
0.560851875000000,0,0x8000,
0.560859750000000,0,0xA628,
0.560888041666667,0,0x0005,
0.560895708333333,0,0x2D21,
0.560911791666667,0,0xEBA6,
0.560919666666667,0,0xAD28,
0.560935375000000,0,0xFFF2,
0.560943208333333,0,0xAE28,
0.560958958333333,0,0xC1D5,
0.560966791666667,0,0xAF28,
0.560982541666667,0,0x8000,
0.560990375000000,0,0xB028,
0.561006083333333,0,0x8302,
0.561013958333333,0,0xB128,
0.561043833333333,0,0x0006,
0.561051500000000,0,0x3B25,
0.561067500000000,0,0xE526,
0.561075333333333,0,0xBB28,
0.561091041666667,0,0x8000,
0.561098916666667,0,0xBC28,
0.561114625000000,0,0x8000,
0.561122500000000,0,0xBD28,
0.561138208333333,0,0x8000,
0.561146041666667,0,0xBE28,
0.561161791666667,0,0xE5C3,
0.561169625000000,0,0xBF28,
0.561185333333333,0,0xE5DE,
0.561193208333333,0,0xC028,
0.561222791666667,0,0x000A,
0.561230500000000,0,0x4129,
0.561246750000000,0,0xDC10,
0.561254583333333,0,0xC128,
0.561270333333333,0,0xDD27,
0.561278166666667,0,0xC228,
0.561293916666667,0,0xDF64,
0.561301750000000,0,0xC328,
0.561317458333333,0,0xE12D,
0.561325333333333,0,0xC428,
0.561341041666667,0,0xA982,
0.561348916666667,0,0xC528,
0.561364625000000,0,0xFF50,
0.561372458333333,0,0xC628,
0.561388208333333,0,0xC012,
0.561396041666667,0,0xC728,
0.561411791666667,0,0xA3A2,
0.561419625000000,0,0xC828,
0.561435333333333,0,0x9E39,
0.561443208333333,0,0xC928,
0.561458916666667,0,0x9E42,
0.561466791666667,0,0xCA28,
0.569303083333333,0,0x9C3F,
0.569310750000000,0,0x060F,
0.569338250000000,0,0x0004,
0.569345958333333,0,0x0311,
0.569361916666667,0,0x0A01,
0.569369833333333,0,0x8311,
0.569385666666667,0,0x0F00,
0.569393583333333,0,0x8411,
0.569409416666667,0,0x0000,
0.569417333333333,0,0x8519,
0.569433166666667,0,0x9F3F,
0.569441125000000,0,0x8611,
0.569472000000000,0,0x0004,
0.569479666666667,0,0x0315,
0.569496041666667,0,0x0A01,
0.569503958333333,0,0x8315,
0.569519791666667,0,0x0F00,
0.569527708333333,0,0x8415,
0.569543541666667,0,0x0000,
0.569551458333333,0,0x8519,
0.569567291666667,0,0x9F3F,
0.569575208333333,0,0x8615,
0.569606708333333,0,0x0004,
0.569614416666667,0,0x0319,
0.569630666666667,0,0x0A01,
0.569638625000000,0,0x8319,
0.569654458333333,0,0x0F00,
0.569662375000000,0,0x8419,
0.569678208333333,0,0x0000,
0.569686166666667,0,0x8519,
0.569702000000000,0,0x9F3F,
0.569709916666667,0,0x8619,
0.569740333333333,0,0x0004,
0.569748000000000,0,0x031D,
0.569764375000000,0,0x0A01,
0.569772250000000,0,0x831D,
0.569788125000000,0,0x0F00,
0.569796041666667,0,0x841D,
0.569811875000000,0,0x0000,
0.569819791666667,0,0x8519,
0.569835625000000,0,0x9F3F,
0.569843583333333,0,0x861D,
0.569873708333333,0,0x0004,
0.569881375000000,0,0x0311,
0.569897500000000,0,0x0A01,
0.569905416666667,0,0x8311,
0.569921291666667,0,0x0F00,
0.569929166666667,0,0x8411,
0.569945000000000,0,0x0000,
0.569952916666667,0,0x8519,
0.569968791666667,0,0x973F,
0.569976708333333,0,0x8611,
0.570006583333333,0,0x0001,
0.570014291666667,0,0x1D15,
0.570030666666667,0,0x1551,
0.570038583333333,0,0x9D15,
0.570066375000000,0,0x0003,
0.570074041666667,0,0x2419,
0.570090541666667,0,0x0048,
0.570098458333333,0,0xA419,
0.570114291666667,0,0x0040,
0.570122208333333,0,0xA519,
0.570138041666667,0,0x8000,
0.570145958333333,0,0xA619,
0.570175041666667,0,0x0005,
0.570182708333333,0,0x2D1D,
0.570198916666667,0,0xE1F5,
0.570206833333333,0,0xAD19,
0.570222666666667,0,0xFFF0,
0.570230625000000,0,0xAE19,
0.570246458333333,0,0x72B9,
0.570254375000000,0,0xAF19,
0.570270208333333,0,0xFFFF,
0.570278125000000,0,0xB019,
0.570294000000000,0,0x830B,
0.570301875000000,0,0xB119,
0.570331458333333,0,0x0006,
0.570339125000000,0,0x3B11,
0.570355333333333,0,0xB3E7,
0.570363250000000,0,0xBB19,
0.570379083333333,0,0xB332,
0.570387041666667,0,0xBC19,
0.570402875000000,0,0xB2C4,
0.570410791666667,0,0xBD19,
0.570426625000000,0,0xB206,
0.570434541666667,0,0xBE19,
0.570450375000000,0,0xB207,
0.570458291666667,0,0xBF19,
0.570474125000000,0,0xB278,
0.570482041666667,0,0xC019,
0.570512458333333,0,0x000A,
0.570520166666667,0,0x4115,
0.570536500000000,0,0xC0C7,
0.570544416666667,0,0xC119,
0.570560250000000,0,0xC0C4,
0.570568208333333,0,0xC219,
0.570584041666667,0,0xC0C5,
0.570591958333333,0,0xC319,
0.570607791666667,0,0xC0C4,
0.570615708333333,0,0xC419,
0.570631541666667,0,0xC0C7,
0.570639500000000,0,0xC519,
0.570655333333333,0,0xDDC9,
0.570663250000000,0,0xC619,
0.570679083333333,0,0x83A7,
0.570687000000000,0,0xC719,
0.570702833333333,0,0xA3BE,
0.570710750000000,0,0xC819,
0.570726625000000,0,0x9E38,
0.570734541666667,0,0xC919,
0.570750375000000,0,0x9E38,
0.570758291666667,0,0xCA19,
0.570790750000000,0,0x0004,
0.570798458333333,0,0x0329,
0.570814875000000,0,0x0A01,
0.570822750000000,0,0x8329,
0.570838458333333,0,0x0F00,
0.570846291666667,0,0x8429,
0.570862000000000,0,0x0000,
0.570869875000000,0,0x8529,
0.570885583333333,0,0x973F,
0.570893458333333,0,0x8629,
0.570924250000000,0,0x0001,
0.570931958333333,0,0x1D2D,
0.570947958333333,0,0x0055,
0.570955791666667,0,0x9D2D,
0.570984041666667,0,0x0003,
0.570991708333333,0,0x2421,
0.571007875000000,0,0x004C,
0.571015708333333,0,0xA429,
0.571031458333333,0,0x0040,
0.571039291666667,0,0xA529,
0.571055041666667,0,0x8000,
0.571062875000000,0,0xA629,
0.571091833333333,0,0x0005,
0.571099500000000,0,0x2D25,
0.571115916666667,0,0xECB7,
0.571123791666667,0,0xAD29,
0.571139500000000,0,0xFFF2,
0.571147333333333,0,0xAE29,
0.571163041666667,0,0xBFDF,
0.571170916666667,0,0xAF29,
0.571186625000000,0,0xFFFF,
0.571194500000000,0,0xB029,
0.571210208333333,0,0x830A,
0.571218041666667,0,0xB129,
0.571247833333333,0,0x0006,
0.571255500000000,0,0x3B29,
0.571271583333333,0,0xE525,
0.571279458333333,0,0xBB29,
0.571295166666667,0,0x8001,
0.571303041666667,0,0xBC29,
0.571318750000000,0,0x8000,
0.571326583333333,0,0xBD29,
0.571342291666667,0,0x8001,
0.571350166666667,0,0xBE29,
0.571365875000000,0,0xE5C9,
0.571373750000000,0,0xBF29,
0.571389458333333,0,0xE5E5,
0.571397291666667,0,0xC029,
0.571427500000000,0,0x000A,
0.571435166666667,0,0x412D,
0.571451333333333,0,0xDC12,
0.571459208333333,0,0xC129,
0.571474916666667,0,0xDD26,
0.571482750000000,0,0xC229,
0.571498500000000,0,0xDF66,
0.571506333333333,0,0xC329,
0.571522041666667,0,0xE12E,
0.571529916666667,0,0xC429,
0.571545625000000,0,0xA984,
0.571553500000000,0,0xC529,
0.571569208333333,0,0xFF4B,
0.571577083333333,0,0xC629,
0.571592791666667,0,0xC017,
0.571600666666667,0,0xC729,
0.571616375000000,0,0xA3A0,
0.571624208333333,0,0xC829,
0.571639916666667,0,0x9E38,
0.571647791666667,0,0xC929,
0.571663500000000,0,0x9E3F,
0.571671333333333,0,0xCA29,
0.579140625000000,0,0xAC3F,
0.579148291666667,0,0x0603,
0.579175500000000,0,0x0004,
0.579183166666667,0,0x0315,
0.579199541666667,0,0x0A01,
0.579207458333333,0,0x8315,
0.579223291666667,0,0x0F00,
0.579231208333333,0,0x8415,
0.579247083333333,0,0x0000,
0.579255000000000,0,0x851A,
0.579270833333333,0,0xAF3F,
0.579278750000000,0,0x8615,
0.579309916666667,0,0x0004,
0.579317583333333,0,0x0319,
0.579333708333333,0,0x0A01,
0.579341625000000,0,0x8319,
0.579357500000000,0,0x0F00,
0.579365416666667,0,0x8419,
0.579381250000000,0,0x0000,
0.579389166666667,0,0x851A,
0.579405000000000,0,0xAF3F,
0.579412958333333,0,0x8619,
0.579443750000000,0,0x0004,
0.579451416666667,0,0x031D,
0.579467875000000,0,0x0A01,
0.579475791666667,0,0x831D,
0.579491625000000,0,0x0F00,
0.579499541666667,0,0x841D,
0.579515416666667,0,0x0000,
0.579523333333333,0,0x851A,
0.579539166666667,0,0xAF3F,
0.579547083333333,0,0x861D,
0.579577750000000,0,0x0004,
0.579585458333333,0,0x0311,
0.579601541666667,0,0x0A01,
0.579609458333333,0,0x8311,
0.579625291666667,0,0x0F00,
0.579633208333333,0,0x8411,
0.579649041666667,0,0x0000,
0.579656958333333,0,0x851A,
0.579672791666667,0,0xAF3F,
0.579680708333333,0,0x8611,
0.579712083333333,0,0x0004,
0.579719750000000,0,0x0315,
0.579736125000000,0,0x0A01,
0.579744041666667,0,0x8315,
0.579759875000000,0,0x0F00,
0.579767791666667,0,0x8415,
0.579783625000000,0,0x0000,
0.579791541666667,0,0x851A,
0.579807375000000,0,0xA73F,
0.579815291666667,0,0x8615,
0.579846416666667,0,0x0001,
0.579854083333333,0,0x1D19,
0.579870208333333,0,0x1551,
0.579878125000000,0,0x9D19,
0.579906583333333,0,0x0003,
0.579914250000000,0,0x241D,
0.579930541666667,0,0x0048,
0.579938458333333,0,0xA41A,
0.579954291666667,0,0x0040,
0.579962208333333,0,0xA51A,
0.579978041666667,0,0x8000,
0.579985958333333,0,0xA61A,
0.580015291666667,0,0x0005,
0.580022958333333,0,0x2D11,
0.580039416666667,0,0xE2FB,
0.580047333333333,0,0xAD1A,
0.580063166666667,0,0xFFF0,
0.580071083333333,0,0xAE1A,
0.580086916666667,0,0x6FF7,
0.580094833333333,0,0xAF1A,
0.580110666666667,0,0xFFFF,
0.580118583333333,0,0xB01A,
0.580134416666667,0,0x8308,
0.580142333333333,0,0xB11A,
0.580171833333333,0,0x0006,
0.580179500000000,0,0x3B15,
0.580195750000000,0,0xB3E4,
0.580203666666667,0,0xBB1A,
0.580219500000000,0,0xB332,
0.580227416666667,0,0xBC1A,
0.580243250000000,0,0xB2C1,
0.580251166666667,0,0xBD1A,
0.580267041666667,0,0xB202,
0.580274958333333,0,0xBE1A,
0.580290750000000,0,0xB207,
0.580298708333333,0,0xBF1A,
0.580314500000000,0,0xB27B,
0.580322458333333,0,0xC01A,
0.580352250000000,0,0x000A,
0.580359958333333,0,0x4119,
0.580376375000000,0,0xC0C5,
0.580384291666667,0,0xC11A,
0.580400125000000,0,0xC0C2,
0.580408041666667,0,0xC21A,
0.580423875000000,0,0xC0C3,
0.580431791666667,0,0xC31A,
0.580447625000000,0,0xC0C6,
0.580455541666667,0,0xC41A,
0.580471416666667,0,0xC0C2,
0.580479333333333,0,0xC51A,
0.580495166666667,0,0xDDC8,
0.580503083333333,0,0xC61A,
0.580518916666667,0,0x83A5,
0.580526833333333,0,0xC71A,
0.580542666666667,0,0xA3BD,
0.580550583333333,0,0xC81A,
0.580566416666667,0,0x9E3B,
0.580574333333333,0,0xC91A,
0.580590166666667,0,0x9E3C,
0.580598083333333,0,0xCA1A,
0.580631250000000,0,0x0004,
0.580638916666667,0,0x032D,
0.580654916666667,0,0x0A01,
0.580662750000000,0,0x832D,
0.580678500000000,0,0x0F00,
0.580686333333333,0,0x842D,
0.580702041666667,0,0x0000,
0.580709916666667,0,0x852A,
0.580725666666667,0,0xA73F,
0.580733500000000,0,0x862D,
0.580763791666667,0,0x0001,
0.580771500000000,0,0x1D21,
0.580787541666667,0,0x0055,
0.580795375000000,0,0x9D21,
0.580823666666667,0,0x0003,
0.580831333333333,0,0x2425,
0.580847416666667,0,0x004C,
0.580855291666667,0,0xA42A,
0.580871000000000,0,0x0040,
0.580878875000000,0,0xA52A,
0.580894583333333,0,0x8000,
0.580902416666667,0,0xA62A,
0.580931041666667,0,0x0005,
0.580938750000000,0,0x2D29,
0.580955000000000,0,0xEDBF,
0.580962833333333,0,0xAD2A,
0.580978541666667,0,0xFFF2,
0.580986416666667,0,0xAE2A,
0.581002125000000,0,0xBD68,
0.581010000000000,0,0xAF2A,
0.581025708333333,0,0xFFFF,
0.581033583333333,0,0xB02A,
0.581049291666667,0,0x830B,
0.581057166666667,0,0xB12A,
0.581087250000000,0,0x0006,
0.581094916666667,0,0x3B2D,
0.581111166666667,0,0xE523,
0.581119041666667,0,0xBB2A,
0.581134750000000,0,0x8000,
0.581142625000000,0,0xBC2A,
0.581158333333333,0,0x8000,
0.581166166666667,0,0xBD2A,
0.581181875000000,0,0x8000,
0.581189750000000,0,0xBE2A,
0.581205458333333,0,0xE5C5,
0.581213333333333,0,0xBF2A,
0.581229041666667,0,0xE5DE,
0.581236875000000,0,0xC02A,
0.581267000000000,0,0x000A,
0.581274666666667,0,0x4121,
0.581290916666667,0,0xDC13,
0.581298791666667,0,0xC12A,
0.581314500000000,0,0xDD25,
0.581322333333333,0,0xC22A,
0.581338083333333,0,0xDF69,
0.581345916666667,0,0xC32A,
0.581361625000000,0,0xE130,
0.581369500000000,0,0xC42A,
0.581385208333333,0,0xA984,
0.581393083333333,0,0xC52A,
0.581408791666667,0,0xFF4E,
0.581416666666667,0,0xC62A,
0.581432375000000,0,0xC018,
0.581440250000000,0,0xC72A,
0.581455958333333,0,0xA3A3,
0.581463833333333,0,0xC82A,
0.581479541666667,0,0x9E39,
0.581487416666667,0,0xC92A,
0.581503125000000,0,0x9E39,
0.581510958333333,0,0xCA2A,
0.589133583333333,0,0xBC3F,
0.589141250000000,0,0x0607,
0.589168625000000,0,0x0004,
0.589176333333333,0,0x0319,
0.589192625000000,0,0x0A01,
0.589200500000000,0,0x8319,
0.589216375000000,0,0x0F00,
0.589224291666667,0,0x8419,
0.589240125000000,0,0x0000,
0.589248041666667,0,0x851B,
0.589263875000000,0,0xBF3F,
0.589271791666667,0,0x8619,
0.589303208333333,0,0x0004,
0.589310875000000,0,0x031D,
0.589327250000000,0,0x0A01,
0.589335166666667,0,0x831D,
0.589350958333333,0,0x0F00,
0.589358875000000,0,0x841D,
0.589374750000000,0,0x0000,
0.589382666666667,0,0x851B,
0.589398500000000,0,0xBF3F,
0.589406416666667,0,0x861D,
0.589437666666667,0,0x0004,
0.589445375000000,0,0x0311,
0.589461333333333,0,0x0A01,
0.589469250000000,0,0x8311,
0.589485083333333,0,0x0F00,
0.589493041666667,0,0x8411,
0.589508875000000,0,0x0000,
0.589516791666667,0,0x851B,
0.589532625000000,0,0xBF3F,
0.589540541666667,0,0x8611,
0.589571000000000,0,0x0004,
0.589578666666667,0,0x0315,
0.589595000000000,0,0x0A01,
0.589602916666667,0,0x8315,
0.589618791666667,0,0x0F00,
0.589626708333333,0,0x8415,
0.589642541666667,0,0x0000,
0.589650458333333,0,0x851B,
0.589666291666667,0,0xBF3F,
0.589674208333333,0,0x8615,
0.589705083333333,0,0x0004,
0.589712750000000,0,0x0319,
0.589729166666667,0,0x0A01,
0.589737083333333,0,0x8319,
0.589752916666667,0,0x0F00,
0.589760833333333,0,0x8419,
0.589776666666667,0,0x0000,
0.589784583333333,0,0x851B,
0.589800416666667,0,0xB73F,
0.589808333333333,0,0x8619,
0.589837958333333,0,0x0001,
0.589845666666667,0,0x1D1D,
0.589861750000000,0,0x1551,
0.589869666666667,0,0x9D1D,
0.589898625000000,0,0x0003,
0.589906291666667,0,0x2411,
0.589922625000000,0,0x0048,
0.589930541666667,0,0xA41B,
0.589946375000000,0,0x0040,
0.589954291666667,0,0xA51B,
0.589970125000000,0,0x8000,
0.589978041666667,0,0xA61B,
0.590007333333333,0,0x0005,
0.590015000000000,0,0x2D15,
0.590031000000000,0,0xE405,
0.590038916666667,0,0xAD1B,
0.590054750000000,0,0xFFF0,
0.590062666666667,0,0xAE1B,
0.590078500000000,0,0x6D97,
0.590086458333333,0,0xAF1B,
0.590102291666667,0,0xFFFF,
0.590110208333333,0,0xB01B,
0.590126041666667,0,0x830F,
0.590133958333333,0,0xB11B,
0.590164291666667,0,0x0006,
0.590172000000000,0,0x3B19,
0.590188416666667,0,0xB3E5,
0.590196291666667,0,0xBB1B,
0.590212125000000,0,0xB334,
0.590220083333333,0,0xBC1B,
0.590235916666667,0,0xB2C0,
0.590243833333333,0,0xBD1B,
0.590259666666667,0,0xB203,
0.590267583333333,0,0xBE1B,
0.590283416666667,0,0xB205,
0.590291333333333,0,0xBF1B,
0.590307166666667,0,0xB27C,
0.590315083333333,0,0xC01B,
0.590345541666667,0,0x000A,
0.590353250000000,0,0x411D,
0.590369500000000,0,0xC0C5,
0.590377458333333,0,0xC11B,
0.590393291666667,0,0xC0C6,
0.590401208333333,0,0xC21B,
0.590417041666667,0,0xC0C2,
0.590424958333333,0,0xC31B,
0.590440791666667,0,0xC0C3,
0.590448708333333,0,0xC41B,
0.590464541666667,0,0xC0C3,
0.590472458333333,0,0xC51B,
0.590488291666667,0,0xDDC9,
0.590496208333333,0,0xC61B,
0.590512041666667,0,0x83A5,
0.590520000000000,0,0xC71B,
0.590535833333333,0,0xA3BF,
0.590543750000000,0,0xC81B,
0.590559583333333,0,0x9E37,
0.590567500000000,0,0xC91B,
0.590583333333333,0,0x9E38,
0.590591250000000,0,0xCA1B,
0.590623791666667,0,0x0004,
0.590631458333333,0,0x0321,
0.590647833333333,0,0x0A01,
0.590655708333333,0,0x8321,
0.590671416666667,0,0x0F00,
0.590679250000000,0,0x8421,
0.590695000000000,0,0x0000,
0.590702833333333,0,0x852B,
0.590718541666667,0,0xB73F,
0.590726416666667,0,0x8621,
0.590757166666667,0,0x0001,
0.590764833333333,0,0x1D25,
0.590780916666667,0,0x0055,
0.590788791666667,0,0x9D25,
0.590816583333333,0,0x0003,
0.590824291666667,0,0x2429,
0.590840333333333,0,0x004C,
0.590848208333333,0,0xA42B,
0.590863916666667,0,0x0040,
0.590871791666667,0,0xA52B,
0.590887500000000,0,0x8000,
0.590895375000000,0,0xA62B,
0.590923583333333,0,0x0005,
0.590931250000000,0,0x2D2D,
0.590947416666667,0,0xEECA,
0.590955250000000,0,0xAD2B,
0.590970958333333,0,0xFFF2,
0.590978833333333,0,0xAE2B,
0.590994541666667,0,0xBA84,
0.591002416666667,0,0xAF2B,
0.591018125000000,0,0xFFFF,
0.591026000000000,0,0xB02B,
0.591041708333333,0,0x830E,
0.591049583333333,0,0xB12B,
0.591080666666667,0,0x0006,
0.591088333333333,0,0x3B21,
0.591104583333333,0,0xE523,
0.591112416666667,0,0xBB2B,
0.591128166666667,0,0x8000,
0.591136000000000,0,0xBC2B,
0.591151708333333,0,0x8001,
0.591159583333333,0,0xBD2B,
0.591175291666667,0,0x8000,
0.591183166666667,0,0xBE2B,
0.591198875000000,0,0xE5C4,
0.591206708333333,0,0xBF2B,
0.591222416666667,0,0xE5D9,
0.591230291666667,0,0xC02B,
0.591261500000000,0,0x000A,
0.591269166666667,0,0x4125,
0.591285291666667,0,0xDC11,
0.591293125000000,0,0xC12B,
0.591308833333333,0,0xDD1B,
0.591316708333333,0,0xC22B,
0.591332416666667,0,0xDF65,
0.591340291666667,0,0xC32B,
0.591356000000000,0,0xE12D,
0.591363833333333,0,0xC42B,
0.591379583333333,0,0xA982,
0.591387458333333,0,0xC52B,
0.591403125000000,0,0xFF4E,
0.591411000000000,0,0xC62B,
0.591426708333333,0,0xC012,
0.591434583333333,0,0xC72B,
0.591450291666667,0,0xA3A4,
0.591458125000000,0,0xC82B,
0.591473833333333,0,0x9E3B,
0.591481708333333,0,0xC92B,
0.591497458333333,0,0x9E3E,
0.591505291666667,0,0xCA2B,
0.599227125000000,0,0xCC3F,
0.599234791666667,0,0x060B,
0.599262583333333,0,0x0004,
0.599270250000000,0,0x031D,
0.599286666666667,0,0x0A01,
0.599294583333333,0,0x831D,
0.599310416666667,0,0x0F00,
0.599318333333333,0,0x841D,
0.599334166666667,0,0x0000,
0.599342083333333,0,0x851C,
0.599357958333333,0,0xCF3F,
0.599365875000000,0,0x861D,
0.599396458333333,0,0x0004,
0.599404125000000,0,0x0311,
0.599420291666667,0,0x0A01,
0.599428208333333,0,0x8311,
0.599444041666667,0,0x0F00,
0.599452000000000,0,0x8411,
0.599467833333333,0,0x0000,
0.599475750000000,0,0x851C,
0.599491583333333,0,0xCF3F,
0.599499500000000,0,0x8611,
0.599530208333333,0,0x0004,
0.599537875000000,0,0x0315,
0.599554000000000,0,0x0A01,
0.599561916666667,0,0x8315,
0.599577750000000,0,0x0F00,
0.599585666666667,0,0x8415,
0.599601500000000,0,0x0000,
0.599609416666667,0,0x851C,
0.599625250000000,0,0xCF3F,
0.599633166666667,0,0x8615,
0.599663791666667,0,0x0004,
0.599671458333333,0,0x0319,
0.599687625000000,0,0x0A01,
0.599695541666667,0,0x8319,
0.599711375000000,0,0x0F00,
0.599719291666667,0,0x8419,
0.599735125000000,0,0x0000,
0.599743041666667,0,0x851C,
0.599758875000000,0,0xCF3F,
0.599766791666667,0,0x8619,
0.599797666666667,0,0x0004,
0.599805333333333,0,0x031D,
0.599821708333333,0,0x0A01,
0.599829625000000,0,0x831D,
0.599845500000000,0,0x0F00,
0.599853416666667,0,0x841D,
0.599869250000000,0,0x0000,
0.599877166666667,0,0x851C,
0.599893000000000,0,0xC73F,
0.599900916666667,0,0x861D,
0.599931333333333,0,0x0001,
0.599939000000000,0,0x1D11,
0.599955333333333,0,0x1551,
0.599963250000000,0,0x9D11,
0.599991541666667,0,0x0003,
0.599999208333333,0,0x2415,
0.600015208333333,0,0x0048,
0.600023125000000,0,0xA41C,
0.600039000000000,0,0x0040,
0.600046875000000,0,0xA51C,
0.600062708333333,0,0x8000,
0.600070625000000,0,0xA61C,
0.600099375000000,0,0x0005,
0.600107041666667,0,0x2D19,
0.600123083333333,0,0xE511,
0.600131000000000,0,0xAD1C,
0.600146833333333,0,0xFFF0,
0.600154750000000,0,0xAE1C,
0.600170583333333,0,0x6B7B,
0.600178500000000,0,0xAF1C,
0.600194333333333,0,0xFFFF,
0.600202250000000,0,0xB01C,
0.600218083333333,0,0x8307,
0.600226000000000,0,0xB11C,
0.600256458333333,0,0x0006,
0.600264125000000,0,0x3B1D,
0.600280416666667,0,0xB3E8,
0.600288333333333,0,0xBB1C,
0.600304166666667,0,0xB330,
0.600312083333333,0,0xBC1C,
0.600327916666667,0,0xB2C7,
0.600335875000000,0,0xBD1C,
0.600351666666667,0,0xB20A,
0.600359583333333,0,0xBE1C,
0.600375416666667,0,0xB206,
0.600383375000000,0,0xBF1C,
0.600399208333333,0,0xB27A,
0.600407125000000,0,0xC01C,
0.600436708333333,0,0x000A,
0.600444416666667,0,0x4111,
0.600460541666667,0,0xC0C7,
0.600468458333333,0,0xC11C,
0.600484291666667,0,0xC0C9,
0.600492208333333,0,0xC21C,
0.600508041666667,0,0xC0C5,
0.600515958333333,0,0xC31C,
0.600531791666667,0,0xC0C7,
0.600539708333333,0,0xC41C,
0.600555541666667,0,0xC0C7,
0.600563458333333,0,0xC51C,
0.600579291666667,0,0xDDCB,
0.600587208333333,0,0xC61C,
0.600603041666667,0,0x83A8,
0.600610958333333,0,0xC71C,
0.600626791666667,0,0xA3BF,
0.600634708333333,0,0xC81C,
0.600650541666667,0,0x9E3A,
0.600658458333333,0,0xC91C,
0.600674333333333,0,0x9E3C,
0.600682250000000,0,0xCA1C,
0.600714333333333,0,0x0004,
0.600722000000000,0,0x0325,
0.600738125000000,0,0x0A01,
0.600745958333333,0,0x8325,
0.600761708333333,0,0x0F00,
0.600769583333333,0,0x8425,
0.600785291666667,0,0x0000,
0.600793125000000,0,0x852C,
0.600808833333333,0,0xC73F,
0.600816708333333,0,0x8625,
0.600847250000000,0,0x0001,
0.600854916666667,0,0x1D29,
0.600871250000000,0,0x0055,
0.600879083333333,0,0x9D29,
0.600907083333333,0,0x0003,
0.600914750000000,0,0x242D,
0.600931166666667,0,0x004C,
0.600939041666667,0,0xA42C,
0.600954750000000,0,0x0040,
0.600962625000000,0,0xA52C,
0.600978333333333,0,0x8000,
0.600986166666667,0,0xA62C,
0.601015541666667,0,0x0005,
0.601023208333333,0,0x2D21,
0.601039250000000,0,0xEFD9,
0.601047083333333,0,0xAD2C,
0.601062791666667,0,0xFFF2,
0.601070666666667,0,0xAE2C,
0.601086375000000,0,0xB864,
0.601094250000000,0,0xAF2C,
0.601109958333333,0,0x8000,
0.601117833333333,0,0xB02C,
0.601133541666667,0,0x8305,
0.601141375000000,0,0xB12C,
0.601171833333333,0,0x0006,
0.601179500000000,0,0x3B25,
0.601195916666667,0,0xE522,
0.601203791666667,0,0xBB2C,
0.601219500000000,0,0x8000,
0.601227375000000,0,0xBC2C,
0.601243083333333,0,0x8002,
0.601250916666667,0,0xBD2C,
0.601266666666667,0,0x8001,
0.601274541666667,0,0xBE2C,
0.601290250000000,0,0xE5C7,
0.601298083333333,0,0xBF2C,
0.601313833333333,0,0xE5DE,
0.601321666666667,0,0xC02C,
0.601352083333333,0,0x000A,
0.601359791666667,0,0x4129,
0.601376166666667,0,0xDC12,
0.601384083333333,0,0xC12C,
0.601399791666667,0,0xDD25,
0.601407625000000,0,0xC22C,
0.601423333333333,0,0xDF63,
0.601431208333333,0,0xC32C,
0.601446916666667,0,0xE131,
0.601454791666667,0,0xC42C,
0.601470500000000,0,0xA983,
0.601478375000000,0,0xC52C,
0.601494083333333,0,0xFF52,
0.601501916666667,0,0xC62C,
0.601517666666667,0,0xC013,
0.601525500000000,0,0xC72C,
0.601541208333333,0,0xA3A1,
0.601549083333333,0,0xC82C,
0.601564791666667,0,0x9E39,
0.601572666666667,0,0xC92C,
0.601588375000000,0,0x9E41,
0.601596250000000,0,0xCA2C,
0.609152208333333,0,0xDC3F,
0.609159875000000,0,0x060F,
0.609187333333333,0,0x0004,
0.609195000000000,0,0x0311,
0.609211083333333,0,0x0A01,
0.609219000000000,0,0x8311,
0.609234833333333,0,0x0F00,
0.609242750000000,0,0x8411,
0.609258583333333,0,0x0000,
0.609266500000000,0,0x851D,
0.609282333333333,0,0xDF3F,
0.609290250000000,0,0x8611,
0.609321375000000,0,0x0004,
0.609329041666667,0,0x0315,
0.609345125000000,0,0x0A01,
0.609353083333333,0,0x8315,
0.609368916666667,0,0x0F00,
0.609376833333333,0,0x8415,
0.609392666666667,0,0x0000,
0.609400583333333,0,0x851D,
0.609416416666667,0,0xDF3F,
0.609424333333333,0,0x8615,
0.609454958333333,0,0x0004,
0.609462625000000,0,0x0319,
0.609478791666667,0,0x0A01,
0.609486750000000,0,0x8319,
0.609502583333333,0,0x0F00,
0.609510500000000,0,0x8419,
0.609526333333333,0,0x0000,
0.609534250000000,0,0x851D,
0.609550083333333,0,0xDF3F,
0.609558041666667,0,0x8619,
0.609589375000000,0,0x0004,
0.609597041666667,0,0x031D,
0.609613458333333,0,0x0A01,
0.609621375000000,0,0x831D,
0.609637208333333,0,0x0F00,
0.609645125000000,0,0x841D,
0.609660958333333,0,0x0000,
0.609668875000000,0,0x851D,
0.609684708333333,0,0xDF3F,
0.609692625000000,0,0x861D,
0.609723625000000,0,0x0004,
0.609731333333333,0,0x0311,
0.609747541666667,0,0x0A01,
0.609755458333333,0,0x8311,
0.609771291666667,0,0x0F00,
0.609779208333333,0,0x8411,
0.609795041666667,0,0x0000,
0.609802958333333,0,0x851D,
0.609818791666667,0,0xD73F,
0.609826708333333,0,0x8611,
0.609857833333333,0,0x0001,
0.609865500000000,0,0x1D15,
0.609881625000000,0,0x1551,
0.609889541666667,0,0x9D15,
0.609917791666667,0,0x0003,
0.609925500000000,0,0x2419,
0.609941500000000,0,0x0048,
0.609949416666667,0,0xA41D,
0.609965250000000,0,0x0040,
0.609973166666667,0,0xA51D,
0.609989000000000,0,0x8000,
0.609996916666667,0,0xA61D,
0.610025708333333,0,0x0005,
0.610033375000000,0,0x2D1D,
0.610049375000000,0,0xE619,
0.610057333333333,0,0xAD1D,
0.610073125000000,0,0xFFF0,
0.610081041666667,0,0xAE1D,
0.610096875000000,0,0x685C,
0.610104791666667,0,0xAF1D,
0.610120666666667,0,0xFFFF,
0.610128541666667,0,0xB01D,
0.610144416666667,0,0x830E,
0.610152333333333,0,0xB11D,
0.610182375000000,0,0x0006,
0.610190083333333,0,0x3B11,
0.610206250000000,0,0xB3E7,
0.610214208333333,0,0xBB1D,
0.610230041666667,0,0xB333,
0.610237958333333,0,0xBC1D,
0.610253791666667,0,0xB2C4,
0.610261708333333,0,0xBD1D,
0.610277541666667,0,0xB203,
0.610285458333333,0,0xBE1D,
0.610301291666667,0,0xB207,
0.610309208333333,0,0xBF1D,
0.610325083333333,0,0xB27C,
0.610333000000000,0,0xC01D,
0.610362583333333,0,0x000A,
0.610370291666667,0,0x4115,
0.610386458333333,0,0xC0C4,
0.610394375000000,0,0xC11D,
0.610410208333333,0,0xC0C4,
0.610418125000000,0,0xC21D,
0.610433958333333,0,0xC0C3,
0.610441875000000,0,0xC31D,
0.610457708333333,0,0xC0C1,
0.610465625000000,0,0xC41D,
0.610481458333333,0,0xC0C3,
0.610489375000000,0,0xC51D,
0.610505208333333,0,0xDDCA,
0.610513125000000,0,0xC61D,
0.610528958333333,0,0x83A6,
0.610536875000000,0,0xC71D,
0.610552708333333,0,0xA3C2,
0.610560625000000,0,0xC81D,
0.610576458333333,0,0x9E3A,
0.610584375000000,0,0xC91D,
0.610600208333333,0,0x9E3D,
0.610608125000000,0,0xCA1D,
0.610641000000000,0,0x0004,
0.610648708333333,0,0x0329,
0.610665041666667,0,0x0A01,
0.610672916666667,0,0x8329,
0.610688666666667,0,0x0F00,
0.610696500000000,0,0x8429,
0.610712208333333,0,0x0000,
0.610720083333333,0,0x852D,
0.610735791666667,0,0xD73F,
0.610743666666667,0,0x8629,
0.610773791666667,0,0x0001,
0.610781500000000,0,0x1D2D,
0.610797666666667,0,0x0055,
0.610805541666667,0,0x9D2D,
0.610832958333333,0,0x0003,
0.610840625000000,0,0x2421,
0.610856625000000,0,0x004C,
0.610864458333333,0,0xA42D,
0.610880166666667,0,0x0040,
0.610888041666667,0,0xA52D,
0.610903750000000,0,0x8000,
0.610911625000000,0,0xA62D,
0.610941708333333,0,0x0005,
0.610949375000000,0,0x2D25,
0.610965625000000,0,0xF0E3,
0.610973500000000,0,0xAD2D,
0.610989208333333,0,0xFFF2,
0.610997083333333,0,0xAE2D,
0.611012791666667,0,0xB614,
0.611020625000000,0,0xAF2D,
0.611036375000000,0,0xFFFF,
0.611044208333333,0,0xB02D,
0.611059916666667,0,0x830B,
0.611067791666667,0,0xB12D,
0.611099000000000,0,0x0006,
0.611106666666667,0,0x3B29,
0.611122750000000,0,0xE528,
0.611130625000000,0,0xBB2D,
0.611146333333333,0,0x8000,
0.611154208333333,0,0xBC2D,
0.611169916666667,0,0x8000,
0.611177750000000,0,0xBD2D,
0.611193500000000,0,0x8000,
0.611201333333333,0,0xBE2D,
0.611217041666667,0,0xE5C6,
0.611224916666667,0,0xBF2D,
0.611240625000000,0,0xE5DF,
0.611248500000000,0,0xC02D,
0.611278750000000,0,0x000A,
0.611286416666667,0,0x412D,
0.611302500000000,0,0xDC13,
0.611310375000000,0,0xC12D,
0.611326083333333,0,0xDD23,
0.611333916666667,0,0xC22D,
0.611349666666667,0,0xDF65,
0.611357541666667,0,0xC32D,
0.611373208333333,0,0xE12E,
0.611381083333333,0,0xC42D,
0.611396791666667,0,0xA980,
0.611404666666667,0,0xC52D,
0.611420375000000,0,0xFF4D,
0.611428208333333,0,0xC62D,
0.611443958333333,0,0xC016,
0.611451791666667,0,0xC72D,
0.611467500000000,0,0xA3A4,
0.611475375000000,0,0xC82D,
0.611491083333333,0,0x9E3A,
0.611498958333333,0,0xC92D,
0.611514666666667,0,0x9E3F,
0.611522500000000,0,0xCA2D,
0.619136583333333,0,0xEC3F,
0.619144291666667,0,0x0603,
0.619171208333333,0,0x0004,
0.619178875000000,0,0x0315,
0.619194875000000,0,0x0A01,
0.619202791666667,0,0x8315,
0.619218625000000,0,0x0F00,
0.619226541666667,0,0x8415,
0.619242416666667,0,0x0000,
0.619250291666667,0,0x851E,
0.619266166666667,0,0xEF3F,
0.619274041666667,0,0x8615,
0.619304958333333,0,0x0004,
0.619312583333333,0,0x0319,
0.619329000000000,0,0x0A01,
0.619336916666667,0,0x8319,
0.619352750000000,0,0x0F00,
0.619360666666667,0,0x8419,
0.619376500000000,0,0x0000,
0.619384416666667,0,0x851E,
0.619400250000000,0,0xEF3F,
0.619408166666667,0,0x8619,
0.619438541666667,0,0x0004,
0.619446208333333,0,0x031D,
0.619462583333333,0,0x0A01,
0.619470541666667,0,0x831D,
0.619486375000000,0,0x0F00,
0.619494291666667,0,0x841D,
0.619510125000000,0,0x0000,
0.619518041666667,0,0x851E,
0.619533875000000,0,0xEF3F,
0.619541791666667,0,0x861D,
0.619572875000000,0,0x0004,
0.619580541666667,0,0x0311,
0.619596750000000,0,0x0A01,
0.619604666666667,0,0x8311,
0.619620500000000,0,0x0F00,
0.619628416666667,0,0x8411,
0.619644250000000,0,0x0000,
0.619652166666667,0,0x851E,
0.619668000000000,0,0xEF3F,
0.619675916666667,0,0x8611,
0.619707833333333,0,0x0004,
0.619715541666667,0,0x0315,
0.619731833333333,0,0x0A01,
0.619739750000000,0,0x8315,
0.619755583333333,0,0x0F00,
0.619763500000000,0,0x8415,
0.619779333333333,0,0x0000,
0.619787250000000,0,0x851E,
0.619803083333333,0,0xE73F,
0.619811000000000,0,0x8615,
0.619840875000000,0,0x0001,
0.619848541666667,0,0x1D19,
0.619864958333333,0,0x1551,
0.619872875000000,0,0x9D19,
0.619901083333333,0,0x0003,
0.619908791666667,0,0x241D,
0.619924833333333,0,0x0048,
0.619932750000000,0,0xA41E,
0.619948583333333,0,0x0040,
0.619956500000000,0,0xA51E,
0.619972333333333,0,0x8000,
0.619980250000000,0,0xA61E,
0.620008708333333,0,0x0005,
0.620016416666667,0,0x2D11,
0.620032666666667,0,0xE723,
0.620040583333333,0,0xAD1E,
0.620056458333333,0,0xFFF0,
0.620064375000000,0,0xAE1E,
0.620080166666667,0,0x65A9,
0.620088125000000,0,0xAF1E,
0.620103958333333,0,0xFFFF,
0.620111875000000,0,0xB01E,
0.620127708333333,0,0x830D,
0.620135625000000,0,0xB11E,
0.620165666666667,0,0x0006,
0.620173375000000,0,0x3B15,
0.620189583333333,0,0xB3E4,
0.620197500000000,0,0xBB1E,
0.620213333333333,0,0xB330,
0.620221250000000,0,0xBC1E,
0.620237083333333,0,0xB2C5,
0.620245000000000,0,0xBD1E,
0.620260833333333,0,0xB206,
0.620268750000000,0,0xBE1E,
0.620284583333333,0,0xB207,
0.620292541666667,0,0xBF1E,
0.620308375000000,0,0xB277,
0.620316250000000,0,0xC01E,
0.620346500000000,0,0x000A,
0.620354208333333,0,0x4119,
0.620370208333333,0,0xC0C4,
0.620378125000000,0,0xC11E,
0.620393958333333,0,0xC0C3,
0.620401916666667,0,0xC21E,
0.620417750000000,0,0xC0C2,
0.620425666666667,0,0xC31E,
0.620441500000000,0,0xC0C5,
0.620449416666667,0,0xC41E,
0.620465250000000,0,0xC0C4,
0.620473166666667,0,0xC51E,
0.620489000000000,0,0xDDC8,
0.620496916666667,0,0xC61E,
0.620512791666667,0,0x83A5,
0.620520708333333,0,0xC71E,
0.620536541666667,0,0xA3BD,
0.620544458333333,0,0xC81E,
0.620560291666667,0,0x9E3A,
0.620568208333333,0,0xC91E,
0.620584041666667,0,0x9E3A,
0.620591958333333,0,0xCA1E,
0.620624208333333,0,0x0004,
0.620631875000000,0,0x032D,
0.620647875000000,0,0x0A01,
0.620655750000000,0,0x832D,
0.620671458333333,0,0x0F00,
0.620679333333333,0,0x842D,
0.620695041666667,0,0x0000,
0.620702875000000,0,0x852E,
0.620718625000000,0,0xE73F,
0.620726458333333,0,0x862D,
0.620756666666667,0,0x0001,
0.620764333333333,0,0x1D21,
0.620780500000000,0,0x0055,
0.620788333333333,0,0x9D21,
0.620815833333333,0,0x0003,
0.620823500000000,0,0x2425,
0.620839916666667,0,0x004C,
0.620847750000000,0,0xA42E,
0.620863458333333,0,0x0040,
0.620871333333333,0,0xA52E,
0.620887041666667,0,0x8000,
0.620894916666667,0,0xA62E,
0.620923583333333,0,0x0005,
0.620931250000000,0,0x2D29,
0.620947458333333,0,0xF1EE,
0.620955291666667,0,0xAD2E,
0.620971041666667,0,0xFFF2,
0.620978875000000,0,0xAE2E,
0.620994625000000,0,0xB3D6,
0.621002458333333,0,0xAF2E,
0.621018166666667,0,0xFFFF,
0.621026041666667,0,0xB02E,
0.621041750000000,0,0x830F,
0.621049625000000,0,0xB12E,
0.621080458333333,0,0x0006,
0.621088125000000,0,0x3B2D,
0.621104125000000,0,0xE525,
0.621112000000000,0,0xBB2E,
0.621127708333333,0,0x8001,
0.621135541666667,0,0xBC2E,
0.621151291666667,0,0x8000,
0.621159125000000,0,0xBD2E,
0.621174833333333,0,0x8002,
0.621182708333333,0,0xBE2E,
0.621198416666667,0,0xE5C3,
0.621206291666667,0,0xBF2E,
0.621222000000000,0,0xE5DB,
0.621229875000000,0,0xC02E,
0.621260791666667,0,0x000A,
0.621268458333333,0,0x4121,
0.621284875000000,0,0xDC18,
0.621292708333333,0,0xC12E,
0.621308416666667,0,0xDD27,
0.621316291666667,0,0xC22E,
0.621332000000000,0,0xDF69,
0.621339875000000,0,0xC32E,
0.621355583333333,0,0xE136,
0.621363416666667,0,0xC42E,
0.621379166666667,0,0xA987,
0.621387000000000,0,0xC52E,
0.621402708333333,0,0xFF50,
0.621410583333333,0,0xC62E,
0.621426291666667,0,0xC01E,
0.621434166666667,0,0xC72E,
0.621449875000000,0,0xA3A2,
0.621457750000000,0,0xC82E,
0.621473458333333,0,0x9E3E,
0.621481291666667,0,0xC92E,
0.621497041666667,0,0x9E3D,
0.621504875000000,0,0xCA2E,
0.629127500000000,0,0xFC3F,
0.629135208333333,0,0x0607,
0.629162375000000,0,0x0004,
0.629170041666667,0,0x0319,
0.629186166666667,0,0x0A01,
0.629194083333333,0,0x8319,
0.629209916666667,0,0x0F00,
0.629217833333333,0,0x8419,
0.629233666666667,0,0x0000,
0.629241583333333,0,0x851F,
0.629257416666667,0,0xFF3F,
0.629265375000000,0,0x8619,
0.629296166666667,0,0x0004,
0.629303833333333,0,0x031D,
0.629320291666667,0,0x0A01,
0.629328208333333,0,0x831D,
0.629344083333333,0,0x0F00,
0.629352000000000,0,0x841D,
0.629367833333333,0,0x0000,
0.629375750000000,0,0x851F,
0.629391625000000,0,0xFF3F,
0.629399541666667,0,0x861D,
0.629430000000000,0,0x0004,
0.629437666666667,0,0x0311,
0.629454000000000,0,0x0A01,
0.629461916666667,0,0x8311,
0.629477750000000,0,0x0F00,
0.629485708333333,0,0x8411,
0.629501541666667,0,0x0000,
0.629509458333333,0,0x851F,
0.629525291666667,0,0xFF3F,
0.629533250000000,0,0x8611,
0.629564250000000,0,0x0004,
0.629571916666667,0,0x0315,
0.629588208333333,0,0x0A01,
0.629596083333333,0,0x8315,
0.629611958333333,0,0x0F00,
0.629619875000000,0,0x8415,
0.629635708333333,0,0x0000,
0.629643666666667,0,0x851F,
0.629659500000000,0,0xFF3F,
0.629667416666667,0,0x8615,
0.629697583333333,0,0x0004,
0.629705250000000,0,0x0319,
0.629721375000000,0,0x0A01,
0.629729291666667,0,0x8319,
0.629745125000000,0,0x0F00,
0.629753041666667,0,0x8419,
0.629768916666667,0,0x0000,
0.629776791666667,0,0x851F,
0.629792666666667,0,0xF73F,
0.629800583333333,0,0x8619,
0.629831041666667,0,0x0001,
0.629838708333333,0,0x1D1D,
0.629855000000000,0,0x1551,
0.629862958333333,0,0x9D1D,
0.629891416666667,0,0x0003,
0.629899083333333,0,0x2411,
0.629915416666667,0,0x0048,
0.629923333333333,0,0xA41F,
0.629939166666667,0,0x0040,
0.629947083333333,0,0xA51F,
0.629962875000000,0,0x8000,
0.629970833333333,0,0xA61F,
0.630000250000000,0,0x0005,
0.630007916666667,0,0x2D15,
0.630024250000000,0,0xE82C,
0.630032166666667,0,0xAD1F,
0.630048000000000,0,0xFFF0,
0.630055916666667,0,0xAE1F,
0.630071750000000,0,0x6286,
0.630079666666667,0,0xAF1F,
0.630095500000000,0,0xFFFF,
0.630103416666667,0,0xB01F,
0.630119250000000,0,0x830A,
0.630127166666667,0,0xB11F,
0.630157666666667,0,0x0006,
0.630165333333333,0,0x3B19,
0.630181583333333,0,0xB3E7,
0.630189541666667,0,0xBB1F,
0.630205375000000,0,0xB334,
0.630213291666667,0,0xBC1F,
0.630229125000000,0,0xB2C2,
0.630237041666667,0,0xBD1F,
0.630252875000000,0,0xB205,
0.630260791666667,0,0xBE1F,
0.630276625000000,0,0xB206,
0.630284541666667,0,0xBF1F,
0.630300375000000,0,0xB27A,
0.630308291666667,0,0xC01F,
0.630339000000000,0,0x000A,
0.630346708333333,0,0x411D,
0.630362750000000,0,0xC0C8,
0.630370625000000,0,0xC11F,
0.630386500000000,0,0xC0C4,
0.630394375000000,0,0xC21F,
0.630410250000000,0,0xC0C7,
0.630418125000000,0,0xC31F,
0.630433958333333,0,0xC0C5,
0.630441916666667,0,0xC41F,
0.630457750000000,0,0xC0C5,
0.630465666666667,0,0xC51F,
0.630481500000000,0,0xDDC8,
0.630489416666667,0,0xC61F,
0.630505250000000,0,0x83A5,
0.630513166666667,0,0xC71F,
0.630529000000000,0,0xA3BE,
0.630536916666667,0,0xC81F,
0.630552791666667,0,0x9E38,
0.630560708333333,0,0xC91F,
0.630576541666667,0,0x9E38,
0.630584458333333,0,0xCA1F,
0.630616208333333,0,0x0004,
0.630623875000000,0,0x0321,
0.630640083333333,0,0x0A01,
0.630647958333333,0,0x8321,
0.630663666666667,0,0x0F00,
0.630671500000000,0,0x8421,
0.630687208333333,0,0x0000,
0.630695083333333,0,0x852F,
0.630710791666667,0,0xF73F,
0.630718625000000,0,0x8621,
0.630749291666667,0,0x0001,
0.630756958333333,0,0x1D25,
0.630773166666667,0,0x0055,
0.630781041666667,0,0x9D25,
0.630808791666667,0,0x0003,
0.630816458333333,0,0x2429,
0.630832583333333,0,0x004C,
0.630840416666667,0,0xA42F,
0.630856166666667,0,0x0040,
0.630864000000000,0,0xA52F,
0.630879708333333,0,0x8000,
0.630887583333333,0,0xA62F,
0.630916166666667,0,0x0005,
0.630923875000000,0,0x2D2D,
0.630940125000000,0,0xF2FA,
0.630947958333333,0,0xAD2F,
0.630963708333333,0,0xFFF2,
0.630971541666667,0,0xAE2F,
0.630987250000000,0,0xB073,
0.630995125000000,0,0xAF2F,
0.631010833333333,0,0x8000,
0.631018708333333,0,0xB02F,
0.631034375000000,0,0x8300,
0.631042250000000,0,0xB12F,
0.631073000000000,0,0x0006,
0.631080666666667,0,0x3B21,
0.631096791666667,0,0xE523,
0.631104625000000,0,0xBB2F,
0.631120375000000,0,0x8001,
0.631128208333333,0,0xBC2F,
0.631143916666667,0,0x8002,
0.631151791666667,0,0xBD2F,
0.631167500000000,0,0x8000,
0.631175333333333,0,0xBE2F,
0.631191041666667,0,0xE5C5,
0.631198916666667,0,0xBF2F,
0.631214625000000,0,0xE5E0,
0.631222500000000,0,0xC02F,
0.631252416666667,0,0x000A,
0.631260083333333,0,0x4125,
0.631276041666667,0,0xDC11,
0.631283875000000,0,0xC12F,
0.631299583333333,0,0xDD22,
0.631307458333333,0,0xC22F,
0.631323166666667,0,0xDF63,
0.631331041666667,0,0xC32F,
0.631346750000000,0,0xE12C,
0.631354625000000,0,0xC42F,
0.631370333333333,0,0xA984,
0.631378166666667,0,0xC52F,
0.631393875000000,0,0xFF4B,
0.631401750000000,0,0xC62F,
0.631417458333333,0,0xC015,
0.631425291666667,0,0xC72F,
0.631441000000000,0,0xA3A3,
0.631448875000000,0,0xC82F,
0.631464583333333,0,0x9E3B,
0.631472458333333,0,0xC92F,
0.631488166666667,0,0x9E3B,
0.631496000000000,0,0xCA2F,
0.639113291666667,0,0x0C3F,
0.639121000000000,0,0x060B,
0.639148416666667,0,0x0004,
0.639156083333333,0,0x031D,
0.639172083333333,0,0x0A01,
0.639180000000000,0,0x831D,
0.639195833333333,0,0x0F00,
0.639203750000000,0,0x841D,
0.639219583333333,0,0x0000,
0.639227500000000,0,0x8510,
0.639243375000000,0,0x0F3F,
0.639251250000000,0,0x861D,
0.639282041666667,0,0x0004,
0.639289708333333,0,0x0311,
0.639305708333333,0,0x0A01,
0.639313625000000,0,0x8311,
0.639329458333333,0,0x0F00,
0.639337375000000,0,0x8411,
0.639353250000000,0,0x0000,
0.639361125000000,0,0x8510,
0.639377000000000,0,0x0F3F,
0.639384916666667,0,0x8611,
0.639416500000000,0,0x0004,
0.639424166666667,0,0x0315,
0.639440333333333,0,0x0A01,
0.639448291666667,0,0x8315,
0.639464125000000,0,0x0F00,
0.639472041666667,0,0x8415,
0.639487875000000,0,0x0000,
0.639495791666667,0,0x8510,
0.639511625000000,0,0x0F3F,
0.639519541666667,0,0x8615,
0.639549458333333,0,0x0004,
0.639557166666667,0,0x0319,
0.639573500000000,0,0x0A01,
0.639581416666667,0,0x8319,
0.639597250000000,0,0x0F00,
0.639605166666667,0,0x8419,
0.639621000000000,0,0x0000,
0.639628958333333,0,0x8510,
0.639644791666667,0,0x0F3F,
0.639652708333333,0,0x8619,
0.639683291666667,0,0x0004,
0.639690958333333,0,0x031D,
0.639707125000000,0,0x0A01,
0.639715083333333,0,0x831D,
0.639730916666667,0,0x0F00,
0.639738833333333,0,0x841D,
0.639754666666667,0,0x0000,
0.639762583333333,0,0x8510,
0.639778416666667,0,0x073F,
0.639786333333333,0,0x861D,
0.639817583333333,0,0x0001,
0.639825250000000,0,0x1D11,
0.639841250000000,0,0x1551,
0.639849166666667,0,0x9D11,
0.639877666666667,0,0x0003,
0.639885333333333,0,0x2415,
0.639901583333333,0,0x0048,
0.639909500000000,0,0xA410,
0.639925333333333,0,0x0040,
0.639933250000000,0,0xA510,
0.639949083333333,0,0x8000,
0.639956958333333,0,0xA610,
0.639986708333333,0,0x0005,
0.639994375000000,0,0x2D19,
0.640010416666667,0,0xE936,
0.640018333333333,0,0xAD10,
0.640034166666667,0,0xFFF0,
0.640042083333333,0,0xAE10,
0.640057875000000,0,0x5FF3,
0.640065791666667,0,0xAF10,
0.640081625000000,0,0xFFFF,
0.640089541666667,0,0xB010,
0.640105375000000,0,0x8306,
0.640113291666667,0,0xB110,
0.640143708333333,0,0x0006,
0.640151375000000,0,0x3B1D,
0.640167708333333,0,0xB3E6,
0.640175625000000,0,0xBB10,
0.640191458333333,0,0xB332,
0.640199375000000,0,0xBC10,
0.640215208333333,0,0xB2C2,
0.640223125000000,0,0xBD10,
0.640238958333333,0,0xB202,
0.640246875000000,0,0xBE10,
0.640262708333333,0,0xB206,
0.640270625000000,0,0xBF10,
0.640286458333333,0,0xB277,
0.640294375000000,0,0xC010,
0.640325208333333,0,0x000A,
0.640332916666667,0,0x4111,
0.640349291666667,0,0xC0C2,
0.640357166666667,0,0xC110,
0.640373000000000,0,0xC0C5,
0.640380916666667,0,0xC210,
0.640396750000000,0,0xC0C5,
0.640404666666667,0,0xC310,
0.640420500000000,0,0xC0C2,
0.640428416666667,0,0xC410,
0.640444250000000,0,0xC0C6,
0.640452166666667,0,0xC510,
0.640468000000000,0,0xDDCA,
0.640475916666667,0,0xC610,
0.640491750000000,0,0x83A6,
0.640499666666667,0,0xC710,
0.640515458333333,0,0xA3C0,
0.640523416666667,0,0xC810,
0.640539208333333,0,0x9E3A,
0.640547125000000,0,0xC910,
0.640562958333333,0,0x9E3B,
0.640570916666667,0,0xCA10,
0.640602541666667,0,0x0004,
0.640610208333333,0,0x0325,
0.640626458333333,0,0x0A01,
0.640634333333333,0,0x8325,
0.640650041666667,0,0x0F00,
0.640657916666667,0,0x8425,
0.640673625000000,0,0x0000,
0.640681458333333,0,0x8520,
0.640697208333333,0,0x073F,
0.640705041666667,0,0x8625,
0.640735291666667,0,0x0001,
0.640742958333333,0,0x1D29,
0.640759041666667,0,0x0055,
0.640766916666667,0,0x9D29,
0.640795166666667,0,0x0003,
0.640802833333333,0,0x242D,
0.640818958333333,0,0x004C,
0.640826833333333,0,0xA420,
0.640842541666667,0,0x0040,
0.640850416666667,0,0xA520,
0.640866083333333,0,0x8000,
0.640873958333333,0,0xA620,
0.640902250000000,0,0x0005,
0.640909958333333,0,0x2D21,
0.640926041666667,0,0xF405,
0.640933875000000,0,0xAD20,
0.640949583333333,0,0xFFF2,
0.640957458333333,0,0xAE20,
0.640973166666667,0,0xAE70,
0.640981041666667,0,0xAF20,
0.640996708333333,0,0x8000,
0.641004583333333,0,0xB020,
0.641020291666667,0,0x8303,
0.641028166666667,0,0xB120,
0.641056875000000,0,0x0006,
0.641064583333333,0,0x3B25,
0.641080708333333,0,0xE523,
0.641088541666667,0,0xBB20,
0.641104250000000,0,0x8000,
0.641112125000000,0,0xBC20,
0.641127833333333,0,0x8000,
0.641135708333333,0,0xBD20,
0.641151416666667,0,0x8001,
0.641159250000000,0,0xBE20,
0.641174958333333,0,0xE5C5,
0.641182833333333,0,0xBF20,
0.641198541666667,0,0xE5DF,
0.641206416666667,0,0xC020,
0.641236291666667,0,0x000A,
0.641244000000000,0,0x4129,
0.641260416666667,0,0xDC12,
0.641268291666667,0,0xC120,
0.641284000000000,0,0xDD25,
0.641291875000000,0,0xC220,
0.641307583333333,0,0xDF65,
0.641315416666667,0,0xC320,
0.641331166666667,0,0xE12E,
0.641339041666667,0,0xC420,
0.641354750000000,0,0xA983,
0.641362583333333,0,0xC520,
0.641378291666667,0,0xFF4F,
0.641386166666667,0,0xC620,
0.641401875000000,0,0xC019,
0.641409750000000,0,0xC720,
0.641425458333333,0,0xA3A2,
0.641433333333333,0,0xC820,
0.641449041666667,0,0x9E39,
0.641456875000000,0,0xC920,
0.641472583333333,0,0x9E3F,
0.641480458333333,0,0xCA20,
0.649139291666667,0,0x1C3F,
0.649147000000000,0,0x060F,
0.649174458333333,0,0x0004,
0.649182125000000,0,0x0311,
0.649198291666667,0,0x0A01,
0.649206208333333,0,0x8311,
0.649222041666667,0,0x0F00,
0.649229958333333,0,0x8411,
0.649245791666667,0,0x0000,
0.649253708333333,0,0x8511,
0.649269541666667,0,0x1F3F,
0.649277500000000,0,0x8611,
0.649308791666667,0,0x0004,
0.649316458333333,0,0x0315,
0.649332916666667,0,0x0A01,
0.649340833333333,0,0x8315,
0.649356666666667,0,0x0F00,
0.649364583333333,0,0x8415,
0.649380458333333,0,0x0000,
0.649388375000000,0,0x8511,
0.649404208333333,0,0x1F3F,
0.649412125000000,0,0x8615,
0.649443916666667,0,0x0004,
0.649451583333333,0,0x0319,
0.649467541666667,0,0x0A01,
0.649475458333333,0,0x8319,
0.649491291666667,0,0x0F00,
0.649499208333333,0,0x8419,
0.649515041666667,0,0x0000,
0.649523000000000,0,0x8511,
0.649538833333333,0,0x1F3F,
0.649546750000000,0,0x8619,
0.649577583333333,0,0x0004,
0.649585250000000,0,0x031D,
0.649601666666667,0,0x0A01,
0.649609583333333,0,0x831D,
0.649625458333333,0,0x0F00,
0.649633333333333,0,0x841D,
0.649649166666667,0,0x0000,
0.649657125000000,0,0x8511,
0.649672958333333,0,0x1F3F,
0.649680875000000,0,0x861D,
0.649712041666667,0,0x0004,
0.649719708333333,0,0x0311,
0.649735791666667,0,0x0A01,
0.649743708333333,0,0x8311,
0.649759541666667,0,0x0F00,
0.649767458333333,0,0x8411,
0.649783291666667,0,0x0000,
0.649791208333333,0,0x8511,
0.649807041666667,0,0x173F,
0.649814958333333,0,0x8611,
0.649844958333333,0,0x0001,
0.649852625000000,0,0x1D15,
0.649868875000000,0,0x1551,
0.649876791666667,0,0x9D15,
0.649904541666667,0,0x0003,
0.649912208333333,0,0x2419,
0.649928250000000,0,0x0048,
0.649936166666667,0,0xA411,
0.649952000000000,0,0x0040,
0.649959916666667,0,0xA511,
0.649975750000000,0,0x8000,
0.649983666666667,0,0xA611,
0.650013333333333,0,0x0005,
0.650021000000000,0,0x2D1D,
0.650037125000000,0,0xEA41,
0.650045041666667,0,0xAD11,
0.650060875000000,0,0xFFF0,
0.650068791666667,0,0xAE11,
0.650084625000000,0,0x5D5C,
0.650092500000000,0,0xAF11,
0.650108333333333,0,0xFFFF,
0.650116291666667,0,0xB011,
0.650132125000000,0,0x830A,
0.650140041666667,0,0xB111,
0.650169666666667,0,0x0006,
0.650177375000000,0,0x3B11,
0.650193500000000,0,0xB3E4,
0.650201416666667,0,0xBB11,
0.650217250000000,0,0xB330,
0.650225166666667,0,0xBC11,
0.650241000000000,0,0xB2C5,
0.650248916666667,0,0xBD11,
0.650264750000000,0,0xB207,
0.650272666666667,0,0xBE11,
0.650288500000000,0,0xB206,
0.650296416666667,0,0xBF11,
0.650312291666667,0,0xB276,
0.650320166666667,0,0xC011,
0.650350375000000,0,0x000A,
0.650358041666667,0,0x4115,
0.650374125000000,0,0xC0C7,
0.650382041666667,0,0xC111,
0.650397875000000,0,0xC0C6,
0.650405791666667,0,0xC211,
0.650421625000000,0,0xC0CA,
0.650429541666667,0,0xC311,
0.650445375000000,0,0xC0C6,
0.650453291666667,0,0xC411,
0.650469125000000,0,0xC0C7,
0.650477041666667,0,0xC511,
0.650492875000000,0,0xDDCA,
0.650500791666667,0,0xC611,
0.650516625000000,0,0x83A7,
0.650524541666667,0,0xC711,
0.650540375000000,0,0xA3BE,
0.650548291666667,0,0xC811,
0.650564125000000,0,0x9E37,
0.650572041666667,0,0xC911,
0.650587875000000,0,0x9E38,
0.650595791666667,0,0xCA11,
0.650628041666667,0,0x0004,
0.650635708333333,0,0x0329,
0.650651791666667,0,0x0A01,
0.650659666666667,0,0x8329,
0.650675375000000,0,0x0F00,
0.650683250000000,0,0x8429,
0.650698958333333,0,0x0000,
0.650706791666667,0,0x8521,
0.650722541666667,0,0x173F,
0.650730375000000,0,0x8629,
0.650760958333333,0,0x0001,
0.650768666666667,0,0x1D2D,
0.650784916666667,0,0x0055,
0.650792750000000,0,0x9D2D,
0.650820458333333,0,0x0003,
0.650828125000000,0,0x2421,
0.650844333333333,0,0x004C,
0.650852208333333,0,0xA421,
0.650867916666667,0,0x0040,
0.650875750000000,0,0xA521,
0.650891458333333,0,0x8000,
0.650899333333333,0,0xA621,
0.650928416666667,0,0x0005,
0.650936083333333,0,0x2D25,
0.650952375000000,0,0xF512,
0.650960250000000,0,0xAD21,
0.650975958333333,0,0xFFF2,
0.650983791666667,0,0xAE21,
0.650999541666667,0,0xAC03,
0.651007375000000,0,0xAF21,
0.651023083333333,0,0x8000,
0.651030958333333,0,0xB021,
0.651046666666667,0,0x8306,
0.651054541666667,0,0xB121,
0.651085708333333,0,0x0006,
0.651093416666667,0,0x3B29,
0.651109541666667,0,0xE528,
0.651117416666667,0,0xBB21,
0.651133125000000,0,0x8000,
0.651140958333333,0,0xBC21,
0.651156666666667,0,0x8000,
0.651164541666667,0,0xBD21,
0.651180250000000,0,0x8000,
0.651188125000000,0,0xBE21,
0.651203833333333,0,0xE5C7,
0.651211708333333,0,0xBF21,
0.651227416666667,0,0xE5E0,
0.651235250000000,0,0xC021,
0.651265666666667,0,0x000A,
0.651273333333333,0,0x412D,
0.651289291666667,0,0xDC16,
0.651297125000000,0,0xC121,
0.651312875000000,0,0xDD27,
0.651320708333333,0,0xC221,
0.651336416666667,0,0xDF65,
0.651344291666667,0,0xC321,
0.651360000000000,0,0xE12D,
0.651367833333333,0,0xC421,
0.651383583333333,0,0xA982,
0.651391416666667,0,0xC521,
0.651407166666667,0,0xFF4F,
0.651415000000000,0,0xC621,
0.651430708333333,0,0xC016,
0.651438583333333,0,0xC721,
0.651454291666667,0,0xA3A3,
0.651462166666667,0,0xC821,
0.651477875000000,0,0x9E3A,
0.651485708333333,0,0xC921,
0.651501416666667,0,0x9E3F,
0.651509291666667,0,0xCA21,
0.659232625000000,0,0x2C3F,
0.659240333333333,0,0x0603,
0.659268250000000,0,0x0004,
0.659275916666667,0,0x0315,
0.659291916666667,0,0x0A01,
0.659299833333333,0,0x8315,
0.659315666666667,0,0x0F00,
0.659323583333333,0,0x8415,
0.659339416666667,0,0x0000,
0.659347333333333,0,0x8512,
0.659363166666667,0,0x2F3F,
0.659371083333333,0,0x8615,
0.659401625000000,0,0x0004,
0.659409291666667,0,0x0319,
0.659425500000000,0,0x0A01,
0.659433458333333,0,0x8319,
0.659449291666667,0,0x0F00,
0.659457208333333,0,0x8419,
0.659473083333333,0,0x0000,
0.659481000000000,0,0x8512,
0.659496833333333,0,0x2F3F,
0.659504750000000,0,0x8619,
0.659535208333333,0,0x0004,
0.659542875000000,0,0x031D,
0.659559208333333,0,0x0A01,
0.659567125000000,0,0x831D,
0.659583000000000,0,0x0F00,
0.659590916666667,0,0x841D,
0.659606750000000,0,0x0000,
0.659614666666667,0,0x8512,
0.659630500000000,0,0x2F3F,
0.659638458333333,0,0x861D,
0.659668875000000,0,0x0004,
0.659676541666667,0,0x0311,
0.659692916666667,0,0x0A01,
0.659700791666667,0,0x8311,
0.659716625000000,0,0x0F00,
0.659724583333333,0,0x8411,
0.659740416666667,0,0x0000,
0.659748333333333,0,0x8512,
0.659764166666667,0,0x2F3F,
0.659772083333333,0,0x8611,
0.659802666666667,0,0x0004,
0.659810333333333,0,0x0315,
0.659826541666667,0,0x0A01,
0.659834458333333,0,0x8315,
0.659850291666667,0,0x0F00,
0.659858208333333,0,0x8415,
0.659874041666667,0,0x0000,
0.659881958333333,0,0x8512,
0.659897833333333,0,0x273F,
0.659905750000000,0,0x8615,
0.659935958333333,0,0x0001,
0.659943625000000,0,0x1D19,
0.659959666666667,0,0x1551,
0.659967583333333,0,0x9D19,
0.659995791666667,0,0x0003,
0.660003500000000,0,0x241D,
0.660019541666667,0,0x0048,
0.660027458333333,0,0xA412,
0.660043291666667,0,0x0040,
0.660051208333333,0,0xA512,
0.660067083333333,0,0x8000,
0.660075000000000,0,0xA612,
0.660104250000000,0,0x0005,
0.660111916666667,0,0x2D11,
0.660127958333333,0,0xEB4D,
0.660135875000000,0,0xAD12,
0.660151708333333,0,0xFFF0,
0.660159625000000,0,0xAE12,
0.660175458333333,0,0x5AFA,
0.660183375000000,0,0xAF12,
0.660199208333333,0,0xFFFF,
0.660207125000000,0,0xB012,
0.660222958333333,0,0x830D,
0.660230875000000,0,0xB112,
0.660261500000000,0,0x0006,
0.660269166666667,0,0x3B15,
0.660285333333333,0,0xB3E8,
0.660293208333333,0,0xBB12,
0.660309041666667,0,0xB32E,
0.660316958333333,0,0xBC12,
0.660332791666667,0,0xB2C2,
0.660340708333333,0,0xBD12,
0.660356541666667,0,0xB205,
0.660364458333333,0,0xBE12,
0.660380291666667,0,0xB208,
0.660388208333333,0,0xBF12,
0.660404041666667,0,0xB279,
0.660411958333333,0,0xC012,
0.660442000000000,0,0x000A,
0.660449666666667,0,0x4119,
0.660465916666667,0,0xC0C7,
0.660473833333333,0,0xC112,
0.660489666666667,0,0xC0C6,
0.660497583333333,0,0xC212,
0.660513416666667,0,0xC0C3,
0.660521333333333,0,0xC312,
0.660537166666667,0,0xC0C5,
0.660545083333333,0,0xC412,
0.660560916666667,0,0xC0C6,
0.660568833333333,0,0xC512,
0.660584666666667,0,0xDDCB,
0.660592583333333,0,0xC612,
0.660608458333333,0,0x83A7,
0.660616333333333,0,0xC712,
0.660632166666667,0,0xA3BE,
0.660640083333333,0,0xC812,
0.660655916666667,0,0x9E37,
0.660663833333333,0,0xC912,
0.660679666666667,0,0x9E39,
0.660687583333333,0,0xCA12,
0.660719041666667,0,0x0004,
0.660726708333333,0,0x032D,
0.660743083333333,0,0x0A01,
0.660750916666667,0,0x832D,
0.660766625000000,0,0x0F00,
0.660774500000000,0,0x842D,
0.660790208333333,0,0x0000,
0.660798083333333,0,0x8522,
0.660813791666667,0,0x273F,
0.660821666666667,0,0x862D,
0.660852375000000,0,0x0001,
0.660860041666667,0,0x1D21,
0.660876166666667,0,0x0055,
0.660884041666667,0,0x9D21,
0.660911666666667,0,0x0003,
0.660919333333333,0,0x2425,
0.660935583333333,0,0x004C,
0.660943458333333,0,0xA422,
0.660959166666667,0,0x0040,
0.660967041666667,0,0xA522,
0.660982750000000,0,0x8000,
0.660990583333333,0,0xA622,
0.661019333333333,0,0x0005,
0.661027000000000,0,0x2D29,
0.661043125000000,0,0xF620,
0.661051000000000,0,0xAD22,
0.661066708333333,0,0xFFF2,
0.661074583333333,0,0xAE22,
0.661090291666667,0,0xA951,
0.661098166666667,0,0xAF22,
0.661113875000000,0,0x8000,
0.661121708333333,0,0xB022,
0.661137458333333,0,0x8304,
0.661145291666667,0,0xB122,
0.661176041666667,0,0x0006,
0.661183708333333,0,0x3B2D,
0.661199791666667,0,0xE528,
0.661207666666667,0,0xBB22,
0.661223375000000,0,0x8001,
0.661231250000000,0,0xBC22,
0.661246958333333,0,0x8000,
0.661254791666667,0,0xBD22,
0.661270541666667,0,0x8003,
0.661278375000000,0,0xBE22,
0.661294083333333,0,0xE5CC,
0.661301958333333,0,0xBF22,
0.661317666666667,0,0xE5E4,
0.661325541666667,0,0xC022,
0.661355666666667,0,0x000A,
0.661363333333333,0,0x4121,
0.661379541666667,0,0xDC12,
0.661387416666667,0,0xC122,
0.661403125000000,0,0xDD23,
0.661411000000000,0,0xC222,
0.661426708333333,0,0xDF61,
0.661434583333333,0,0xC322,
0.661450291666667,0,0xE12C,
0.661458166666667,0,0xC422,
0.661473875000000,0,0xA982,
0.661481708333333,0,0xC522,
0.661497458333333,0,0xFF4C,
0.661505291666667,0,0xC622,
0.661521041666667,0,0xC018,
0.661528916666667,0,0xC722,
0.661544625000000,0,0xA3A4,
0.661552458333333,0,0xC822,
0.661568208333333,0,0x9E39,
0.661576041666667,0,0xC922,
0.661591750000000,0,0x9E3B,
0.661599625000000,0,0xCA22,
0.669325625000000,0,0x3C3F,
0.669333291666667,0,0x0607,
0.669360416666667,0,0x0004,
0.669368083333333,0,0x0319,
0.669384083333333,0,0x0A01,
0.669392041666667,0,0x8319,
0.669407875000000,0,0x0F00,
0.669415791666667,0,0x8419,
0.669431625000000,0,0x0000,
0.669439541666667,0,0x8513,
0.669455416666667,0,0x3F3F,
0.669463333333333,0,0x8619,
0.669494041666667,0,0x0004,
0.669501708333333,0,0x031D,
0.669517750000000,0,0x0A01,
0.669525666666667,0,0x831D,
0.669541500000000,0,0x0F00,
0.669549416666667,0,0x841D,
0.669565250000000,0,0x0000,
0.669573166666667,0,0x8513,
0.669589000000000,0,0x3F3F,
0.669596958333333,0,0x861D,
0.669626791666667,0,0x0004,
0.669634500000000,0,0x0311,
0.669650875000000,0,0x0A01,
0.669658833333333,0,0x8311,
0.669674666666667,0,0x0F00,
0.669682583333333,0,0x8411,
0.669698416666667,0,0x0000,
0.669706333333333,0,0x8513,
0.669722166666667,0,0x3F3F,
0.669730083333333,0,0x8611,
0.669760458333333,0,0x0004,
0.669768125000000,0,0x0315,
0.669784541666667,0,0x0A01,
0.669792458333333,0,0x8315,
0.669808291666667,0,0x0F00,
0.669816208333333,0,0x8415,
0.669832083333333,0,0x0000,
0.669839958333333,0,0x8513,
0.669855791666667,0,0x3F3F,
0.669863708333333,0,0x8615,
0.669894083333333,0,0x0004,
0.669901791666667,0,0x0319,
0.669918166666667,0,0x0A01,
0.669926083333333,0,0x8319,
0.669941916666667,0,0x0F00,
0.669949833333333,0,0x8419,
0.669965666666667,0,0x0000,
0.669973583333333,0,0x8513,
0.669989416666667,0,0x373F,
0.669997333333333,0,0x8619,
0.670028083333333,0,0x0001,
0.670035750000000,0,0x1D1D,
0.670051791666667,0,0x1551,
0.670059708333333,0,0x9D1D,
0.670087750000000,0,0x0003,
0.670095416666667,0,0x2411,
0.670111666666667,0,0x0048,
0.670119583333333,0,0xA413,
0.670135416666667,0,0x0040,
0.670143333333333,0,0xA513,
0.670159166666667,0,0x8000,
0.670167125000000,0,0xA613,
0.670196833333333,0,0x0005,
0.670204500000000,0,0x2D15,
0.670220541666667,0,0xEC59,
0.670228458333333,0,0xAD13,
0.670244291666667,0,0xFFF0,
0.670252208333333,0,0xAE13,
0.670268041666667,0,0x5790,
0.670275958333333,0,0xAF13,
0.670291791666667,0,0x8000,
0.670299708333333,0,0xB013,
0.670315541666667,0,0x8301,
0.670323458333333,0,0xB113,
0.670353291666667,0,0x0006,
0.670360958333333,0,0x3B19,
0.670377375000000,0,0xB3E6,
0.670385291666667,0,0xBB13,
0.670401166666667,0,0xB32D,
0.670409041666667,0,0xBC13,
0.670424875000000,0,0xB2BE,
0.670432791666667,0,0xBD13,
0.670448625000000,0,0xB208,
0.670456541666667,0,0xBE13,
0.670472375000000,0,0xB203,
0.670480291666667,0,0xBF13,
0.670496125000000,0,0xB278,
0.670504041666667,0,0xC013,
0.670534875000000,0,0x000A,
0.670542583333333,0,0x411D,
0.670558958333333,0,0xC0C6,
0.670566875000000,0,0xC113,
0.670582708333333,0,0xC0C5,
0.670590625000000,0,0xC213,
0.670606458333333,0,0xC0C3,
0.670614375000000,0,0xC313,
0.670630208333333,0,0xC0C5,
0.670638125000000,0,0xC413,
0.670653958333333,0,0xC0C7,
0.670661875000000,0,0xC513,
0.670677708333333,0,0xDDC8,
0.670685625000000,0,0xC613,
0.670701500000000,0,0x83A7,
0.670709375000000,0,0xC713,
0.670725208333333,0,0xA3BE,
0.670733125000000,0,0xC813,
0.670748958333333,0,0x9E39,
0.670756875000000,0,0xC913,
0.670772708333333,0,0x9E3B,
0.670780625000000,0,0xCA13,
0.670812750000000,0,0x0004,
0.670820458333333,0,0x0321,
0.670836666666667,0,0x0A01,
0.670844500000000,0,0x8321,
0.670860250000000,0,0x0F00,
0.670868083333333,0,0x8421,
0.670883791666667,0,0x0000,
0.670891666666667,0,0x8523,
0.670907375000000,0,0x373F,
0.670915250000000,0,0x8621,
0.670945708333333,0,0x0001,
0.670953416666667,0,0x1D25,
0.670969750000000,0,0x0055,
0.670977625000000,0,0x9D25,
0.671006166666667,0,0x0003,
0.671013833333333,0,0x2429,
0.671030166666667,0,0x004C,
0.671038041666667,0,0xA423,
0.671053750000000,0,0x0040,
0.671061583333333,0,0xA523,
0.671077333333333,0,0x8000,
0.671085208333333,0,0xA623,
0.671114333333333,0,0x0005,
0.671122000000000,0,0x2D2D,
0.671138250000000,0,0xF72F,
0.671146083333333,0,0xAD23,
0.671161791666667,0,0xFFF2,
0.671169666666667,0,0xAE23,
0.671185375000000,0,0xA67A,
0.671193250000000,0,0xAF23,
0.671208916666667,0,0xFFFF,
0.671216791666667,0,0xB023,
0.671232500000000,0,0x830D,
0.671240375000000,0,0xB123,
0.671270166666667,0,0x0006,
0.671277833333333,0,0x3B21,
0.671293916666667,0,0xE521,
0.671301750000000,0,0xBB23,
0.671317500000000,0,0x8000,
0.671325333333333,0,0xBC23,
0.671341041666667,0,0x8000,
0.671348916666667,0,0xBD23,
0.671364625000000,0,0x8002,
0.671372500000000,0,0xBE23,
0.671388208333333,0,0xE5C9,
0.671396041666667,0,0xBF23,
0.671411750000000,0,0xE5DF,
0.671419625000000,0,0xC023,
0.671449458333333,0,0x000A,
0.671457166666667,0,0x4125,
0.671473166666667,0,0xDC11,
0.671481000000000,0,0xC123,
0.671496750000000,0,0xDD24,
0.671504625000000,0,0xC223,
0.671520333333333,0,0xDF67,
0.671528166666667,0,0xC323,
0.671543875000000,0,0xE12D,
0.671551750000000,0,0xC423,
0.671567458333333,0,0xA984,
0.671575333333333,0,0xC523,
0.671591041666667,0,0xFF4F,
0.671598916666667,0,0xC623,
0.671614625000000,0,0xC015,
0.671622458333333,0,0xC723,
0.671638208333333,0,0xA3A4,
0.671646041666667,0,0xC823,
0.671661750000000,0,0x9E3B,
0.671669625000000,0,0xC923,
0.671685333333333,0,0x9E3C,
0.671693166666667,0,0xCA23,
0.679127625000000,0,0x4C3F,
0.679135333333333,0,0x060B,
0.679163041666667,0,0x0004,
0.679170708333333,0,0x031D,
0.679187083333333,0,0x0A01,
0.679195000000000,0,0x831D,
0.679210833333333,0,0x0F00,
0.679218791666667,0,0x841D,
0.679234583333333,0,0x0000,
0.679242541666667,0,0x8514,
0.679258375000000,0,0x4F3F,
0.679266291666667,0,0x861D,
0.679297291666667,0,0x0004,
0.679304958333333,0,0x0311,
0.679321250000000,0,0x0A01,
0.679329125000000,0,0x8311,
0.679345000000000,0,0x0F00,
0.679352916666667,0,0x8411,
0.679368750000000,0,0x0000,
0.679376666666667,0,0x8514,
0.679392541666667,0,0x4F3F,
0.679400458333333,0,0x8611,
0.679430583333333,0,0x0004,
0.679438250000000,0,0x0315,
0.679454416666667,0,0x0A01,
0.679462333333333,0,0x8315,
0.679478166666667,0,0x0F00,
0.679486083333333,0,0x8415,
0.679501958333333,0,0x0000,
0.679509875000000,0,0x8514,
0.679525708333333,0,0x4F3F,
0.679533625000000,0,0x8615,
0.679564041666667,0,0x0004,
0.679571708333333,0,0x0319,
0.679588041666667,0,0x0A01,
0.679595958333333,0,0x8319,
0.679611833333333,0,0x0F00,
0.679619750000000,0,0x8419,
0.679635583333333,0,0x0000,
0.679643500000000,0,0x8514,
0.679659333333333,0,0x4F3F,
0.679667250000000,0,0x8619,
0.679697833333333,0,0x0004,
0.679705500000000,0,0x031D,
0.679721666666667,0,0x0A01,
0.679729583333333,0,0x831D,
0.679745416666667,0,0x0F00,
0.679753333333333,0,0x841D,
0.679769166666667,0,0x0000,
0.679777083333333,0,0x8514,
0.679792916666667,0,0x473F,
0.679800875000000,0,0x861D,
0.679831083333333,0,0x0001,
0.679838750000000,0,0x1D11,
0.679854791666667,0,0x1551,
0.679862708333333,0,0x9D11,
0.679890666666667,0,0x0003,
0.679898375000000,0,0x2415,
0.679914666666667,0,0x0048,
0.679922583333333,0,0xA414,
0.679938416666667,0,0x0040,
0.679946333333333,0,0xA514,
0.679962166666667,0,0x8000,
0.679970083333333,0,0xA614,
0.679999333333333,0,0x0005,
0.680007041666667,0,0x2D19,
0.680023000000000,0,0xED5E,
0.680030958333333,0,0xAD14,
0.680046791666667,0,0xFFF0,
0.680054708333333,0,0xAE14,
0.680070541666667,0,0x5513,
0.680078458333333,0,0xAF14,
0.680094291666667,0,0xFFFF,
0.680102208333333,0,0xB014,
0.680118041666667,0,0x830F,
0.680125958333333,0,0xB114,
0.680155666666667,0,0x0006,
0.680163333333333,0,0x3B1D,
0.680179375000000,0,0xB3E3,
0.680187291666667,0,0xBB14,
0.680203125000000,0,0xB332,
0.680211041666667,0,0xBC14,
0.680226916666667,0,0xB2C1,
0.680234833333333,0,0xBD14,
0.680250666666667,0,0xB205,
0.680258583333333,0,0xBE14,
0.680274416666667,0,0xB205,
0.680282333333333,0,0xBF14,
0.680298125000000,0,0xB276,
0.680306041666667,0,0xC014,
0.680335958333333,0,0x000A,
0.680343625000000,0,0x4111,
0.680360000000000,0,0xC0BF,
0.680367916666667,0,0xC114,
0.680383708333333,0,0xC0C2,
0.680391666666667,0,0xC214,
0.680407500000000,0,0xC0C8,
0.680415416666667,0,0xC314,
0.680431250000000,0,0xC0C2,
0.680439166666667,0,0xC414,
0.680455000000000,0,0xC0C6,
0.680462916666667,0,0xC514,
0.680478750000000,0,0xDDC9,
0.680486666666667,0,0xC614,
0.680502500000000,0,0x83A3,
0.680510416666667,0,0xC714,
0.680526250000000,0,0xA3BF,
0.680534166666667,0,0xC814,
0.680550000000000,0,0x9E33,
0.680557916666667,0,0xC914,
0.680573750000000,0,0x9E3B,
0.680581666666667,0,0xCA14,
0.680614000000000,0,0x0004,
0.680621666666667,0,0x0325,
0.680637791666667,0,0x0A01,
0.680645666666667,0,0x8325,
0.680661375000000,0,0x0F00,
0.680669250000000,0,0x8425,
0.680684958333333,0,0x0000,
0.680692791666667,0,0x8524,
0.680708541666667,0,0x473F,
0.680716375000000,0,0x8625,
0.680747000000000,0,0x0001,
0.680754708333333,0,0x1D29,
0.680770916666667,0,0x0055,
0.680778750000000,0,0x9D29,
0.680806458333333,0,0x0003,
0.680814125000000,0,0x242D,
0.680830333333333,0,0x004C,
0.680838166666667,0,0xA424,
0.680853875000000,0,0x0040,
0.680861750000000,0,0xA524,
0.680877458333333,0,0x8000,
0.680885333333333,0,0xA624,
0.680914666666667,0,0x0005,
0.680922333333333,0,0x2D21,
0.680938375000000,0,0xF835,
0.680946250000000,0,0xAD24,
0.680961958333333,0,0xFFF2,
0.680969791666667,0,0xAE24,
0.680985541666667,0,0xA401,
0.680993375000000,0,0xAF24,
0.681009125000000,0,0xFFFF,
0.681016958333333,0,0xB024,
0.681032708333333,0,0x830F,
0.681040541666667,0,0xB124,
0.681071125000000,0,0x0006,
0.681078791666667,0,0x3B25,
0.681095041666667,0,0xE526,
0.681102916666667,0,0xBB24,
0.681118625000000,0,0x8000,
0.681126500000000,0,0xBC24,
0.681142208333333,0,0x8001,
0.681150041666667,0,0xBD24,
0.681165750000000,0,0x8004,
0.681173625000000,0,0xBE24,
0.681189333333333,0,0xE5C8,
0.681197208333333,0,0xBF24,
0.681212916666667,0,0xE5E1,
0.681220791666667,0,0xC024,
0.681251750000000,0,0x000A,
0.681259458333333,0,0x4129,
0.681275791666667,0,0xDC0D,
0.681283625000000,0,0xC124,
0.681299333333333,0,0xDD23,
0.681307208333333,0,0xC224,
0.681322916666667,0,0xDF63,
0.681330791666667,0,0xC324,
0.681346500000000,0,0xE129,
0.681354375000000,0,0xC424,
0.681370083333333,0,0xA97E,
0.681377958333333,0,0xC524,
0.681393625000000,0,0xFF4A,
0.681401500000000,0,0xC624,
0.681417208333333,0,0xC011,
0.681425083333333,0,0xC724,
0.681440791666667,0,0xA3A1,
0.681448666666667,0,0xC824,
0.681464375000000,0,0x9E36,
0.681472208333333,0,0xC924,
0.681487916666667,0,0x9E3D,
0.681495791666667,0,0xCA24,
0.689128666666667,0,0x5C3F,
0.689136333333333,0,0x060F,
0.689163541666667,0,0x0004,
0.689171250000000,0,0x0311,
0.689187291666667,0,0x0A01,
0.689195208333333,0,0x8311,
0.689211041666667,0,0x0F00,
0.689218958333333,0,0x8411,
0.689234833333333,0,0x0000,
0.689242750000000,0,0x8515,
0.689258583333333,0,0x5F3F,
0.689266500000000,0,0x8611,
0.689297125000000,0,0x0004,
0.689304791666667,0,0x0315,
0.689320916666667,0,0x0A01,
0.689328833333333,0,0x8315,
0.689344708333333,0,0x0F00,
0.689352583333333,0,0x8415,
0.689368416666667,0,0x0000,
0.689376333333333,0,0x8515,
0.689392166666667,0,0x5F3F,
0.689400083333333,0,0x8615,
0.689431166666667,0,0x0004,
0.689438833333333,0,0x0319,
0.689455041666667,0,0x0A01,
0.689462958333333,0,0x8319,
0.689478791666667,0,0x0F00,
0.689486708333333,0,0x8419,
0.689502541666667,0,0x0000,
0.689510458333333,0,0x8515,
0.689526291666667,0,0x5F3F,
0.689534208333333,0,0x8619,
0.689564541666667,0,0x0004,
0.689572208333333,0,0x031D,
0.689588666666667,0,0x0A01,
0.689596583333333,0,0x831D,
0.689612416666667,0,0x0F00,
0.689620333333333,0,0x841D,
0.689636125000000,0,0x0000,
0.689644083333333,0,0x8515,
0.689659916666667,0,0x5F3F,
0.689667833333333,0,0x861D,
0.689698166666667,0,0x0004,
0.689705875000000,0,0x0311,
0.689722250000000,0,0x0A01,
0.689730166666667,0,0x8311,
0.689745958333333,0,0x0F00,
0.689753916666667,0,0x8411,
0.689769708333333,0,0x0000,
0.689777625000000,0,0x8515,
0.689793458333333,0,0x573F,
0.689801375000000,0,0x8611,
0.689832333333333,0,0x0001,
0.689840000000000,0,0x1D15,
0.689856250000000,0,0x1551,
0.689864166666667,0,0x9D15,
0.689892291666667,0,0x0003,
0.689899958333333,0,0x2419,
0.689916125000000,0,0x0048,
0.689924041666667,0,0xA415,
0.689939833333333,0,0x0040,
0.689947750000000,0,0xA515,
0.689963583333333,0,0x8000,
0.689971500000000,0,0xA615,
0.690000416666667,0,0x0005,
0.690008125000000,0,0x2D1D,
0.690024416666667,0,0xEE68,
0.690032333333333,0,0xAD15,
0.690048166666667,0,0xFFF0,
0.690056083333333,0,0xAE15,
0.690071916666667,0,0x528A,
0.690079833333333,0,0xAF15,
0.690095666666667,0,0xFFFF,
0.690103541666667,0,0xB015,
0.690119375000000,0,0x830D,
0.690127291666667,0,0xB115,
0.690157041666667,0,0x0006,
0.690164708333333,0,0x3B11,
0.690180750000000,0,0xB3E1,
0.690188666666667,0,0xBB15,
0.690204458333333,0,0xB32E,
0.690212375000000,0,0xBC15,
0.690228208333333,0,0xB2C1,
0.690236125000000,0,0xBD15,
0.690251958333333,0,0xB207,
0.690259875000000,0,0xBE15,
0.690275708333333,0,0xB202,
0.690283625000000,0,0xBF15,
0.690299416666667,0,0xB277,
0.690307333333333,0,0xC015,
0.690337375000000,0,0x000A,
0.690345041666667,0,0x4115,
0.690361250000000,0,0xC0C2,
0.690369166666667,0,0xC115,
0.690384958333333,0,0xC0C4,
0.690392875000000,0,0xC215,
0.690408708333333,0,0xC0C3,
0.690416625000000,0,0xC315,
0.690432458333333,0,0xC0C2,
0.690440375000000,0,0xC415,
0.690456166666667,0,0xC0C4,
0.690464125000000,0,0xC515,
0.690479916666667,0,0xDDC6,
0.690487875000000,0,0xC615,
0.690503666666667,0,0x83A4,
0.690511583333333,0,0xC715,
0.690527416666667,0,0xA3BF,
0.690535333333333,0,0xC815,
0.690551166666667,0,0x9E37,
0.690559083333333,0,0xC915,
0.690574916666667,0,0x9E39,
0.690582833333333,0,0xCA15,
0.690615041666667,0,0x0004,
0.690622708333333,0,0x0329,
0.690638916666667,0,0x0A01,
0.690646791666667,0,0x8329,
0.690662500000000,0,0x0F00,
0.690670375000000,0,0x8429,
0.690686083333333,0,0x0000,
0.690693958333333,0,0x8525,
0.690709666666667,0,0x573F,
0.690717500000000,0,0x8629,
0.690747375000000,0,0x0001,
0.690755041666667,0,0x1D2D,
0.690771041666667,0,0x0055,
0.690778875000000,0,0x9D2D,
0.690807458333333,0,0x0003,
0.690815166666667,0,0x2421,
0.690831458333333,0,0x004C,
0.690839291666667,0,0xA425,
0.690855000000000,0,0x0040,
0.690862875000000,0,0xA525,
0.690878583333333,0,0x8000,
0.690886458333333,0,0xA625,
0.690915250000000,0,0x0005,
0.690922916666667,0,0x2D25,
0.690939000000000,0,0xF941,
0.690946875000000,0,0xAD25,
0.690962583333333,0,0xFFF2,
0.690970458333333,0,0xAE25,
0.690986166666667,0,0xA1B8,
0.690994000000000,0,0xAF25,
0.691009708333333,0,0xFFFF,
0.691017583333333,0,0xB025,
0.691033291666667,0,0x8308,
0.691041166666667,0,0xB125,
0.691070958333333,0,0x0006,
0.691078666666667,0,0x3B29,
0.691094666666667,0,0xE523,
0.691102541666667,0,0xBB25,
0.691118250000000,0,0x8000,
0.691126125000000,0,0xBC25,
0.691141833333333,0,0x8003,
0.691149708333333,0,0xBD25,
0.691165416666667,0,0x8000,
0.691173250000000,0,0xBE25,
0.691188958333333,0,0xE5C6,
0.691196833333333,0,0xBF25,
0.691212583333333,0,0xE5DD,
0.691220416666667,0,0xC025,
0.691250541666667,0,0x000A,
0.691258250000000,0,0x412D,
0.691274416666667,0,0xDC15,
0.691282291666667,0,0xC125,
0.691298041666667,0,0xDD23,
0.691305875000000,0,0xC225,
0.691321583333333,0,0xDF65,
0.691329458333333,0,0xC325,
0.691345166666667,0,0xE12C,
0.691353000000000,0,0xC425,
0.691368750000000,0,0xA980,
0.691376625000000,0,0xC525,
0.691392333333333,0,0xFF4D,
0.691400166666667,0,0xC625,
0.691415916666667,0,0xC016,
0.691423750000000,0,0xC725,
0.691439458333333,0,0xA3A2,
0.691447333333333,0,0xC825,
0.691463041666667,0,0x9E3A,
0.691470916666667,0,0xC925,
0.691486625000000,0,0x9E40,
0.691494458333333,0,0xCA25,
0.699148041666667,0,0x6C3F,
0.699155750000000,0,0x0603,
0.699183208333333,0,0x0004,
0.699190916666667,0,0x0315,
0.699207041666667,0,0x0A01,
0.699215000000000,0,0x8315,
0.699230833333333,0,0x0F00,
0.699238750000000,0,0x8415,
0.699254583333333,0,0x0000,
0.699262500000000,0,0x8516,
0.699278333333333,0,0x6F3F,
0.699286250000000,0,0x8615,
0.699317625000000,0,0x0004,
0.699325291666667,0,0x0319,
0.699341708333333,0,0x0A01,
0.699349625000000,0,0x8319,
0.699365458333333,0,0x0F00,
0.699373375000000,0,0x8419,
0.699389208333333,0,0x0000,
0.699397125000000,0,0x8516,
0.699412958333333,0,0x6F3F,
0.699420875000000,0,0x8619,
0.699452500000000,0,0x0004,
0.699460208333333,0,0x031D,
0.699476333333333,0,0x0A01,
0.699484250000000,0,0x831D,
0.699500083333333,0,0x0F00,
0.699508000000000,0,0x841D,
0.699523875000000,0,0x0000,
0.699531750000000,0,0x8516,
0.699547583333333,0,0x6F3F,
0.699555500000000,0,0x861D,
0.699586416666667,0,0x0004,
0.699594125000000,0,0x0311,
0.699610458333333,0,0x0A01,
0.699618375000000,0,0x8311,
0.699634208333333,0,0x0F00,
0.699642125000000,0,0x8411,
0.699657958333333,0,0x0000,
0.699665875000000,0,0x8516,
0.699681708333333,0,0x6F3F,
0.699689625000000,0,0x8611,
0.699720875000000,0,0x0004,
0.699728541666667,0,0x0315,
0.699744541666667,0,0x0A01,
0.699752458333333,0,0x8315,
0.699768333333333,0,0x0F00,
0.699776250000000,0,0x8415,
0.699792083333333,0,0x0000,
0.699800000000000,0,0x8516,
0.699815833333333,0,0x673F,
0.699823750000000,0,0x8615,
0.699855041666667,0,0x0001,
0.699862708333333,0,0x1D19,
0.699878666666667,0,0x1551,
0.699886583333333,0,0x9D19,
0.699914666666667,0,0x0003,
0.699922333333333,0,0x241D,
0.699938500000000,0,0x0048,
0.699946458333333,0,0xA416,
0.699962291666667,0,0x0040,
0.699970208333333,0,0xA516,
0.699986041666667,0,0x8000,
0.699993958333333,0,0xA616,
0.700023000000000,0,0x0005,
0.700030666666667,0,0x2D11,
0.700046916666667,0,0xEF73,
0.700054791666667,0,0xAD16,
0.700070625000000,0,0xFFF0,
0.700078541666667,0,0xAE16,
0.700094375000000,0,0x4F9C,
0.700102333333333,0,0xAF16,
0.700118125000000,0,0xFFFF,
0.700126041666667,0,0xB016,
0.700141875000000,0,0x830F,
0.700149791666667,0,0xB116,
0.700179666666667,0,0x0006,
0.700187333333333,0,0x3B15,
0.700203708333333,0,0xB3E7,
0.700211625000000,0,0xBB16,
0.700227458333333,0,0xB333,
0.700235416666667,0,0xBC16,
0.700251250000000,0,0xB2C0,
0.700259166666667,0,0xBD16,
0.700275000000000,0,0xB207,
0.700282916666667,0,0xBE16,
0.700298750000000,0,0xB205,
0.700306666666667,0,0xBF16,
0.700322500000000,0,0xB276,
0.700330416666667,0,0xC016,
0.700360166666667,0,0x000A,
0.700367833333333,0,0x4119,
0.700383875000000,0,0xC0C7,
0.700391791666667,0,0xC116,
0.700407625000000,0,0xC0C8,
0.700415541666667,0,0xC216,
0.700431375000000,0,0xC0C6,
0.700439291666667,0,0xC316,
0.700455125000000,0,0xC0C6,
0.700463041666667,0,0xC416,
0.700478875000000,0,0xC0C9,
0.700486750000000,0,0xC516,
0.700502583333333,0,0xDDCB,
0.700510500000000,0,0xC616,
0.700526333333333,0,0x83A2,
0.700534250000000,0,0xC716,
0.700550083333333,0,0xA3BE,
0.700558000000000,0,0xC816,
0.700573833333333,0,0x9E39,
0.700581750000000,0,0xC916,
0.700597583333333,0,0x9E3A,
0.700605541666667,0,0xCA16,
0.700638041666667,0,0x0004,
0.700645708333333,0,0x032D,
0.700661958333333,0,0x0A01,
0.700669791666667,0,0x832D,
0.700685500000000,0,0x0F00,
0.700693375000000,0,0x842D,
0.700709083333333,0,0x0000,
0.700716958333333,0,0x8526,
0.700732666666667,0,0x673F,
0.700740541666667,0,0x862D,
0.700771708333333,0,0x0001,
0.700779375000000,0,0x1D21,
0.700795500000000,0,0x0055,
0.700803375000000,0,0x9D21,
0.700830958333333,0,0x0003,
0.700838625000000,0,0x2425,
0.700854916666667,0,0x004C,
0.700862791666667,0,0xA426,
0.700878500000000,0,0x0040,
0.700886375000000,0,0xA526,
0.700902083333333,0,0x8000,
0.700909958333333,0,0xA626,
0.700938500000000,0,0x0005,
0.700946166666667,0,0x2D29,
0.700962500000000,0,0xFA4E,
0.700970333333333,0,0xAD26,
0.700986041666667,0,0xFFF2,
0.700993916666667,0,0xAE26,
0.701009625000000,0,0x9F31,
0.701017500000000,0,0xAF26,
0.701033208333333,0,0xFFFF,
0.701041083333333,0,0xB026,
0.701056791666667,0,0x830A,
0.701064625000000,0,0xB126,
0.701094875000000,0,0x0006,
0.701102541666667,0,0x3B2D,
0.701118666666667,0,0xE525,
0.701126541666667,0,0xBB26,
0.701142250000000,0,0x8000,
0.701150083333333,0,0xBC26,
0.701165833333333,0,0x8002,
0.701173666666667,0,0xBD26,
0.701189375000000,0,0x8000,
0.701197250000000,0,0xBE26,
0.701213000000000,0,0xE5CC,
0.701220833333333,0,0xBF26,
0.701236583333333,0,0xE5E2,
0.701244416666667,0,0xC026,
0.701275250000000,0,0x000A,
0.701282916666667,0,0x4121,
0.701298916666667,0,0xDC15,
0.701306791666667,0,0xC126,
0.701322500000000,0,0xDD25,
0.701330375000000,0,0xC226,
0.701346083333333,0,0xDF67,
0.701353958333333,0,0xC326,
0.701369666666667,0,0xE12E,
0.701377500000000,0,0xC426,
0.701393208333333,0,0xA984,
0.701401083333333,0,0xC526,
0.701416833333333,0,0xFF4E,
0.701424666666667,0,0xC626,
0.701440375000000,0,0xC016,
0.701448250000000,0,0xC726,
0.701463958333333,0,0xA3A2,
0.701471791666667,0,0xC826,
0.701487541666667,0,0x9E3C,
0.701495375000000,0,0xC926,
0.701511083333333,0,0x9E3F,
0.701518958333333,0,0xCA26,
0.709133041666667,0,0x7C3F,
0.709140708333333,0,0x0607,
0.709168375000000,0,0x0004,
0.709176041666667,0,0x0319,
0.709192166666667,0,0x0A01,
0.709200083333333,0,0x8319,
0.709215916666667,0,0x0F00,
0.709223833333333,0,0x8419,
0.709239708333333,0,0x0000,
0.709247625000000,0,0x8517,
0.709263458333333,0,0x7F3F,
0.709271375000000,0,0x8619,
0.709302833333333,0,0x0004,
0.709310541666667,0,0x031D,
0.709326833333333,0,0x0A01,
0.709334750000000,0,0x831D,
0.709350583333333,0,0x0F00,
0.709358500000000,0,0x841D,
0.709374333333333,0,0x0000,
0.709382250000000,0,0x8517,
0.709398083333333,0,0x7F3F,
0.709406000000000,0,0x861D,
0.709437291666667,0,0x0004,
0.709445000000000,0,0x0311,
0.709461458333333,0,0x0A01,
0.709469375000000,0,0x8311,
0.709485208333333,0,0x0F00,
0.709493125000000,0,0x8411,
0.709509000000000,0,0x0000,
0.709516916666667,0,0x8517,
0.709532750000000,0,0x7F3F,
0.709540666666667,0,0x8611,
0.709571208333333,0,0x0004,
0.709578916666667,0,0x0315,
0.709595125000000,0,0x0A01,
0.709603041666667,0,0x8315,
0.709618916666667,0,0x0F00,
0.709626833333333,0,0x8415,
0.709642666666667,0,0x0000,
0.709650583333333,0,0x8517,
0.709666416666667,0,0x7F3F,
0.709674333333333,0,0x8615,
0.709705041666667,0,0x0004,
0.709712708333333,0,0x0319,
0.709728750000000,0,0x0A01,
0.709736708333333,0,0x8319,
0.709752500000000,0,0x0F00,
0.709760458333333,0,0x8419,
0.709776291666667,0,0x0000,
0.709784208333333,0,0x8517,
0.709800041666667,0,0x773F,
0.709807958333333,0,0x8619,
0.709838708333333,0,0x0001,
0.709846375000000,0,0x1D1D,
0.709862416666667,0,0x1551,
0.709870333333333,0,0x9D1D,
0.709898166666667,0,0x0003,
0.709905833333333,0,0x2411,
0.709922291666667,0,0x0048,
0.709930208333333,0,0xA417,
0.709946041666667,0,0x0040,
0.709954000000000,0,0xA517,
0.709969791666667,0,0x8000,
0.709977750000000,0,0xA617,
0.710006500000000,0,0x0005,
0.710014166666667,0,0x2D15,
0.710030666666667,0,0xF07C,
0.710038583333333,0,0xAD17,
0.710054416666667,0,0xFFF0,
0.710062333333333,0,0xAE17,
0.710078166666667,0,0x4C3B,
0.710086083333333,0,0xAF17,
0.710101916666667,0,0xFFFF,
0.710109833333333,0,0xB017,
0.710125666666667,0,0x830C,
0.710133583333333,0,0xB117,
0.710162791666667,0,0x0006,
0.710170500000000,0,0x3B19,
0.710186541666667,0,0xB3E4,
0.710194458333333,0,0xBB17,
0.710210291666667,0,0xB32D,
0.710218208333333,0,0xBC17,
0.710234041666667,0,0xB2C3,
0.710241958333333,0,0xBD17,
0.710257791666667,0,0xB205,
0.710265708333333,0,0xBE17,
0.710281541666667,0,0xB207,
0.710289458333333,0,0xBF17,
0.710305291666667,0,0xB278,
0.710313208333333,0,0xC017,
0.710343500000000,0,0x000A,
0.710351166666667,0,0x411D,
0.710367125000000,0,0xC0C8,
0.710375083333333,0,0xC117,
0.710390875000000,0,0xC0C7,
0.710398833333333,0,0xC217,
0.710414625000000,0,0xC0C5,
0.710422541666667,0,0xC317,
0.710438375000000,0,0xC0C7,
0.710446333333333,0,0xC417,
0.710462125000000,0,0xC0C5,
0.710470041666667,0,0xC517,
0.710485916666667,0,0xDDCA,
0.710493833333333,0,0xC617,
0.710509666666667,0,0x83A5,
0.710517583333333,0,0xC717,
0.710533416666667,0,0xA3BD,
0.710541333333333,0,0xC817,
0.710557166666667,0,0x9E39,
0.710565083333333,0,0xC917,
0.710580916666667,0,0x9E37,
0.710588833333333,0,0xCA17,
0.710620833333333,0,0x0004,
0.710628541666667,0,0x0321,
0.710644833333333,0,0x0A01,
0.710652708333333,0,0x8321,
0.710668416666667,0,0x0F00,
0.710676250000000,0,0x8421,
0.710691958333333,0,0x0000,
0.710699833333333,0,0x8527,
0.710715583333333,0,0x773F,
0.710723416666667,0,0x8621,
0.710753583333333,0,0x0001,
0.710761250000000,0,0x1D25,
0.710777458333333,0,0x0055,
0.710785291666667,0,0x9D25,
0.710813958333333,0,0x0003,
0.710821625000000,0,0x2429,
0.710837833333333,0,0x004C,
0.710845708333333,0,0xA427,
0.710861416666667,0,0x0040,
0.710869291666667,0,0xA527,
0.710885000000000,0,0x8000,
0.710892875000000,0,0xA627,
0.710921708333333,0,0x0005,
0.710929375000000,0,0x2D2D,
0.710945416666667,0,0xFB59,
0.710953250000000,0,0xAD27,
0.710969000000000,0,0xFFF2,
0.710976833333333,0,0xAE27,
0.710992541666667,0,0x9C8B,
0.711000416666667,0,0xAF27,
0.711016125000000,0,0xFFFF,
0.711024000000000,0,0xB027,
0.711039708333333,0,0x830E,
0.711047583333333,0,0xB127,
0.711077458333333,0,0x0006,
0.711085125000000,0,0x3B21,
0.711101083333333,0,0xE523,
0.711108958333333,0,0xBB27,
0.711124666666667,0,0x8000,
0.711132541666667,0,0xBC27,
0.711148250000000,0,0x8001,
0.711156125000000,0,0xBD27,
0.711171833333333,0,0x8005,
0.711179708333333,0,0xBE27,
0.711195416666667,0,0xE5C2,
0.711203250000000,0,0xBF27,
0.711218958333333,0,0xE5DC,
0.711226833333333,0,0xC027,
0.711257541666667,0,0x000A,
0.711265250000000,0,0x4125,
0.711281333333333,0,0xDC13,
0.711289208333333,0,0xC127,
0.711304916666667,0,0xDD24,
0.711312750000000,0,0xC227,
0.711328500000000,0,0xDF65,
0.711336333333333,0,0xC327,
0.711352041666667,0,0xE12D,
0.711359916666667,0,0xC427,
0.711375625000000,0,0xA981,
0.711383500000000,0,0xC527,
0.711399208333333,0,0xFF4A,
0.711407041666667,0,0xC627,
0.711422750000000,0,0xC016,
0.711430625000000,0,0xC727,
0.711446333333333,0,0xA3A1,
0.711454208333333,0,0xC827,
0.711469916666667,0,0x9E38,
0.711477750000000,0,0xC927,
0.711493500000000,0,0x9E3F,
0.711501375000000,0,0xCA27,
0.719319708333333,0,0x8C3F,
0.719327416666667,0,0x060B,
0.719355000000000,0,0x0004,
0.719362666666667,0,0x031D,
0.719378875000000,0,0x0A01,
0.719386833333333,0,0x831D,
0.719402666666667,0,0x0F00,
0.719410583333333,0,0x841D,
0.719426416666667,0,0x0000,
0.719434333333333,0,0x8518,
0.719450166666667,0,0x8F3F,
0.719458125000000,0,0x861D,
0.719488958333333,0,0x0004,
0.719496666666667,0,0x0311,
0.719513041666667,0,0x0A01,
0.719520958333333,0,0x8311,
0.719536791666667,0,0x0F00,
0.719544708333333,0,0x8411,
0.719560583333333,0,0x0000,
0.719568500000000,0,0x8518,
0.719584333333333,0,0x8F3F,
0.719592250000000,0,0x8611,
0.719622500000000,0,0x0004,
0.719630208333333,0,0x0315,
0.719646208333333,0,0x0A01,
0.719654125000000,0,0x8315,
0.719669958333333,0,0x0F00,
0.719677875000000,0,0x8415,
0.719693708333333,0,0x0000,
0.719701666666667,0,0x8518,
0.719717500000000,0,0x8F3F,
0.719725416666667,0,0x8615,
0.719757166666667,0,0x0004,
0.719764833333333,0,0x0319,
0.719780833333333,0,0x0A01,
0.719788750000000,0,0x8319,
0.719804583333333,0,0x0F00,
0.719812500000000,0,0x8419,
0.719828333333333,0,0x0000,
0.719836291666667,0,0x8518,
0.719852125000000,0,0x8F3F,
0.719860041666667,0,0x8619,
0.719890833333333,0,0x0004,
0.719898500000000,0,0x031D,
0.719914458333333,0,0x0A01,
0.719922375000000,0,0x831D,
0.719938208333333,0,0x0F00,
0.719946125000000,0,0x841D,
0.719961958333333,0,0x0000,
0.719969875000000,0,0x8518,
0.719985708333333,0,0x873F,
0.719993625000000,0,0x861D,
0.720023750000000,0,0x0001,
0.720031458333333,0,0x1D11,
0.720047541666667,0,0x1551,
0.720055458333333,0,0x9D11,
0.720083583333333,0,0x0003,
0.720091250000000,0,0x2415,
0.720107416666667,0,0x0048,
0.720115333333333,0,0xA418,
0.720131166666667,0,0x0040,
0.720139083333333,0,0xA518,
0.720154875000000,0,0x8000,
0.720162833333333,0,0xA618,
0.720191375000000,0,0x0005,
0.720199041666667,0,0x2D19,
0.720215250000000,0,0xF18B,
0.720223166666667,0,0xAD18,
0.720239000000000,0,0xFFF0,
0.720246916666667,0,0xAE18,
0.720262750000000,0,0x494E,
0.720270666666667,0,0xAF18,
0.720286500000000,0,0xFFFF,
0.720294416666667,0,0xB018,
0.720310250000000,0,0x8307,
0.720318166666667,0,0xB118,
0.720349000000000,0,0x0006,
0.720356666666667,0,0x3B1D,
0.720373083333333,0,0xB3E3,
0.720381000000000,0,0xBB18,
0.720396833333333,0,0xB331,
0.720404750000000,0,0xBC18,
0.720420625000000,0,0xB2C0,
0.720428541666667,0,0xBD18,
0.720444333333333,0,0xB203,
0.720452291666667,0,0xBE18,
0.720468083333333,0,0xB209,
0.720476000000000,0,0xBF18,
0.720491875000000,0,0xB278,
0.720499750000000,0,0xC018,
0.720530041666667,0,0x000A,
0.720537750000000,0,0x4111,
0.720554166666667,0,0xC0C5,
0.720562083333333,0,0xC118,
0.720577916666667,0,0xC0C5,
0.720585833333333,0,0xC218,
0.720601666666667,0,0xC0C8,
0.720609583333333,0,0xC318,
0.720625416666667,0,0xC0C3,
0.720633333333333,0,0xC418,
0.720649166666667,0,0xC0C3,
0.720657083333333,0,0xC518,
0.720672916666667,0,0xDDCC,
0.720680875000000,0,0xC618,
0.720696708333333,0,0x83A1,
0.720704625000000,0,0xC718,
0.720720458333333,0,0xA3BF,
0.720728375000000,0,0xC818,
0.720744166666667,0,0x9E38,
0.720752125000000,0,0xC918,
0.720767958333333,0,0x9E3C,
0.720775833333333,0,0xCA18,
0.720807125000000,0,0x0004,
0.720814791666667,0,0x0325,
0.720830875000000,0,0x0A01,
0.720838708333333,0,0x8325,
0.720854458333333,0,0x0F00,
0.720862291666667,0,0x8425,
0.720878000000000,0,0x0000,
0.720885875000000,0,0x8528,
0.720901583333333,0,0x873F,
0.720909458333333,0,0x8625,
0.720939833333333,0,0x0001,
0.720947500000000,0,0x1D29,
0.720963500000000,0,0x0055,
0.720971333333333,0,0x9D29,
0.720999666666667,0,0x0003,
0.721007333333333,0,0x242D,
0.721023416666667,0,0x004C,
0.721031291666667,0,0xA428,
0.721047000000000,0,0x0040,
0.721054833333333,0,0xA528,
0.721070541666667,0,0x8000,
0.721078416666667,0,0xA628,
0.721108583333333,0,0x0005,
0.721116291666667,0,0x2D21,
0.721132416666667,0,0xFC6A,
0.721140291666667,0,0xAD28,
0.721156041666667,0,0xFFF2,
0.721163875000000,0,0xAE28,
0.721179583333333,0,0x99EB,
0.721187458333333,0,0xAF28,
0.721203166666667,0,0xFFFF,
0.721211041666667,0,0xB028,
0.721226750000000,0,0x830B,
0.721234625000000,0,0xB128,
0.721264875000000,0,0x0006,
0.721272541666667,0,0x3B25,
0.721288666666667,0,0xE529,
0.721296500000000,0,0xBB28,
0.721312208333333,0,0x8001,
0.721320083333333,0,0xBC28,
0.721335791666667,0,0x8000,
0.721343666666667,0,0xBD28,
0.721359416666667,0,0x8002,
0.721367250000000,0,0xBE28,
0.721382958333333,0,0xE5C9,
0.721390833333333,0,0xBF28,
0.721406541666667,0,0xE5E0,
0.721414375000000,0,0xC028,
0.721444041666667,0,0x000A,
0.721451750000000,0,0x4129,
0.721467916666667,0,0xDC11,
0.721475791666667,0,0xC128,
0.721491500000000,0,0xDD27,
0.721499333333333,0,0xC228,
0.721515083333333,0,0xDF65,
0.721522916666667,0,0xC328,
0.721538625000000,0,0xE130,
0.721546500000000,0,0xC428,
0.721562208333333,0,0xA983,
0.721570041666667,0,0xC528,
0.721585791666667,0,0xFF50,
0.721593666666667,0,0xC628,
0.721609333333333,0,0xC016,
0.721617208333333,0,0xC728,
0.721632916666667,0,0xA3A1,
0.721640791666667,0,0xC828,
0.721656500000000,0,0x9E3A,
0.721664375000000,0,0xC928,
0.721680083333333,0,0x9E3C,
0.721687958333333,0,0xCA28,
0.730142333333333,0,0x9C3F,
0.730150041666667,0,0x060F,
0.730177916666667,0,0x0004,
0.730185583333333,0,0x0311,
0.730201833333333,0,0x0A01,
0.730209750000000,0,0x8311,
0.730225583333333,0,0x0F00,
0.730233500000000,0,0x8411,
0.730249333333333,0,0x0000,
0.730257250000000,0,0x8519,
0.730273083333333,0,0x9F3F,
0.730281000000000,0,0x8611,
0.730311250000000,0,0x0004,
0.730318916666667,0,0x0315,
0.730334958333333,0,0x0A01,
0.730342875000000,0,0x8315,
0.730358708333333,0,0x0F00,
0.730366625000000,0,0x8415,
0.730382500000000,0,0x0000,
0.730390416666667,0,0x8519,
0.730406250000000,0,0x9F3F,
0.730414166666667,0,0x8615,
0.730445041666667,0,0x0004,
0.730452708333333,0,0x0319,
0.730469125000000,0,0x0A01,
0.730477041666667,0,0x8319,
0.730492875000000,0,0x0F00,
0.730500791666667,0,0x8419,
0.730516625000000,0,0x0000,
0.730524541666667,0,0x8519,
0.730540375000000,0,0x9F3F,
0.730548333333333,0,0x8619,
0.730578291666667,0,0x0004,
0.730585958333333,0,0x031D,
0.730602250000000,0,0x0A01,
0.730610166666667,0,0x831D,
0.730626000000000,0,0x0F00,
0.730633916666667,0,0x841D,
0.730649750000000,0,0x0000,
0.730657666666667,0,0x8519,
0.730673500000000,0,0x9F3F,
0.730681458333333,0,0x861D,
0.730711458333333,0,0x0004,
0.730719125000000,0,0x0311,
0.730735375000000,0,0x0A01,
0.730743291666667,0,0x8311,
0.730759125000000,0,0x0F00,
0.730767041666667,0,0x8411,
0.730782875000000,0,0x0000,
0.730790791666667,0,0x8519,
0.730806625000000,0,0x973F,
0.730814541666667,0,0x8611,
0.730846416666667,0,0x0001,
0.730854125000000,0,0x1D15,
0.730870458333333,0,0x1551,
0.730878375000000,0,0x9D15,
0.730906250000000,0,0x0003,
0.730913958333333,0,0x2419,
0.730930333333333,0,0x0048,
0.730938250000000,0,0xA419,
0.730954083333333,0,0x0040,
0.730962000000000,0,0xA519,
0.730977833333333,0,0x8000,
0.730985750000000,0,0xA619,
0.731014916666667,0,0x0005,
0.731022625000000,0,0x2D1D,
0.731038708333333,0,0xF2AB,
0.731046625000000,0,0xAD19,
0.731062458333333,0,0xFFF0,
0.731070375000000,0,0xAE19,
0.731086166666667,0,0x4678,
0.731094083333333,0,0xAF19,
0.731109916666667,0,0x8000,
0.731117833333333,0,0xB019,
0.731133666666667,0,0x8300,
0.731141583333333,0,0xB119,
0.731171500000000,0,0x0006,
0.731179166666667,0,0x3B11,
0.731195541666667,0,0xB3E3,
0.731203416666667,0,0xBB19,
0.731219291666667,0,0xB331,
0.731227208333333,0,0xBC19,
0.731243041666667,0,0xB2C1,
0.731250958333333,0,0xBD19,
0.731266791666667,0,0xB205,
0.731274708333333,0,0xBE19,
0.731290541666667,0,0xB206,
0.731298458333333,0,0xBF19,
0.731314291666667,0,0xB277,
0.731322208333333,0,0xC019,
0.731352083333333,0,0x000A,
0.731359750000000,0,0x4115,
0.731376166666667,0,0xC0C6,
0.731384083333333,0,0xC119,
0.731399916666667,0,0xC0C6,
0.731407833333333,0,0xC219,
0.731423666666667,0,0xC0C2,
0.731431583333333,0,0xC319,
0.731447416666667,0,0xC0C5,
0.731455333333333,0,0xC419,
0.731471166666667,0,0xC0C4,
0.731479083333333,0,0xC519,
0.731494916666667,0,0xDDC8,
0.731502833333333,0,0xC619,
0.731518666666667,0,0x83A6,
0.731526583333333,0,0xC719,
0.731542416666667,0,0xA3BF,
0.731550333333333,0,0xC819,
0.731566166666667,0,0x9E36,
0.731574083333333,0,0xC919,
0.731589916666667,0,0x9E3B,
0.731597833333333,0,0xCA19,
0.731629833333333,0,0x0004,
0.731637500000000,0,0x0329,
0.731653958333333,0,0x0A01,
0.731661791666667,0,0x8329,
0.731677500000000,0,0x0F00,
0.731685375000000,0,0x8429,
0.731701083333333,0,0x0000,
0.731708958333333,0,0x8529,
0.731724666666667,0,0x973F,
0.731732500000000,0,0x8629,
0.731763375000000,0,0x0001,
0.731771041666667,0,0x1D2D,
0.731787000000000,0,0x0055,
0.731794875000000,0,0x9D2D,
0.731823041666667,0,0x0003,
0.731830750000000,0,0x2421,
0.731846958333333,0,0x004C,
0.731854833333333,0,0xA429,
0.731870541666667,0,0x0040,
0.731878375000000,0,0xA529,
0.731894083333333,0,0x8000,
0.731901958333333,0,0xA629,
0.731930791666667,0,0x0005,
0.731938500000000,0,0x2D25,
0.731954500000000,0,0xFD8C,
0.731962375000000,0,0xAD29,
0.731978083333333,0,0xFFF2,
0.731985916666667,0,0xAE29,
0.732001625000000,0,0x9796,
0.732009500000000,0,0xAF29,
0.732025208333333,0,0xFFFF,
0.732033083333333,0,0xB029,
0.732048791666667,0,0x830A,
0.732056625000000,0,0xB129,
0.732085875000000,0,0x0006,
0.732093541666667,0,0x3B29,
0.732109708333333,0,0xE52A,
0.732117541666667,0,0xBB29,
0.732133250000000,0,0x8000,
0.732141125000000,0,0xBC29,
0.732156833333333,0,0x8002,
0.732164708333333,0,0xBD29,
0.732180416666667,0,0x8004,
0.732188250000000,0,0xBE29,
0.732203958333333,0,0xE5CC,
0.732211833333333,0,0xBF29,
0.732227541666667,0,0xE5E3,
0.732235416666667,0,0xC029,
0.732265125000000,0,0x000A,
0.732272791666667,0,0x412D,
0.732288958333333,0,0xDC0B,
0.732296791666667,0,0xC129,
0.732312541666667,0,0xDD21,
0.732320375000000,0,0xC229,
0.732336083333333,0,0xDF60,
0.732343958333333,0,0xC329,
0.732359666666667,0,0xE131,
0.732367541666667,0,0xC429,
0.732383250000000,0,0xA984,
0.732391125000000,0,0xC529,
0.732406833333333,0,0xFF4A,
0.732414666666667,0,0xC629,
0.732430375000000,0,0xC015,
0.732438250000000,0,0xC729,
0.732453958333333,0,0xA3A1,
0.732461833333333,0,0xC829,
0.732477541666667,0,0x9E36,
0.732485375000000,0,0xC929,
0.732501125000000,0,0x9E3E,
0.732508958333333,0,0xCA29,
0.739161458333333,0,0xAC3F,
0.739169125000000,0,0x0603,
0.739196166666667,0,0x0004,
0.739203833333333,0,0x0315,
0.739220083333333,0,0x0A01,
0.739228041666667,0,0x8315,
0.739243875000000,0,0x0F00,
0.739251791666667,0,0x8415,
0.739267625000000,0,0x0000,
0.739275541666667,0,0x851A,
0.739291416666667,0,0xAF3F,
0.739299333333333,0,0x8615,
0.739330416666667,0,0x0004,
0.739338083333333,0,0x0319,
0.739354291666667,0,0x0A01,
0.739362208333333,0,0x8319,
0.739378041666667,0,0x0F00,
0.739385958333333,0,0x8419,
0.739401833333333,0,0x0000,
0.739409750000000,0,0x851A,
0.739425583333333,0,0xAF3F,
0.739433500000000,0,0x8619,
0.739463958333333,0,0x0004,
0.739471625000000,0,0x031D,
0.739487958333333,0,0x0A01,
0.739495916666667,0,0x831D,
0.739511750000000,0,0x0F00,
0.739519666666667,0,0x841D,
0.739535500000000,0,0x0000,
0.739543416666667,0,0x851A,
0.739559291666667,0,0xAF3F,
0.739567166666667,0,0x861D,
0.739597791666667,0,0x0004,
0.739605458333333,0,0x0311,
0.739621666666667,0,0x0A01,
0.739629583333333,0,0x8311,
0.739645416666667,0,0x0F00,
0.739653333333333,0,0x8411,
0.739669166666667,0,0x0000,
0.739677125000000,0,0x851A,
0.739692958333333,0,0xAF3F,
0.739700875000000,0,0x8611,
0.739731916666667,0,0x0004,
0.739739583333333,0,0x0315,
0.739755791666667,0,0x0A01,
0.739763708333333,0,0x8315,
0.739779583333333,0,0x0F00,
0.739787500000000,0,0x8415,
0.739803333333333,0,0x0000,
0.739811250000000,0,0x851A,
0.739827041666667,0,0xA73F,
0.739834958333333,0,0x8615,
0.739866458333333,0,0x0001,
0.739874125000000,0,0x1D19,
0.739890375000000,0,0x1551,
0.739898291666667,0,0x9D19,
0.739926166666667,0,0x0003,
0.739933833333333,0,0x241D,
0.739950291666667,0,0x0048,
0.739958166666667,0,0xA41A,
0.739974041666667,0,0x0040,
0.739981916666667,0,0xA51A,
0.739997791666667,0,0x8000,
0.740005666666667,0,0xA61A,
0.740034500000000,0,0x0005,
0.740042166666667,0,0x2D11,
0.740058166666667,0,0xF39B,
0.740066041666667,0,0xAD1A,
0.740081875000000,0,0xFFF0,
0.740089791666667,0,0xAE1A,
0.740105625000000,0,0x440B,
0.740113541666667,0,0xAF1A,
0.740129375000000,0,0xFFFF,
0.740137333333333,0,0xB01A,
0.740153166666667,0,0x830C,
0.740161083333333,0,0xB11A,
0.740190833333333,0,0x0006,
0.740198500000000,0,0x3B15,
0.740214500000000,0,0xB3E3,
0.740222416666667,0,0xBB1A,
0.740238291666667,0,0xB332,
0.740246208333333,0,0xBC1A,
0.740262041666667,0,0xB2C2,
0.740269958333333,0,0xBD1A,
0.740285791666667,0,0xB205,
0.740293708333333,0,0xBE1A,
0.740309541666667,0,0xB206,
0.740317458333333,0,0xBF1A,
0.740333291666667,0,0xB279,
0.740341208333333,0,0xC01A,
0.740371416666667,0,0x000A,
0.740379083333333,0,0x4119,
0.740395166666667,0,0xC0C7,
0.740403083333333,0,0xC11A,
0.740418958333333,0,0xC0C6,
0.740426875000000,0,0xC21A,
0.740442666666667,0,0xC0C5,
0.740450625000000,0,0xC31A,
0.740466416666667,0,0xC0C6,
0.740474375000000,0,0xC41A,
0.740490208333333,0,0xC0C7,
0.740498125000000,0,0xC51A,
0.740513958333333,0,0xDDCB,
0.740521875000000,0,0xC61A,
0.740537708333333,0,0x83A3,
0.740545625000000,0,0xC71A,
0.740561458333333,0,0xA3C0,
0.740569375000000,0,0xC81A,
0.740585208333333,0,0x9E37,
0.740593125000000,0,0xC91A,
0.740608958333333,0,0x9E38,
0.740616875000000,0,0xCA1A,
0.740649791666667,0,0x0004,
0.740657500000000,0,0x032D,
0.740673750000000,0,0x0A01,
0.740681625000000,0,0x832D,
0.740697333333333,0,0x0F00,
0.740705208333333,0,0x842D,
0.740720916666667,0,0x0000,
0.740728791666667,0,0x852A,
0.740744500000000,0,0xA73F,
0.740752333333333,0,0x862D,
0.740782041666667,0,0x0001,
0.740789708333333,0,0x1D21,
0.740805875000000,0,0x0055,
0.740813750000000,0,0x9D21,
0.740842208333333,0,0x0003,
0.740849875000000,0,0x2425,
0.740866291666667,0,0x004C,
0.740874166666667,0,0xA42A,
0.740889875000000,0,0x0040,
0.740897750000000,0,0xA52A,
0.740913458333333,0,0x8000,
0.740921333333333,0,0xA62A,
0.740950625000000,0,0x0005,
0.740958291666667,0,0x2D29,
0.740974375000000,0,0xFE7E,
0.740982208333333,0,0xAD2A,
0.740997916666667,0,0xFFF2,
0.741005791666667,0,0xAE2A,
0.741021500000000,0,0x94E8,
0.741029333333333,0,0xAF2A,
0.741045041666667,0,0xFFFF,
0.741052916666667,0,0xB02A,
0.741068666666667,0,0x830F,
0.741076500000000,0,0xB12A,
0.741107333333333,0,0x0006,
0.741115000000000,0,0x3B2D,
0.741131000000000,0,0xE524,
0.741138875000000,0,0xBB2A,
0.741154583333333,0,0x8000,
0.741162416666667,0,0xBC2A,
0.741178125000000,0,0x8001,
0.741186000000000,0,0xBD2A,
0.741201708333333,0,0x8001,
0.741209583333333,0,0xBE2A,
0.741225291666667,0,0xE5C6,
0.741233166666667,0,0xBF2A,
0.741248875000000,0,0xE5DD,
0.741256708333333,0,0xC02A,
0.741286708333333,0,0x000A,
0.741294416666667,0,0x4121,
0.741310750000000,0,0xDC12,
0.741318583333333,0,0xC12A,
0.741334291666667,0,0xDD23,
0.741342166666667,0,0xC22A,
0.741357875000000,0,0xDF67,
0.741365750000000,0,0xC32A,
0.741381458333333,0,0xE129,
0.741389291666667,0,0xC42A,
0.741405000000000,0,0xA983,
0.741412875000000,0,0xC52A,
0.741428583333333,0,0xFF48,
0.741436458333333,0,0xC62A,
0.741452166666667,0,0xC015,
0.741460041666667,0,0xC72A,
0.741475750000000,0,0xA3A3,
0.741483583333333,0,0xC82A,
0.741499291666667,0,0x9E39,
0.741507166666667,0,0xC92A,
0.741522875000000,0,0x9E3E,
0.741530750000000,0,0xCA2A,
0.749157458333333,0,0xBC3F,
0.749165125000000,0,0x0607,
0.749192791666667,0,0x0004,
0.749200458333333,0,0x0319,
0.749216666666667,0,0x0A01,
0.749224583333333,0,0x8319,
0.749240416666667,0,0x0F00,
0.749248333333333,0,0x8419,
0.749264166666667,0,0x0000,
0.749272083333333,0,0x851B,
0.749287916666667,0,0xBF3F,
0.749295833333333,0,0x8619,
0.749326208333333,0,0x0004,
0.749333875000000,0,0x031D,
0.749350291666667,0,0x0A01,
0.749358166666667,0,0x831D,
0.749374000000000,0,0x0F00,
0.749381958333333,0,0x841D,
0.749397791666667,0,0x0000,
0.749405708333333,0,0x851B,
0.749421541666667,0,0xBF3F,
0.749429500000000,0,0x861D,
0.749460458333333,0,0x0004,
0.749468166666667,0,0x0311,
0.749484458333333,0,0x0A01,
0.749492375000000,0,0x8311,
0.749508208333333,0,0x0F00,
0.749516125000000,0,0x8411,
0.749532000000000,0,0x0000,
0.749539916666667,0,0x851B,
0.749555750000000,0,0xBF3F,
0.749563666666667,0,0x8611,
0.749594458333333,0,0x0004,
0.749602166666667,0,0x0315,
0.749618125000000,0,0x0A01,
0.749626041666667,0,0x8315,
0.749641875000000,0,0x0F00,
0.749649791666667,0,0x8415,
0.749665625000000,0,0x0000,
0.749673541666667,0,0x851B,
0.749689375000000,0,0xBF3F,
0.749697291666667,0,0x8615,
0.749727916666667,0,0x0004,
0.749735625000000,0,0x0319,
0.749751708333333,0,0x0A01,
0.749759625000000,0,0x8319,
0.749775458333333,0,0x0F00,
0.749783375000000,0,0x8419,
0.749799208333333,0,0x0000,
0.749807166666667,0,0x851B,
0.749823000000000,0,0xB73F,
0.749830916666667,0,0x8619,
0.749862208333333,0,0x0001,
0.749869875000000,0,0x1D1D,
0.749885833333333,0,0x1551,
0.749893750000000,0,0x9D1D,
0.749922083333333,0,0x0003,
0.749929750000000,0,0x2411,
0.749946208333333,0,0x0048,
0.749954125000000,0,0xA41B,
0.749969958333333,0,0x0040,
0.749977875000000,0,0xA51B,
0.749993708333333,0,0x8000,
0.750001625000000,0,0xA61B,
0.750030750000000,0,0x0005,
0.750038416666667,0,0x2D15,
0.750054583333333,0,0xF4A5,
0.750062500000000,0,0xAD1B,
0.750078333333333,0,0xFFF0,
0.750086250000000,0,0xAE1B,
0.750102083333333,0,0x4154,
0.750110000000000,0,0xAF1B,
0.750125833333333,0,0xFFFF,
0.750133750000000,0,0xB01B,
0.750149625000000,0,0x830C,
0.750157500000000,0,0xB11B,
0.750187625000000,0,0x0006,
0.750195333333333,0,0x3B19,
0.750211458333333,0,0xB3E0,
0.750219375000000,0,0xBB1B,
0.750235166666667,0,0xB32F,
0.750243125000000,0,0xBC1B,
0.750258958333333,0,0xB2BF,
0.750266875000000,0,0xBD1B,
0.750282708333333,0,0xB1FF,
0.750290583333333,0,0xBE1B,
0.750306458333333,0,0xB209,
0.750314375000000,0,0xBF1B,
0.750330208333333,0,0xB27A,
0.750338125000000,0,0xC01B,
0.750369166666667,0,0x000A,
0.750376833333333,0,0x411D,
0.750393041666667,0,0xC0C7,
0.750400958333333,0,0xC11B,
0.750416791666667,0,0xC0C7,
0.750424708333333,0,0xC21B,
0.750440541666667,0,0xC0C5,
0.750448500000000,0,0xC31B,
0.750464333333333,0,0xC0CA,
0.750472250000000,0,0xC41B,
0.750488083333333,0,0xC0C7,
0.750496000000000,0,0xC51B,
0.750511791666667,0,0xDDCF,
0.750519750000000,0,0xC61B,
0.750535583333333,0,0x83A8,
0.750543458333333,0,0xC71B,
0.750559333333333,0,0xA3BE,
0.750567208333333,0,0xC81B,
0.750583083333333,0,0x9E3C,
0.750590958333333,0,0xC91B,
0.750606833333333,0,0x9E3A,
0.750614750000000,0,0xCA1B,
0.750647416666667,0,0x0004,
0.750655083333333,0,0x0321,
0.750671166666667,0,0x0A01,
0.750679041666667,0,0x8321,
0.750694750000000,0,0x0F00,
0.750702625000000,0,0x8421,
0.750718333333333,0,0x0000,
0.750726208333333,0,0x852B,
0.750741916666667,0,0xB73F,
0.750749791666667,0,0x8621,
0.750779958333333,0,0x0001,
0.750787625000000,0,0x1D25,
0.750803791666667,0,0x0055,
0.750811666666667,0,0x9D25,
0.750839500000000,0,0x0003,
0.750847166666667,0,0x2429,
0.750863208333333,0,0x004C,
0.750871083333333,0,0xA42B,
0.750886791666667,0,0x0040,
0.750894666666667,0,0xA52B,
0.750910375000000,0,0x8000,
0.750918208333333,0,0xA62B,
0.750946958333333,0,0x0005,
0.750954625000000,0,0x2D2D,
0.750970750000000,0,0xFF8A,
0.750978625000000,0,0xAD2B,
0.750994333333333,0,0xFFF2,
0.751002208333333,0,0xAE2B,
0.751017916666667,0,0x9206,
0.751025750000000,0,0xAF2B,
0.751041500000000,0,0xFFFF,
0.751049333333333,0,0xB02B,
0.751065041666667,0,0x8308,
0.751072916666667,0,0xB12B,
0.751103750000000,0,0x0006,
0.751111458333333,0,0x3B21,
0.751127416666667,0,0xE528,
0.751135291666667,0,0xBB2B,
0.751151000000000,0,0x8001,
0.751158833333333,0,0xBC2B,
0.751174583333333,0,0x8003,
0.751182416666667,0,0xBD2B,
0.751198125000000,0,0x8002,
0.751206000000000,0,0xBE2B,
0.751221708333333,0,0xE5CA,
0.751229583333333,0,0xBF2B,
0.751245291666667,0,0xE5E3,
0.751253125000000,0,0xC02B,
0.751282708333333,0,0x000A,
0.751290416666667,0,0x4125,
0.751306666666667,0,0xDC15,
0.751314541666667,0,0xC12B,
0.751330250000000,0,0xDD27,
0.751338125000000,0,0xC22B,
0.751353833333333,0,0xDF68,
0.751361666666667,0,0xC32B,
0.751377416666667,0,0xE12B,
0.751385250000000,0,0xC42B,
0.751400958333333,0,0xA984,
0.751408833333333,0,0xC52B,
0.751424541666667,0,0xFF4E,
0.751432416666667,0,0xC62B,
0.751448125000000,0,0xC019,
0.751456000000000,0,0xC72B,
0.751471708333333,0,0xA3A1,
0.751479541666667,0,0xC82B,
0.751495250000000,0,0x9E3D,
0.751503125000000,0,0xC92B,
0.751518833333333,0,0x9E3B,
0.751526666666667,0,0xCA2B,
0.759127666666667,0,0xCC3F,
0.759135375000000,0,0x060B,
0.759163125000000,0,0x0004,
0.759170791666667,0,0x031D,
0.759186791666667,0,0x0A01,
0.759194708333333,0,0x831D,
0.759210541666667,0,0x0F00,
0.759218458333333,0,0x841D,
0.759234333333333,0,0x0000,
0.759242250000000,0,0x851C,
0.759258083333333,0,0xCF3F,
0.759266000000000,0,0x861D,
0.759296333333333,0,0x0004,
0.759304041666667,0,0x0311,
0.759320458333333,0,0x0A01,
0.759328375000000,0,0x8311,
0.759344208333333,0,0x0F00,
0.759352125000000,0,0x8411,
0.759367958333333,0,0x0000,
0.759375875000000,0,0x851C,
0.759391708333333,0,0xCF3F,
0.759399625000000,0,0x8611,
0.759430416666667,0,0x0004,
0.759438083333333,0,0x0315,
0.759454583333333,0,0x0A01,
0.759462500000000,0,0x8315,
0.759478333333333,0,0x0F00,
0.759486250000000,0,0x8415,
0.759502083333333,0,0x0000,
0.759510000000000,0,0x851C,
0.759525875000000,0,0xCF3F,
0.759533791666667,0,0x8615,
0.759564458333333,0,0x0004,
0.759572125000000,0,0x0319,
0.759588250000000,0,0x0A01,
0.759596166666667,0,0x8319,
0.759612000000000,0,0x0F00,
0.759619916666667,0,0x8419,
0.759635750000000,0,0x0000,
0.759643666666667,0,0x851C,
0.759659500000000,0,0xCF3F,
0.759667416666667,0,0x8619,
0.759697500000000,0,0x0004,
0.759705208333333,0,0x031D,
0.759721375000000,0,0x0A01,
0.759729291666667,0,0x831D,
0.759745125000000,0,0x0F00,
0.759753041666667,0,0x841D,
0.759768875000000,0,0x0000,
0.759776791666667,0,0x851C,
0.759792583333333,0,0xC73F,
0.759800541666667,0,0x861D,
0.759830666666667,0,0x0001,
0.759838333333333,0,0x1D11,
0.759854458333333,0,0x1551,
0.759862375000000,0,0x9D11,
0.759890583333333,0,0x0003,
0.759898250000000,0,0x2415,
0.759914333333333,0,0x0048,
0.759922291666667,0,0xA41C,
0.759938125000000,0,0x0040,
0.759946000000000,0,0xA51C,
0.759961833333333,0,0x8000,
0.759969791666667,0,0xA61C,
0.759998000000000,0,0x0005,
0.760005708333333,0,0x2D19,
0.760021708333333,0,0xF5AE,
0.760029625000000,0,0xAD1C,
0.760045500000000,0,0xFFF0,
0.760053416666667,0,0xAE1C,
0.760069250000000,0,0x3E41,
0.760077166666667,0,0xAF1C,
0.760093000000000,0,0xFFFF,
0.760100916666667,0,0xB01C,
0.760116750000000,0,0x830F,
0.760124666666667,0,0xB11C,
0.760154208333333,0,0x0006,
0.760161875000000,0,0x3B1D,
0.760178125000000,0,0xB3E8,
0.760186041666667,0,0xBB1C,
0.760201875000000,0,0xB333,
0.760209791666667,0,0xBC1C,
0.760225625000000,0,0xB2C1,
0.760233541666667,0,0xBD1C,
0.760249375000000,0,0xB206,
0.760257291666667,0,0xBE1C,
0.760273125000000,0,0xB209,
0.760281041666667,0,0xBF1C,
0.760296875000000,0,0xB277,
0.760304791666667,0,0xC01C,
0.760335250000000,0,0x000A,
0.760342916666667,0,0x4111,
0.760359208333333,0,0xC0C5,
0.760367125000000,0,0xC11C,
0.760382958333333,0,0xC0C7,
0.760390875000000,0,0xC21C,
0.760406708333333,0,0xC0C5,
0.760414625000000,0,0xC31C,
0.760430458333333,0,0xC0C3,
0.760438375000000,0,0xC41C,
0.760454208333333,0,0xC0C7,
0.760462125000000,0,0xC51C,
0.760477958333333,0,0xDDCB,
0.760485875000000,0,0xC61C,
0.760501708333333,0,0x839F,
0.760509625000000,0,0xC71C,
0.760525500000000,0,0xA3BF,
0.760533416666667,0,0xC81C,
0.760549250000000,0,0x9E37,
0.760557166666667,0,0xC91C,
0.760573000000000,0,0x9E3B,
0.760580916666667,0,0xCA1C,
0.760612958333333,0,0x0004,
0.760620625000000,0,0x0325,
0.760637000000000,0,0x0A01,
0.760644833333333,0,0x8325,
0.760660541666667,0,0x0F00,
0.760668416666667,0,0x8425,
0.760684125000000,0,0x0000,
0.760692000000000,0,0x852C,
0.760707708333333,0,0xC73F,
0.760715541666667,0,0x8625,
0.760746083333333,0,0x0001,
0.760753750000000,0,0x1D29,
0.760770083333333,0,0x0055,
0.760777958333333,0,0x9D29,
0.760806041666667,0,0x0003,
0.760813708333333,0,0x242D,
0.760830000000000,0,0x004C,
0.760837875000000,0,0xA42C,
0.760853583333333,0,0x0040,
0.760861416666667,0,0xA52C,
0.760877166666667,0,0x8000,
0.760885000000000,0,0xA62C,
0.760914333333333,0,0x0005,
0.760922041666667,0,0x2D21,
0.760938041666667,0,0x0095,
0.760945916666667,0,0xAD2C,
0.760961625000000,0,0xFFF2,
0.760969458333333,0,0xAE2C,
0.760985208333333,0,0x8FFA,
0.760993041666667,0,0xAF2C,
0.761008750000000,0,0x8000,
0.761016625000000,0,0xB02C,
0.761032333333333,0,0x8300,
0.761040208333333,0,0xB12C,
0.761069625000000,0,0x0006,
0.761077291666667,0,0x3B25,
0.761093750000000,0,0xE522,
0.761101583333333,0,0xBB2C,
0.761117291666667,0,0x8000,
0.761125166666667,0,0xBC2C,
0.761140875000000,0,0x8001,
0.761148750000000,0,0xBD2C,
0.761164458333333,0,0x8002,
0.761172333333333,0,0xBE2C,
0.761188041666667,0,0xE5C7,
0.761195916666667,0,0xBF2C,
0.761211625000000,0,0xE5E0,
0.761219458333333,0,0xC02C,
0.761249500000000,0,0x000A,
0.761257208333333,0,0x4129,
0.761273500000000,0,0xDC13,
0.761281375000000,0,0xC12C,
0.761297083333333,0,0xDD23,
0.761304958333333,0,0xC22C,
0.761320666666667,0,0xDF66,
0.761328500000000,0,0xC32C,
0.761344208333333,0,0xE12A,
0.761352083333333,0,0xC42C,
0.761367791666667,0,0xA982,
0.761375625000000,0,0xC52C,
0.761391375000000,0,0xFF4E,
0.761399208333333,0,0xC62C,
0.761414916666667,0,0xC015,
0.761422791666667,0,0xC72C,
0.761438500000000,0,0xA3A2,
0.761446375000000,0,0xC82C,
0.761462083333333,0,0x9E39,
0.761469958333333,0,0xC92C,
0.761485666666667,0,0x9E40,
0.761493541666667,0,0xCA2C,
0.769283666666667,0,0xDC3F,
0.769291333333333,0,0x060F,
0.769318875000000,0,0x0004,
0.769326541666667,0,0x0311,
0.769342833333333,0,0x0A01,
0.769350750000000,0,0x8311,
0.769366625000000,0,0x0F00,
0.769374541666667,0,0x8411,
0.769390375000000,0,0x0000,
0.769398291666667,0,0x851D,
0.769414166666667,0,0xDF3F,
0.769422083333333,0,0x8611,
0.769452375000000,0,0x0004,
0.769460083333333,0,0x0315,
0.769476041666667,0,0x0A01,
0.769483958333333,0,0x8315,
0.769499791666667,0,0x0F00,
0.769507708333333,0,0x8415,
0.769523541666667,0,0x0000,
0.769531500000000,0,0x851D,
0.769547333333333,0,0xDF3F,
0.769555250000000,0,0x8615,
0.769586375000000,0,0x0004,
0.769594083333333,0,0x0319,
0.769610208333333,0,0x0A01,
0.769618125000000,0,0x8319,
0.769633958333333,0,0x0F00,
0.769641875000000,0,0x8419,
0.769657750000000,0,0x0000,
0.769665625000000,0,0x851D,
0.769681500000000,0,0xDF3F,
0.769689416666667,0,0x8619,
0.769719958333333,0,0x0004,
0.769727625000000,0,0x031D,
0.769743833333333,0,0x0A01,
0.769751791666667,0,0x831D,
0.769767625000000,0,0x0F00,
0.769775541666667,0,0x841D,
0.769791375000000,0,0x0000,
0.769799291666667,0,0x851D,
0.769815125000000,0,0xDF3F,
0.769823083333333,0,0x861D,
0.769853541666667,0,0x0004,
0.769861208333333,0,0x0311,
0.769877500000000,0,0x0A01,
0.769885416666667,0,0x8311,
0.769901250000000,0,0x0F00,
0.769909166666667,0,0x8411,
0.769925000000000,0,0x0000,
0.769932916666667,0,0x851D,
0.769948750000000,0,0xD73F,
0.769956666666667,0,0x8611,
0.769987875000000,0,0x0001,
0.769995541666667,0,0x1D15,
0.770011583333333,0,0x1551,
0.770019541666667,0,0x9D15,
0.770047625000000,0,0x0003,
0.770055291666667,0,0x2419,
0.770071500000000,0,0x0048,
0.770079375000000,0,0xA41D,
0.770095208333333,0,0x0040,
0.770103166666667,0,0xA51D,
0.770119000000000,0,0x8000,
0.770126916666667,0,0xA61D,
0.770156041666667,0,0x0005,
0.770163750000000,0,0x2D1D,
0.770179833333333,0,0xF6BC,
0.770187750000000,0,0xAD1D,
0.770203625000000,0,0xFFF0,
0.770211541666667,0,0xAE1D,
0.770227375000000,0,0x3C58,
0.770235291666667,0,0xAF1D,
0.770251125000000,0,0xFFFF,
0.770259041666667,0,0xB01D,
0.770274875000000,0,0x830F,
0.770282791666667,0,0xB11D,
0.770312708333333,0,0x0006,
0.770320416666667,0,0x3B11,
0.770336750000000,0,0xB3E6,
0.770344666666667,0,0xBB1D,
0.770360500000000,0,0xB333,
0.770368416666667,0,0xBC1D,
0.770384250000000,0,0xB2C2,
0.770392166666667,0,0xBD1D,
0.770408000000000,0,0xB206,
0.770415916666667,0,0xBE1D,
0.770431791666667,0,0xB209,
0.770439666666667,0,0xBF1D,
0.770455500000000,0,0xB27F,
0.770463458333333,0,0xC01D,
0.770493166666667,0,0x000A,
0.770500833333333,0,0x4115,
0.770516916666667,0,0xC0C3,
0.770524791666667,0,0xC11D,
0.770540666666667,0,0xC0C4,
0.770548583333333,0,0xC21D,
0.770564416666667,0,0xC0C5,
0.770572333333333,0,0xC31D,
0.770588166666667,0,0xC0C5,
0.770596083333333,0,0xC41D,
0.770611916666667,0,0xC0C6,
0.770619833333333,0,0xC51D,
0.770635708333333,0,0xDDCB,
0.770643625000000,0,0xC61D,
0.770659458333333,0,0x83A6,
0.770667375000000,0,0xC71D,
0.770683208333333,0,0xA3BF,
0.770691125000000,0,0xC81D,
0.770706958333333,0,0x9E3A,
0.770714875000000,0,0xC91D,
0.770730708333333,0,0x9E3B,
0.770738625000000,0,0xCA1D,
0.770771625000000,0,0x0004,
0.770779333333333,0,0x0329,
0.770795375000000,0,0x0A01,
0.770803250000000,0,0x8329,
0.770818958333333,0,0x0F00,
0.770826791666667,0,0x8429,
0.770842500000000,0,0x0000,
0.770850375000000,0,0x852D,
0.770866083333333,0,0xD73F,
0.770873958333333,0,0x8629,
0.770904166666667,0,0x0001,
0.770911833333333,0,0x1D2D,
0.770927958333333,0,0x0055,
0.770935833333333,0,0x9D2D,
0.770964000000000,0,0x0003,
0.770971708333333,0,0x2421,
0.770987875000000,0,0x004C,
0.770995750000000,0,0xA42D,
0.771011458333333,0,0x0040,
0.771019333333333,0,0xA52D,
0.771035041666667,0,0x8000,
0.771042875000000,0,0xA62D,
0.771072041666667,0,0x0005,
0.771079750000000,0,0x2D25,
0.771095916666667,0,0x01A5,
0.771103791666667,0,0xAD2D,
0.771119500000000,0,0xFFF2,
0.771127375000000,0,0xAE2D,
0.771143083333333,0,0x8E4C,
0.771150958333333,0,0xAF2D,
0.771166666666667,0,0xFFFF,
0.771174500000000,0,0xB02D,
0.771190208333333,0,0x830B,
0.771198083333333,0,0xB12D,
0.771228000000000,0,0x0006,
0.771235708333333,0,0x3B29,
0.771252125000000,0,0xE522,
0.771259958333333,0,0xBB2D,
0.771275666666667,0,0x8000,
0.771283541666667,0,0xBC2D,
0.771299250000000,0,0x8001,
0.771307125000000,0,0xBD2D,
0.771322833333333,0,0x8000,
0.771330708333333,0,0xBE2D,
0.771346416666667,0,0xE5C5,
0.771354291666667,0,0xBF2D,
0.771369958333333,0,0xE5DE,
0.771377833333333,0,0xC02D,
0.771407916666667,0,0x000A,
0.771415625000000,0,0x412D,
0.771431875000000,0,0xDC0F,
0.771439708333333,0,0xC12D,
0.771455416666667,0,0xDD26,
0.771463291666667,0,0xC22D,
0.771479000000000,0,0xDF65,
0.771486875000000,0,0xC32D,
0.771502583333333,0,0xE12E,
0.771510416666667,0,0xC42D,
0.771526125000000,0,0xA983,
0.771534000000000,0,0xC52D,
0.771549708333333,0,0xFF4C,
0.771557583333333,0,0xC62D,
0.771573291666667,0,0xC016,
0.771581166666667,0,0xC72D,
0.771596875000000,0,0xA3A2,
0.771604708333333,0,0xC82D,
0.771620458333333,0,0x9E3C,
0.771628291666667,0,0xC92D,
0.771644000000000,0,0x9E40,
0.771651875000000,0,0xCA2D,
0.779268750000000,0,0xEC3F,
0.779276416666667,0,0x0603,
0.779303333333333,0,0x0004,
0.779311041666667,0,0x0315,
0.779327458333333,0,0x0A01,
0.779335375000000,0,0x8315,
0.779351208333333,0,0x0F00,
0.779359166666667,0,0x8415,
0.779374958333333,0,0x0000,
0.779382916666667,0,0x851E,
0.779398750000000,0,0xEF3F,
0.779406666666667,0,0x8615,
0.779437416666667,0,0x0004,
0.779445083333333,0,0x0319,
0.779461125000000,0,0x0A01,
0.779469041666667,0,0x8319,
0.779484875000000,0,0x0F00,
0.779492791666667,0,0x8419,
0.779508625000000,0,0x0000,
0.779516541666667,0,0x851E,
0.779532375000000,0,0xEF3F,
0.779540291666667,0,0x8619,
0.779570750000000,0,0x0004,
0.779578458333333,0,0x031D,
0.779594750000000,0,0x0A01,
0.779602666666667,0,0x831D,
0.779618500000000,0,0x0F00,
0.779626458333333,0,0x841D,
0.779642291666667,0,0x0000,
0.779650208333333,0,0x851E,
0.779666041666667,0,0xEF3F,
0.779673958333333,0,0x861D,
0.779704375000000,0,0x0004,
0.779712041666667,0,0x0311,
0.779728416666667,0,0x0A01,
0.779736333333333,0,0x8311,
0.779752208333333,0,0x0F00,
0.779760083333333,0,0x8411,
0.779775958333333,0,0x0000,
0.779783875000000,0,0x851E,
0.779799708333333,0,0xEF3F,
0.779807625000000,0,0x8611,
0.779838083333333,0,0x0004,
0.779845750000000,0,0x0315,
0.779862083333333,0,0x0A01,
0.779870000000000,0,0x8315,
0.779885833333333,0,0x0F00,
0.779893750000000,0,0x8415,
0.779909583333333,0,0x0000,
0.779917500000000,0,0x851E,
0.779933333333333,0,0xE73F,
0.779941250000000,0,0x8615,
0.779970958333333,0,0x0001,
0.779978625000000,0,0x1D19,
0.779994708333333,0,0x1551,
0.780002625000000,0,0x9D19,
0.780030625000000,0,0x0003,
0.780038333333333,0,0x241D,
0.780054583333333,0,0x0048,
0.780062500000000,0,0xA41E,
0.780078333333333,0,0x0040,
0.780086250000000,0,0xA51E,
0.780102083333333,0,0x8000,
0.780110000000000,0,0xA61E,
0.780139000000000,0,0x0005,
0.780146708333333,0,0x2D11,
0.780162958333333,0,0xF7C5,
0.780170875000000,0,0xAD1E,
0.780186708333333,0,0xFFF0,
0.780194625000000,0,0xAE1E,
0.780210458333333,0,0x38F0,
0.780218416666667,0,0xAF1E,
0.780234250000000,0,0x8000,
0.780242125000000,0,0xB01E,
0.780258000000000,0,0x8306,
0.780265916666667,0,0xB11E,
0.780296041666667,0,0x0006,
0.780303750000000,0,0x3B15,
0.780319875000000,0,0xB3E6,
0.780327750000000,0,0xBB1E,
0.780343625000000,0,0xB32F,
0.780351541666667,0,0xBC1E,
0.780367375000000,0,0xB2C7,
0.780375291666667,0,0xBD1E,
0.7803911250000