Time [s],Packet ID,MOSI,MISO
0.002164375000000,0,0x0001,
0.002172041666667,0,0x0115,
0.002426708333333,0,0x0001,
0.002434375000000,0,0x0109,
0.002450708333333,0,0x0000,
0.002458625000000,0,0x8109,
0.002802375000000,0,0x0001,
0.002810041666667,0,0x010E,
0.002826125000000,0,0x0001,
0.002834083333333,0,0x811E,
0.003064791666667,0,0x0001,
0.003072458333333,0,0x0111,
0.003088541666667,0,0x0001,
0.003096458333333,0,0x8111,
0.003327083333333,0,0x0011,
0.003334750000000,0,0x0116,
0.003350875000000,0,0x0011,
0.003358791666667,0,0x8116,
0.007993291666667,0,0x0001,
0.008000958333333,0,0x0129,
0.008256041666667,0,0x0001,
0.008263750000000,0,0x010D,
0.008280041666667,0,0x0000,
0.008287916666667,0,0x810D,
0.008519250000000,0,0x0002,
0.008526958333333,0,0x0102,
0.008542958333333,0,0x0002,
0.008550833333333,0,0x8122,
0.008781041666667,0,0x0001,
0.008788708333333,0,0x0125,
0.008804833333333,0,0x0002,
0.008812708333333,0,0x8125,
0.010080541666667,0,0x0A01,
0.010088250000000,0,0x030B,
0.010116416666667,0,0x0300,
0.010124125000000,0,0x040F,
0.010151833333333,0,0x04BF,
0.010159500000000,0,0x0603,
0.010186791666667,0,0x0000,
0.010194500000000,0,0x0807,
0.010221916666667,0,0x4000,
0.010229583333333,0,0x071A,
0.010245875000000,0,0x4000,
0.010253833333333,0,0x871A,
0.010281875000000,0,0x1551,
0.010289583333333,0,0x1D1E,
0.010305833333333,0,0x1551,
0.010313750000000,0,0x9D1E,
0.010341833333333,0,0x0055,
0.010349541666667,0,0x1D22,
0.010365500000000,0,0x0055,
0.010373375000000,0,0x9D22,
0.010400958333333,0,0x0C3F,
0.010408625000000,0,0x0607,
0.013106958333333,0,0x0801,
0.013114666666667,0,0x031A,
0.013130666666667,0,0x0801,
0.013138583333333,0,0x831A,
0.013166500000000,0,0x0841,
0.013174166666667,0,0x031E,
0.013190583333333,0,0x0801,
0.013198500000000,0,0x831E,
0.013226541666667,0,0x0600,
0.013234208333333,0,0x0512,
0.013250500000000,0,0x0600,
0.013258458333333,0,0x8512,
0.013285875000000,0,0x0801,
0.013293583333333,0,0x0326,
0.013309708333333,0,0x0801,
0.013317583333333,0,0x8326,
0.013345416666667,0,0x0841,
0.013353125000000,0,0x032A,
0.013369166666667,0,0x0801,
0.013377041666667,0,0x832A,
0.013404458333333,0,0x0600,
0.013412125000000,0,0x052E,
0.013428166666667,0,0x0600,
0.013436000000000,0,0x852E,
0.049000458333333,0,0x0010,
0.049008166666667,0,0x0303,
0.057177916666667,0,0x0001,
0.057185625000000,0,0x0115,
0.057439583333333,0,0x0001,
0.057447250000000,0,0x0109,
0.057463666666667,0,0x0000,
0.057471583333333,0,0x8109,
0.057704541666667,0,0x0001,
0.057712208333333,0,0x010E,
0.057728666666667,0,0x0001,
0.057736583333333,0,0x811E,
0.057968708333333,0,0x0001,
0.057976375000000,0,0x0111,
0.057992625000000,0,0x0001,
0.058000541666667,0,0x8111,
0.058236000000000,0,0x0011,
0.058243666666667,0,0x0116,
0.058260125000000,0,0x0011,
0.058268041666667,0,0x8116,
0.062901458333333,0,0x0001,
0.062909125000000,0,0x0129,
0.063163708333333,0,0x0001,
0.063171375000000,0,0x010D,
0.063187541666667,0,0x0000,
0.063195416666667,0,0x810D,
0.063427291666667,0,0x0002,
0.063434958333333,0,0x0102,
0.063450916666667,0,0x0002,
0.063458791666667,0,0x8122,
0.063689458333333,0,0x0001,
0.063697125000000,0,0x0125,
0.063713291666667,0,0x0002,
0.063721166666667,0,0x8125,
0.064958833333333,0,0x0A01,
0.064966500000000,0,0x030B,
0.064993708333333,0,0x0300,
0.065001375000000,0,0x040F,
0.065028708333333,0,0x04BF,
0.065036375000000,0,0x0603,
0.065063583333333,0,0x0000,
0.065071291666667,0,0x0807,
0.065098791666667,0,0x4000,
0.065106500000000,0,0x071A,
0.065122666666667,0,0x4000,
0.065130583333333,0,0x871A,
0.065158291666667,0,0x1551,
0.065165958333333,0,0x1D1E,
0.065182083333333,0,0x1551,
0.065190000000000,0,0x9D1E,
0.065217666666667,0,0x0055,
0.065225333333333,0,0x1D22,
0.065241500000000,0,0x0055,
0.065249333333333,0,0x9D22,
0.065277166666667,0,0x0C3F,
0.065284833333333,0,0x0607,
0.067983541666667,0,0x0801,
0.067991208333333,0,0x031A,
0.068007666666667,0,0x0801,
0.068015583333333,0,0x831A,
0.068043375000000,0,0x0841,
0.068051041666667,0,0x031E,
0.068067083333333,0,0x0801,
0.068075000000000,0,0x831E,
0.068103375000000,0,0x0600,
0.068111083333333,0,0x0512,
0.068127500000000,0,0x0600,
0.068135458333333,0,0x8512,
0.068164083333333,0,0x0801,
0.068171791666667,0,0x0326,
0.068188125000000,0,0x0801,
0.068195958333333,0,0x8326,
0.068223958333333,0,0x0841,
0.068231625000000,0,0x032A,
0.068247583333333,0,0x0801,
0.068255458333333,0,0x832A,
0.068282958333333,0,0x0600,
0.068290625000000,0,0x052E,
0.068307041666667,0,0x0600,
0.068314916666667,0,0x852E,
0.122433500000000,0,0x0005,
0.122441166666667,0,0x2111,
0.122457625000000,0,0x0001,
0.122465541666667,0,0xA111,
0.122481375000000,0,0x1100,
0.122489291666667,0,0xA211,
0.122505125000000,0,0x0400,
0.122513041666667,0,0xA311,
0.122528916666667,0,0xC248,
0.122536833333333,0,0xA410,
0.122552666666667,0,0x0040,
0.122560583333333,0,0xA510,
0.123445125000000,0,0x0005,
0.123452791666667,0,0x2125,
0.123469125000000,0,0x0050,
0.123476958333333,0,0xA125,
0.123492708333333,0,0x0900,
0.123500541666667,0,0xA225,
0.123516250000000,0,0x0200,
0.123524125000000,0,0xA325,
0.123539875000000,0,0xC244,
0.123547708333333,0,0xA420,
0.123563458333333,0,0x0040,
0.123571333333333,0,0xA520,
0.125473833333333,0,0x0000,
0.125481541666667,0,0x051A,
0.125497541666667,0,0x0000,
0.125505458333333,0,0x851A,
0.125533666666667,0,0x0A01,
0.125541333333333,0,0x031E,
0.125557458333333,0,0x0A41,
0.125565416666667,0,0x831E,
0.125593625000000,0,0x0000,
0.125601291666667,0,0x0522,
0.125617708333333,0,0x0000,
0.125625541666667,0,0x8522,
0.125653125000000,0,0x0A01,
0.125660791666667,0,0x0326,
0.125677125000000,0,0x0A41,
0.125685000000000,0,0x8326,
0.129075708333333,0,0x0000,
0.129083375000000,0,0x240B,
0.129111250000000,0,0x0000,
0.129118916666667,0,0x250F,
0.129146708333333,0,0x0000,
0.129154416666667,0,0x2603,
0.129181291666667,0,0x1C3F,
0.129188958333333,0,0x0607,
0.129215958333333,0,0x0004,
0.129223625000000,0,0x0319,
0.129239750000000,0,0x0A01,
0.129247666666667,0,0x8319,
0.129263541666667,0,0x0F00,
0.129271458333333,0,0x8419,
0.129287291666667,0,0x0000,
0.129295250000000,0,0x8511,
0.129311125000000,0,0x1F3F,
0.129319041666667,0,0x8619,
0.129349666666667,0,0x0004,
0.129357375000000,0,0x031D,
0.129373541666667,0,0x0A01,
0.129381458333333,0,0x831D,
0.129397333333333,0,0x0F00,
0.129405250000000,0,0x841D,
0.129421083333333,0,0x0000,
0.129429041666667,0,0x8511,
0.129444916666667,0,0x1F3F,
0.129452833333333,0,0x861D,
0.129482916666667,0,0x0004,
0.129490583333333,0,0x0311,
0.129506833333333,0,0x0A01,
0.129514750000000,0,0x8311,
0.129530625000000,0,0x0F00,
0.129538541666667,0,0x8411,
0.129554416666667,0,0x0000,
0.129562333333333,0,0x8511,
0.129578166666667,0,0x1F3F,
0.129586125000000,0,0x8611,
0.129616333333333,0,0x0004,
0.129624041666667,0,0x0315,
0.129640125000000,0,0x0A01,
0.129648041666667,0,0x8315,
0.129663916666667,0,0x0F00,
0.129671833333333,0,0x8415,
0.129687666666667,0,0x0000,
0.129695625000000,0,0x8511,
0.129711458333333,0,0x1F3F,
0.129719416666667,0,0x8615,
0.129749916666667,0,0x0004,
0.129757583333333,0,0x0319,
0.129773875000000,0,0x0A01,
0.129781833333333,0,0x8319,
0.129797666666667,0,0x0F00,
0.129805583333333,0,0x8419,
0.129821458333333,0,0x0000,
0.129829375000000,0,0x8511,
0.129845250000000,0,0x173F,
0.129853166666667,0,0x8619,
0.129883833333333,0,0x0001,
0.129891500000000,0,0x1D1D,
0.129907625000000,0,0x1551,
0.129915583333333,0,0x9D1D,
0.129944125000000,0,0x0003,
0.129951791666667,0,0x2411,
0.129968083333333,0,0x0048,
0.129976000000000,0,0xA411,
0.129991833333333,0,0x0040,
0.129999791666667,0,0xA511,
0.130015625000000,0,0x0000,
0.130023541666667,0,0xA611,
0.130052875000000,0,0x0005,
0.130060541666667,0,0x2D15,
0.130076541666667,0,0x00C3,
0.130084458333333,0,0xAD11,
0.130100333333333,0,0xFFFF,
0.130108250000000,0,0xAE11,
0.130124083333333,0,0xEF78,
0.130132041666667,0,0xAF11,
0.130147875000000,0,0xFFFE,
0.130155791666667,0,0xB011,
0.130171666666667,0,0x830D,
0.130179583333333,0,0xB111,
0.130209875000000,0,0x0006,
0.130217541666667,0,0x3B19,
0.130233583333333,0,0xB38F,
0.130241500000000,0,0xBB11,
0.130257375000000,0,0xB365,
0.130265291666667,0,0xBC11,
0.130281125000000,0,0xB2FA,
0.130289083333333,0,0xBD11,
0.130304916666667,0,0xB24A,
0.130312833333333,0,0xBE11,
0.130328708333333,0,0xB24C,
0.130336625000000,0,0xBF11,
0.130352458333333,0,0xB2C5,
0.130360416666667,0,0xC011,
0.130390375000000,0,0x000A,
0.130398041666667,0,0x411D,
0.130414416666667,0,0xB4B2,
0.130422333333333,0,0xC111,
0.130438208333333,0,0xB423,
0.130446125000000,0,0xC211,
0.130461958333333,0,0xB4A8,
0.130469916666667,0,0xC311,
0.130485750000000,0,0xB415,
0.130493666666667,0,0xC411,
0.130509541666667,0,0xB45F,
0.130517458333333,0,0xC511,
0.130533333333333,0,0xBD27,
0.130541250000000,0,0xC611,
0.130557125000000,0,0x805A,
0.130565041666667,0,0xC711,
0.130580875000000,0,0xA2F3,
0.130588833333333,0,0xC811,
0.130604708333333,0,0x9E38,
0.130612583333333,0,0xC911,
0.130628458333333,0,0x9E3B,
0.130636375000000,0,0xCA11,
0.130668166666667,0,0x0004,
0.130675833333333,0,0x0321,
0.130691875000000,0,0x0A01,
0.130699708333333,0,0x8321,
0.130715416666667,0,0x0F00,
0.130723291666667,0,0x8421,
0.130739041666667,0,0x0000,
0.130746875000000,0,0x8521,
0.130762625000000,0,0x173F,
0.130770458333333,0,0x8621,
0.130801041666667,0,0x0001,
0.130808708333333,0,0x1D25,
0.130825000000000,0,0x0055,
0.130832875000000,0,0x9D25,
0.130861458333333,0,0x0003,
0.130869166666667,0,0x2429,
0.130885458333333,0,0x004C,
0.130893333333333,0,0xA421,
0.130909041666667,0,0x0040,
0.130916916666667,0,0xA521,
0.130932625000000,0,0x0000,
0.130940500000000,0,0xA621,
0.130968875000000,0,0x0005,
0.130976541666667,0,0x2D2D,
0.130992583333333,0,0x00DF,
0.131000458333333,0,0xAD21,
0.131016166666667,0,0xFFFF,
0.131024041666667,0,0xAE21,
0.131039750000000,0,0xF462,
0.131047625000000,0,0xAF21,
0.131063333333333,0,0xFFFF,
0.131071208333333,0,0xB021,
0.131086916666667,0,0x8307,
0.131094791666667,0,0xB121,
0.131124125000000,0,0x0006,
0.131131833333333,0,0x3B21,
0.131147875000000,0,0xE56C,
0.131155750000000,0,0xBB21,
0.131171458333333,0,0x8000,
0.131179333333333,0,0xBC21,
0.131195041666667,0,0x8000,
0.131202916666667,0,0xBD21,
0.131218666666667,0,0x8001,
0.131226500000000,0,0xBE21,
0.131242250000000,0,0xE60A,
0.131250083333333,0,0xBF21,
0.131265833333333,0,0xE61F,
0.131273708333333,0,0xC021,
0.131304000000000,0,0x000A,
0.131311708333333,0,0x4125,
0.131327750000000,0,0x99A9,
0.131335625000000,0,0xC121,
0.131351333333333,0,0xBDAD,
0.131359208333333,0,0xC221,
0.131374916666667,0,0x9FA5,
0.131382791666667,0,0xC321,
0.131398541666667,0,0xD403,
0.131406375000000,0,0xC421,
0.131422125000000,0,0xA16B,
0.131429958333333,0,0xC521,
0.131445708333333,0,0xE5ED,
0.131453583333333,0,0xC621,
0.131469291666667,0,0xB2A4,
0.131477166666667,0,0xC721,
0.131492875000000,0,0xA2D4,
0.131500750000000,0,0xC821,
0.131516458333333,0,0x9E3A,
0.131524333333333,0,0xC921,
0.131540041666667,0,0x9E41,
0.131547916666667,0,0xCA21,
0.139310291666667,0,0x2C3F,
0.139317958333333,0,0x060B,
0.139344666666667,0,0x0004,
0.139352333333333,0,0x031D,
0.139368625000000,0,0x0A01,
0.139376583333333,0,0x831D,
0.139392416666667,0,0x0F00,
0.139400333333333,0,0x841D,
0.139416208333333,0,0x0000,
0.139424125000000,0,0x8512,
0.139440000000000,0,0x2F3F,
0.139447916666667,0,0x861D,
0.139479250000000,0,0x0004,
0.139486958333333,0,0x0311,
0.139502916666667,0,0x0A01,
0.139510875000000,0,0x8311,
0.139526708333333,0,0x0F00,
0.139534666666667,0,0x8411,
0.139550500000000,0,0x0000,
0.139558458333333,0,0x8512,
0.139574291666667,0,0x2F3F,
0.139582250000000,0,0x8611,
0.139612750000000,0,0x0004,
0.139620458333333,0,0x0315,
0.139636750000000,0,0x0A01,
0.139644708333333,0,0x8315,
0.139660541666667,0,0x0F00,
0.139668500000000,0,0x8415,
0.139684333333333,0,0x0000,
0.139692250000000,0,0x8512,
0.139708125000000,0,0x2F3F,
0.139716041666667,0,0x8615,
0.139747416666667,0,0x0004,
0.139755083333333,0,0x0319,
0.139771541666667,0,0x0A01,
0.139779458333333,0,0x8319,
0.139795333333333,0,0x0F00,
0.139803250000000,0,0x8419,
0.139819083333333,0,0x0000,
0.139827041666667,0,0x8512,
0.139842875000000,0,0x2F3F,
0.139850833333333,0,0x8619,
0.139881000000000,0,0x0004,
0.139888708333333,0,0x031D,
0.139904791666667,0,0x0A01,
0.139912750000000,0,0x831D,
0.139928583333333,0,0x0F00,
0.139936500000000,0,0x841D,
0.139952375000000,0,0x0000,
0.139960291666667,0,0x8512,
0.139976166666667,0,0x273F,
0.139984083333333,0,0x861D,
0.140014625000000,0,0x0001,
0.140022291666667,0,0x1D11,
0.140038583333333,0,0x1551,
0.140046500000000,0,0x9D11,
0.140074750000000,0,0x0003,
0.140082458333333,0,0x2415,
0.140098500000000,0,0x0048,
0.140106416666667,0,0xA412,
0.140122291666667,0,0x0040,
0.140130208333333,0,0xA512,
0.140146041666667,0,0x0000,
0.140154000000000,0,0xA612,
0.140183750000000,0,0x0005,
0.140191458333333,0,0x2D19,
0.140207458333333,0,0x01D0,
0.140215375000000,0,0xAD12,
0.140231250000000,0,0xFFFF,
0.140239166666667,0,0xAE12,
0.140255041666667,0,0xE8F5,
0.140262958333333,0,0xAF12,
0.140278791666667,0,0xFFFF,
0.140286708333333,0,0xB012,
0.140302583333333,0,0x830B,
0.140310458333333,0,0xB112,
0.140340250000000,0,0x0006,
0.140347916666667,0,0x3B1D,
0.140364000000000,0,0xB3D8,
0.140371916666667,0,0xBB12,
0.140387750000000,0,0xB351,
0.140395666666667,0,0xBC12,
0.140411541666667,0,0xB2E8,
0.140419458333333,0,0xBD12,
0.140435333333333,0,0xB22C,
0.140443250000000,0,0xBE12,
0.140459083333333,0,0xB22D,
0.140467041666667,0,0xBF12,
0.140482875000000,0,0xB2A2,
0.140490833333333,0,0xC012,
0.140521291666667,0,0x000A,
0.140528958333333,0,0x4111,
0.140545333333333,0,0xBFEF,
0.140553250000000,0,0xC112,
0.140569083333333,0,0xBF17,
0.140577041666667,0,0xC212,
0.140592875000000,0,0xBFF3,
0.140600791666667,0,0xC312,
0.140616666666667,0,0xBFD7,
0.140624583333333,0,0xC412,
0.140640458333333,0,0xBFEE,
0.140648375000000,0,0xC512,
0.140664208333333,0,0xD60F,
0.140672166666667,0,0xC612,
0.140688000000000,0,0x8005,
0.140695916666667,0,0xC712,
0.140711791666667,0,0xA2F3,
0.140719708333333,0,0xC812,
0.140735583333333,0,0x9E40,
0.140743500000000,0,0xC912,
0.140759375000000,0,0x9E3B,
0.140767291666667,0,0xCA12,
0.140799083333333,0,0x0004,
0.140806750000000,0,0x0325,
0.140822833333333,0,0x0A01,
0.140830708333333,0,0x8325,
0.140846416666667,0,0x0F00,
0.140854291666667,0,0x8425,
0.140870041666667,0,0x0000,
0.140877875000000,0,0x8522,
0.140893583333333,0,0x273F,
0.140901458333333,0,0x8625,
0.140931791666667,0,0x0001,
0.140939458333333,0,0x1D29,
0.140955541666667,0,0x0055,
0.140963375000000,0,0x9D29,
0.140991500000000,0,0x0003,
0.140999166666667,0,0x242D,
0.141015500000000,0,0x004C,
0.141023375000000,0,0xA422,
0.141039083333333,0,0x0040,
0.141046958333333,0,0xA522,
0.141062708333333,0,0x0000,
0.141070541666667,0,0xA622,
0.141099583333333,0,0x0005,
0.141107250000000,0,0x2D21,
0.141123625000000,0,0x01EF,
0.141131500000000,0,0xAD22,
0.141147208333333,0,0xFFFF,
0.141155083333333,0,0xAE22,
0.141170791666667,0,0xF315,
0.141178666666667,0,0xAF22,
0.141194375000000,0,0xFFFF,
0.141202250000000,0,0xB022,
0.141217958333333,0,0x830B,
0.141225833333333,0,0xB122,
0.141256291666667,0,0x0006,
0.141263958333333,0,0x3B25,
0.141280375000000,0,0xE564,
0.141288250000000,0,0xBB22,
0.141303958333333,0,0x8001,
0.141311833333333,0,0xBC22,
0.141327583333333,0,0x8000,
0.141335416666667,0,0xBD22,
0.141351125000000,0,0x8000,
0.141359000000000,0,0xBE22,
0.141374750000000,0,0xE603,
0.141382625000000,0,0xBF22,
0.141398333333333,0,0xE61D,
0.141406208333333,0,0xC022,
0.141436041666667,0,0x000A,
0.141443708333333,0,0x4129,
0.141459791666667,0,0xADD0,
0.141467625000000,0,0xC122,
0.141483375000000,0,0xD668,
0.141491208333333,0,0xC222,
0.141506958333333,0,0xB82E,
0.141514833333333,0,0xC322,
0.141530541666667,0,0xE068,
0.141538416666667,0,0xC422,
0.141554125000000,0,0xA876,
0.141562000000000,0,0xC522,
0.141577708333333,0,0xFCB0,
0.141585583333333,0,0xC622,
0.141601291666667,0,0xBE3E,
0.141609166666667,0,0xC722,
0.141624916666667,0,0xA2D5,
0.141632791666667,0,0xC822,
0.141648500000000,0,0x9E3B,
0.141656375000000,0,0xC922,
0.141672083333333,0,0x9E43,
0.141679958333333,0,0xCA22,
0.149303625000000,0,0x3C3F,
0.149311291666667,0,0x060F,
0.149338708333333,0,0x0004,
0.149346375000000,0,0x0311,
0.149362708333333,0,0x0A01,
0.149370625000000,0,0x8311,
0.149386458333333,0,0x0F00,
0.149394416666667,0,0x8411,
0.149410250000000,0,0x0000,
0.149418208333333,0,0x8513,
0.149434041666667,0,0x3F3F,
0.149442000000000,0,0x8611,
0.149472583333333,0,0x0004,
0.149480250000000,0,0x0315,
0.149496500000000,0,0x0A01,
0.149504416666667,0,0x8315,
0.149520250000000,0,0x0F00,
0.149528208333333,0,0x8415,
0.149544083333333,0,0x0000,
0.149552000000000,0,0x8513,
0.149567875000000,0,0x3F3F,
0.149575791666667,0,0x8615,
0.149606583333333,0,0x0004,
0.149614250000000,0,0x0319,
0.149630333333333,0,0x0A01,
0.149638250000000,0,0x8319,
0.149654083333333,0,0x0F00,
0.149662041666667,0,0x8419,
0.149677875000000,0,0x0000,
0.149685833333333,0,0x8513,
0.149701666666667,0,0x3F3F,
0.149709625000000,0,0x8619,
0.149740791666667,0,0x0004,
0.149748458333333,0,0x031D,
0.149764625000000,0,0x0A01,
0.149772541666667,0,0x831D,
0.149788416666667,0,0x0F00,
0.149796333333333,0,0x841D,
0.149812166666667,0,0x0000,
0.149820125000000,0,0x8513,
0.149836000000000,0,0x3F3F,
0.149843916666667,0,0x861D,
0.149874708333333,0,0x0004,
0.149882416666667,0,0x0311,
0.149898416666667,0,0x0A01,
0.149906333333333,0,0x8311,
0.149922208333333,0,0x0F00,
0.149930125000000,0,0x8411,
0.149946000000000,0,0x0000,
0.149953916666667,0,0x8513,
0.149969791666667,0,0x373F,
0.149977708333333,0,0x8611,
0.150007875000000,0,0x0001,
0.150015541666667,0,0x1D15,
0.150031708333333,0,0x1551,
0.150039625000000,0,0x9D15,
0.150067458333333,0,0x0003,
0.150075125000000,0,0x2419,
0.150091166666667,0,0x0048,
0.150099083333333,0,0xA413,
0.150114916666667,0,0x0040,
0.150122875000000,0,0xA513,
0.150138708333333,0,0x0000,
0.150146666666667,0,0xA613,
0.150175791666667,0,0x0005,
0.150183458333333,0,0x2D1D,
0.150199625000000,0,0x02DA,
0.150207583333333,0,0xAD13,
0.150223458333333,0,0xFFFF,
0.150231375000000,0,0xAE13,
0.150247208333333,0,0xE6C7,
0.150255166666667,0,0xAF13,
0.150271000000000,0,0x8000,
0.150278916666667,0,0xB013,
0.150294791666667,0,0x8301,
0.150302708333333,0,0xB113,
0.150334041666667,0,0x0006,
0.150341708333333,0,0x3B11,
0.150357708333333,0,0xB3EC,
0.150365625000000,0,0xBB13,
0.150381500000000,0,0xB34C,
0.150389416666667,0,0xBC13,
0.150405250000000,0,0xB2DC,
0.150413208333333,0,0xBD13,
0.150429041666667,0,0xB225,
0.150437000000000,0,0xBE13,
0.150452833333333,0,0xB21F,
0.150460791666667,0,0xBF13,
0.150476625000000,0,0xB296,
0.150484541666667,0,0xC013,
0.150514083333333,0,0x000A,
0.150521750000000,0,0x4115,
0.150538083333333,0,0xC0A9,
0.150546000000000,0,0xC113,
0.150561875000000,0,0xC06C,
0.150569791666667,0,0xC213,
0.150585625000000,0,0xC0AE,
0.150593583333333,0,0xC313,
0.150609416666667,0,0xC0AA,
0.150617333333333,0,0xC413,
0.150633208333333,0,0xC0AE,
0.150641125000000,0,0xC513,
0.150656958333333,0,0xDD44,
0.150664875000000,0,0xC613,
0.150680750000000,0,0x8002,
0.150688666666667,0,0xC713,
0.150704541666667,0,0xA2F5,
0.150712458333333,0,0xC813,
0.150728333333333,0,0x9E3D,
0.150736250000000,0,0xC913,
0.150752125000000,0,0x9E3D,
0.150760041666667,0,0xCA13,
0.150792708333333,0,0x0004,
0.150800416666667,0,0x0329,
0.150816500000000,0,0x0A01,
0.150824375000000,0,0x8329,
0.150840083333333,0,0x0F00,
0.150847958333333,0,0x8429,
0.150863666666667,0,0x0000,
0.150871541666667,0,0x8523,
0.150887250000000,0,0x373F,
0.150895125000000,0,0x8629,
0.150925625000000,0,0x0001,
0.150933291666667,0,0x1D2D,
0.150949666666667,0,0x0055,
0.150957541666667,0,0x9D2D,
0.150985583333333,0,0x0003,
0.150993250000000,0,0x2421,
0.151009625000000,0,0x004C,
0.151017500000000,0,0xA423,
0.151033208333333,0,0x0040,
0.151041083333333,0,0xA523,
0.151056791666667,0,0x0000,
0.151064666666667,0,0xA623,
0.151093208333333,0,0x0005,
0.151100833333333,0,0x2D25,
0.151117250000000,0,0x02FA,
0.151125125000000,0,0xAD23,
0.151140833333333,0,0xFFFF,
0.151148708333333,0,0xAE23,
0.151164416666667,0,0xF35B,
0.151172291666667,0,0xAF23,
0.151188000000000,0,0xFFFF,
0.151195875000000,0,0xB023,
0.151211583333333,0,0x830F,
0.151219458333333,0,0xB123,
0.151249041666667,0,0x0006,
0.151256708333333,0,0x3B29,
0.151273041666667,0,0xE560,
0.151280916666667,0,0xBB23,
0.151296666666667,0,0x8000,
0.151304500000000,0,0xBC23,
0.151320250000000,0,0x8001,
0.151328083333333,0,0xBD23,
0.151343833333333,0,0x8000,
0.151351708333333,0,0xBE23,
0.151367416666667,0,0xE601,
0.151375291666667,0,0xBF23,
0.151391000000000,0,0xE613,
0.151398875000000,0,0xC023,
0.151428458333333,0,0x000A,
0.151436166666667,0,0x412D,
0.151452416666667,0,0xBD62,
0.151460291666667,0,0xC123,
0.151476000000000,0,0xDD42,
0.151483875000000,0,0xC223,
0.151499625000000,0,0xC6BF,
0.151507458333333,0,0xC323,
0.151523208333333,0,0xE120,
0.151531083333333,0,0xC423,
0.151546791666667,0,0xA953,
0.151554666666667,0,0xC523,
0.151570375000000,0,0xFEE6,
0.151578250000000,0,0xC623,
0.151593958333333,0,0xBFB6,
0.151601833333333,0,0xC723,
0.151617541666667,0,0xA2D4,
0.151625416666667,0,0xC823,
0.151641166666667,0,0x9E3C,
0.151649041666667,0,0xC923,
0.151664708333333,0,0x9E43,
0.151672583333333,0,0xCA23,
0.159413125000000,0,0x4C3F,
0.159420833333333,0,0x0603,
0.159448375000000,0,0x0004,
0.159456041666667,0,0x0315,
0.159472083333333,0,0x0A01,
0.159480000000000,0,0x8315,
0.159495833333333,0,0x0F00,
0.159503791666667,0,0x8415,
0.159519625000000,0,0x0000,
0.159527541666667,0,0x8514,
0.159543416666667,0,0x4F3F,
0.159551333333333,0,0x8615,
0.159582583333333,0,0x0004,
0.159590250000000,0,0x0319,
0.159606333333333,0,0x0A01,
0.159614250000000,0,0x8319,
0.159630083333333,0,0x0F00,
0.159638041666667,0,0x8419,
0.159653875000000,0,0x0000,
0.159661833333333,0,0x8514,
0.159677666666667,0,0x4F3F,
0.159685625000000,0,0x8619,
0.159715916666667,0,0x0004,
0.159723625000000,0,0x031D,
0.159739625000000,0,0x0A01,
0.159747541666667,0,0x831D,
0.159763416666667,0,0x0F00,
0.159771333333333,0,0x841D,
0.159787208333333,0,0x0000,
0.159795125000000,0,0x8514,
0.159811000000000,0,0x4F3F,
0.159818916666667,0,0x861D,
0.159849250000000,0,0x0004,
0.159856916666667,0,0x0311,
0.159872958333333,0,0x0A01,
0.159880875000000,0,0x8311,
0.159896708333333,0,0x0F00,
0.159904666666667,0,0x8411,
0.159920500000000,0,0x0000,
0.159928458333333,0,0x8514,
0.159944291666667,0,0x4F3F,
0.159952208333333,0,0x8611,
0.159982750000000,0,0x0004,
0.159990416666667,0,0x0315,
0.160006750000000,0,0x0A01,
0.160014666666667,0,0x8315,
0.160030500000000,0,0x0F00,
0.160038458333333,0,0x8415,
0.160054291666667,0,0x0000,
0.160062208333333,0,0x8514,
0.160078083333333,0,0x473F,
0.160086000000000,0,0x8615,
0.160116458333333,0,0x0001,
0.160124125000000,0,0x1D19,
0.160140500000000,0,0x1551,
0.160148416666667,0,0x9D19,
0.160177208333333,0,0x0003,
0.160184875000000,0,0x241D,
0.160200916666667,0,0x0048,
0.160208833333333,0,0xA414,
0.160224666666667,0,0x0040,
0.160232625000000,0,0xA514,
0.160248458333333,0,0x0000,
0.160256375000000,0,0xA614,
0.160286000000000,0,0x0005,
0.160293708333333,0,0x2D11,
0.160309875000000,0,0x03E6,
0.160317791666667,0,0xAD14,
0.160333625000000,0,0xFFFF,
0.160341583333333,0,0xAE14,
0.160357416666667,0,0xE3FC,
0.160365375000000,0,0xAF14,
0.160381208333333,0,0xFFFF,
0.160389125000000,0,0xB014,
0.160405000000000,0,0x8306,
0.160412916666667,0,0xB114,
0.160442666666667,0,0x0006,
0.160450333333333,0,0x3B15,
0.160466416666667,0,0xB3F0,
0.160474333333333,0,0xBB14,
0.160490166666667,0,0xB349,
0.160498083333333,0,0xBC14,
0.160513958333333,0,0xB2DD,
0.160521875000000,0,0xBD14,
0.160537708333333,0,0xB21E,
0.160545666666667,0,0xBE14,
0.160561500000000,0,0xB219,
0.160569416666667,0,0xBF14,
0.160585291666667,0,0xB28E,
0.160593208333333,0,0xC014,
0.160623000000000,0,0x000A,
0.160630666666667,0,0x4119,
0.160646708333333,0,0xC0B8,
0.160654625000000,0,0xC114,
0.160670500000000,0,0xC09D,
0.160678416666667,0,0xC214,
0.160694250000000,0,0xC0BE,
0.160702208333333,0,0xC314,
0.160718041666667,0,0xC0BA,
0.160725958333333,0,0xC414,
0.160741833333333,0,0xC0BB,
0.160749750000000,0,0xC514,
0.160765583333333,0,0xDF63,
0.160773500000000,0,0xC614,
0.160789333333333,0,0x8000,
0.160797291666667,0,0xC714,
0.160813125000000,0,0xA2F6,
0.160821041666667,0,0xC814,
0.160836916666667,0,0x9E39,
0.160844833333333,0,0xC914,
0.160860666666667,0,0x9E3C,
0.160868625000000,0,0xCA14,
0.160900500000000,0,0x0004,
0.160908166666667,0,0x032D,
0.160924583333333,0,0x0A01,
0.160932458333333,0,0x832D,
0.160948208333333,0,0x0F00,
0.160956083333333,0,0x842D,
0.160971791666667,0,0x0000,
0.160979666666667,0,0x8524,
0.160995375000000,0,0x473F,
0.161003250000000,0,0x862D,
0.161033583333333,0,0x0001,
0.161041250000000,0,0x1D21,
0.161057291666667,0,0x0055,
0.161065166666667,0,0x9D21,
0.161093375000000,0,0x0003,
0.161101041666667,0,0x2425,
0.161117250000000,0,0x004C,
0.161125125000000,0,0xA424,
0.161140833333333,0,0x0040,
0.161148708333333,0,0xA524,
0.161164416666667,0,0x0000,
0.161172291666667,0,0xA624,
0.161200958333333,0,0x0005,
0.161208625000000,0,0x2D29,
0.161224875000000,0,0x0409,
0.161232750000000,0,0xAD24,
0.161248458333333,0,0xFFFF,
0.161256333333333,0,0xAE24,
0.161272083333333,0,0xF302,
0.161279916666667,0,0xAF24,
0.161295666666667,0,0x8000,
0.161303500000000,0,0xB024,
0.161319250000000,0,0x8304,
0.161327083333333,0,0xB124,
0.161357041666667,0,0x0006,
0.161364750000000,0,0x3B2D,
0.161381166666667,0,0xE560,
0.161389000000000,0,0xBB24,
0.161404750000000,0,0x8000,
0.161412625000000,0,0xBC24,
0.161428333333333,0,0x8000,
0.161436208333333,0,0xBD24,
0.161451916666667,0,0x8000,
0.161459791666667,0,0xBE24,
0.161475500000000,0,0xE5FC,
0.161483375000000,0,0xBF24,
0.161499083333333,0,0xE60F,
0.161506958333333,0,0xC024,
0.161536250000000,0,0x000A,
0.161543958333333,0,0x4121,
0.161560041666667,0,0xC8BD,
0.161567916666667,0,0xC124,
0.161583666666667,0,0xDF33,
0.161591500000000,0,0xC224,
0.161607250000000,0,0xD04E,
0.161615125000000,0,0xC324,
0.161630833333333,0,0xE135,
0.161638708333333,0,0xC424,
0.161654416666667,0,0xA978,
0.161662291666667,0,0xC524,
0.161678000000000,0,0xFF2C,
0.161685875000000,0,0xC624,
0.161701625000000,0,0xBFF4,
0.161709458333333,0,0xC724,
0.161725208333333,0,0xA2D4,
0.161733083333333,0,0xC824,
0.161748791666667,0,0x9E3B,
0.161756666666667,0,0xC924,
0.161772375000000,0,0x9E40,
0.161780250000000,0,0xCA24,
0.169303583333333,0,0x5C3F,
0.169311250000000,0,0x0607,
0.169338958333333,0,0x0004,
0.169346625000000,0,0x0319,
0.169362875000000,0,0x0A01,
0.169370791666667,0,0x8319,
0.169386666666667,0,0x0F00,
0.169394583333333,0,0x8419,
0.169410458333333,0,0x0000,
0.169418375000000,0,0x8515,
0.169434208333333,0,0x5F3F,
0.169442166666667,0,0x8619,
0.169473041666667,0,0x0004,
0.169480708333333,0,0x031D,
0.169497166666667,0,0x0A01,
0.169505083333333,0,0x831D,
0.169520916666667,0,0x0F00,
0.169528875000000,0,0x841D,
0.169544750000000,0,0x0000,
0.169552666666667,0,0x8515,
0.169568500000000,0,0x5F3F,
0.169576416666667,0,0x861D,
0.169607500000000,0,0x0004,
0.169615208333333,0,0x0311,
0.169631458333333,0,0x0A01,
0.169639375000000,0,0x8311,
0.169655208333333,0,0x0F00,
0.169663166666667,0,0x8411,
0.169679041666667,0,0x0000,
0.169686958333333,0,0x8515,
0.169702791666667,0,0x5F3F,
0.169710708333333,0,0x8611,
0.169741541666667,0,0x0004,
0.169749208333333,0,0x0315,
0.169765250000000,0,0x0A01,
0.169773166666667,0,0x8315,
0.169789041666667,0,0x0F00,
0.169796958333333,0,0x8415,
0.169812791666667,0,0x0000,
0.169820708333333,0,0x8515,
0.169836583333333,0,0x5F3F,
0.169844500000000,0,0x8615,
0.169874708333333,0,0x0004,
0.169882416666667,0,0x0319,
0.169898500000000,0,0x0A01,
0.169906416666667,0,0x8319,
0.169922250000000,0,0x0F00,
0.169930166666667,0,0x8419,
0.169946041666667,0,0x0000,
0.169953958333333,0,0x8515,
0.169969833333333,0,0x573F,
0.169977750000000,0,0x8619,
0.170008291666667,0,0x0001,
0.170016000000000,0,0x1D1D,
0.170032250000000,0,0x1551,
0.170040166666667,0,0x9D1D,
0.170068208333333,0,0x0003,
0.170075875000000,0,0x2411,
0.170092208333333,0,0x0048,
0.170100125000000,0,0xA415,
0.170115958333333,0,0x0040,
0.170123875000000,0,0xA515,
0.170139750000000,0,0x0000,
0.170147666666667,0,0xA615,
0.170176708333333,0,0x0005,
0.170184375000000,0,0x2D15,
0.170200708333333,0,0x04ED,
0.170208625000000,0,0xAD15,
0.170224500000000,0,0xFFFF,
0.170232416666667,0,0xAE15,
0.170248291666667,0,0xE1B7,
0.170256208333333,0,0xAF15,
0.170272083333333,0,0xFFFF,
0.170280000000000,0,0xB015,
0.170295833333333,0,0x830E,
0.170303791666667,0,0xB115,
0.170334291666667,0,0x0006,
0.170342000000000,0,0x3B19,
0.170358291666667,0,0xB3F5,
0.170366166666667,0,0xBB15,
0.170382041666667,0,0xB348,
0.170390000000000,0,0xBC15,
0.170405833333333,0,0xB2D7,
0.170413750000000,0,0xBD15,
0.170429583333333,0,0xB21A,
0.170437541666667,0,0xBE15,
0.170453375000000,0,0xB214,
0.170461291666667,0,0xBF15,
0.170477166666667,0,0xB28A,
0.170485083333333,0,0xC015,
0.170516083333333,0,0x000A,
0.170523750000000,0,0x411D,
0.170540083333333,0,0xC0C0,
0.170548000000000,0,0xC115,
0.170563875000000,0,0xC0AF,
0.170571791666667,0,0xC215,
0.170587666666667,0,0xC0C1,
0.170595583333333,0,0xC315,
0.170611458333333,0,0xC0C0,
0.170619375000000,0,0xC415,
0.170635208333333,0,0xC0BE,
0.170643166666667,0,0xC515,
0.170659000000000,0,0xE006,
0.170666916666667,0,0xC615,
0.170682791666667,0,0x8000,
0.170690708333333,0,0xC715,
0.170706541666667,0,0xA2F5,
0.170714458333333,0,0xC815,
0.170730333333333,0,0x9E3A,
0.170738250000000,0,0xC915,
0.170754125000000,0,0x9E40,
0.170762041666667,0,0xCA15,
0.170794500000000,0,0x0004,
0.170802166666667,0,0x0321,
0.170818458333333,0,0x0A01,
0.170826291666667,0,0x8321,
0.170842041666667,0,0x0F00,
0.170849916666667,0,0x8421,
0.170865625000000,0,0x0000,
0.170873500000000,0,0x8525,
0.170889208333333,0,0x573F,
0.170897083333333,0,0x8621,
0.170927750000000,0,0x0001,
0.170935416666667,0,0x1D25,
0.170951625000000,0,0x0055,
0.170959500000000,0,0x9D25,
0.170987125000000,0,0x0003,
0.170994833333333,0,0x2429,
0.171011083333333,0,0x004C,
0.171019000000000,0,0xA425,
0.171034708333333,0,0x0040,
0.171042583333333,0,0xA525,
0.171058291666667,0,0x0000,
0.171066166666667,0,0xA625,
0.171094625000000,0,0x0005,
0.171102291666667,0,0x2D2D,
0.171118750000000,0,0x0512,
0.171126583333333,0,0xAD25,
0.171142333333333,0,0xFFFF,
0.171150166666667,0,0xAE25,
0.171165916666667,0,0xF2CE,
0.171173791666667,0,0xAF25,
0.171189500000000,0,0xFFFF,
0.171197375000000,0,0xB025,
0.171213083333333,0,0x8309,
0.171220958333333,0,0xB125,
0.171250583333333,0,0x0006,
0.171258250000000,0,0x3B21,
0.171274541666667,0,0xE558,
0.171282375000000,0,0xBB25,
0.171298125000000,0,0x8000,
0.171305958333333,0,0xBC25,
0.171321708333333,0,0x8000,
0.171329583333333,0,0xBD25,
0.171345291666667,0,0x8000,
0.171353166666667,0,0xBE25,
0.171368875000000,0,0xE5F8,
0.171376750000000,0,0xBF25,
0.171392458333333,0,0xE60F,
0.171400333333333,0,0xC025,
0.171430333333333,0,0x000A,
0.171438000000000,0,0x4125,
0.171454375000000,0,0xD089,
0.171462250000000,0,0xC125,
0.171477958333333,0,0xDFBD,
0.171485833333333,0,0xC225,
0.171501583333333,0,0xD675,
0.171509458333333,0,0xC325,
0.171525166666667,0,0xE136,
0.171533041666667,0,0xC425,
0.171548750000000,0,0xA97C,
0.171556625000000,0,0xC525,
0.171572333333333,0,0xFF35,
0.171580208333333,0,0xC625,
0.171595958333333,0,0xBFFF,
0.171603791666667,0,0xC725,
0.171619541666667,0,0xA2D6,
0.171627416666667,0,0xC825,
0.171643125000000,0,0x9E3A,
0.171651000000000,0,0xC925,
0.171666708333333,0,0x9E40,
0.171674583333333,0,0xCA25,
0.179307458333333,0,0x6C3F,
0.179315166666667,0,0x060B,
0.179342625000000,0,0x0004,
0.179350291666667,0,0x031D,
0.179366458333333,0,0x0A01,
0.179374416666667,0,0x831D,
0.179390250000000,0,0x0F00,
0.179398208333333,0,0x841D,
0.179414041666667,0,0x0000,
0.179422000000000,0,0x8516,
0.179437833333333,0,0x6F3F,
0.179445750000000,0,0x861D,
0.179476625000000,0,0x0004,
0.179484291666667,0,0x0311,
0.179500291666667,0,0x0A01,
0.179508208333333,0,0x8311,
0.179524083333333,0,0x0F00,
0.179532000000000,0,0x8411,
0.179547833333333,0,0x0000,
0.179555791666667,0,0x8516,
0.179571625000000,0,0x6F3F,
0.179579541666667,0,0x8611,
0.179610125000000,0,0x0004,
0.179617791666667,0,0x0315,
0.179634083333333,0,0x0A01,
0.179642000000000,0,0x8315,
0.179657875000000,0,0x0F00,
0.179665791666667,0,0x8415,
0.179681666666667,0,0x0000,
0.179689583333333,0,0x8516,
0.179705458333333,0,0x6F3F,
0.179713375000000,0,0x8615,
0.179744541666667,0,0x0004,
0.179752208333333,0,0x0319,
0.179768375000000,0,0x0A01,
0.179776291666667,0,0x8319,
0.179792166666667,0,0x0F00,
0.179800083333333,0,0x8419,
0.179815958333333,0,0x0000,
0.179823875000000,0,0x8516,
0.179839708333333,0,0x6F3F,
0.179847625000000,0,0x8619,
0.179879000000000,0,0x0004,
0.179886666666667,0,0x031D,
0.179903125000000,0,0x0A01,
0.179911041666667,0,0x831D,
0.179926916666667,0,0x0F00,
0.179934833333333,0,0x841D,
0.179950708333333,0,0x0000,
0.179958583333333,0,0x8516,
0.179974458333333,0,0x673F,
0.179982375000000,0,0x861D,
0.180012875000000,0,0x0001,
0.180020583333333,0,0x1D11,
0.180036875000000,0,0x1551,
0.180044791666667,0,0x9D11,
0.180073000000000,0,0x0003,
0.180080666666667,0,0x2415,
0.180096791666667,0,0x0048,
0.180104708333333,0,0xA416,
0.180120583333333,0,0x0040,
0.180128500000000,0,0xA516,
0.180144375000000,0,0x0000,
0.180152291666667,0,0xA616,
0.180181125000000,0,0x0005,
0.180188791666667,0,0x2D19,
0.180205291666667,0,0x05F7,
0.180213208333333,0,0xAD16,
0.180229041666667,0,0xFFFF,
0.180237000000000,0,0xAE16,
0.180252833333333,0,0xDF62,
0.180260750000000,0,0xAF16,
0.180276583333333,0,0xFFFF,
0.180284541666667,0,0xB016,
0.180300375000000,0,0x830E,
0.180308291666667,0,0xB116,
0.180339125000000,0,0x0006,
0.180346791666667,0,0x3B1D,
0.180362791666667,0,0xB3EF,
0.180370708333333,0,0xBB16,
0.180386541666667,0,0xB341,
0.180394458333333,0,0xBC16,
0.180410291666667,0,0xB2D8,
0.180418250000000,0,0xBD16,
0.180434083333333,0,0xB217,
0.180442000000000,0,0xBE16,
0.180457875000000,0,0xB216,
0.180465791666667,0,0xBF16,
0.180481625000000,0,0xB28B,
0.180489541666667,0,0xC016,
0.180520166666667,0,0x000A,
0.180527875000000,0,0x4111,
0.180544041666667,0,0xC0C1,
0.180552000000000,0,0xC116,
0.180567833333333,0,0xC0B1,
0.180575750000000,0,0xC216,
0.180591583333333,0,0xC0C0,
0.180599500000000,0,0xC316,
0.180615375000000,0,0xC0C3,
0.180623291666667,0,0xC416,
0.180639125000000,0,0xC0BF,
0.180647041666667,0,0xC516,
0.180662916666667,0,0xE03D,
0.180670833333333,0,0xC616,
0.180686666666667,0,0x8000,
0.180694625000000,0,0xC716,
0.180710458333333,0,0xA2F8,
0.180718375000000,0,0xC816,
0.180734250000000,0,0x9E3A,
0.180742166666667,0,0xC916,
0.180758000000000,0,0x9E3C,
0.180765958333333,0,0xCA16,
0.180799083333333,0,0x0004,
0.180806750000000,0,0x0325,
0.180823083333333,0,0x0A01,
0.180830958333333,0,0x8325,
0.180846708333333,0,0x0F00,
0.180854541666667,0,0x8425,
0.180870291666667,0,0x0000,
0.180878166666667,0,0x8526,
0.180893875000000,0,0x673F,
0.180901750000000,0,0x8625,
0.180932333333333,0,0x0001,
0.180940000000000,0,0x1D29,
0.180956291666667,0,0x0055,
0.180964125000000,0,0x9D29,
0.180991625000000,0,0x0003,
0.180999291666667,0,0x242D,
0.181015250000000,0,0x004C,
0.181023125000000,0,0xA426,
0.181038833333333,0,0x0040,
0.181046708333333,0,0xA526,
0.181062458333333,0,0x0000,
0.181070333333333,0,0xA626,
0.181098916666667,0,0x0005,
0.181106625000000,0,0x2D21,
0.181122916666667,0,0x061E,
0.181130750000000,0,0xAD26,
0.181146500000000,0,0xFFFF,
0.181154333333333,0,0xAE26,
0.181170083333333,0,0xF27C,
0.181177958333333,0,0xAF26,
0.181193666666667,0,0xFFFF,
0.181201500000000,0,0xB026,
0.181217250000000,0,0x830F,
0.181225125000000,0,0xB126,
0.181256416666667,0,0x0006,
0.181264083333333,0,0x3B25,
0.181280166666667,0,0xE55A,
0.181288041666667,0,0xBB26,
0.181303750000000,0,0x8000,
0.181311625000000,0,0xBC26,
0.181327333333333,0,0x8000,
0.181335208333333,0,0xBD26,
0.181350916666667,0,0x8000,
0.181358791666667,0,0xBE26,
0.181374541666667,0,0xE5F5,
0.181382375000000,0,0xBF26,
0.181398125000000,0,0xE608,
0.181405958333333,0,0xC026,
0.181435666666667,0,0x000A,
0.181443333333333,0,0x4129,
0.181459541666667,0,0xD5B9,
0.181467416666667,0,0xC126,
0.181483125000000,0,0xDFE7,
0.181491000000000,0,0xC226,
0.181506708333333,0,0xDA3E,
0.181514583333333,0,0xC326,
0.181530291666667,0,0xE134,
0.181538166666667,0,0xC426,
0.181553875000000,0,0xA97F,
0.181561750000000,0,0xC526,
0.181577458333333,0,0xFF3D,
0.181585333333333,0,0xC626,
0.181601041666667,0,0xC001,
0.181608916666667,0,0xC726,
0.181624625000000,0,0xA2D8,
0.181632500000000,0,0xC826,
0.181648208333333,0,0x9E36,
0.181656083333333,0,0xC926,
0.181671833333333,0,0x9E3E,
0.181679666666667,0,0xCA26,
0.189308958333333,0,0x7C3F,
0.189316666666667,0,0x060F,
0.189344500000000,0,0x0004,
0.189352166666667,0,0x0311,
0.189368583333333,0,0x0A01,
0.189376500000000,0,0x8311,
0.189392375000000,0,0x0F00,
0.189400291666667,0,0x8411,
0.189416166666667,0,0x0000,
0.189424083333333,0,0x8517,
0.189439958333333,0,0x7F3F,
0.189447875000000,0,0x8611,
0.189479125000000,0,0x0004,
0.189486833333333,0,0x0315,
0.189502875000000,0,0x0A01,
0.189510833333333,0,0x8315,
0.189526666666667,0,0x0F00,
0.189534625000000,0,0x8415,
0.189550458333333,0,0x0000,
0.189558375000000,0,0x8517,
0.189574250000000,0,0x7F3F,
0.189582208333333,0,0x8615,
0.189613666666667,0,0x0004,
0.189621375000000,0,0x0319,
0.189637708333333,0,0x0A01,
0.189645625000000,0,0x8319,
0.189661500000000,0,0x0F00,
0.189669458333333,0,0x8419,
0.189685333333333,0,0x0000,
0.189693250000000,0,0x8517,
0.189709125000000,0,0x7F3F,
0.189717041666667,0,0x8619,
0.189747750000000,0,0x0004,
0.189755416666667,0,0x031D,
0.189771541666667,0,0x0A01,
0.189779458333333,0,0x831D,
0.189795333333333,0,0x0F00,
0.189803250000000,0,0x841D,
0.189819125000000,0,0x0000,
0.189827041666667,0,0x8517,
0.189842916666667,0,0x7F3F,
0.189850833333333,0,0x861D,
0.189881333333333,0,0x0004,
0.189889000000000,0,0x0311,
0.189905375000000,0,0x0A01,
0.189913291666667,0,0x8311,
0.189929125000000,0,0x0F00,
0.189937083333333,0,0x8411,
0.189952916666667,0,0x0000,
0.189960875000000,0,0x8517,
0.189976708333333,0,0x773F,
0.189984666666667,0,0x8611,
0.190016083333333,0,0x0001,
0.190023791666667,0,0x1D15,
0.190040166666667,0,0x1551,
0.190048083333333,0,0x9D15,
0.190075833333333,0,0x0003,
0.190083500000000,0,0x2419,
0.190099625000000,0,0x0048,
0.190107541666667,0,0xA417,
0.190123375000000,0,0x0040,
0.190131333333333,0,0xA517,
0.190147208333333,0,0x0000,
0.190155125000000,0,0xA617,
0.190184583333333,0,0x0005,
0.190192250000000,0,0x2D1D,
0.190208625000000,0,0x0701,
0.190216541666667,0,0xAD17,
0.190232416666667,0,0xFFFF,
0.190240333333333,0,0xAE17,
0.190256208333333,0,0xDDB3,
0.190264125000000,0,0xAF17,
0.190280000000000,0,0xFFFF,
0.190287916666667,0,0xB017,
0.190303791666667,0,0x830D,
0.190311708333333,0,0xB117,
0.190341416666667,0,0x0006,
0.190349083333333,0,0x3B11,
0.190365208333333,0,0xB3F1,
0.190373166666667,0,0xBB17,
0.190389000000000,0,0xB344,
0.190396916666667,0,0xBC17,
0.190412791666667,0,0xB2D5,
0.190420708333333,0,0xBD17,
0.190436583333333,0,0xB217,
0.190444500000000,0,0xBE17,
0.190460375000000,0,0xB217,
0.190468291666667,0,0xBF17,
0.190484166666667,0,0xB289,
0.190492041666667,0,0xC017,
0.190522333333333,0,0x000A,
0.190530041666667,0,0x4115,
0.190546083333333,0,0xC0C1,
0.190554000000000,0,0xC117,
0.190569875000000,0,0xC0B5,
0.190577791666667,0,0xC217,
0.190593666666667,0,0xC0C2,
0.190601583333333,0,0xC317,
0.190617416666667,0,0xC0C2,
0.190625333333333,0,0xC417,
0.190641208333333,0,0xC0C1,
0.190649125000000,0,0xC517,
0.190664958333333,0,0xE051,
0.190672875000000,0,0xC617,
0.190688750000000,0,0x8000,
0.190696666666667,0,0xC717,
0.190712541666667,0,0xA2F9,
0.190720458333333,0,0xC817,
0.190736291666667,0,0x9E39,
0.190744208333333,0,0xC917,
0.190760083333333,0,0x9E3C,
0.190768000000000,0,0xCA17,
0.190800416666667,0,0x0004,
0.190808083333333,0,0x0329,
0.190824500000000,0,0x0A01,
0.190832375000000,0,0x8329,
0.190848083333333,0,0x0F00,
0.190855958333333,0,0x8429,
0.190871708333333,0,0x0000,
0.190879541666667,0,0x8527,
0.190895250000000,0,0x773F,
0.190903125000000,0,0x8629,
0.190933125000000,0,0x0001,
0.190940833333333,0,0x1D2D,
0.190957208333333,0,0x0055,
0.190965041666667,0,0x9D2D,
0.190993041666667,0,0x0003,
0.191000750000000,0,0x2421,
0.191016666666667,0,0x004C,
0.191024541666667,0,0xA427,
0.191040250000000,0,0x0040,
0.191048125000000,0,0xA527,
0.191063875000000,0,0x0000,
0.191071708333333,0,0xA627,
0.191100708333333,0,0x0005,
0.191108375000000,0,0x2D25,
0.191124291666667,0,0x0729,
0.191132166666667,0,0xAD27,
0.191147916666667,0,0xFFFF,
0.191155791666667,0,0xAE27,
0.191171500000000,0,0xF223,
0.191179375000000,0,0xAF27,
0.191195083333333,0,0x8000,
0.191202958333333,0,0xB027,
0.191218666666667,0,0x8300,
0.191226541666667,0,0xB127,
0.191258250000000,0,0x0006,
0.191265958333333,0,0x3B29,
0.191282083333333,0,0xE55A,
0.191289958333333,0,0xBB27,
0.191305666666667,0,0x8001,
0.191313541666667,0,0xBC27,
0.191329250000000,0,0x8000,
0.191337125000000,0,0xBD27,
0.191352833333333,0,0x8000,
0.191360708333333,0,0xBE27,
0.191376416666667,0,0xE5F8,
0.191384291666667,0,0xBF27,
0.191400041666667,0,0xE60F,
0.191407916666667,0,0xC027,
0.191438541666667,0,0x000A,
0.191446208333333,0,0x412D,
0.191462416666667,0,0xD919,
0.191470291666667,0,0xC127,
0.191486041666667,0,0xDFFB,
0.191493875000000,0,0xC227,
0.191509625000000,0,0xDC95,
0.191517500000000,0,0xC327,
0.191533208333333,0,0xE139,
0.191541083333333,0,0xC427,
0.191556791666667,0,0xA983,
0.191564666666667,0,0xC527,
0.191580416666667,0,0xFF45,
0.191588250000000,0,0xC627,
0.191604000000000,0,0xC00B,
0.191611875000000,0,0xC727,
0.191627583333333,0,0xA2D8,
0.191635458333333,0,0xC827,
0.191651166666667,0,0x9E3B,
0.191659041666667,0,0xC927,
0.191674791666667,0,0x9E40,
0.191682625000000,0,0xCA27,
0.199291791666667,0,0x8C3F,
0.199299458333333,0,0x0603,
0.199327083333333,0,0x0004,
0.199334750000000,0,0x0315,
0.199350958333333,0,0x0A01,
0.199358875000000,0,0x8315,
0.199374750000000,0,0x0F00,
0.199382666666667,0,0x8415,
0.199398541666667,0,0x0000,
0.199406458333333,0,0x8518,
0.199422291666667,0,0x8F3F,
0.199430250000000,0,0x8615,
0.199461291666667,0,0x0004,
0.199469000000000,0,0x0319,
0.199485250000000,0,0x0A01,
0.199493166666667,0,0x8319,
0.199509041666667,0,0x0F00,
0.199516958333333,0,0x8419,
0.199532791666667,0,0x0000,
0.199540750000000,0,0x8518,
0.199556583333333,0,0x8F3F,
0.199564500000000,0,0x8619,
0.199596041666667,0,0x0004,
0.199603708333333,0,0x031D,
0.199620000000000,0,0x0A01,
0.199627916666667,0,0x831D,
0.199643791666667,0,0x0F00,
0.199651708333333,0,0x841D,
0.199667583333333,0,0x0000,
0.199675500000000,0,0x8518,
0.199691375000000,0,0x8F3F,
0.199699291666667,0,0x861D,
0.199730083333333,0,0x0004,
0.199737750000000,0,0x0311,
0.199753791666667,0,0x0A01,
0.199761708333333,0,0x8311,
0.199777583333333,0,0x0F00,
0.199785500000000,0,0x8411,
0.199801333333333,0,0x0000,
0.199809250000000,0,0x8518,
0.199825125000000,0,0x8F3F,
0.199833041666667,0,0x8611,
0.199863166666667,0,0x0004,
0.199870833333333,0,0x0315,
0.199887083333333,0,0x0A01,
0.199894958333333,0,0x8315,
0.199910833333333,0,0x0F00,
0.199918750000000,0,0x8415,
0.199934583333333,0,0x0000,
0.199942500000000,0,0x8518,
0.199958375000000,0,0x873F,
0.199966291666667,0,0x8615,
0.199997083333333,0,0x0001,
0.200004750000000,0,0x1D19,
0.200020791666667,0,0x1551,
0.200028708333333,0,0x9D19,
0.200057166666667,0,0x0003,
0.200064875000000,0,0x241D,
0.200081208333333,0,0x0048,
0.200089125000000,0,0xA418,
0.200105000000000,0,0x0040,
0.200112916666667,0,0xA518,
0.200128750000000,0,0x0000,
0.200136666666667,0,0xA618,
0.200165291666667,0,0x0005,
0.200173000000000,0,0x2D11,
0.200189208333333,0,0x080A,
0.200197125000000,0,0xAD18,
0.200212958333333,0,0xFFFF,
0.200220916666667,0,0xAE18,
0.200236750000000,0,0xDB9A,
0.200244666666667,0,0xAF18,
0.200260541666667,0,0xFFFF,
0.200268458333333,0,0xB018,
0.200284333333333,0,0x8309,
0.200292250000000,0,0xB118,
0.200322083333333,0,0x0006,
0.200329750000000,0,0x3B15,
0.200345750000000,0,0xB3F0,
0.200353708333333,0,0xBB18,
0.200369541666667,0,0xB343,
0.200377458333333,0,0xBC18,
0.200393333333333,0,0xB2CF,
0.200401291666667,0,0xBD18,
0.200417125000000,0,0xB215,
0.200425041666667,0,0xBE18,
0.200440916666667,0,0xB217,
0.200448833333333,0,0xBF18,
0.200464666666667,0,0xB28A,
0.200472625000000,0,0xC018,
0.200502791666667,0,0x000A,
0.200510458333333,0,0x4119,
0.200526583333333,0,0xC0C0,
0.200534500000000,0,0xC118,
0.200550375000000,0,0xC0B3,
0.200558291666667,0,0xC218,
0.200574125000000,0,0xC0C4,
0.200582083333333,0,0xC318,
0.200597916666667,0,0xC0C0,
0.200605833333333,0,0xC418,
0.200621708333333,0,0xC0C0,
0.200629666666667,0,0xC518,
0.200645500000000,0,0xE05D,
0.200653416666667,0,0xC618,
0.200669291666667,0,0x8000,
0.200677208333333,0,0xC718,
0.200693083333333,0,0xA2F8,
0.200701000000000,0,0xC818,
0.200716833333333,0,0x9E3A,
0.200724791666667,0,0xC918,
0.200740625000000,0,0x9E3F,
0.200748583333333,0,0xCA18,
0.200780250000000,0,0x0004,
0.200787916666667,0,0x032D,
0.200804125000000,0,0x0A01,
0.200812000000000,0,0x832D,
0.200827708333333,0,0x0F00,
0.200835583333333,0,0x842D,
0.200851291666667,0,0x0000,
0.200859166666667,0,0x8528,
0.200874875000000,0,0x873F,
0.200882750000000,0,0x862D,
0.200913458333333,0,0x0001,
0.200921125000000,0,0x1D21,
0.200937291666667,0,0x0055,
0.200945166666667,0,0x9D21,
0.200973375000000,0,0x0003,
0.200981041666667,0,0x2425,
0.200997250000000,0,0x004C,
0.201005125000000,0,0xA428,
0.201020833333333,0,0x0040,
0.201028708333333,0,0xA528,
0.201044458333333,0,0x0000,
0.201052291666667,0,0xA628,
0.201081000000000,0,0x0005,
0.201088708333333,0,0x2D29,
0.201104875000000,0,0x0835,
0.201112750000000,0,0xAD28,
0.201128500000000,0,0xFFFF,
0.201136333333333,0,0xAE28,
0.201152083333333,0,0xF17A,
0.201159958333333,0,0xAF28,
0.201175666666667,0,0xFFFF,
0.201183541666667,0,0xB028,
0.201199250000000,0,0x830D,
0.201207125000000,0,0xB128,
0.201236750000000,0,0x0006,
0.201244458333333,0,0x3B2D,
0.201260666666667,0,0xE557,
0.201268541666667,0,0xBB28,
0.201284291666667,0,0x8000,
0.201292166666667,0,0xBC28,
0.201307875000000,0,0x8001,
0.201315750000000,0,0xBD28,
0.201331458333333,0,0x8000,
0.201339333333333,0,0xBE28,
0.201355083333333,0,0xE5F3,
0.201362916666667,0,0xBF28,
0.201378666666667,0,0xE60E,
0.201386541666667,0,0xC028,
0.201417250000000,0,0x000A,
0.201424916666667,0,0x4121,
0.201441083333333,0,0xDB40,
0.201448958333333,0,0xC128,
0.201464666666667,0,0xE005,
0.201472541666667,0,0xC228,
0.201488250000000,0,0xDDF5,
0.201496125000000,0,0xC328,
0.201511833333333,0,0xE13A,
0.201519708333333,0,0xC428,
0.201535416666667,0,0xA985,
0.201543291666667,0,0xC528,
0.201559000000000,0,0xFF47,
0.201566875000000,0,0xC628,
0.201582625000000,0,0xC009,
0.201590458333333,0,0xC728,
0.201606208333333,0,0xA2D5,
0.201614083333333,0,0xC828,
0.201629791666667,0,0x9E39,
0.201637666666667,0,0xC928,
0.201653375000000,0,0x9E3D,
0.201661250000000,0,0xCA28,
0.209312000000000,0,0x9C3F,
0.209319666666667,0,0x0607,
0.209346875000000,0,0x0004,
0.209354583333333,0,0x0319,
0.209370666666667,0,0x0A01,
0.209378625000000,0,0x8319,
0.209394458333333,0,0x0F00,
0.209402375000000,0,0x8419,
0.209418250000000,0,0x0000,
0.209426208333333,0,0x8519,
0.209442041666667,0,0x9F3F,
0.209449958333333,0,0x8619,
0.209481291666667,0,0x0004,
0.209488958333333,0,0x031D,
0.209504958333333,0,0x0A01,
0.209512875000000,0,0x831D,
0.209528750000000,0,0x0F00,
0.209536666666667,0,0x841D,
0.209552541666667,0,0x0000,
0.209560458333333,0,0x8519,
0.209576291666667,0,0x9F3F,
0.209584250000000,0,0x861D,
0.209614958333333,0,0x0004,
0.209622666666667,0,0x0311,
0.209638750000000,0,0x0A01,
0.209646666666667,0,0x8311,
0.209662541666667,0,0x0F00,
0.209670458333333,0,0x8411,
0.209686333333333,0,0x0000,
0.209694250000000,0,0x8519,
0.209710125000000,0,0x9F3F,
0.209718041666667,0,0x8611,
0.209749458333333,0,0x0004,
0.209757125000000,0,0x0315,
0.209773541666667,0,0x0A01,
0.209781458333333,0,0x8315,
0.209797333333333,0,0x0F00,
0.209805250000000,0,0x8415,
0.209821083333333,0,0x0000,
0.209829000000000,0,0x8519,
0.209844875000000,0,0x9F3F,
0.209852791666667,0,0x8615,
0.209883666666667,0,0x0004,
0.209891333333333,0,0x0319,
0.209907791666667,0,0x0A01,
0.209915708333333,0,0x8319,
0.209931541666667,0,0x0F00,
0.209939500000000,0,0x8419,
0.209955333333333,0,0x0000,
0.209963250000000,0,0x8519,
0.209979125000000,0,0x973F,
0.209987041666667,0,0x8619,
0.210017666666667,0,0x0001,
0.210025375000000,0,0x1D1D,
0.210041500000000,0,0x1551,
0.210049458333333,0,0x9D1D,
0.210077541666667,0,0x0003,
0.210085208333333,0,0x2411,
0.210101458333333,0,0x0048,
0.210109375000000,0,0xA419,
0.210125208333333,0,0x0040,
0.210133166666667,0,0xA519,
0.210149041666667,0,0x0000,
0.210156958333333,0,0xA619,
0.210186166666667,0,0x0005,
0.210193833333333,0,0x2D15,
0.210209958333333,0,0x0914,
0.210217875000000,0,0xAD19,
0.210233708333333,0,0xFFFF,
0.210241625000000,0,0xAE19,
0.210257500000000,0,0xD9B4,
0.210265416666667,0,0xAF19,
0.210281250000000,0,0x8000,
0.210289208333333,0,0xB019,
0.210305041666667,0,0x8300,
0.210312958333333,0,0xB119,
0.210342791666667,0,0x0006,
0.210350458333333,0,0x3B19,
0.210366458333333,0,0xB3F0,
0.210374375000000,0,0xBB19,
0.210390250000000,0,0xB340,
0.210398166666667,0,0xBC19,
0.210414000000000,0,0xB2D0,
0.210421916666667,0,0xBD19,
0.210437791666667,0,0xB217,
0.210445708333333,0,0xBE19,
0.210461583333333,0,0xB217,
0.210469458333333,0,0xBF19,
0.210485333333333,0,0xB28A,
0.210493250000000,0,0xC019,
0.210523166666667,0,0x000A,
0.210530875000000,0,0x411D,
0.210547250000000,0,0xC0C0,
0.210555166666667,0,0xC119,
0.210571041666667,0,0xC0B9,
0.210578958333333,0,0xC219,
0.210594791666667,0,0xC0C3,
0.210602750000000,0,0xC319,
0.210618583333333,0,0xC0BF,
0.210626500000000,0,0xC419,
0.210642375000000,0,0xC0C1,
0.210650291666667,0,0xC519,
0.210666125000000,0,0xE05F,
0.210674083333333,0,0xC619,
0.210689916666667,0,0x8000,
0.210697833333333,0,0xC719,
0.210713708333333,0,0xA2F7,
0.210721625000000,0,0xC819,
0.210737458333333,0,0x9E39,
0.210745375000000,0,0xC919,
0.210761250000000,0,0x9E3E,
0.210769166666667,0,0xCA19,
0.210801750000000,0,0x0004,
0.210809458333333,0,0x0321,
0.210825708333333,0,0x0A01,
0.210833541666667,0,0x8321,
0.210849291666667,0,0x0F00,
0.210857125000000,0,0x8421,
0.210872875000000,0,0x0000,
0.210880708333333,0,0x8529,
0.210896458333333,0,0x973F,
0.210904333333333,0,0x8621,
0.210935291666667,0,0x0001,
0.210942958333333,0,0x1D25,
0.210959333333333,0,0x0055,
0.210967208333333,0,0x9D25,
0.210994750000000,0,0x0003,
0.211002458333333,0,0x2429,
0.211018791666667,0,0x004C,
0.211026666666667,0,0xA429,
0.211042416666667,0,0x0040,
0.211050250000000,0,0xA529,
0.211066000000000,0,0x0000,
0.211073875000000,0,0xA629,
0.211102583333333,0,0x0005,
0.211110291666667,0,0x2D2D,
0.211126458333333,0,0x0941,
0.211134333333333,0,0xAD29,
0.211150041666667,0,0xFFFF,
0.211157916666667,0,0xAE29,
0.211173625000000,0,0xF15C,
0.211181500000000,0,0xAF29,
0.211197250000000,0,0xFFFF,
0.211205083333333,0,0xB029,
0.211220833333333,0,0x8304,
0.211228708333333,0,0xB129,
0.211260125000000,0,0x0006,
0.211267791666667,0,0x3B21,
0.211284250000000,0,0xE557,
0.211292083333333,0,0xBB29,
0.211307833333333,0,0x8000,
0.211315666666667,0,0xBC29,
0.211331416666667,0,0x8000,
0.211339250000000,0,0xBD29,
0.211355000000000,0,0x8000,
0.211362833333333,0,0xBE29,
0.211378583333333,0,0xE5F7,
0.211386458333333,0,0xBF29,
0.211402166666667,0,0xE60B,
0.211410041666667,0,0xC029,
0.211440291666667,0,0x000A,
0.211448000000000,0,0x4125,
0.211464083333333,0,0xDC9B,
0.211471958333333,0,0xC129,
0.211487666666667,0,0xE009,
0.211495541666667,0,0xC229,
0.211511250000000,0,0xDECB,
0.211519125000000,0,0xC329,
0.211534833333333,0,0xE139,
0.211542708333333,0,0xC429,
0.211558458333333,0,0xA987,
0.211566291666667,0,0xC529,
0.211582000000000,0,0xFF46,
0.211589875000000,0,0xC629,
0.211605583333333,0,0xC009,
0.211613458333333,0,0xC729,
0.211629208333333,0,0xA2D6,
0.211637041666667,0,0xC829,
0.211652791666667,0,0x9E3C,
0.211660625000000,0,0xC929,
0.211676375000000,0,0x9E3F,
0.211684250000000,0,0xCA29,
0.219307125000000,0,0xAC3F,
0.219314791666667,0,0x060B,
0.219342000000000,0,0x0004,
0.219349666666667,0,0x031D,
0.219365958333333,0,0x0A01,
0.219373916666667,0,0x831D,
0.219389750000000,0,0x0F00,
0.219397666666667,0,0x841D,
0.219413541666667,0,0x0000,
0.219421458333333,0,0x851A,
0.219437333333333,0,0xAF3F,
0.219445250000000,0,0x861D,
0.219475833333333,0,0x0004,
0.219483541666667,0,0x0311,
0.219499750000000,0,0x0A01,
0.219507708333333,0,0x8311,
0.219523541666667,0,0x0F00,
0.219531458333333,0,0x8411,
0.219547333333333,0,0x0000,
0.219555250000000,0,0x851A,
0.219571083333333,0,0xAF3F,
0.219579041666667,0,0x8611,
0.219609916666667,0,0x0004,
0.219617583333333,0,0x0315,
0.219634041666667,0,0x0A01,
0.219641958333333,0,0x8315,
0.219657833333333,0,0x0F00,
0.219665750000000,0,0x8415,
0.219681583333333,0,0x0000,
0.219689541666667,0,0x851A,
0.219705375000000,0,0xAF3F,
0.219713291666667,0,0x8615,
0.219744208333333,0,0x0004,
0.219751916666667,0,0x0319,
0.219768333333333,0,0x0A01,
0.219776250000000,0,0x8319,
0.219792083333333,0,0x0F00,
0.219800041666667,0,0x8419,
0.219815875000000,0,0x0000,
0.219823833333333,0,0x851A,
0.219839666666667,0,0xAF3F,
0.219847583333333,0,0x8619,
0.219878250000000,0,0x0004,
0.219885916666667,0,0x031D,
0.219902083333333,0,0x0A01,
0.219910000000000,0,0x831D,
0.219925875000000,0,0x0F00,
0.219933791666667,0,0x841D,
0.219949625000000,0,0x0000,
0.219957583333333,0,0x851A,
0.219973416666667,0,0xA73F,
0.219981333333333,0,0x861D,
0.220011750000000,0,0x0001,
0.220019416666667,0,0x1D11,
0.220035833333333,0,0x1551,
0.220043750000000,0,0x9D11,
0.220071958333333,0,0x0003,
0.220079625000000,0,0x2415,
0.220095750000000,0,0x0048,
0.220103666666667,0,0xA41A,
0.220119541666667,0,0x0040,
0.220127458333333,0,0xA51A,
0.220143291666667,0,0x0000,
0.220151250000000,0,0xA61A,
0.220180458333333,0,0x0005,
0.220188125000000,0,0x2D19,
0.220204250000000,0,0x0A1E,
0.220212166666667,0,0xAD1A,
0.220228041666667,0,0xFFFF,
0.220235958333333,0,0xAE1A,
0.220251833333333,0,0xD7A4,
0.220259750000000,0,0xAF1A,
0.220275583333333,0,0xFFFF,
0.220283541666667,0,0xB01A,
0.220299375000000,0,0x830D,
0.220307291666667,0,0xB11A,
0.220337916666667,0,0x0006,
0.220345583333333,0,0x3B1D,
0.220361791666667,0,0xB3EE,
0.220369708333333,0,0xBB1A,
0.220385583333333,0,0xB342,
0.220393500000000,0,0xBC1A,
0.220409375000000,0,0xB2D5,
0.220417291666667,0,0xBD1A,
0.220433166666667,0,0xB217,
0.220441083333333,0,0xBE1A,
0.220456916666667,0,0xB218,
0.220464833333333,0,0xBF1A,
0.220480708333333,0,0xB28B,
0.220488625000000,0,0xC01A,
0.220519250000000,0,0x000A,
0.220526916666667,0,0x4111,
0.220543125000000,0,0xC0C1,
0.220551083333333,0,0xC11A,
0.220566916666667,0,0xC0B6,
0.220574875000000,0,0xC21A,
0.220590708333333,0,0xC0BF,
0.220598625000000,0,0xC31A,
0.220614500000000,0,0xC0C1,
0.220622416666667,0,0xC41A,
0.220638291666667,0,0xC0BF,
0.220646208333333,0,0xC51A,
0.220662083333333,0,0xE05E,
0.220670000000000,0,0xC61A,
0.220685833333333,0,0x8000,
0.220693750000000,0,0xC71A,
0.220709625000000,0,0xA2F9,
0.220717541666667,0,0xC81A,
0.220733416666667,0,0x9E36,
0.220741333333333,0,0xC91A,
0.220757208333333,0,0x9E3E,
0.220765125000000,0,0xCA1A,
0.220797375000000,0,0x0004,
0.220805041666667,0,0x0325,
0.220821000000000,0,0x0A01,
0.220828875000000,0,0x8325,
0.220844583333333,0,0x0F00,
0.220852458333333,0,0x8425,
0.220868166666667,0,0x0000,
0.220876000000000,0,0x852A,
0.220891750000000,0,0xA73F,
0.220899583333333,0,0x8625,
0.220930750000000,0,0x0001,
0.220938416666667,0,0x1D29,
0.220954625000000,0,0x0055,
0.220962500000000,0,0x9D29,
0.220990291666667,0,0x0003,
0.220997958333333,0,0x242D,
0.221014083333333,0,0x004C,
0.221021958333333,0,0xA42A,
0.221037666666667,0,0x0040,
0.221045541666667,0,0xA52A,
0.221061291666667,0,0x0000,
0.221069125000000,0,0xA62A,
0.221098000000000,0,0x0005,
0.221105708333333,0,0x2D21,
0.221121750000000,0,0x0A4D,
0.221129583333333,0,0xAD2A,
0.221145291666667,0,0xFFFF,
0.221153166666667,0,0xAE2A,
0.221168875000000,0,0xF188,
0.221176750000000,0,0xAF2A,
0.221192458333333,0,0xFFFF,
0.221200333333333,0,0xB02A,
0.221216041666667,0,0x8309,
0.221223916666667,0,0xB12A,
0.221255166666667,0,0x0006,
0.221262875000000,0,0x3B25,
0.221278958333333,0,0xE559,
0.221286833333333,0,0xBB2A,
0.221302541666667,0,0x8000,
0.221310416666667,0,0xBC2A,
0.221326125000000,0,0x8000,
0.221334000000000,0,0xBD2A,
0.221349750000000,0,0x8000,
0.221357583333333,0,0xBE2A,
0.221373333333333,0,0xE5F6,
0.221381208333333,0,0xBF2A,
0.221396916666667,0,0xE60D,
0.221404791666667,0,0xC02A,
0.221435083333333,0,0x000A,
0.221442750000000,0,0x4129,
0.221458833333333,0,0xDD7F,
0.221466708333333,0,0xC12A,
0.221482416666667,0,0xE00F,
0.221490291666667,0,0xC22A,
0.221506000000000,0,0xDF4C,
0.221513875000000,0,0xC32A,
0.221529583333333,0,0xE141,
0.221537458333333,0,0xC42A,
0.221553208333333,0,0xA98B,
0.221561041666667,0,0xC52A,
0.221576791666667,0,0xFF4D,
0.221584625000000,0,0xC62A,
0.221600375000000,0,0xC00C,
0.221608208333333,0,0xC72A,
0.221623958333333,0,0xA2D9,
0.221631833333333,0,0xC82A,
0.221647541666667,0,0x9E3C,
0.221655375000000,0,0xC92A,
0.221671125000000,0,0x9E3C,
0.221679000000000,0,0xCA2A,
0.229313791666667,0,0xBC3F,
0.229321500000000,0,0x060F,
0.229349000000000,0,0x0004,
0.229356666666667,0,0x0311,
0.229372833333333,0,0x0A01,
0.229380791666667,0,0x8311,
0.229396625000000,0,0x0F00,
0.229404541666667,0,0x8411,
0.229420416666667,0,0x0000,
0.229428333333333,0,0x851B,
0.229444166666667,0,0xBF3F,
0.229452125000000,0,0x8611,
0.229482583333333,0,0x0004,
0.229490291666667,0,0x0315,
0.229506625000000,0,0x0A01,
0.229514541666667,0,0x8315,
0.229530375000000,0,0x0F00,
0.229538333333333,0,0x8415,
0.229554166666667,0,0x0000,
0.229562083333333,0,0x851B,
0.229577958333333,0,0xBF3F,
0.229585875000000,0,0x8615,
0.229617125000000,0,0x0004,
0.229624833333333,0,0x0319,
0.229640875000000,0,0x0A01,
0.229648791666667,0,0x8319,
0.229664625000000,0,0x0F00,
0.229672583333333,0,0x8419,
0.229688416666667,0,0x0000,
0.229696333333333,0,0x851B,
0.229712208333333,0,0xBF3F,
0.229720166666667,0,0x8619,
0.229751666666667,0,0x0004,
0.229759333333333,0,0x031D,
0.229775625000000,0,0x0A01,
0.229783541666667,0,0x831D,
0.229799416666667,0,0x0F00,
0.229807333333333,0,0x841D,
0.229823208333333,0,0x0000,
0.229831125000000,0,0x851B,
0.229846958333333,0,0xBF3F,
0.229854916666667,0,0x861D,
0.229885250000000,0,0x0004,
0.229892916666667,0,0x0311,
0.229908875000000,0,0x0A01,
0.229916791666667,0,0x8311,
0.229932625000000,0,0x0F00,
0.229940583333333,0,0x8411,
0.229956416666667,0,0x0000,
0.229964333333333,0,0x851B,
0.229980208333333,0,0xB73F,
0.229988125000000,0,0x8611,
0.230018458333333,0,0x0001,
0.230026125000000,0,0x1D15,
0.230042583333333,0,0x1551,
0.230050500000000,0,0x9D15,
0.230079000000000,0,0x0003,
0.230086666666667,0,0x2419,
0.230103000000000,0,0x0048,
0.230110916666667,0,0xA41B,
0.230126750000000,0,0x0040,
0.230134708333333,0,0xA51B,
0.230150541666667,0,0x0000,
0.230158458333333,0,0xA61B,
0.230187750000000,0,0x0005,
0.230195458333333,0,0x2D1D,
0.230211458333333,0,0x0B27,
0.230219416666667,0,0xAD1B,
0.230235250000000,0,0xFFFF,
0.230243166666667,0,0xAE1B,
0.230259000000000,0,0xD549,
0.230266958333333,0,0xAF1B,
0.230282791666667,0,0x8000,
0.230290708333333,0,0xB01B,
0.230306583333333,0,0x8303,
0.230314500000000,0,0xB11B,
0.230344875000000,0,0x0006,
0.230352541666667,0,0x3B11,
0.230369000000000,0,0xB3F5,
0.230376916666667,0,0xBB1B,
0.230392750000000,0,0xB347,
0.230400666666667,0,0xBC1B,
0.230416541666667,0,0xB2D1,
0.230424458333333,0,0xBD1B,
0.230440291666667,0,0xB219,
0.230448208333333,0,0xBE1B,
0.230464083333333,0,0xB21A,
0.230472000000000,0,0xBF1B,
0.230487833333333,0,0xB28B,
0.230495791666667,0,0xC01B,
0.230526708333333,0,0x000A,
0.230534375000000,0,0x4115,
0.230550791666667,0,0xC0C2,
0.230558708333333,0,0xC11B,
0.230574583333333,0,0xC0BB,
0.230582500000000,0,0xC21B,
0.230598333333333,0,0xC0C4,
0.230606250000000,0,0xC31B,
0.230622125000000,0,0xC0C1,
0.230630041666667,0,0xC41B,
0.230645916666667,0,0xC0C4,
0.230653833333333,0,0xC51B,
0.230669708333333,0,0xE05F,
0.230677625000000,0,0xC61B,
0.230693458333333,0,0x8001,
0.230701375000000,0,0xC71B,
0.230717208333333,0,0xA2F9,
0.230725166666667,0,0xC81B,
0.230741000000000,0,0x9E3C,
0.230748958333333,0,0xC91B,
0.230764791666667,0,0x9E3E,
0.230772708333333,0,0xCA1B,
0.230804875000000,0,0x0004,
0.230812541666667,0,0x0329,
0.230828666666667,0,0x0A01,
0.230836541666667,0,0x8329,
0.230852250000000,0,0x0F00,
0.230860125000000,0,0x8429,
0.230875833333333,0,0x0000,
0.230883708333333,0,0x852B,
0.230899416666667,0,0xB73F,
0.230907333333333,0,0x8629,
0.230938250000000,0,0x0001,
0.230945916666667,0,0x1D2D,
0.230961833333333,0,0x0055,
0.230969708333333,0,0x9D2D,
0.230997458333333,0,0x0003,
0.231005125000000,0,0x2421,
0.231021333333333,0,0x004C,
0.231029208333333,0,0xA42B,
0.231044916666667,0,0x0040,
0.231052791666667,0,0xA52B,
0.231068500000000,0,0x0000,
0.231076375000000,0,0xA62B,
0.231105458333333,0,0x0005,
0.231113125000000,0,0x2D25,
0.231129458333333,0,0x0B59,
0.231137291666667,0,0xAD2B,
0.231153041666667,0,0xFFFF,
0.231160916666667,0,0xAE2B,
0.231176625000000,0,0xF11A,
0.231184500000000,0,0xAF2B,
0.231200208333333,0,0xFFFF,
0.231208083333333,0,0xB02B,
0.231223791666667,0,0x8309,
0.231231666666667,0,0xB12B,
0.231262875000000,0,0x0006,
0.231270541666667,0,0x3B29,
0.231286708333333,0,0xE559,
0.231294583333333,0,0xBB2B,
0.231310291666667,0,0x8000,
0.231318125000000,0,0xBC2B,
0.231333875000000,0,0x8002,
0.231341708333333,0,0xBD2B,
0.231357458333333,0,0x8001,
0.231365333333333,0,0xBE2B,
0.231381041666667,0,0xE5F3,
0.231388916666667,0,0xBF2B,
0.231404625000000,0,0xE608,
0.231412500000000,0,0xC02B,
0.231443208333333,0,0x000A,
0.231450875000000,0,0x412D,
0.231467041666667,0,0xDE10,
0.231474916666667,0,0xC12B,
0.231490625000000,0,0xE012,
0.231498500000000,0,0xC22B,
0.231514250000000,0,0xDF99,
0.231522083333333,0,0xC32B,
0.231537833333333,0,0xE140,
0.231545708333333,0,0xC42B,
0.231561416666667,0,0xA98A,
0.231569291666667,0,0xC52B,
0.231585000000000,0,0xFF4A,
0.231592875000000,0,0xC62B,
0.231608583333333,0,0xC00F,
0.231616458333333,0,0xC72B,
0.231632166666667,0,0xA2D6,
0.231640041666667,0,0xC82B,
0.231655750000000,0,0x9E3D,
0.231663625000000,0,0xC92B,
0.231679333333333,0,0x9E3F,
0.231687208333333,0,0xCA2B,
0.239304541666667,0,0xCC3F,
0.239312208333333,0,0x0603,
0.239339875000000,0,0x0004,
0.239347541666667,0,0x0315,
0.239363666666667,0,0x0A01,
0.239371625000000,0,0x8315,
0.239387458333333,0,0x0F00,
0.239395416666667,0,0x8415,
0.239411250000000,0,0x0000,
0.239419166666667,0,0x851C,
0.239435000000000,0,0xCF3F,
0.239442958333333,0,0x8615,
0.239474541666667,0,0x0004,
0.239482208333333,0,0x0319,
0.239498458333333,0,0x0A01,
0.239506375000000,0,0x8319,
0.239522208333333,0,0x0F00,
0.239530166666667,0,0x8419,
0.239546000000000,0,0x0000,
0.239553916666667,0,0x851C,
0.239569791666667,0,0xCF3F,
0.239577708333333,0,0x8619,
0.239608666666667,0,0x0004,
0.239616375000000,0,0x031D,
0.239632708333333,0,0x0A01,
0.239640625000000,0,0x831D,
0.239656500000000,0,0x0F00,
0.239664416666667,0,0x841D,
0.239680250000000,0,0x0000,
0.239688166666667,0,0x851C,
0.239704041666667,0,0xCF3F,
0.239711958333333,0,0x861D,
0.239743000000000,0,0x0004,
0.239750666666667,0,0x0311,
0.239766958333333,0,0x0A01,
0.239774875000000,0,0x8311,
0.239790750000000,0,0x0F00,
0.239798666666667,0,0x8411,
0.239814500000000,0,0x0000,
0.239822458333333,0,0x851C,
0.239838291666667,0,0xCF3F,
0.239846208333333,0,0x8611,
0.239877583333333,0,0x0004,
0.239885250000000,0,0x0315,
0.239901708333333,0,0x0A01,
0.239909625000000,0,0x8315,
0.239925500000000,0,0x0F00,
0.239933375000000,0,0x8415,
0.239949250000000,0,0x0000,
0.239957166666667,0,0x851C,
0.239973000000000,0,0xC73F,
0.239980958333333,0,0x8615,
0.240012333333333,0,0x0001,
0.240020000000000,0,0x1D19,
0.240036375000000,0,0x1551,
0.240044333333333,0,0x9D19,
0.240072250000000,0,0x0003,
0.240079916666667,0,0x241D,
0.240096291666667,0,0x0048,
0.240104250000000,0,0xA41C,
0.240120083333333,0,0x0040,
0.240128000000000,0,0xA51C,
0.240143833333333,0,0x0000,
0.240151791666667,0,0xA61C,
0.240180875000000,0,0x0005,
0.240188583333333,0,0x2D11,
0.240204750000000,0,0x0C31,
0.240212666666667,0,0xAD1C,
0.240228541666667,0,0xFFFF,
0.240236458333333,0,0xAE1C,
0.240252333333333,0,0xD2C5,
0.240260208333333,0,0xAF1C,
0.240276083333333,0,0x8000,
0.240284000000000,0,0xB01C,
0.240299875000000,0,0x8304,
0.240307791666667,0,0xB11C,
0.240337833333333,0,0x0006,
0.240345500000000,0,0x3B15,
0.240361750000000,0,0xB3F4,
0.240369708333333,0,0xBB1C,
0.240385541666667,0,0xB349,
0.240393458333333,0,0xBC1C,
0.240409333333333,0,0xB2D7,
0.240417250000000,0,0xBD1C,
0.240433083333333,0,0xB212,
0.240441000000000,0,0xBE1C,
0.240456875000000,0,0xB21B,
0.240464791666667,0,0xBF1C,
0.240480625000000,0,0xB28D,
0.240488583333333,0,0xC01C,
0.240518125000000,0,0x000A,
0.240525791666667,0,0x4119,
0.240542083333333,0,0xC0C3,
0.240550000000000,0,0xC11C,
0.240565833333333,0,0xC0BA,
0.240573750000000,0,0xC21C,
0.240589625000000,0,0xC0C3,
0.240597541666667,0,0xC31C,
0.240613375000000,0,0xC0BF,
0.240621333333333,0,0xC41C,
0.240637166666667,0,0xC0C2,
0.240645125000000,0,0xC51C,
0.240660958333333,0,0xE068,
0.240668875000000,0,0xC61C,
0.240684750000000,0,0x8002,
0.240692666666667,0,0xC71C,
0.240708541666667,0,0xA2F9,
0.240716458333333,0,0xC81C,
0.240732291666667,0,0x9E3B,
0.240740250000000,0,0xC91C,
0.240756083333333,0,0x9E40,
0.240764000000000,0,0xCA1C,
0.240796791666667,0,0x0004,
0.240804458333333,0,0x032D,
0.240820666666667,0,0x0A01,
0.240828541666667,0,0x832D,
0.240844250000000,0,0x0F00,
0.240852125000000,0,0x842D,
0.240867833333333,0,0x0000,
0.240875708333333,0,0x852C,
0.240891458333333,0,0xC73F,
0.240899333333333,0,0x862D,
0.240930208333333,0,0x0001,
0.240937875000000,0,0x1D21,
0.240953875000000,0,0x0055,
0.240961750000000,0,0x9D21,
0.240989958333333,0,0x0003,
0.240997625000000,0,0x2425,
0.241013833333333,0,0x004C,
0.241021708333333,0,0xA42C,
0.241037416666667,0,0x0040,
0.241045291666667,0,0xA52C,
0.241061000000000,0,0x0000,
0.241068875000000,0,0xA62C,
0.241098083333333,0,0x0005,
0.241105791666667,0,0x2D29,
0.241121958333333,0,0x0C64,
0.241129833333333,0,0xAD2C,
0.241145541666667,0,0xFFFF,
0.241153375000000,0,0xAE2C,
0.241169125000000,0,0xF048,
0.241177000000000,0,0xAF2C,
0.241192708333333,0,0xFFFF,
0.241200583333333,0,0xB02C,
0.241216291666667,0,0x830E,
0.241224166666667,0,0xB12C,
0.241255666666667,0,0x0006,
0.241263291666667,0,0x3B2D,
0.241279708333333,0,0xE559,
0.241287541666667,0,0xBB2C,
0.241303291666667,0,0x8003,
0.241311125000000,0,0xBC2C,
0.241326875000000,0,0x8000,
0.241334708333333,0,0xBD2C,
0.241350458333333,0,0x8000,
0.241358291666667,0,0xBE2C,
0.241374041666667,0,0xE5F3,
0.241381916666667,0,0xBF2C,
0.241397625000000,0,0xE60B,
0.241405500000000,0,0xC02C,
0.241436125000000,0,0x000A,
0.241443791666667,0,0x4121,
0.241460041666667,0,0xDE68,
0.241467875000000,0,0xC12C,
0.241483625000000,0,0xE013,
0.241491500000000,0,0xC22C,
0.241507208333333,0,0xDFC8,
0.241515083333333,0,0xC32C,
0.241530791666667,0,0xE142,
0.241538666666667,0,0xC42C,
0.241554375000000,0,0xA98D,
0.241562250000000,0,0xC52C,
0.241577958333333,0,0xFF4C,
0.241585833333333,0,0xC62C,
0.241601583333333,0,0xC00F,
0.241609416666667,0,0xC72C,
0.241625166666667,0,0xA2D6,
0.241633041666667,0,0xC82C,
0.241648750000000,0,0x9E3B,
0.241656625000000,0,0xC92C,
0.241672333333333,0,0x9E42,
0.241680208333333,0,0xCA2C,
0.249303208333333,0,0xDC3F,
0.249310916666667,0,0x0607,
0.249338583333333,0,0x0004,
0.249346291666667,0,0x0319,
0.249362500000000,0,0x0A01,
0.249370416666667,0,0x8319,
0.249386291666667,0,0x0F00,
0.249394208333333,0,0x8419,
0.249410041666667,0,0x0000,
0.249418000000000,0,0x851D,
0.249433875000000,0,0xDF3F,
0.249441791666667,0,0x8619,
0.249472833333333,0,0x0004,
0.249480500000000,0,0x031D,
0.249496791666667,0,0x0A01,
0.249504708333333,0,0x831D,
0.249520583333333,0,0x0F00,
0.249528500000000,0,0x841D,
0.249544375000000,0,0x0000,
0.249552291666667,0,0x851D,
0.249568125000000,0,0xDF3F,
0.249576083333333,0,0x861D,
0.249607208333333,0,0x0004,
0.249614916666667,0,0x0311,
0.249631083333333,0,0x0A01,
0.249639041666667,0,0x8311,
0.249654875000000,0,0x0F00,
0.249662833333333,0,0x8411,
0.249678708333333,0,0x0000,
0.249686583333333,0,0x851D,
0.249702458333333,0,0xDF3F,
0.249710416666667,0,0x8611,
0.249740833333333,0,0x0004,
0.249748500000000,0,0x0315,
0.249764916666667,0,0x0A01,
0.249772833333333,0,0x8315,
0.249788708333333,0,0x0F00,
0.249796625000000,0,0x8415,
0.249812500000000,0,0x0000,
0.249820416666667,0,0x851D,
0.249836250000000,0,0xDF3F,
0.249844166666667,0,0x8615,
0.249875500000000,0,0x0004,
0.249883208333333,0,0x0319,
0.249899625000000,0,0x0A01,
0.249907583333333,0,0x8319,
0.249923416666667,0,0x0F00,
0.249931333333333,0,0x8419,
0.249947208333333,0,0x0000,
0.249955125000000,0,0x851D,
0.249970958333333,0,0xD73F,
0.249978875000000,0,0x8619,
0.250009208333333,0,0x0001,
0.250016875000000,0,0x1D1D,
0.250032875000000,0,0x1551,
0.250040791666667,0,0x9D1D,
0.250069458333333,0,0x0003,
0.250077166666667,0,0x2411,
0.250093291666667,0,0x0048,
0.250101208333333,0,0xA41D,
0.250117083333333,0,0x0040,
0.250125000000000,0,0xA51D,
0.250140875000000,0,0x0000,
0.250148791666667,0,0xA61D,
0.250178166666667,0,0x0005,
0.250185875000000,0,0x2D15,
0.250202250000000,0,0x0D3A,
0.250210166666667,0,0xAD1D,
0.250226041666667,0,0xFFFF,
0.250233958333333,0,0xAE1D,
0.250249833333333,0,0xD0DB,
0.250257708333333,0,0xAF1D,
0.250273583333333,0,0xFFFF,
0.250281500000000,0,0xB01D,
0.250297375000000,0,0x830E,
0.250305291666667,0,0xB11D,
0.250335666666667,0,0x0006,
0.250343333333333,0,0x3B19,
0.250359750000000,0,0xB3F2,
0.250367666666667,0,0xBB1D,
0.250383541666667,0,0xB345,
0.250391458333333,0,0xBC1D,
0.250407291666667,0,0xB2D1,
0.250415250000000,0,0xBD1D,
0.250431083333333,0,0xB213,
0.250439000000000,0,0xBE1D,
0.250454875000000,0,0xB217,
0.250462791666667,0,0xBF1D,
0.250478666666667,0,0xB28B,
0.250486583333333,0,0xC01D,
0.250517458333333,0,0x000A,
0.250525125000000,0,0x411D,
0.250541541666667,0,0xC0C2,
0.250549458333333,0,0xC11D,
0.250565333333333,0,0xC0BB,
0.250573250000000,0,0xC21D,
0.250589083333333,0,0xC0C4,
0.250597041666667,0,0xC31D,
0.250612875000000,0,0xC0C3,
0.250620791666667,0,0xC41D,
0.250636666666667,0,0xC0C5,
0.250644583333333,0,0xC51D,
0.250660416666667,0,0xE066,
0.250668333333333,0,0xC61D,
0.250684208333333,0,0x8000,
0.250692125000000,0,0xC71D,
0.250707958333333,0,0xA2FA,
0.250715916666667,0,0xC81D,
0.250731750000000,0,0x9E3B,
0.250739708333333,0,0xC91D,
0.250755541666667,0,0x9E3B,
0.250763458333333,0,0xCA1D,
0.250796208333333,0,0x0004,
0.250803875000000,0,0x0321,
0.250820125000000,0,0x0A01,
0.250827958333333,0,0x8321,
0.250843708333333,0,0x0F00,
0.250851583333333,0,0x8421,
0.250867291666667,0,0x0000,
0.250875166666667,0,0x852D,
0.250890875000000,0,0xD73F,
0.250898750000000,0,0x8621,
0.250929458333333,0,0x0001,
0.250937125000000,0,0x1D25,
0.250953291666667,0,0x0055,
0.250961166666667,0,0x9D25,
0.250988958333333,0,0x0003,
0.250996666666667,0,0x2429,
0.251012750000000,0,0x004C,
0.251020625000000,0,0xA42D,
0.251036333333333,0,0x0040,
0.251044208333333,0,0xA52D,
0.251059916666667,0,0x0000,
0.251067791666667,0,0xA62D,
0.251096500000000,0,0x0005,
0.251104208333333,0,0x2D2D,
0.251120375000000,0,0x0D70,
0.251128250000000,0,0xAD2D,
0.251143958333333,0,0xFFFF,
0.251151833333333,0,0xAE2D,
0.251167541666667,0,0xF00B,
0.251175416666667,0,0xAF2D,
0.251191166666667,0,0x8000,
0.251199000000000,0,0xB02D,
0.251214750000000,0,0x8302,
0.251222625000000,0,0xB12D,
0.251253500000000,0,0x0006,
0.251261166666667,0,0x3B21,
0.251277166666667,0,0xE55A,
0.251285041666667,0,0xBB2D,
0.251300750000000,0,0x8000,
0.251308625000000,0,0xBC2D,
0.251324333333333,0,0x8000,
0.251332208333333,0,0xBD2D,
0.251347916666667,0,0x8000,
0.251355791666667,0,0xBE2D,
0.251371541666667,0,0xE5F7,
0.251379375000000,0,0xBF2D,
0.251395125000000,0,0xE613,
0.251402958333333,0,0xC02D,
0.251433416666667,0,0x000A,
0.251441125000000,0,0x4125,
0.251457041666667,0,0xDE98,
0.251464916666667,0,0xC12D,
0.251480625000000,0,0xE00D,
0.251488500000000,0,0xC22D,
0.251504208333333,0,0xDFD8,
0.251512083333333,0,0xC32D,
0.251527791666667,0,0xE13D,
0.251535666666667,0,0xC42D,
0.251551375000000,0,0xA988,
0.251559250000000,0,0xC52D,
0.251575000000000,0,0xFF48,
0.251582833333333,0,0xC62D,
0.251598541666667,0,0xC00E,
0.251606416666667,0,0xC72D,
0.251622166666667,0,0xA2D7,
0.251630041666667,0,0xC82D,
0.251645750000000,0,0x9E3A,
0.251653625000000,0,0xC92D,
0.251669375000000,0,0x9E3E,
0.251677208333333,0,0xCA2D,
0.259449000000000,0,0xEC3F,
0.259456708333333,0,0x060B,
0.259484250000000,0,0x0004,
0.259491916666667,0,0x031D,
0.259507916666667,0,0x0A01,
0.259515875000000,0,0x831D,
0.259531708333333,0,0x0F00,
0.259539666666667,0,0x841D,
0.259555500000000,0,0x0000,
0.259563416666667,0,0x851E,
0.259579291666667,0,0xEF3F,
0.259587208333333,0,0x861D,
0.259618708333333,0,0x0004,
0.259626375000000,0,0x0311,
0.259642708333333,0,0x0A01,
0.259650625000000,0,0x8311,
0.259666500000000,0,0x0F00,
0.259674416666667,0,0x8411,
0.259690250000000,0,0x0000,
0.259698208333333,0,0x851E,
0.259714041666667,0,0xEF3F,
0.259722000000000,0,0x8611,
0.259752958333333,0,0x0004,
0.259760625000000,0,0x0315,
0.259777000000000,0,0x0A01,
0.259784916666667,0,0x8315,
0.259800750000000,0,0x0F00,
0.259808708333333,0,0x8415,
0.259824583333333,0,0x0000,
0.259832500000000,0,0x851E,
0.259848333333333,0,0xEF3F,
0.259856250000000,0,0x8615,
0.259887708333333,0,0x0004,
0.259895375000000,0,0x0319,
0.259911750000000,0,0x0A01,
0.259919666666667,0,0x8319,
0.259935541666667,0,0x0F00,
0.259943458333333,0,0x8419,
0.259959333333333,0,0x0000,
0.259967250000000,0,0x851E,
0.259983083333333,0,0xEF3F,
0.259991041666667,0,0x8619,
0.260022458333333,0,0x0004,
0.260030125000000,0,0x031D,
0.260046500000000,0,0x0A01,
0.260054416666667,0,0x831D,
0.260070291666667,0,0x0F00,
0.260078208333333,0,0x841D,
0.260094041666667,0,0x0000,
0.260102000000000,0,0x851E,
0.260117833333333,0,0xE73F,
0.260125750000000,0,0x861D,
0.260156291666667,0,0x0001,
0.260164000000000,0,0x1D11,
0.260180250000000,0,0x1551,
0.260188166666667,0,0x9D11,
0.260216125000000,0,0x0003,
0.260223833333333,0,0x2415,
0.260240166666667,0,0x0048,
0.260248083333333,0,0xA41E,
0.260263958333333,0,0x0040,
0.260271875000000,0,0xA51E,
0.260287708333333,0,0x0000,
0.260295625000000,0,0xA61E,
0.260324875000000,0,0x0005,
0.260332541666667,0,0x2D19,
0.260348625000000,0,0x0E48,
0.260356541666667,0,0xAD1E,
0.260372416666667,0,0xFFFF,
0.260380333333333,0,0xAE1E,
0.260396166666667,0,0xCEC1,
0.260404125000000,0,0xAF1E,
0.260419958333333,0,0xFFFF,
0.260427875000000,0,0xB01E,
0.260443708333333,0,0x8308,
0.260451666666667,0,0xB11E,
0.260481625000000,0,0x0006,
0.260489333333333,0,0x3B1D,
0.260505625000000,0,0xB3F6,
0.260513583333333,0,0xBB1E,
0.260529416666667,0,0xB346,
0.260537333333333,0,0xBC1E,
0.260553166666667,0,0xB2D6,
0.260561083333333,0,0xBD1E,
0.260576958333333,0,0xB218,
0.260584875000000,0,0xBE1E,
0.260600708333333,0,0xB21F,
0.260608666666667,0,0xBF1E,
0.260624500000000,0,0xB292,
0.260632416666667,0,0xC01E,
0.260662833333333,0,0x000A,
0.260670500000000,0,0x4111,
0.260686916666667,0,0xC0BE,
0.260694875000000,0,0xC11E,
0.260710708333333,0,0xC0B8,
0.260718666666667,0,0xC21E,
0.260734500000000,0,0xC0C0,
0.260742416666667,0,0xC31E,
0.260758291666667,0,0xC0C0,
0.260766208333333,0,0xC41E,
0.260782083333333,0,0xC0C2,
0.260790000000000,0,0xC51E,
0.260805833333333,0,0xE06A,
0.260813750000000,0,0xC61E,
0.260829625000000,0,0x8000,
0.260837541666667,0,0xC71E,
0.260853375000000,0,0xA2FB,
0.260861291666667,0,0xC81E,
0.260877166666667,0,0x9E3A,
0.260885083333333,0,0xC91E,
0.260900958333333,0,0x9E3B,
0.260908875000000,0,0xCA1E,
0.260940458333333,0,0x0004,
0.260948125000000,0,0x0325,
0.260964166666667,0,0x0A01,
0.260972041666667,0,0x8325,
0.260987750000000,0,0x0F00,
0.260995666666667,0,0x8425,
0.261011375000000,0,0x0000,
0.261019208333333,0,0x852E,
0.261034958333333,0,0xE73F,
0.261042791666667,0,0x8625,
0.261072958333333,0,0x0001,
0.261080666666667,0,0x1D29,
0.261096875000000,0,0x0055,
0.261104750000000,0,0x9D29,
0.261133000000000,0,0x0003,
0.261140666666667,0,0x242D,
0.261156833333333,0,0x004C,
0.261164708333333,0,0xA42E,
0.261180416666667,0,0x0040,
0.261188291666667,0,0xA52E,
0.261204000000000,0,0x0000,
0.261211875000000,0,0xA62E,
0.261241708333333,0,0x0005,
0.261249375000000,0,0x2D21,
0.261265416666667,0,0x0E7F,
0.261273291666667,0,0xAD2E,
0.261289000000000,0,0xFFFF,
0.261296875000000,0,0xAE2E,
0.261312625000000,0,0xEF7E,
0.261320458333333,0,0xAF2E,
0.261336208333333,0,0xFFFF,
0.261344083333333,0,0xB02E,
0.261359791666667,0,0x830E,
0.261367666666667,0,0xB12E,
0.261397166666667,0,0x0006,
0.261404833333333,0,0x3B25,
0.261421208333333,0,0xE559,
0.261429083333333,0,0xBB2E,
0.261444791666667,0,0x8000,
0.261452666666667,0,0xBC2E,
0.261468375000000,0,0x8000,
0.261476250000000,0,0xBD2E,
0.261491958333333,0,0x8002,
0.261499833333333,0,0xBE2E,
0.261515541666667,0,0xE5F9,
0.261523416666667,0,0xBF2E,
0.261539166666667,0,0xE60E,
0.261547000000000,0,0xC02E,
0.261577083333333,0,0x000A,
0.261584750000000,0,0x4129,
0.261601083333333,0,0xDEC0,
0.261608958333333,0,0xC12E,
0.261624708333333,0,0xE010,
0.261632541666667,0,0xC22E,
0.261648291666667,0,0xDFEE,
0.261656166666667,0,0xC32E,
0.261671875000000,0,0xE144,
0.261679750000000,0,0xC42E,
0.261695458333333,0,0xA98D,
0.261703333333333,0,0xC52E,
0.261719041666667,0,0xFF4C,
0.261726916666667,0,0xC62E,
0.261742625000000,0,0xC011,
0.261750500000000,0,0xC72E,
0.261766250000000,0,0xA2D9,
0.261774083333333,0,0xC82E,
0.261789833333333,0,0x9E3B,
0.261797666666667,0,0xC92E,
0.261813416666667,0,0x9E3E,
0.261821291666667,0,0xCA2E,
0.269383625000000,0,0xFC3F,
0.269391291666667,0,0x060F,
0.269418708333333,0,0x0004,
0.269426375000000,0,0x0311,
0.269442833333333,0,0x0A01,
0.269450791666667,0,0x8311,
0.269466625000000,0,0x0F00,
0.269474541666667,0,0x8411,
0.269490375000000,0,0x0000,
0.269498291666667,0,0x851F,
0.269514166666667,0,0xFF3F,
0.269522083333333,0,0x8611,
0.269552833333333,0,0x0004,
0.269560500000000,0,0x0315,
0.269576541666667,0,0x0A01,
0.269584458333333,0,0x8315,
0.269600291666667,0,0x0F00,
0.269608250000000,0,0x8415,
0.269624083333333,0,0x0000,
0.269632000000000,0,0x851F,
0.269647833333333,0,0xFF3F,
0.269655791666667,0,0x8615,
0.269686291666667,0,0x0004,
0.269694000000000,0,0x0319,
0.269710250000000,0,0x0A01,
0.269718166666667,0,0x8319,
0.269734041666667,0,0x0F00,
0.269741958333333,0,0x8419,
0.269757833333333,0,0x0000,
0.269765750000000,0,0x851F,
0.269781583333333,0,0xFF3F,
0.269789500000000,0,0x8619,
0.269819375000000,0,0x0004,
0.269827041666667,0,0x031D,
0.269843500000000,0,0x0A01,
0.269851416666667,0,0x831D,
0.269867250000000,0,0x0F00,
0.269875166666667,0,0x841D,
0.269891041666667,0,0x0000,
0.269898958333333,0,0x851F,
0.269914791666667,0,0xFF3F,
0.269922750000000,0,0x861D,
0.269953083333333,0,0x0004,
0.269960791666667,0,0x0311,
0.269977166666667,0,0x0A01,
0.269985125000000,0,0x8311,
0.270000958333333,0,0x0F00,
0.270008875000000,0,0x8411,
0.270024708333333,0,0x0000,
0.270032625000000,0,0x851F,
0.270048458333333,0,0xF73F,
0.270056416666667,0,0x8611,
0.270086208333333,0,0x0001,
0.270093875000000,0,0x1D15,
0.270109875000000,0,0x1551,
0.270117791666667,0,0x9D15,
0.270146083333333,0,0x0003,
0.270153791666667,0,0x2419,
0.270169791666667,0,0x0048,
0.270177708333333,0,0xA41F,
0.270193541666667,0,0x0040,
0.270201458333333,0,0xA51F,
0.270217291666667,0,0x0000,
0.270225208333333,0,0xA61F,
0.270254250000000,0,0x0005,
0.270261958333333,0,0x2D1D,
0.270278208333333,0,0x0F50,
0.270286125000000,0,0xAD1F,
0.270301958333333,0,0xFFFF,
0.270309875000000,0,0xAE1F,
0.270325708333333,0,0xCC71,
0.270333666666667,0,0xAF1F,
0.270349500000000,0,0xFFFF,
0.270357416666667,0,0xB01F,
0.270373250000000,0,0x8308,
0.270381166666667,0,0xB11F,
0.270411291666667,0,0x0006,
0.270419000000000,0,0x3B11,
0.270435166666667,0,0xB3F5,
0.270443041666667,0,0xBB1F,
0.270458916666667,0,0xB346,
0.270466833333333,0,0xBC1F,
0.270482666666667,0,0xB2D3,
0.270490583333333,0,0xBD1F,
0.270506458333333,0,0xB212,
0.270514375000000,0,0xBE1F,
0.270530208333333,0,0xB21C,
0.270538125000000,0,0xBF1F,
0.270553958333333,0,0xB289,
0.270561875000000,0,0xC01F,
0.270592208333333,0,0x000A,
0.270599916666667,0,0x4115,
0.270616333333333,0,0xC0C4,
0.270624250000000,0,0xC11F,
0.270640125000000,0,0xC0BA,
0.270648041666667,0,0xC21F,
0.270663875000000,0,0xC0C4,
0.270671791666667,0,0xC31F,
0.270687625000000,0,0xC0C4,
0.270695583333333,0,0xC41F,
0.270711416666667,0,0xC0C4,
0.270719333333333,0,0xC51F,
0.270735166666667,0,0xE06C,
0.270743083333333,0,0xC61F,
0.270758916666667,0,0x8000,
0.270766875000000,0,0xC71F,
0.270782708333333,0,0xA2FC,
0.270790625000000,0,0xC81F,
0.270806500000000,0,0x9E3A,
0.270814375000000,0,0xC91F,
0.270830250000000,0,0x9E3F,
0.270838166666667,0,0xCA1F,
0.270870750000000,0,0x0004,
0.270878416666667,0,0x0329,
0.270894625000000,0,0x0A01,
0.270902500000000,0,0x8329,
0.270918208333333,0,0x0F00,
0.270926083333333,0,0x8429,
0.270941833333333,0,0x0000,
0.270949666666667,0,0x852F,
0.270965416666667,0,0xF73F,
0.270973291666667,0,0x8629,
0.271002958333333,0,0x0001,
0.271010625000000,0,0x1D2D,
0.271026875000000,0,0x0055,
0.271034708333333,0,0x9D2D,
0.271062708333333,0,0x0003,
0.271070416666667,0,0x2421,
0.271086833333333,0,0x004C,
0.271094666666667,0,0xA42F,
0.271110416666667,0,0x0040,
0.271118291666667,0,0xA52F,
0.271134000000000,0,0x0000,
0.271141875000000,0,0xA62F,
0.271170833333333,0,0x0005,
0.271178500000000,0,0x2D25,
0.271194458333333,0,0x0F89,
0.271202333333333,0,0xAD2F,
0.271218041666667,0,0xFFFF,
0.271225916666667,0,0xAE2F,
0.271241625000000,0,0xEE85,
0.271249500000000,0,0xAF2F,
0.271265250000000,0,0x8000,
0.271273125000000,0,0xB02F,
0.271288833333333,0,0x8300,
0.271296666666667,0,0xB12F,
0.271326791666667,0,0x0006,
0.271334458333333,0,0x3B29,
0.271350750000000,0,0xE559,
0.271358583333333,0,0xBB2F,
0.271374333333333,0,0x8001,
0.271382208333333,0,0xBC2F,
0.271397958333333,0,0x8000,
0.271405791666667,0,0xBD2F,
0.271421541666667,0,0x8000,
0.271429375000000,0,0xBE2F,
0.271445125000000,0,0xE5F8,
0.271452958333333,0,0xBF2F,
0.271468708333333,0,0xE60F,
0.271476583333333,0,0xC02F,
0.271506291666667,0,0x000A,
0.271513958333333,0,0x412D,
0.271530125000000,0,0xDEDA,
0.271538000000000,0,0xC12F,
0.271553708333333,0,0xE012,
0.271561583333333,0,0xC22F,
0.271577333333333,0,0xDFF8,
0.271585208333333,0,0xC32F,
0.271600916666667,0,0xE145,
0.271608791666667,0,0xC42F,
0.271624500000000,0,0xA98A,
0.271632375000000,0,0xC52F,
0.271648125000000,0,0xFF4E,
0.271655958333333,0,0xC62F,
0.271671708333333,0,0xC010,
0.271679583333333,0,0xC72F,
0.271695291666667,0,0xA2D8,
0.271703166666667,0,0xC82F,
0.271718875000000,0,0x9E3A,
0.271726750000000,0,0xC92F,
0.271742500000000,0,0x9E40,
0.271750375000000,0,0xCA2F,
0.279316541666667,0,0x0C3F,
0.279324208333333,0,0x0603,
0.279351083333333,0,0x0004,
0.279358750000000,0,0x0315,
0.279374750000000,0,0x0A01,
0.279382708333333,0,0x8315,
0.279398541666667,0,0x0F00,
0.279406500000000,0,0x8415,
0.279422333333333,0,0x0000,
0.279430250000000,0,0x8510,
0.279446125000000,0,0x0F3F,
0.279454041666667,0,0x8615,
0.279484750000000,0,0x0004,
0.279492416666667,0,0x0319,
0.279508541666667,0,0x0A01,
0.279516458333333,0,0x8319,
0.279532333333333,0,0x0F00,
0.279540250000000,0,0x8419,
0.279556125000000,0,0x0000,
0.279564041666667,0,0x8510,
0.279579875000000,0,0x0F3F,
0.279587791666667,0,0x8619,
0.279619041666667,0,0x0004,
0.279626708333333,0,0x031D,
0.279642833333333,0,0x0A01,
0.279650750000000,0,0x831D,
0.279666625000000,0,0x0F00,
0.279674541666667,0,0x841D,
0.279690375000000,0,0x0000,
0.279698333333333,0,0x8510,
0.279714208333333,0,0x0F3F,
0.279722125000000,0,0x861D,
0.279752708333333,0,0x0004,
0.279760375000000,0,0x0311,
0.279776666666667,0,0x0A01,
0.279784583333333,0,0x8311,
0.279800458333333,0,0x0F00,
0.279808375000000,0,0x8411,
0.279824208333333,0,0x0000,
0.279832125000000,0,0x8510,
0.279848000000000,0,0x0F3F,
0.279855916666667,0,0x8611,
0.279887041666667,0,0x0004,
0.279894750000000,0,0x0315,
0.279910916666667,0,0x0A01,
0.279918833333333,0,0x8315,
0.279934708333333,0,0x0F00,
0.279942625000000,0,0x8415,
0.279958458333333,0,0x0000,
0.279966375000000,0,0x8510,
0.279982250000000,0,0x073F,
0.279990166666667,0,0x8615,
0.280021125000000,0,0x0001,
0.280028833333333,0,0x1D19,
0.280045166666667,0,0x1551,
0.280053083333333,0,0x9D19,
0.280081000000000,0,0x0003,
0.280088666666667,0,0x241D,
0.280105083333333,0,0x0048,
0.280113000000000,0,0xA410,
0.280128875000000,0,0x0040,
0.280136791666667,0,0xA510,
0.280152625000000,0,0x0000,
0.280160541666667,0,0xA610,
0.280189666666667,0,0x0005,
0.280197333333333,0,0x2D11,
0.280213541666667,0,0x1058,
0.280221500000000,0,0xAD10,
0.280237333333333,0,0xFFFF,
0.280245250000000,0,0xAE10,
0.280261125000000,0,0xCA59,
0.280269041666667,0,0xAF10,
0.280284875000000,0,0xFFFF,
0.280292791666667,0,0xB010,
0.280308666666667,0,0x830D,
0.280316583333333,0,0xB110,
0.280347583333333,0,0x0006,
0.280355250000000,0,0x3B15,
0.280371541666667,0,0xB3F6,
0.280379500000000,0,0xBB10,
0.280395333333333,0,0xB348,
0.280403250000000,0,0xBC10,
0.280419083333333,0,0xB2D8,
0.280427041666667,0,0xBD10,
0.280442875000000,0,0xB216,
0.280450833333333,0,0xBE10,
0.280466666666667,0,0xB21A,
0.280474583333333,0,0xBF10,
0.280490458333333,0,0xB28F,
0.280498375000000,0,0xC010,
0.280528666666667,0,0x000A,
0.280536333333333,0,0x4119,
0.280552375000000,0,0xC0C1,
0.280560291666667,0,0xC110,
0.280576125000000,0,0xC0BB,
0.280584041666667,0,0xC210,
0.280599916666667,0,0xC0C2,
0.280607833333333,0,0xC310,
0.280623666666667,0,0xC0BF,
0.280631625000000,0,0xC410,
0.280647500000000,0,0xC0C1,
0.280655375000000,0,0xC510,
0.280671250000000,0,0xE06B,
0.280679166666667,0,0xC610,
0.280695041666667,0,0x8000,
0.280702958333333,0,0xC710,
0.280718833333333,0,0xA2FD,
0.280726750000000,0,0xC810,
0.280742625000000,0,0x9E3A,
0.280750541666667,0,0xC910,
0.280766375000000,0,0x9E3B,
0.280774333333333,0,0xCA10,
0.280807500000000,0,0x0004,
0.280815166666667,0,0x032D,
0.280831583333333,0,0x0A01,
0.280839458333333,0,0x832D,
0.280855166666667,0,0x0F00,
0.280863041666667,0,0x842D,
0.280878750000000,0,0x0000,
0.280886625000000,0,0x8520,
0.280902375000000,0,0x073F,
0.280910208333333,0,0x862D,
0.280942166666667,0,0x0001,
0.280949833333333,0,0x1D21,
0.280966250000000,0,0x0055,
0.280974125000000,0,0x9D21,
0.281002166666667,0,0x0003,
0.281009833333333,0,0x2425,
0.281026208333333,0,0x004C,
0.281034083333333,0,0xA420,
0.281049833333333,0,0x0040,
0.281057666666667,0,0xA520,
0.281073416666667,0,0x0000,
0.281081291666667,0,0xA620,
0.281109916666667,0,0x0005,
0.281117583333333,0,0x2D29,
0.281133875000000,0,0x1093,
0.281141750000000,0,0xAD20,
0.281157458333333,0,0xFFFF,
0.281165333333333,0,0xAE20,
0.281181041666667,0,0xEE25,
0.281188916666667,0,0xAF20,
0.281204625000000,0,0x8000,
0.281212500000000,0,0xB020,
0.281228208333333,0,0x8300,
0.281236083333333,0,0xB120,
0.281266000000000,0,0x0006,
0.281273666666667,0,0x3B2D,
0.281289666666667,0,0xE557,
0.281297541666667,0,0xBB20,
0.281313250000000,0,0x8000,
0.281321125000000,0,0xBC20,
0.281336833333333,0,0x8000,
0.281344708333333,0,0xBD20,
0.281360458333333,0,0x8000,
0.281368291666667,0,0xBE20,
0.281384041666667,0,0xE5F7,
0.281391916666667,0,0xBF20,
0.281407625000000,0,0xE60B,
0.281415500000000,0,0xC020,
0.281445083333333,0,0x000A,
0.281452750000000,0,0x4121,
0.281469041666667,0,0xDEE4,
0.281476916666667,0,0xC120,
0.281492666666667,0,0xE013,
0.281500500000000,0,0xC220,
0.281516250000000,0,0xDFFC,
0.281524083333333,0,0xC320,
0.281539833333333,0,0xE142,
0.281547708333333,0,0xC420,
0.281563416666667,0,0xA98D,
0.281571291666667,0,0xC520,
0.281587000000000,0,0xFF49,
0.281594875000000,0,0xC620,
0.281610583333333,0,0xC00B,
0.281618458333333,0,0xC720,
0.281634166666667,0,0xA2D8,
0.281642041666667,0,0xC820,
0.281657791666667,0,0x9E38,
0.281665666666667,0,0xC920,
0.281681375000000,0,0x9E42,
0.281689250000000,0,0xCA20,
0.289320833333333,0,0x1C3F,
0.289328500000000,0,0x0607,
0.289356208333333,0,0x0004,
0.289363875000000,0,0x0319,
0.289380083333333,0,0x0A01,
0.289388000000000,0,0x8319,
0.289403875000000,0,0x0F00,
0.289411791666667,0,0x8419,
0.289427625000000,0,0x0000,
0.289435583333333,0,0x8511,
0.289451416666667,0,0x1F3F,
0.289459333333333,0,0x8619,
0.289489750000000,0,0x0004,
0.289497416666667,0,0x031D,
0.289513833333333,0,0x0A01,
0.289521750000000,0,0x831D,
0.289537625000000,0,0x0F00,
0.289545541666667,0,0x841D,
0.289561416666667,0,0x0000,
0.289569333333333,0,0x8511,
0.289585166666667,0,0x1F3F,
0.289593125000000,0,0x861D,
0.289623875000000,0,0x0004,
0.289631541666667,0,0x0311,
0.289647625000000,0,0x0A01,
0.289655541666667,0,0x8311,
0.289671416666667,0,0x0F00,
0.289679333333333,0,0x8411,
0.289695208333333,0,0x0000,
0.289703125000000,0,0x8511,
0.289718958333333,0,0x1F3F,
0.289726916666667,0,0x8611,
0.289757666666667,0,0x0004,
0.289765333333333,0,0x0315,
0.289781416666667,0,0x0A01,
0.289789333333333,0,0x8315,
0.289805166666667,0,0x0F00,
0.289813125000000,0,0x8415,
0.289828958333333,0,0x0000,
0.289836916666667,0,0x8511,
0.289852750000000,0,0x1F3F,
0.289860666666667,0,0x8615,
0.289892000000000,0,0x0004,
0.289899666666667,0,0x0319,
0.289916166666667,0,0x0A01,
0.289924083333333,0,0x8319,
0.289939916666667,0,0x0F00,
0.289947833333333,0,0x8419,
0.289963708333333,0,0x0000,
0.289971625000000,0,0x8511,
0.289987458333333,0,0x173F,
0.289995416666667,0,0x8619,
0.290026625000000,0,0x0001,
0.290034333333333,0,0x1D1D,
0.290050375000000,0,0x1551,
0.290058333333333,0,0x9D1D,
0.290086625000000,0,0x0003,
0.290094291666667,0,0x2411,
0.290110291666667,0,0x0048,
0.290118250000000,0,0xA411,
0.290134083333333,0,0x0040,
0.290142041666667,0,0xA511,
0.290157875000000,0,0x0000,
0.290165791666667,0,0xA611,
0.290194875000000,0,0x0005,
0.290202541666667,0,0x2D15,
0.290218791666667,0,0x1162,
0.290226708333333,0,0xAD11,
0.290242583333333,0,0xFFFF,
0.290250500000000,0,0xAE11,
0.290266333333333,0,0xC858,
0.290274250000000,0,0xAF11,
0.290290083333333,0,0xFFFF,
0.290298041666667,0,0xB011,
0.290313875000000,0,0x830D,
0.290321791666667,0,0xB111,
0.290351833333333,0,0x0006,
0.290359541666667,0,0x3B19,
0.290375833333333,0,0xB3F4,
0.290383750000000,0,0xBB11,
0.290399583333333,0,0xB347,
0.290407500000000,0,0xBC11,
0.290423375000000,0,0xB2D7,
0.290431291666667,0,0xBD11,
0.290447166666667,0,0xB216,
0.290455083333333,0,0xBE11,
0.290470916666667,0,0xB219,
0.290478833333333,0,0xBF11,
0.290494708333333,0,0xB28C,
0.290502625000000,0,0xC011,
0.290532791666667,0,0x000A,
0.290540458333333,0,0x411D,
0.290556625000000,0,0xC0C4,
0.290564541666667,0,0xC111,
0.290580416666667,0,0xC0BD,
0.290588333333333,0,0xC211,
0.290604166666667,0,0xC0C5,
0.290612125000000,0,0xC311,
0.290627916666667,0,0xC0C4,
0.290635875000000,0,0xC411,
0.290651708333333,0,0xC0C6,
0.290659625000000,0,0xC511,
0.290675500000000,0,0xE06D,
0.290683416666667,0,0xC611,
0.290699250000000,0,0x8000,
0.290707166666667,0,0xC711,
0.290723041666667,0,0xA2F8,
0.290730958333333,0,0xC811,
0.290746791666667,0,0x9E3D,
0.290754708333333,0,0xC911,
0.290770583333333,0,0x9E3B,
0.290778500000000,0,0xCA11,
0.290810708333333,0,0x0004,
0.290818416666667,0,0x0321,
0.290834500000000,0,0x0A01,
0.290842375000000,0,0x8321,
0.290858083333333,0,0x0F00,
0.290866000000000,0,0x8421,
0.290881708333333,0,0x0000,
0.290889583333333,0,0x8521,
0.290905291666667,0,0x173F,
0.290913166666667,0,0x8621,
0.290944000000000,0,0x0001,
0.290951666666667,0,0x1D25,
0.290967708333333,0,0x0055,
0.290975583333333,0,0x9D25,
0.291003541666667,0,0x0003,
0.291011208333333,0,0x2429,
0.291027208333333,0,0x004C,
0.291035083333333,0,0xA421,
0.291050791666667,0,0x0040,
0.291058666666667,0,0xA521,
0.291074375000000,0,0x0000,
0.291082250000000,0,0xA621,
0.291111416666667,0,0x0005,
0.291119125000000,0,0x2D2D,
0.291135333333333,0,0x119F,
0.291143208333333,0,0xAD21,
0.291158958333333,0,0xFFFF,
0.291166791666667,0,0xAE21,
0.291182541666667,0,0xEDBC,
0.291190375000000,0,0xAF21,
0.291206125000000,0,0xFFFF,
0.291214000000000,0,0xB021,
0.291229708333333,0,0x830E,
0.291237583333333,0,0xB121,
0.291268791666667,0,0x0006,
0.291276458333333,0,0x3B21,
0.291292666666667,0,0xE55A,
0.291300500000000,0,0xBB21,
0.291316250000000,0,0x8000,
0.291324125000000,0,0xBC21,
0.291339833333333,0,0x8003,
0.291347708333333,0,0xBD21,
0.291363458333333,0,0x8004,
0.291371291666667,0,0xBE21,
0.291387041666667,0,0xE5F9,
0.291394916666667,0,0xBF21,
0.291410625000000,0,0xE610,
0.291418500000000,0,0xC021,
0.291449125000000,0,0x000A,
0.291456791666667,0,0x4125,
0.291473083333333,0,0xDEEF,
0.291480916666667,0,0xC121,
0.291496666666667,0,0xE013,
0.291504541666667,0,0xC221,
0.291520250000000,0,0xE003,
0.291528125000000,0,0xC321,
0.291543833333333,0,0xE146,
0.291551708333333,0,0xC421,
0.291567416666667,0,0xA989,
0.291575291666667,0,0xC521,
0.291591041666667,0,0xFF4A,
0.291598875000000,0,0xC621,
0.291614625000000,0,0xC00E,
0.291622458333333,0,0xC721,
0.291638208333333,0,0xA2DA,
0.291646083333333,0,0xC821,
0.291661833333333,0,0x9E3A,
0.291669666666667,0,0xC921,
0.291685416666667,0,0x9E3E,
0.291693291666667,0,0xCA21,
0.299351000000000,0,0x2C3F,
0.299358666666667,0,0x060B,
0.299386875000000,0,0x0004,
0.299394583333333,0,0x031D,
0.299410958333333,0,0x0A01,
0.299418916666667,0,0x831D,
0.299434750000000,0,0x0F00,
0.299442666666667,0,0x841D,
0.299458541666667,0,0x0000,
0.299466458333333,0,0x8512,
0.299482333333333,0,0x2F3F,
0.299490250000000,0,0x861D,
0.299520708333333,0,0x0004,
0.299528375000000,0,0x0311,
0.299544750000000,0,0x0A01,
0.299552666666667,0,0x8311,
0.299568541666667,0,0x0F00,
0.299576458333333,0,0x8411,
0.299592291666667,0,0x0000,
0.299600250000000,0,0x8512,
0.299616083333333,0,0x2F3F,
0.299624000000000,0,0x8611,
0.299654375000000,0,0x0004,
0.299662083333333,0,0x0315,
0.299678541666667,0,0x0A01,
0.299686458333333,0,0x8315,
0.299702291666667,0,0x0F00,
0.299710250000000,0,0x8415,
0.299726083333333,0,0x0000,
0.299734041666667,0,0x8512,
0.299749875000000,0,0x2F3F,
0.299757833333333,0,0x8615,
0.299788666666667,0,0x0004,
0.299796333333333,0,0x0319,
0.299812333333333,0,0x0A01,
0.299820250000000,0,0x8319,
0.299836125000000,0,0x0F00,
0.299844041666667,0,0x8419,
0.299859875000000,0,0x0000,
0.299867791666667,0,0x8512,
0.299883666666667,0,0x2F3F,
0.299891583333333,0,0x8619,
0.299922000000000,0,0x0004,
0.299929666666667,0,0x031D,
0.299946083333333,0,0x0A01,
0.299954000000000,0,0x831D,
0.299969833333333,0,0x0F00,
0.299977750000000,0,0x841D,
0.299993625000000,0,0x0000,
0.300001541666667,0,0x8512,
0.300017375000000,0,0x273F,
0.300025333333333,0,0x861D,
0.300055750000000,0,0x0001,
0.300063416666667,0,0x1D11,
0.300079791666667,0,0x1551,
0.300087750000000,0,0x9D11,
0.300116458333333,0,0x0003,
0.300124125000000,0,0x2415,
0.300140208333333,0,0x0048,
0.300148125000000,0,0xA412,
0.300164000000000,0,0x0040,
0.300171916666667,0,0xA512,
0.300187750000000,0,0x0000,
0.300195708333333,0,0xA612,
0.300223958333333,0,0x0005,
0.300231625000000,0,0x2D19,
0.300247666666667,0,0x126C,
0.300255625000000,0,0xAD12,
0.300271458333333,0,0xFFFF,
0.300279375000000,0,0xAE12,
0.300295250000000,0,0xC642,
0.300303166666667,0,0xAF12,
0.300319000000000,0,0xFFFF,
0.300326916666667,0,0xB012,
0.300342791666667,0,0x830C,
0.300350708333333,0,0xB112,
0.300381125000000,0,0x0006,
0.300388791666667,0,0x3B1D,
0.300405208333333,0,0xB3F7,
0.300413125000000,0,0xBB12,
0.300428958333333,0,0xB34A,
0.300436875000000,0,0xBC12,
0.300452750000000,0,0xB2D6,
0.300460666666667,0,0xBD12,
0.300476500000000,0,0xB215,
0.300484416666667,0,0xBE12,
0.300500250000000,0,0xB21C,
0.300508208333333,0,0xBF12,
0.300524041666667,0,0xB28D,
0.300532000000000,0,0xC012,
0.300562333333333,0,0x000A,
0.300570041666667,0,0x4111,
0.300586500000000,0,0xC0C2,
0.300594416666667,0,0xC112,
0.300610250000000,0,0xC0BE,
0.300618208333333,0,0xC212,
0.300634041666667,0,0xC0C5,
0.300641958333333,0,0xC312,
0.300657833333333,0,0xC0C3,
0.300665750000000,0,0xC412,
0.300681625000000,0,0xC0C4,
0.300689541666667,0,0xC512,
0.300705375000000,0,0xE06C,
0.300713333333333,0,0xC612,
0.300729166666667,0,0x8001,
0.300737083333333,0,0xC712,
0.300752916666667,0,0xA2FA,
0.300760875000000,0,0xC812,
0.300776750000000,0,0x9E3B,
0.300784625000000,0,0xC912,
0.300800500000000,0,0x9E39,
0.300808416666667,0,0xCA12,
0.300840166666667,0,0x0004,
0.300847833333333,0,0x0325,
0.300864291666667,0,0x0A01,
0.300872125000000,0,0x8325,
0.300887875000000,0,0x0F00,
0.300895750000000,0,0x8425,
0.300911458333333,0,0x0000,
0.300919333333333,0,0x8522,
0.300935041666667,0,0x273F,
0.300942916666667,0,0x8625,
0.300973833333333,0,0x0001,
0.300981500000000,0,0x1D29,
0.300997458333333,0,0x0055,
0.301005333333333,0,0x9D29,
0.301033208333333,0,0x0003,
0.301040916666667,0,0x242D,
0.301056916666667,0,0x004C,
0.301064791666667,0,0xA422,
0.301080500000000,0,0x0040,
0.301088375000000,0,0xA522,
0.301104083333333,0,0x0000,
0.301111958333333,0,0xA622,
0.301140708333333,0,0x0005,
0.301148375000000,0,0x2D21,
0.301164541666667,0,0x12AC,
0.301172375000000,0,0xAD22,
0.301188125000000,0,0xFFFF,
0.301196000000000,0,0xAE22,
0.301211708333333,0,0xED1A,
0.301219583333333,0,0xAF22,
0.301235291666667,0,0x8000,
0.301243166666667,0,0xB022,
0.301258916666667,0,0x8301,
0.301266750000000,0,0xB122,
0.301296041666667,0,0x0006,
0.301303750000000,0,0x3B25,
0.301319833333333,0,0xE55C,
0.301327708333333,0,0xBB22,
0.301343416666667,0,0x8000,
0.301351291666667,0,0xBC22,
0.301367000000000,0,0x8000,
0.301374875000000,0,0xBD22,
0.301390583333333,0,0x8000,
0.301398458333333,0,0xBE22,
0.301414166666667,0,0xE5FA,
0.301422041666667,0,0xBF22,
0.301437750000000,0,0xE611,
0.301445625000000,0,0xC022,
0.301476375000000,0,0x000A,
0.301484083333333,0,0x4129,
0.301500166666667,0,0xDEFC,
0.301508041666667,0,0xC122,
0.301523750000000,0,0xE019,
0.301531625000000,0,0xC222,
0.301547333333333,0,0xE007,
0.301555208333333,0,0xC322,
0.301570916666667,0,0xE14B,
0.301578791666667,0,0xC422,
0.301594541666667,0,0xA98F,
0.301602375000000,0,0xC522,
0.301618125000000,0,0xFF4D,
0.301626000000000,0,0xC622,
0.301641708333333,0,0xC013,
0.301649583333333,0,0xC722,
0.301665291666667,0,0xA2D8,
0.301673166666667,0,0xC822,
0.301688916666667,0,0x9E38,
0.301696750000000,0,0xC922,
0.301712500000000,0,0x9E3F,
0.301720375000000,0,0xCA22,
0.309309625000000,0,0x3C3F,
0.309317291666667,0,0x060F,
0.309345250000000,0,0x0004,
0.309352916666667,0,0x0311,
0.309369250000000,0,0x0A01,
0.309377208333333,0,0x8311,
0.309393041666667,0,0x0F00,
0.309400958333333,0,0x8411,
0.309416833333333,0,0x0000,
0.309424750000000,0,0x8513,
0.309440583333333,0,0x3F3F,
0.309448541666667,0,0x8611,
0.309478750000000,0,0x0004,
0.309486458333333,0,0x0315,
0.309502500000000,0,0x0A01,
0.309510416666667,0,0x8315,
0.309526291666667,0,0x0F00,
0.309534250000000,0,0x8415,
0.309550083333333,0,0x0000,
0.309558000000000,0,0x8513,
0.309573875000000,0,0x3F3F,
0.309581791666667,0,0x8615,
0.309612958333333,0,0x0004,
0.309620666666667,0,0x0319,
0.309636791666667,0,0x0A01,
0.309644708333333,0,0x8319,
0.309660583333333,0,0x0F00,
0.309668500000000,0,0x8419,
0.309684375000000,0,0x0000,
0.309692291666667,0,0x8513,
0.309708166666667,0,0x3F3F,
0.309716083333333,0,0x8619,
0.309746458333333,0,0x0004,
0.309754125000000,0,0x031D,
0.309770583333333,0,0x0A01,
0.309778500000000,0,0x831D,
0.309794333333333,0,0x0F00,
0.309802291666667,0,0x841D,
0.309818125000000,0,0x0000,
0.309826041666667,0,0x8513,
0.309841916666667,0,0x3F3F,
0.309849833333333,0,0x861D,
0.309881000000000,0,0x0004,
0.309888666666667,0,0x0311,
0.309904833333333,0,0x0A01,
0.309912750000000,0,0x8311,
0.309928583333333,0,0x0F00,
0.309936500000000,0,0x8411,
0.309952375000000,0,0x0000,
0.309960291666667,0,0x8513,
0.309976125000000,0,0x373F,
0.309984083333333,0,0x8611,
0.310014375000000,0,0x0001,
0.310022041666667,0,0x1D15,
0.310038083333333,0,0x1551,
0.310046000000000,0,0x9D15,
0.310073958333333,0,0x0003,
0.310081666666667,0,0x2419,
0.310098000000000,0,0x0048,
0.310105916666667,0,0xA413,
0.310121750000000,0,0x0040,
0.310129708333333,0,0xA513,
0.310145541666667,0,0x0000,
0.310153458333333,0,0xA613,
0.310181958333333,0,0x0005,
0.310189666666667,0,0x2D1D,
0.310205958333333,0,0x1375,
0.310213875000000,0,0xAD13,
0.310229750000000,0,0xFFFF,
0.310237666666667,0,0xAE13,
0.310253500000000,0,0xC3EC,
0.310261416666667,0,0xAF13,
0.310277291666667,0,0x8000,
0.310285208333333,0,0xB013,
0.310301083333333,0,0x8303,
0.310309000000000,0,0xB113,
0.310340333333333,0,0x0006,
0.310348000000000,0,0x3B11,
0.310364458333333,0,0xB3F3,
0.310372375000000,0,0xBB13,
0.310388250000000,0,0xB346,
0.310396166666667,0,0xBC13,
0.310412000000000,0,0xB2D5,
0.310419958333333,0,0xBD13,
0.310435791666667,0,0xB216,
0.310443750000000,0,0xBE13,
0.310459583333333,0,0xB21B,
0.310467500000000,0,0xBF13,
0.310483333333333,0,0xB290,
0.310491291666667,0,0xC013,
0.310521458333333,0,0x000A,
0.310529125000000,0,0x4115,
0.310545291666667,0,0xC0C3,
0.310553208333333,0,0xC113,
0.310569041666667,0,0xC0BA,
0.310577000000000,0,0xC213,
0.310592833333333,0,0xC0C2,
0.310600750000000,0,0xC313,
0.310616625000000,0,0xC0C2,
0.310624541666667,0,0xC413,
0.310640375000000,0,0xC0C2,
0.310648291666667,0,0xC513,
0.310664166666667,0,0xE06D,
0.310672083333333,0,0xC613,
0.310687958333333,0,0x8000,
0.310695875000000,0,0xC713,
0.310711750000000,0,0xA2FC,
0.310719666666667,0,0xC813,
0.310735500000000,0,0x9E3C,
0.310743458333333,0,0xC913,
0.310759291666667,0,0x9E3A,
0.310767208333333,0,0xCA13,
0.310799458333333,0,0x0004,
0.310807125000000,0,0x0329,
0.310823375000000,0,0x0A01,
0.310831208333333,0,0x8329,
0.310846958333333,0,0x0F00,
0.310854791666667,0,0x8429,
0.310870541666667,0,0x0000,
0.310878416666667,0,0x8523,
0.310894125000000,0,0x373F,
0.310901958333333,0,0x8629,
0.310932541666667,0,0x0001,
0.310940208333333,0,0x1D2D,
0.310956541666667,0,0x0055,
0.310964416666667,0,0x9D2D,
0.310992291666667,0,0x0003,
0.310999958333333,0,0x2421,
0.311016000000000,0,0x004C,
0.311023875000000,0,0xA423,
0.311039583333333,0,0x0040,
0.311047458333333,0,0xA523,
0.311063166666667,0,0x0000,
0.311071041666667,0,0xA623,
0.311099625000000,0,0x0005,
0.311107291666667,0,0x2D25,
0.311123625000000,0,0x13B6,
0.311131500000000,0,0xAD23,
0.311147208333333,0,0xFFFF,
0.311155083333333,0,0xAE23,
0.311170791666667,0,0xECC9,
0.311178666666667,0,0xAF23,
0.311194416666667,0,0xFFFF,
0.311202291666667,0,0xB023,
0.311218000000000,0,0x830F,
0.311225875000000,0,0xB123,
0.311256291666667,0,0x0006,
0.311263958333333,0,0x3B29,
0.311279958333333,0,0xE55B,
0.311287791666667,0,0xBB23,
0.311303541666667,0,0x8000,
0.311311375000000,0,0xBC23,
0.311327125000000,0,0x8000,
0.311335000000000,0,0xBD23,
0.311350708333333,0,0x8000,
0.311358583333333,0,0xBE23,
0.311374291666667,0,0xE5F8,
0.311382166666667,0,0xBF23,
0.311397875000000,0,0xE610,
0.311405750000000,0,0xC023,
0.311436041666667,0,0x000A,
0.311443708333333,0,0x412D,
0.311459833333333,0,0xDF01,
0.311467666666667,0,0xC123,
0.311483416666667,0,0xE015,
0.311491291666667,0,0xC223,
0.311507000000000,0,0xE005,
0.311514875000000,0,0xC323,
0.311530583333333,0,0xE149,
0.311538458333333,0,0xC423,
0.311554166666667,0,0xA993,
0.311562041666667,0,0xC523,
0.311577750000000,0,0xFF51,
0.311585625000000,0,0xC623,
0.311601333333333,0,0xC010,
0.311609208333333,0,0xC723,
0.311624958333333,0,0xA2DA,
0.311632791666667,0,0xC823,
0.311648541666667,0,0x9E3D,
0.311656416666667,0,0xC923,
0.311672125000000,0,0x9E3C,
0.311680000000000,0,0xCA23,
0.319315333333333,0,0x4C3F,
0.319323000000000,0,0x0603,
0.319350291666667,0,0x0004,
0.319357958333333,0,0x0315,
0.319374333333333,0,0x0A01,
0.319382291666667,0,0x8315,
0.319398125000000,0,0x0F00,
0.319406083333333,0,0x8415,
0.319421916666667,0,0x0000,
0.319429875000000,0,0x8514,
0.319445708333333,0,0x4F3F,
0.319453625000000,0,0x8615,
0.319484500000000,0,0x0004,
0.319492166666667,0,0x0319,
0.319508125000000,0,0x0A01,
0.319516041666667,0,0x8319,
0.319531916666667,0,0x0F00,
0.319539833333333,0,0x8419,
0.319555708333333,0,0x0000,
0.319563625000000,0,0x8514,
0.319579458333333,0,0x4F3F,
0.319587416666667,0,0x8619,
0.319618125000000,0,0x0004,
0.319625791666667,0,0x031D,
0.319641916666667,0,0x0A01,
0.319649833333333,0,0x831D,
0.319665666666667,0,0x0F00,
0.319673625000000,0,0x841D,
0.319689458333333,0,0x0000,
0.319697375000000,0,0x8514,
0.319713250000000,0,0x4F3F,
0.319721166666667,0,0x861D,
0.319752125000000,0,0x0004,
0.319759791666667,0,0x0311,
0.319776166666667,0,0x0A01,
0.319784083333333,0,0x8311,
0.319799916666667,0,0x0F00,
0.319807875000000,0,0x8411,
0.319823708333333,0,0x0000,
0.319831625000000,0,0x8514,
0.319847458333333,0,0x4F3F,
0.319855416666667,0,0x8611,
0.319886208333333,0,0x0004,
0.319893875000000,0,0x0315,
0.319909875000000,0,0x0A01,
0.319917791666667,0,0x8315,
0.319933625000000,0,0x0F00,
0.319941583333333,0,0x8415,
0.319957416666667,0,0x0000,
0.319965333333333,0,0x8514,
0.319981208333333,0,0x473F,
0.319989125000000,0,0x8615,
0.320019375000000,0,0x0001,
0.320027083333333,0,0x1D19,
0.320043125000000,0,0x1551,
0.320051041666667,0,0x9D19,
0.320079125000000,0,0x0003,
0.320086791666667,0,0x241D,
0.320103041666667,0,0x0048,
0.320110958333333,0,0xA414,
0.320126791666667,0,0x0040,
0.320134750000000,0,0xA514,
0.320150583333333,0,0x0000,
0.320158500000000,0,0xA614,
0.320187666666667,0,0x0005,
0.320195375000000,0,0x2D11,
0.320211500000000,0,0x147F,
0.320219416666667,0,0xAD14,
0.320235291666667,0,0xFFFF,
0.320243208333333,0,0xAE14,
0.320259041666667,0,0xC259,
0.320266958333333,0,0xAF14,
0.320282833333333,0,0x8000,
0.320290750000000,0,0xB014,
0.320306583333333,0,0x8300,
0.320314541666667,0,0xB114,
0.320345375000000,0,0x0006,
0.320353041666667,0,0x3B15,
0.320369000000000,0,0xB3F5,
0.320376916666667,0,0xBB14,
0.320392791666667,0,0xB345,
0.320400708333333,0,0xBC14,
0.320416541666667,0,0xB2D4,
0.320424458333333,0,0xBD14,
0.320440333333333,0,0xB219,
0.320448250000000,0,0xBE14,
0.320464083333333,0,0xB21D,
0.320472041666667,0,0xBF14,
0.320487875000000,0,0xB28E,
0.320495791666667,0,0xC014,
0.320525666666667,0,0x000A,
0.320533375000000,0,0x4119,
0.320549791666667,0,0xC0C3,
0.320557708333333,0,0xC114,
0.320573583333333,0,0xC0BB,
0.320581500000000,0,0xC214,
0.320597375000000,0,0xC0C1,
0.320605291666667,0,0xC314,
0.320621125000000,0,0xC0C2,
0.320629041666667,0,0xC414,
0.320644916666667,0,0xC0BF,
0.320652833333333,0,0xC514,
0.320668666666667,0,0xE06C,
0.320676625000000,0,0xC614,
0.320692458333333,0,0x8001,
0.320700375000000,0,0xC714,
0.320716250000000,0,0xA2FA,
0.320724166666667,0,0xC814,
0.320740000000000,0,0x9E39,
0.320747916666667,0,0xC914,
0.320763791666667,0,0x9E3E,
0.320771708333333,0,0xCA14,
0.320804208333333,0,0x0004,
0.320811875000000,0,0x032D,
0.320828291666667,0,0x0A01,
0.320836166666667,0,0x832D,
0.320851875000000,0,0x0F00,
0.320859750000000,0,0x842D,
0.320875500000000,0,0x0000,
0.320883333333333,0,0x8524,
0.320899083333333,0,0x473F,
0.320906958333333,0,0x862D,
0.320937750000000,0,0x0001,
0.320945416666667,0,0x1D21,
0.320961500000000,0,0x0055,
0.320969333333333,0,0x9D21,
0.320996625000000,0,0x0003,
0.321004291666667,0,0x2425,
0.321020458333333,0,0x004C,
0.321028333333333,0,0xA424,
0.321044041666667,0,0x0040,
0.321051916666667,0,0xA524,
0.321067625000000,0,0x0000,
0.321075500000000,0,0xA624,
0.321104583333333,0,0x0005,
0.321112291666667,0,0x2D29,
0.321128583333333,0,0x14C2,
0.321136458333333,0,0xAD24,
0.321152166666667,0,0xFFFF,
0.321160041666667,0,0xAE24,
0.321175750000000,0,0xEC20,
0.321183625000000,0,0xAF24,
0.321199333333333,0,0x8000,
0.321207208333333,0,0xB024,
0.321222916666667,0,0x8301,
0.321230791666667,0,0xB124,
0.321262083333333,0,0x0006,
0.321269750000000,0,0x3B2D,
0.321285833333333,0,0xE55D,
0.321293666666667,0,0xBB24,
0.321309416666667,0,0x8000,
0.321317291666667,0,0xBC24,
0.321333000000000,0,0x8002,
0.321340875000000,0,0xBD24,
0.321356583333333,0,0x8002,
0.321364458333333,0,0xBE24,
0.321380166666667,0,0xE5FA,
0.321388041666667,0,0xBF24,
0.321403750000000,0,0xE611,
0.321411625000000,0,0xC024,
0.321441416666667,0,0x000A,
0.321449083333333,0,0x4121,
0.321465208333333,0,0xDF01,
0.321473041666667,0,0xC124,
0.321488791666667,0,0xE014,
0.321496625000000,0,0xC224,
0.321512375000000,0,0xE007,
0.321520250000000,0,0xC324,
0.321535958333333,0,0xE148,
0.321543833333333,0,0xC424,
0.321559541666667,0,0xA991,
0.321567416666667,0,0xC524,
0.321583125000000,0,0xFF4D,
0.321591000000000,0,0xC624,
0.321606750000000,0,0xC012,
0.321614583333333,0,0xC724,
0.321630291666667,0,0xA2DA,
0.321638166666667,0,0xC824,
0.321653875000000,0,0x9E39,
0.321661750000000,0,0xC924,
0.321677500000000,0,0x9E40,
0.321685375000000,0,0xCA24,
0.329298875000000,0,0x5C3F,
0.329306541666667,0,0x0607,
0.329333625000000,0,0x0004,
0.329341291666667,0,0x0319,
0.329357416666667,0,0x0A01,
0.329365333333333,0,0x8319,
0.329381166666667,0,0x0F00,
0.329389125000000,0,0x8419,
0.329404958333333,0,0x0000,
0.329412916666667,0,0x8515,
0.329428750000000,0,0x5F3F,
0.329436708333333,0,0x8619,
0.329467250000000,0,0x0004,
0.329474958333333,0,0x031D,
0.329491208333333,0,0x0A01,
0.329499125000000,0,0x831D,
0.329514958333333,0,0x0F00,
0.329522916666667,0,0x841D,
0.329538750000000,0,0x0000,
0.329546708333333,0,0x8515,
0.329562541666667,0,0x5F3F,
0.329570458333333,0,0x861D,
0.329601416666667,0,0x0004,
0.329609125000000,0,0x0311,
0.329625458333333,0,0x0A01,
0.329633375000000,0,0x8311,
0.329649250000000,0,0x0F00,
0.329657166666667,0,0x8411,
0.329673041666667,0,0x0000,
0.329680958333333,0,0x8515,
0.329696833333333,0,0x5F3F,
0.329704750000000,0,0x8611,
0.329734833333333,0,0x0004,
0.329742500000000,0,0x0315,
0.329758750000000,0,0x0A01,
0.329766708333333,0,0x8315,
0.329782541666667,0,0x0F00,
0.329790500000000,0,0x8415,
0.329806291666667,0,0x0000,
0.329814250000000,0,0x8515,
0.329830083333333,0,0x5F3F,
0.329838041666667,0,0x8615,
0.329867833333333,0,0x0004,
0.329875500000000,0,0x0319,
0.329891500000000,0,0x0A01,
0.329899416666667,0,0x8319,
0.329915250000000,0,0x0F00,
0.329923166666667,0,0x8419,
0.329939000000000,0,0x0000,
0.329946916666667,0,0x8515,
0.329962750000000,0,0x573F,
0.329970708333333,0,0x8619,
0.330001208333333,0,0x0001,
0.330008916666667,0,0x1D1D,
0.330025125000000,0,0x1551,
0.330033083333333,0,0x9D1D,
0.330061416666667,0,0x0003,
0.330069125000000,0,0x2411,
0.330085541666667,0,0x0048,
0.330093458333333,0,0xA415,
0.330109291666667,0,0x0040,
0.330117208333333,0,0xA515,
0.330133083333333,0,0x0000,
0.330141000000000,0,0xA615,
0.330170416666667,0,0x0005,
0.330178083333333,0,0x2D15,
0.330194458333333,0,0x1588,
0.330202375000000,0,0xAD15,
0.330218208333333,0,0xFFFF,
0.330226125000000,0,0xAE15,
0.330241958333333,0,0xBFDF,
0.330249875000000,0,0xAF15,
0.330265750000000,0,0xFFFF,
0.330273666666667,0,0xB015,
0.330289500000000,0,0x8306,
0.330297416666667,0,0xB115,
0.330327625000000,0,0x0006,
0.330335291666667,0,0x3B19,
0.330351416666667,0,0xB3F7,
0.330359333333333,0,0xBB15,
0.330375166666667,0,0xB348,
0.330383083333333,0,0xBC15,
0.330398958333333,0,0xB2D5,
0.330406875000000,0,0xBD15,
0.330422708333333,0,0xB219,
0.330430625000000,0,0xBE15,
0.330446458333333,0,0xB218,
0.330454375000000,0,0xBF15,
0.330470250000000,0,0xB28B,
0.330478125000000,0,0xC015,
0.330508750000000,0,0x000A,
0.330516458333333,0,0x411D,
0.330532583333333,0,0xC0C2,
0.330540500000000,0,0xC115,
0.330556333333333,0,0xC0BD,
0.330564291666667,0,0xC215,
0.330580125000000,0,0xC0C0,
0.330588041666667,0,0xC315,
0.330603875000000,0,0xC0C2,
0.330611833333333,0,0xC415,
0.330627666666667,0,0xC0C3,
0.330635583333333,0,0xC515,
0.330651416666667,0,0xE06B,
0.330659333333333,0,0xC615,
0.330675208333333,0,0x8000,
0.330683125000000,0,0xC715,
0.330698958333333,0,0xA2FC,
0.330706875000000,0,0xC815,
0.330722750000000,0,0x9E3B,
0.330730666666667,0,0xC915,
0.330746500000000,0,0x9E3D,
0.330754416666667,0,0xCA15,
0.330786333333333,0,0x0004,
0.330794000000000,0,0x0321,
0.330810166666667,0,0x0A01,
0.330818041666667,0,0x8321,
0.330833750000000,0,0x0F00,
0.330841625000000,0,0x8421,
0.330857333333333,0,0x0000,
0.330865208333333,0,0x8525,
0.330880958333333,0,0x573F,
0.330888791666667,0,0x8621,
0.330919166666667,0,0x0001,
0.330926833333333,0,0x1D25,
0.330942875000000,0,0x0055,
0.330950708333333,0,0x9D25,
0.330979083333333,0,0x0003,
0.330986750000000,0,0x2429,
0.331002791666667,0,0x004C,
0.331010666666667,0,0xA425,
0.331026416666667,0,0x0040,
0.331034250000000,0,0xA525,
0.331050000000000,0,0x0000,
0.331057875000000,0,0xA625,
0.331086625000000,0,0x0005,
0.331094291666667,0,0x2D2D,
0.331110458333333,0,0x15CD,
0.331118291666667,0,0xAD25,
0.331134041666667,0,0xFFFF,
0.331141875000000,0,0xAE25,
0.331157625000000,0,0xEAB9,
0.331165500000000,0,0xAF25,
0.331181208333333,0,0xFFFF,
0.331189083333333,0,0xB025,
0.331204791666667,0,0x830C,
0.331212666666667,0,0xB125,
0.331242708333333,0,0x0006,
0.331250416666667,0,0x3B21,
0.331266750000000,0,0xE55A,
0.331274583333333,0,0xBB25,
0.331290333333333,0,0x8000,
0.331298208333333,0,0xBC25,
0.331313916666667,0,0x8002,
0.331321791666667,0,0xBD25,
0.331337541666667,0,0x8000,
0.331345375000000,0,0xBE25,
0.331361083333333,0,0xE5F8,
0.331368958333333,0,0xBF25,
0.331384708333333,0,0xE60F,
0.331392541666667,0,0xC025,
0.331422833333333,0,0x000A,
0.331430500000000,0,0x4125,
0.331446583333333,0,0xDF01,
0.331454458333333,0,0xC125,
0.331470208333333,0,0xE013,
0.331478041666667,0,0xC225,
0.331493791666667,0,0xE00B,
0.331501666666667,0,0xC325,
0.331517375000000,0,0xE148,
0.331525250000000,0,0xC425,
0.331540958333333,0,0xA98D,
0.331548833333333,0,0xC525,
0.331564541666667,0,0xFF4D,
0.331572416666667,0,0xC625,
0.331588125000000,0,0xC00F,
0.331596000000000,0,0xC725,
0.331611708333333,0,0xA2DA,
0.331619583333333,0,0xC825,
0.331635333333333,0,0x9E3D,
0.331643166666667,0,0xC925,
0.331658916666667,0,0x9E3F,
0.331666750000000,0,0xCA25,
0.339329291666667,0,0x6C3F,
0.339337000000000,0,0x060B,
0.339364083333333,0,0x0004,
0.339371750000000,0,0x031D,
0.339387958333333,0,0x0A01,
0.339395875000000,0,0x831D,
0.339411708333333,0,0x0F00,
0.339419625000000,0,0x841D,
0.339435500000000,0,0x0000,
0.339443416666667,0,0x8516,
0.339459291666667,0,0x6F3F,
0.339467208333333,0,0x861D,
0.339498208333333,0,0x0004,
0.339505875000000,0,0x0311,
0.339522208333333,0,0x0A01,
0.339530125000000,0,0x8311,
0.339546000000000,0,0x0F00,
0.339553916666667,0,0x8411,
0.339569791666667,0,0x0000,
0.339577708333333,0,0x8516,
0.339593541666667,0,0x6F3F,
0.339601500000000,0,0x8611,
0.339632291666667,0,0x0004,
0.339639958333333,0,0x0315,
0.339656000000000,0,0x0A01,
0.339663916666667,0,0x8315,
0.339679750000000,0,0x0F00,
0.339687666666667,0,0x8415,
0.339703541666667,0,0x0000,
0.339711500000000,0,0x8516,
0.339727333333333,0,0x6F3F,
0.339735250000000,0,0x8615,
0.339766166666667,0,0x0004,
0.339773875000000,0,0x0319,
0.339790291666667,0,0x0A01,
0.339798208333333,0,0x8319,
0.339814083333333,0,0x0F00,
0.339822000000000,0,0x8419,
0.339837875000000,0,0x0000,
0.339845791666667,0,0x8516,
0.339861666666667,0,0x6F3F,
0.339869583333333,0,0x8619,
0.339900916666667,0,0x0004,
0.339908583333333,0,0x031D,
0.339924583333333,0,0x0A01,
0.339932500000000,0,0x831D,
0.339948333333333,0,0x0F00,
0.339956291666667,0,0x841D,
0.339972125000000,0,0x0000,
0.339980083333333,0,0x8516,
0.339995916666667,0,0x673F,
0.340003833333333,0,0x861D,
0.340034541666667,0,0x0001,
0.340042208333333,0,0x1D11,
0.340058333333333,0,0x1551,
0.340066250000000,0,0x9D11,
0.340094583333333,0,0x0003,
0.340102291666667,0,0x2415,
0.340118291666667,0,0x0048,
0.340126208333333,0,0xA416,
0.340142083333333,0,0x0040,
0.340150000000000,0,0xA516,
0.340165833333333,0,0x0000,
0.340173791666667,0,0xA616,
0.340203041666667,0,0x0005,
0.340210708333333,0,0x2D19,
0.340226791666667,0,0x1692,
0.340234708333333,0,0xAD16,
0.340250583333333,0,0xFFFF,
0.340258500000000,0,0xAE16,
0.340274333333333,0,0xBE1C,
0.340282291666667,0,0xAF16,
0.340298125000000,0,0x8000,
0.340306083333333,0,0xB016,
0.340321916666667,0,0x8300,
0.340329875000000,0,0xB116,
0.340359958333333,0,0x0006,
0.340367625000000,0,0x3B1D,
0.340383833333333,0,0xB3F3,
0.340391791666667,0,0xBB16,
0.340407625000000,0,0xB346,
0.340415541666667,0,0xBC16,
0.340431416666667,0,0xB2D7,
0.340439333333333,0,0xBD16,
0.340455208333333,0,0xB219,
0.340463083333333,0,0xBE16,
0.340478958333333,0,0xB21A,
0.340486916666667,0,0xBF16,
0.340502750000000,0,0xB28C,
0.340510666666667,0,0xC016,
0.340540666666667,0,0x000A,
0.340548333333333,0,0x4111,
0.340564666666667,0,0xC0C3,
0.340572625000000,0,0xC116,
0.340588458333333,0,0xC0BC,
0.340596375000000,0,0xC216,
0.340612250000000,0,0xC0C2,
0.340620166666667,0,0xC316,
0.340636000000000,0,0xC0C2,
0.340643958333333,0,0xC416,
0.340659791666667,0,0xC0C1,
0.340667708333333,0,0xC516,
0.340683583333333,0,0xE06D,
0.340691500000000,0,0xC616,
0.340707333333333,0,0x8000,
0.340715291666667,0,0xC716,
0.340731125000000,0,0xA2F9,
0.340739041666667,0,0xC816,
0.340754875000000,0,0x9E3C,
0.340762833333333,0,0xC916,
0.340778666666667,0,0x9E3B,
0.340786583333333,0,0xCA16,
0.340820291666667,0,0x0004,
0.340827958333333,0,0x0325,
0.340844000000000,0,0x0A01,
0.340851833333333,0,0x8325,
0.340867583333333,0,0x0F00,
0.340875458333333,0,0x8425,
0.340891166666667,0,0x0000,
0.340899041666667,0,0x8526,
0.340914750000000,0,0x673F,
0.340922625000000,0,0x8625,
0.340952958333333,0,0x0001,
0.340960666666667,0,0x1D29,
0.340976666666667,0,0x0055,
0.340984500000000,0,0x9D29,
0.341013000000000,0,0x0003,
0.341020666666667,0,0x242D,
0.341037083333333,0,0x004C,
0.341044958333333,0,0xA426,
0.341060666666667,0,0x0040,
0.341068541666667,0,0xA526,
0.341084250000000,0,0x0000,
0.341092166666667,0,0xA626,
0.341121291666667,0,0x0005,
0.341128958333333,0,0x2D21,
0.341145208333333,0,0x16DA,
0.341153083333333,0,0xAD26,
0.341168791666667,0,0xFFFF,
0.341176666666667,0,0xAE26,
0.341192375000000,0,0xEAA1,
0.341200250000000,0,0xAF26,
0.341216000000000,0,0x8000,
0.341223833333333,0,0xB026,
0.341239583333333,0,0x8301,
0.341247458333333,0,0xB126,
0.341278000000000,0,0x0006,
0.341285708333333,0,0x3B25,
0.341302000000000,0,0xE556,
0.341309833333333,0,0xBB26,
0.341325583333333,0,0x8000,
0.341333458333333,0,0xBC26,
0.341349166666667,0,0x8000,
0.341357041666667,0,0xBD26,
0.341372750000000,0,0x8000,
0.341380625000000,0,0xBE26,
0.341396333333333,0,0xE5FD,
0.341404208333333,0,0xBF26,
0.341419916666667,0,0xE60F,
0.341427791666667,0,0xC026,
0.341457833333333,0,0x000A,
0.341465500000000,0,0x4129,
0.341481875000000,0,0xDF06,
0.341489750000000,0,0xC126,
0.341505458333333,0,0xE016,
0.341513333333333,0,0xC226,
0.341529083333333,0,0xE010,
0.341536916666667,0,0xC326,
0.341552666666667,0,0xE14B,
0.341560500000000,0,0xC426,
0.341576250000000,0,0xA990,
0.341584083333333,0,0xC526,
0.341599833333333,0,0xFF4C,
0.341607708333333,0,0xC626,
0.341623416666667,0,0xC012,
0.341631291666667,0,0xC726,
0.341647000000000,0,0xA2DA,
0.341654875000000,0,0xC826,
0.341670583333333,0,0x9E3B,
0.341678458333333,0,0xC926,
0.341694208333333,0,0x9E3E,
0.341702041666667,0,0xCA26,
0.349304333333333,0,0x7C3F,
0.349312000000000,0,0x060F,
0.349339333333333,0,0x0004,
0.349347041666667,0,0x0311,
0.349363166666667,0,0x0A01,
0.349371083333333,0,0x8311,
0.349386916666667,0,0x0F00,
0.349394833333333,0,0x8411,
0.349410708333333,0,0x0000,
0.349418625000000,0,0x8517,
0.349434458333333,0,0x7F3F,
0.349442416666667,0,0x8611,
0.349473666666667,0,0x0004,
0.349481333333333,0,0x0315,
0.349497375000000,0,0x0A01,
0.349505291666667,0,0x8315,
0.349521166666667,0,0x0F00,
0.349529083333333,0,0x8415,
0.349544958333333,0,0x0000,
0.349552875000000,0,0x8517,
0.349568708333333,0,0x7F3F,
0.349576666666667,0,0x8615,
0.349607000000000,0,0x0004,
0.349614666666667,0,0x0319,
0.349630666666667,0,0x0A01,
0.349638583333333,0,0x8319,
0.349654416666667,0,0x0F00,
0.349662375000000,0,0x8419,
0.349678208333333,0,0x0000,
0.349686166666667,0,0x8517,
0.349702000000000,0,0x7F3F,
0.349709916666667,0,0x8619,
0.349740500000000,0,0x0004,
0.349748208333333,0,0x031D,
0.349764416666667,0,0x0A01,
0.349772375000000,0,0x831D,
0.349788208333333,0,0x0F00,
0.349796166666667,0,0x841D,
0.349812000000000,0,0x0000,
0.349819916666667,0,0x8517,
0.349835791666667,0,0x7F3F,
0.349843708333333,0,0x861D,
0.349874125000000,0,0x0004,
0.349881791666667,0,0x0311,
0.349898166666667,0,0x0A01,
0.349906125000000,0,0x8311,
0.349921958333333,0,0x0F00,
0.349929875000000,0,0x8411,
0.349945750000000,0,0x0000,
0.349953666666667,0,0x8517,
0.349969541666667,0,0x773F,
0.349977458333333,0,0x8611,
0.350007958333333,0,0x0001,
0.350015666666667,0,0x1D15,
0.350031958333333,0,0x1551,
0.350039875000000,0,0x9D15,
0.350067875000000,0,0x0003,
0.350075583333333,0,0x2419,
0.350091875000000,0,0x0048,
0.350099833333333,0,0xA417,
0.350115666666667,0,0x0040,
0.350123583333333,0,0xA517,
0.350139416666667,0,0x0000,
0.350147375000000,0,0xA617,
0.350176583333333,0,0x0005,
0.350184250000000,0,0x2D1D,
0.350200375000000,0,0x179B,
0.350208291666667,0,0xAD17,
0.350224166666667,0,0xFFFF,
0.350232083333333,0,0xAE17,
0.350247916666667,0,0xBC54,
0.350255875000000,0,0xAF17,
0.350271708333333,0,0xFFFF,
0.350279625000000,0,0xB017,
0.350295500000000,0,0x830D,
0.350303416666667,0,0xB117,
0.350333750000000,0,0x0006,
0.350341416666667,0,0x3B11,
0.350357416666667,0,0xB3F7,
0.350365333333333,0,0xBB17,
0.350381208333333,0,0xB349,
0.350389125000000,0,0xBC17,
0.350404958333333,0,0xB2D8,
0.350412916666667,0,0xBD17,
0.350428750000000,0,0xB217,
0.350436666666667,0,0xBE17,
0.350452541666667,0,0xB220,
0.350460458333333,0,0xBF17,
0.350476291666667,0,0xB293,
0.350484250000000,0,0xC017,
0.350514708333333,0,0x000A,
0.350522416666667,0,0x4115,
0.350538708333333,0,0xC0C7,
0.350546625000000,0,0xC117,
0.350562500000000,0,0xC0BD,
0.350570416666667,0,0xC217,
0.350586250000000,0,0xC0C3,
0.350594208333333,0,0xC317,
0.350610083333333,0,0xC0C3,
0.350617958333333,0,0xC417,
0.350633833333333,0,0xC0C0,
0.350641750000000,0,0xC517,
0.350657583333333,0,0xE06D,
0.350665541666667,0,0xC617,
0.350681375000000,0,0x8000,
0.350689291666667,0,0xC717,
0.350705125000000,0,0xA2FF,
0.350713083333333,0,0xC817,
0.350728916666667,0,0x9E37,
0.350736833333333,0,0xC917,
0.350752666666667,0,0x9E3B,
0.350760625000000,0,0xCA17,
0.350792625000000,0,0x0004,
0.350800333333333,0,0x0329,
0.350816541666667,0,0x0A01,
0.350824375000000,0,0x8329,
0.350840125000000,0,0x0F00,
0.350847958333333,0,0x8429,
0.350863708333333,0,0x0000,
0.350871583333333,0,0x8527,
0.350887291666667,0,0x773F,
0.350895166666667,0,0x8629,
0.350925250000000,0,0x0001,
0.350932916666667,0,0x1D2D,
0.350949208333333,0,0x0055,
0.350957041666667,0,0x9D2D,
0.350985208333333,0,0x0003,
0.350992875000000,0,0x2421,
0.351009125000000,0,0x004C,
0.351017041666667,0,0xA427,
0.351032750000000,0,0x0040,
0.351040625000000,0,0xA527,
0.351056333333333,0,0x0000,
0.351064166666667,0,0xA627,
0.351093291666667,0,0x0005,
0.351100958333333,0,0x2D25,
0.351117250000000,0,0x17E5,
0.351125125000000,0,0xAD27,
0.351140833333333,0,0xFFFF,
0.351148708333333,0,0xAE27,
0.351164458333333,0,0xE9CC,
0.351172291666667,0,0xAF27,
0.351188041666667,0,0x8000,
0.351195875000000,0,0xB027,
0.351211625000000,0,0x8300,
0.351219500000000,0,0xB127,
0.351251250000000,0,0x0006,
0.351258958333333,0,0x3B29,
0.351275000000000,0,0xE555,
0.351282875000000,0,0xBB27,
0.351298583333333,0,0x8000,
0.351306458333333,0,0xBC27,
0.351322166666667,0,0x8004,
0.351330041666667,0,0xBD27,
0.351345791666667,0,0x8006,
0.351353625000000,0,0xBE27,
0.351369375000000,0,0xE5F2,
0.351377208333333,0,0xBF27,
0.351392958333333,0,0xE609,
0.351400833333333,0,0xC027,
0.351431125000000,0,0x000A,
0.351438833333333,0,0x412D,
0.351454875000000,0,0xDF06,
0.351462750000000,0,0xC127,
0.351478458333333,0,0xE016,
0.351486333333333,0,0xC227,
0.351502041666667,0,0xE00F,
0.351509916666667,0,0xC327,
0.351525625000000,0,0xE14A,
0.351533500000000,0,0xC427,
0.351549208333333,0,0xA98E,
0.351557083333333,0,0xC527,
0.351572791666667,0,0xFF51,
0.351580666666667,0,0xC627,
0.351596375000000,0,0xC010,
0.351604250000000,0,0xC727,
0.351619958333333,0,0xA2DB,
0.351627833333333,0,0xC827,
0.351643583333333,0,0x9E3B,
0.351651416666667,0,0xC927,
0.351667166666667,0,0x9E3F,
0.351675000000000,0,0xCA27,
0.359455541666667,0,0x8C3F,
0.359463208333333,0,0x0603,
0.359490708333333,0,0x0004,
0.359498416666667,0,0x0315,
0.359514583333333,0,0x0A01,
0.359522500000000,0,0x8315,
0.359538333333333,0,0x0F00,
0.359546250000000,0,0x8415,
0.359562125000000,0,0x0000,
0.359570041666667,0,0x8518,
0.359585875000000,0,0x8F3F,
0.359593833333333,0,0x8615,
0.359624666666667,0,0x0004,
0.359632375000000,0,0x0319,
0.359648833333333,0,0x0A01,
0.359656791666667,0,0x8319,
0.359672625000000,0,0x0F00,
0.359680541666667,0,0x8419,
0.359696416666667,0,0x0000,
0.359704333333333,0,0x8518,
0.359720208333333,0,0x8F3F,
0.359728125000000,0,0x8619,
0.359759041666667,0,0x0004,
0.359766708333333,0,0x031D,
0.359783125000000,0,0x0A01,
0.359791041666667,0,0x831D,
0.359806875000000,0,0x0F00,
0.359814833333333,0,0x841D,
0.359830666666667,0,0x0000,
0.359838583333333,0,0x8518,
0.359854458333333,0,0x8F3F,
0.359862375000000,0,0x861D,
0.359892541666667,0,0x0004,
0.359900208333333,0,0x0311,
0.359916375000000,0,0x0A01,
0.359924291666667,0,0x8311,
0.359940125000000,0,0x0F00,
0.359948083333333,0,0x8411,
0.359963916666667,0,0x0000,
0.359971875000000,0,0x8518,
0.359987708333333,0,0x8F3F,
0.359995625000000,0,0x8611,
0.360026125000000,0,0x0004,
0.360033791666667,0,0x0315,
0.360050125000000,0,0x0A01,
0.360058041666667,0,0x8315,
0.360073875000000,0,0x0F00,
0.360081833333333,0,0x8415,
0.360097666666667,0,0x0000,
0.360105583333333,0,0x8518,
0.360121458333333,0,0x873F,
0.360129375000000,0,0x8615,
0.360160291666667,0,0x0001,
0.360167958333333,0,0x1D19,
0.360184333333333,0,0x1551,
0.360192250000000,0,0x9D19,
0.360220041666667,0,0x0003,
0.360227708333333,0,0x241D,
0.360243750000000,0,0x0048,
0.360251708333333,0,0xA418,
0.360267541666667,0,0x0040,
0.360275458333333,0,0xA518,
0.360291333333333,0,0x0000,
0.360299250000000,0,0xA618,
0.360328500000000,0,0x0005,
0.360336166666667,0,0x2D11,
0.360352250000000,0,0x18A9,
0.360360166666667,0,0xAD18,
0.360376000000000,0,0xFFFF,
0.360383916666667,0,0xAE18,
0.360399791666667,0,0xBA18,
0.360407708333333,0,0xAF18,
0.360423541666667,0,0x8000,
0.360431458333333,0,0xB018,
0.360447333333333,0,0x8303,
0.360455250000000,0,0xB118,
0.360485250000000,0,0x0006,
0.360492958333333,0,0x3B15,
0.360509208333333,0,0xB3F4,
0.360517166666667,0,0xBB18,
0.360533000000000,0,0xB342,
0.360540958333333,0,0xBC18,
0.360556791666667,0,0xB2D5,
0.360564708333333,0,0xBD18,
0.360580541666667,0,0xB217,
0.360588500000000,0,0xBE18,
0.360604375000000,0,0xB21A,
0.360612291666667,0,0xBF18,
0.360628125000000,0,0xB28C,
0.360636041666667,0,0xC018,
0.360665666666667,0,0x000A,
0.360673333333333,0,0x4119,
0.360689541666667,0,0xC0C1,
0.360697458333333,0,0xC118,
0.360713333333333,0,0xC0BC,
0.360721250000000,0,0xC218,
0.360737083333333,0,0xC0C2,
0.360745000000000,0,0xC318,
0.360760875000000,0,0xC0C5,
0.360768791666667,0,0xC418,
0.360784625000000,0,0xC0C3,
0.360792541666667,0,0xC518,
0.360808416666667,0,0xE071,
0.360816333333333,0,0xC618,
0.360832208333333,0,0x8000,
0.360840083333333,0,0xC718,
0.360855958333333,0,0xA2FD,
0.360863916666667,0,0xC818,
0.360879750000000,0,0x9E3B,
0.360887666666667,0,0xC918,
0.360903500000000,0,0x9E39,
0.360911458333333,0,0xCA18,
0.360944541666667,0,0x0004,
0.360952208333333,0,0x032D,
0.360968333333333,0,0x0A01,
0.360976166666667,0,0x832D,
0.360991875000000,0,0x0F00,
0.360999750000000,0,0x842D,
0.361015458333333,0,0x0000,
0.361023333333333,0,0x8528,
0.361039041666667,0,0x873F,
0.361046916666667,0,0x862D,
0.361077166666667,0,0x0001,
0.361084875000000,0,0x1D21,
0.361100958333333,0,0x0055,
0.361108833333333,0,0x9D21,
0.361137208333333,0,0x0003,
0.361144875000000,0,0x2425,
0.361160916666667,0,0x004C,
0.361168791666667,0,0xA428,
0.361184500000000,0,0x0040,
0.361192375000000,0,0xA528,
0.361208083333333,0,0x0000,
0.361215958333333,0,0xA628,
0.361244791666667,0,0x0005,
0.361252458333333,0,0x2D29,
0.361268541666667,0,0x18F5,
0.361276375000000,0,0xAD28,
0.361292125000000,0,0xFFFF,
0.361299958333333,0,0xAE28,
0.361315708333333,0,0xE96A,
0.361323583333333,0,0xAF28,
0.361339291666667,0,0x8000,
0.361347166666667,0,0xB028,
0.361362875000000,0,0x8302,
0.361370750000000,0,0xB128,
0.361400458333333,0,0x0006,
0.361408125000000,0,0x3B2D,
0.361424291666667,0,0xE558,
0.361432166666667,0,0xBB28,
0.361447916666667,0,0x8001,
0.361455791666667,0,0xBC28,
0.361471500000000,0,0x8000,
0.361479375000000,0,0xBD28,
0.361495125000000,0,0x8000,
0.361502958333333,0,0xBE28,
0.361518666666667,0,0xE5F4,
0.361526541666667,0,0xBF28,
0.361542291666667,0,0xE608,
0.361550166666667,0,0xC028,
0.361580750000000,0,0x000A,
0.361588416666667,0,0x4121,
0.361604708333333,0,0xDF0D,
0.361612541666667,0,0xC128,
0.361628291666667,0,0xE01D,
0.361636125000000,0,0xC228,
0.361651875000000,0,0xE011,
0.361659708333333,0,0xC328,
0.361675458333333,0,0xE14A,
0.361683291666667,0,0xC428,
0.361699041666667,0,0xA98E,
0.361706875000000,0,0xC528,
0.361722583333333,0,0xFF53,
0.361730458333333,0,0xC628,
0.361746208333333,0,0xC013,
0.361754083333333,0,0xC728,
0.361769791666667,0,0xA2DE,
0.361777625000000,0,0xC828,
0.361793375000000,0,0x9E3C,
0.361801250000000,0,0xC928,
0.361816958333333,0,0x9E3F,
0.361824833333333,0,0xCA28,
0.369330166666667,0,0x9C3F,
0.369337875000000,0,0x0607,
0.369365250000000,0,0x0004,
0.369372916666667,0,0x0319,
0.369389041666667,0,0x0A01,
0.369397000000000,0,0x8319,
0.369412833333333,0,0x0F00,
0.369420791666667,0,0x8419,
0.369436625000000,0,0x0000,
0.369444541666667,0,0x8519,
0.369460416666667,0,0x9F3F,
0.369468333333333,0,0x8619,
0.369499000000000,0,0x0004,
0.369506666666667,0,0x031D,
0.369522833333333,0,0x0A01,
0.369530750000000,0,0x831D,
0.369546625000000,0,0x0F00,
0.369554541666667,0,0x841D,
0.369570375000000,0,0x0000,
0.369578333333333,0,0x8519,
0.369594166666667,0,0x9F3F,
0.369602083333333,0,0x861D,
0.369632875000000,0,0x0004,
0.369640583333333,0,0x0311,
0.369656625000000,0,0x0A01,
0.369664583333333,0,0x8311,
0.369680416666667,0,0x0F00,
0.369688375000000,0,0x8411,
0.369704250000000,0,0x0000,
0.369712166666667,0,0x8519,
0.369728041666667,0,0x9F3F,
0.369735958333333,0,0x8611,
0.369766541666667,0,0x0004,
0.369774208333333,0,0x0315,
0.369790500000000,0,0x0A01,
0.369798416666667,0,0x8315,
0.369814291666667,0,0x0F00,
0.369822208333333,0,0x8415,
0.369838041666667,0,0x0000,
0.369846000000000,0,0x8519,
0.369861833333333,0,0x9F3F,
0.369869791666667,0,0x8615,
0.369900333333333,0,0x0004,
0.369908000000000,0,0x0319,
0.369924291666667,0,0x0A01,
0.369932208333333,0,0x8319,
0.369948083333333,0,0x0F00,
0.369956000000000,0,0x8419,
0.369971875000000,0,0x0000,
0.369979791666667,0,0x8519,
0.369995625000000,0,0x973F,
0.370003583333333,0,0x8619,
0.370033958333333,0,0x0001,
0.370041666666667,0,0x1D1D,
0.370058083333333,0,0x1551,
0.370066000000000,0,0x9D1D,
0.370093750000000,0,0x0003,
0.370101416666667,0,0x2411,
0.370117541666667,0,0x0048,
0.370125458333333,0,0xA419,
0.370141291666667,0,0x0040,
0.370149250000000,0,0xA519,
0.370165083333333,0,0x0000,
0.370173000000000,0,0xA619,
0.370201791666667,0,0x0005,
0.370209458333333,0,0x2D15,
0.370225500000000,0,0x19AF,
0.370233458333333,0,0xAD19,
0.370249291666667,0,0xFFFF,
0.370257208333333,0,0xAE19,
0.370273083333333,0,0xB81B,
0.370281041666667,0,0xAF19,
0.370296875000000,0,0x8000,
0.370304833333333,0,0xB019,
0.370320666666667,0,0x8300,
0.370328583333333,0,0xB119,
0.370359125000000,0,0x0006,
0.370366791666667,0,0x3B19,
0.370383083333333,0,0xB3F6,
0.370391000000000,0,0xBB19,
0.370406875000000,0,0xB347,
0.370414791666667,0,0xBC19,
0.370430625000000,0,0xB2D6,
0.370438583333333,0,0xBD19,
0.370454416666667,0,0xB217,
0.370462333333333,0,0xBE19,
0.370478208333333,0,0xB21B,
0.370486125000000,0,0xBF19,
0.370501958333333,0,0xB28E,
0.370509916666667,0,0xC019,
0.370540375000000,0,0x000A,
0.370548041666667,0,0x411D,
0.370564416666667,0,0xC0C3,
0.370572333333333,0,0xC119,
0.370588208333333,0,0xC0BC,
0.370596125000000,0,0xC219,
0.370612000000000,0,0xC0C4,
0.370619916666667,0,0xC319,
0.370635750000000,0,0xC0C4,
0.370643708333333,0,0xC419,
0.370659541666667,0,0xC0C4,
0.370667458333333,0,0xC519,
0.370683333333333,0,0xE06F,
0.370691250000000,0,0xC619,
0.370707083333333,0,0x8003,
0.370715041666667,0,0xC719,
0.370730875000000,0,0xA2FC,
0.370738791666667,0,0xC819,
0.370754666666667,0,0x9E3A,
0.370762583333333,0,0xC919,
0.370778416666667,0,0x9E38,
0.370786333333333,0,0xCA19,
0.370818791666667,0,0x0004,
0.370826458333333,0,0x0321,
0.370842666666667,0,0x0A01,
0.370850500000000,0,0x8321,
0.370866250000000,0,0x0F00,
0.370874125000000,0,0x8421,
0.370889833333333,0,0x0000,
0.370897708333333,0,0x8529,
0.370913416666667,0,0x973F,
0.370921291666667,0,0x8621,
0.370951791666667,0,0x0001,
0.370959500000000,0,0x1D25,
0.370975833333333,0,0x0055,
0.370983708333333,0,0x9D25,
0.371011375000000,0,0x0003,
0.371019041666667,0,0x2429,
0.371035291666667,0,0x004C,
0.371043166666667,0,0xA429,
0.371058875000000,0,0x0040,
0.371066750000000,0,0xA529,
0.371082500000000,0,0x0000,
0.371090333333333,0,0xA629,
0.371118958333333,0,0x0005,
0.371126625000000,0,0x2D2D,
0.371142916666667,0,0x19FD,
0.371150791666667,0,0xAD29,
0.371166500000000,0,0xFFFF,
0.371174375000000,0,0xAE29,
0.371190125000000,0,0xE854,
0.371197958333333,0,0xAF29,
0.371213666666667,0,0x8000,
0.371221541666667,0,0xB029,
0.371237250000000,0,0x8303,
0.371245125000000,0,0xB129,
0.371274666666667,0,0x0006,
0.371282333333333,0,0x3B21,
0.371298666666667,0,0xE551,
0.371306541666667,0,0xBB29,
0.371322250000000,0,0x8000,
0.371330125000000,0,0xBC29,
0.371345875000000,0,0x8001,
0.371353708333333,0,0xBD29,
0.371369416666667,0,0x8002,
0.371377291666667,0,0xBE29,
0.371393000000000,0,0xE5EF,
0.371400875000000,0,0xBF29,
0.371416583333333,0,0xE605,
0.371424458333333,0,0xC029,
0.371454625000000,0,0x000A,
0.371462291666667,0,0x4125,
0.371478500000000,0,0xDF0F,
0.371486375000000,0,0xC129,
0.371502083333333,0,0xE017,
0.371509958333333,0,0xC229,
0.371525708333333,0,0xE00D,
0.371533541666667,0,0xC329,
0.371549250000000,0,0xE148,
0.371557125000000,0,0xC429,
0.371572875000000,0,0xA98F,
0.371580750000000,0,0xC529,
0.371596458333333,0,0xFF51,
0.371604291666667,0,0xC629,
0.371620041666667,0,0xC013,
0.371627916666667,0,0xC729,
0.371643625000000,0,0xA2D9,
0.371651500000000,0,0xC829,
0.371667208333333,0,0x9E3B,
0.371675083333333,0,0xC929,
0.371690791666667,0,0x9E3C,
0.371698666666667,0,0xCA29,
0.379319166666667,0,0xAC3F,
0.379326875000000,0,0x060B,
0.379353708333333,0,0x0004,
0.379361375000000,0,0x031D,
0.379377583333333,0,0x0A01,
0.379385541666667,0,0x831D,
0.379401375000000,0,0x0F00,
0.379409291666667,0,0x841D,
0.379425125000000,0,0x0000,
0.379433083333333,0,0x851A,
0.379448916666667,0,0xAF3F,
0.379456833333333,0,0x861D,
0.379488500000000,0,0x0004,
0.379496166666667,0,0x0311,
0.379512291666667,0,0x0A01,
0.379520250000000,0,0x8311,
0.379536083333333,0,0x0F00,
0.379544000000000,0,0x8411,
0.379559875000000,0,0x0000,
0.379567791666667,0,0x851A,
0.379583625000000,0,0xAF3F,
0.379591583333333,0,0x8611,
0.379622791666667,0,0x0004,
0.379630458333333,0,0x0315,
0.379646541666667,0,0x0A01,
0.379654458333333,0,0x8315,
0.379670333333333,0,0x0F00,
0.379678250000000,0,0x8415,
0.379694083333333,0,0x0000,
0.379702000000000,0,0x851A,
0.379717875000000,0,0xAF3F,
0.379725791666667,0,0x8615,
0.379756583333333,0,0x0004,
0.379764250000000,0,0x0319,
0.379780250000000,0,0x0A01,
0.379788208333333,0,0x8319,
0.379804041666667,0,0x0F00,
0.379811958333333,0,0x8419,
0.379827791666667,0,0x0000,
0.379835750000000,0,0x851A,
0.379851583333333,0,0xAF3F,
0.379859541666667,0,0x8619,
0.379890333333333,0,0x0004,
0.379898000000000,0,0x031D,
0.379914000000000,0,0x0A01,
0.379921916666667,0,0x831D,
0.379937791666667,0,0x0F00,
0.379945708333333,0,0x841D,
0.379961583333333,0,0x0000,
0.379969500000000,0,0x851A,
0.379985333333333,0,0xA73F,
0.379993250000000,0,0x861D,
0.380024125000000,0,0x0001,
0.380031833333333,0,0x1D11,
0.380048250000000,0,0x1551,
0.380056166666667,0,0x9D11,
0.380084208333333,0,0x0003,
0.380091875000000,0,0x2415,
0.380108166666667,0,0x0048,
0.380116083333333,0,0xA41A,
0.380131958333333,0,0x0040,
0.380139875000000,0,0xA51A,
0.380155708333333,0,0x0000,
0.380163666666667,0,0xA61A,
0.380193166666667,0,0x0005,
0.380200875000000,0,0x2D19,
0.380217125000000,0,0x1AB9,
0.380225083333333,0,0xAD1A,
0.380240916666667,0,0xFFFF,
0.380248833333333,0,0xAE1A,
0.380264666666667,0,0xB637,
0.380272625000000,0,0xAF1A,
0.380288458333333,0,0x8000,
0.380296375000000,0,0xB01A,
0.380312250000000,0,0x8305,
0.380320166666667,0,0xB11A,
0.380349750000000,0,0x0006,
0.380357458333333,0,0x3B1D,
0.380373666666667,0,0xB3F1,
0.380381583333333,0,0xBB1A,
0.380397416666667,0,0xB345,
0.380405333333333,0,0xBC1A,
0.380421208333333,0,0xB2D2,
0.380429125000000,0,0xBD1A,
0.380445000000000,0,0xB216,
0.380452916666667,0,0xBE1A,
0.380468791666667,0,0xB216,
0.380476666666667,0,0xBF1A,
0.380492541666667,0,0xB28C,
0.380500458333333,0,0xC01A,
0.380530333333333,0,0x000A,
0.380538041666667,0,0x4111,
0.380554458333333,0,0xC0C1,
0.380562375000000,0,0xC11A,
0.380578250000000,0,0xC0BB,
0.380586166666667,0,0xC21A,
0.380602000000000,0,0xC0BF,
0.380609916666667,0,0xC31A,
0.380625791666667,0,0xC0BD,
0.380633708333333,0,0xC41A,
0.380649541666667,0,0xC0C2,
0.380657500000000,0,0xC51A,
0.380673333333333,0,0xE06C,
0.380681291666667,0,0xC61A,
0.380697125000000,0,0x8000,
0.380705041666667,0,0xC71A,
0.380720916666667,0,0xA2FA,
0.380728833333333,0,0xC81A,
0.380744666666667,0,0x9E38,
0.380752625000000,0,0xC91A,
0.380768458333333,0,0x9E41,
0.380776375000000,0,0xCA1A,
0.380809166666667,0,0x0004,
0.380816875000000,0,0x0325,
0.380833250000000,0,0x0A01,
0.380841125000000,0,0x8325,
0.380856833333333,0,0x0F00,
0.380864708333333,0,0x8425,
0.380880458333333,0,0x0000,
0.380888333333333,0,0x852A,
0.380904041666667,0,0xA73F,
0.380911916666667,0,0x8625,
0.380943083333333,0,0x0001,
0.380950750000000,0,0x1D29,
0.380966958333333,0,0x0055,
0.380974791666667,0,0x9D29,
0.381002791666667,0,0x0003,
0.381010458333333,0,0x242D,
0.381026916666667,0,0x004C,
0.381034791666667,0,0xA42A,
0.381050500000000,0,0x0040,
0.381058375000000,0,0xA52A,
0.381074083333333,0,0x0000,
0.381081958333333,0,0xA62A,
0.381110708333333,0,0x0005,
0.381118416666667,0,0x2D21,
0.381134541666667,0,0x1B09,
0.381142375000000,0,0xAD2A,
0.381158125000000,0,0xFFFF,
0.381166000000000,0,0xAE2A,
0.381181708333333,0,0xE6AF,
0.381189583333333,0,0xAF2A,
0.381205291666667,0,0x8000,
0.381213166666667,0,0xB02A,
0.381228875000000,0,0x8303,
0.381236750000000,0,0xB12A,
0.381268416666667,0,0x0006,
0.381276083333333,0,0x3B25,
0.381292250000000,0,0xE557,
0.381300125000000,0,0xBB2A,
0.381315875000000,0,0x8000,
0.381323750000000,0,0xBC2A,
0.381339458333333,0,0x8001,
0.381347291666667,0,0xBD2A,
0.381363041666667,0,0x8001,
0.381370916666667,0,0xBE2A,
0.381386625000000,0,0xE5E9,
0.381394500000000,0,0xBF2A,
0.381410250000000,0,0xE5FF,
0.381418083333333,0,0xC02A,
0.381448625000000,0,0x000A,
0.381456333333333,0,0x4129,
0.381472625000000,0,0xDF0C,
0.381480500000000,0,0xC12A,
0.381496208333333,0,0xE018,
0.381504083333333,0,0xC22A,
0.381519833333333,0,0xE011,
0.381527708333333,0,0xC32A,
0.381543416666667,0,0xE149,
0.381551291666667,0,0xC42A,
0.381567041666667,0,0xA98F,
0.381574875000000,0,0xC52A,
0.381590625000000,0,0xFF52,
0.381598458333333,0,0xC62A,
0.381614208333333,0,0xC016,
0.381622041666667,0,0xC72A,
0.381637791666667,0,0xA2DB,
0.381645666666667,0,0xC82A,
0.381661375000000,0,0x9E3E,
0.381669250000000,0,0xC92A,
0.381684958333333,0,0x9E3C,
0.381692833333333,0,0xCA2A,
0.389311083333333,0,0xBC3F,
0.389318750000000,0,0x060F,
0.389345916666667,0,0x0004,
0.389353625000000,0,0x0311,
0.389369625000000,0,0x0A01,
0.389377583333333,0,0x8311,
0.389393416666667,0,0x0F00,
0.389401333333333,0,0x8411,
0.389417208333333,0,0x0000,
0.389425125000000,0,0x851B,
0.389440958333333,0,0xBF3F,
0.389448916666667,0,0x8611,
0.389480416666667,0,0x0004,
0.389488083333333,0,0x0315,
0.389504375000000,0,0x0A01,
0.389512291666667,0,0x8315,
0.389528166666667,0,0x0F00,
0.389536125000000,0,0x8415,
0.389551958333333,0,0x0000,
0.389559875000000,0,0x851B,
0.389575750000000,0,0xBF3F,
0.389583666666667,0,0x8615,
0.389614125000000,0,0x0004,
0.389621791666667,0,0x0319,
0.389638166666667,0,0x0A01,
0.389646083333333,0,0x8319,
0.389661958333333,0,0x0F00,
0.389669875000000,0,0x8419,
0.389685750000000,0,0x0000,
0.389693666666667,0,0x851B,
0.389709541666667,0,0xBF3F,
0.389717458333333,0,0x8619,
0.389747666666667,0,0x0004,
0.389755333333333,0,0x031D,
0.389771458333333,0,0x0A01,
0.389779375000000,0,0x831D,
0.389795250000000,0,0x0F00,
0.389803166666667,0,0x841D,
0.389819000000000,0,0x0000,
0.389826958333333,0,0x851B,
0.389842791666667,0,0xBF3F,
0.389850708333333,0,0x861D,
0.389881291666667,0,0x0004,
0.389889000000000,0,0x0311,
0.389905208333333,0,0x0A01,
0.389913125000000,0,0x8311,
0.389929000000000,0,0x0F00,
0.389936916666667,0,0x8411,
0.389952750000000,0,0x0000,
0.389960708333333,0,0x851B,
0.389976541666667,0,0xB73F,
0.389984458333333,0,0x8611,
0.390015083333333,0,0x0001,
0.390022791666667,0,0x1D15,
0.390038958333333,0,0x1551,
0.390046875000000,0,0x9D15,
0.390075708333333,0,0x0003,
0.390083375000000,0,0x2419,
0.390099375000000,0,0x0048,
0.390107291666667,0,0xA41B,
0.390123166666667,0,0x0040,
0.390131083333333,0,0xA51B,
0.390146958333333,0,0x0000,
0.390154875000000,0,0xA61B,
0.390184000000000,0,0x0005,
0.390191666666667,0,0x2D1D,
0.390207875000000,0,0x1BC2,
0.390215791666667,0,0xAD1B,
0.390231625000000,0,0xFFFF,
0.390239583333333,0,0xAE1B,
0.390255416666667,0,0xB3F0,
0.390263375000000,0,0xAF1B,
0.390279208333333,0,0xFFFF,
0.390287125000000,0,0xB01B,
0.390302958333333,0,0x830C,
0.390310916666667,0,0xB11B,
0.390341416666667,0,0x0006,
0.390349125000000,0,0x3B11,
0.390365375000000,0,0xB3F1,
0.390373291666667,0,0xBB1B,
0.390389125000000,0,0xB342,
0.390397083333333,0,0xBC1B,
0.390412916666667,0,0xB2D5,
0.390420833333333,0,0xBD1B,
0.390436708333333,0,0xB21A,
0.390444625000000,0,0xBE1B,
0.390460458333333,0,0xB214,
0.390468416666667,0,0xBF1B,
0.390484250000000,0,0xB285,
0.390492166666667,0,0xC01B,
0.390522875000000,0,0x000A,
0.390530541666667,0,0x4115,
0.390546666666667,0,0xC0C2,
0.390554583333333,0,0xC11B,
0.390570416666667,0,0xC0BB,
0.390578333333333,0,0xC21B,
0.390594208333333,0,0xC0C3,
0.390602125000000,0,0xC31B,
0.390617958333333,0,0xC0C2,
0.390625916666667,0,0xC41B,
0.390641750000000,0,0xC0C3,
0.390649666666667,0,0xC51B,
0.390665500000000,0,0xE06A,
0.390673458333333,0,0xC61B,
0.390689291666667,0,0x8000,
0.390697208333333,0,0xC71B,
0.390713083333333,0,0xA300,
0.390721000000000,0,0xC81B,
0.390736833333333,0,0x9E3A,
0.390744791666667,0,0xC91B,
0.390760625000000,0,0x9E3C,
0.390768541666667,0,0xCA1B,
0.390800708333333,0,0x0004,
0.390808416666667,0,0x0329,
0.390824750000000,0,0x0A01,
0.390832625000000,0,0x8329,
0.390848333333333,0,0x0F00,
0.390856208333333,0,0x8429,
0.390871958333333,0,0x0000,
0.390879833333333,0,0x852B,
0.390895541666667,0,0xB73F,
0.390903416666667,0,0x8629,
0.390934416666667,0,0x0001,
0.390942125000000,0,0x1D2D,
0.390958416666667,0,0x0055,
0.390966291666667,0,0x9D2D,
0.390994000000000,0,0x0003,
0.391001666666667,0,0x2421,
0.391017875000000,0,0x004C,
0.391025750000000,0,0xA42B,
0.391041458333333,0,0x0040,
0.391049333333333,0,0xA52B,
0.391065041666667,0,0x0000,
0.391072916666667,0,0xA62B,
0.391101750000000,0,0x0005,
0.391109416666667,0,0x2D25,
0.391125500000000,0,0x1C14,
0.391133375000000,0,0xAD2B,
0.391149083333333,0,0xFFFF,
0.391156916666667,0,0xAE2B,
0.391172666666667,0,0xE640,
0.391180541666667,0,0xAF2B,
0.391196250000000,0,0x8000,
0.391204125000000,0,0xB02B,
0.391219833333333,0,0x8300,
0.391227708333333,0,0xB12B,
0.391258875000000,0,0x0006,
0.391266583333333,0,0x3B29,
0.391282708333333,0,0xE551,
0.391290583333333,0,0xBB2B,
0.391306333333333,0,0x8000,
0.391314166666667,0,0xBC2B,
0.391329916666667,0,0x8000,
0.391337791666667,0,0xBD2B,
0.391353500000000,0,0x8000,
0.391361375000000,0,0xBE2B,
0.391377083333333,0,0xE5EE,
0.391384916666667,0,0xBF2B,
0.391400666666667,0,0xE605,
0.391408500000000,0,0xC02B,
0.391438583333333,0,0x000A,
0.391446250000000,0,0x412D,
0.391462583333333,0,0xDF08,
0.391470458333333,0,0xC12B,
0.391486166666667,0,0xE017,
0.391494041666667,0,0xC22B,
0.391509791666667,0,0xE007,
0.391517625000000,0,0xC32B,
0.391533375000000,0,0xE142,
0.391541250000000,0,0xC42B,
0.391556916666667,0,0xA989,
0.391564791666667,0,0xC52B,
0.391580541666667,0,0xFF4D,
0.391588416666667,0,0xC62B,
0.391604125000000,0,0xC012,
0.391611958333333,0,0xC72B,
0.391627708333333,0,0xA2DD,
0.391635541666667,0,0xC82B,
0.391651291666667,0,0x9E39,
0.391659166666667,0,0xC92B,
0.391674875000000,0,0x9E3B,
0.391682750000000,0,0xCA2B,
0.399308666666667,0,0xCC3F,
0.399316375000000,0,0x0603,
0.399343875000000,0,0x0004,
0.399351541666667,0,0x0315,
0.399367916666667,0,0x0A01,
0.399375833333333,0,0x8315,
0.399391708333333,0,0x0F00,
0.399399625000000,0,0x8415,
0.399415458333333,0,0x0000,
0.399423375000000,0,0x851C,
0.399439250000000,0,0xCF3F,
0.399447166666667,0,0x8615,
0.399478083333333,0,0x0004,
0.399485750000000,0,0x0319,
0.399502166666667,0,0x0A01,
0.399510083333333,0,0x8319,
0.399525958333333,0,0x0F00,
0.399533875000000,0,0x8419,
0.399549750000000,0,0x0000,
0.399557666666667,0,0x851C,
0.399573500000000,0,0xCF3F,
0.399581416666667,0,0x8619,
0.399612083333333,0,0x0004,
0.399619750000000,0,0x031D,
0.399635916666667,0,0x0A01,
0.399643833333333,0,0x831D,
0.399659708333333,0,0x0F00,
0.399667625000000,0,0x841D,
0.399683458333333,0,0x0000,
0.399691375000000,0,0x851C,
0.399707250000000,0,0xCF3F,
0.399715166666667,0,0x861D,
0.399746125000000,0,0x0004,
0.399753791666667,0,0x0311,
0.399770166666667,0,0x0A01,
0.399778083333333,0,0x8311,
0.399793958333333,0,0x0F00,
0.399801875000000,0,0x8411,
0.399817750000000,0,0x0000,
0.399825666666667,0,0x851C,
0.399841500000000,0,0xCF3F,
0.399849458333333,0,0x8611,
0.399879416666667,0,0x0004,
0.399887125000000,0,0x0315,
0.399903416666667,0,0x0A01,
0.399911375000000,0,0x8315,
0.399927208333333,0,0x0F00,
0.399935125000000,0,0x8415,
0.399950958333333,0,0x0000,
0.399958916666667,0,0x851C,
0.399974750000000,0,0xC73F,
0.399982708333333,0,0x8615,
0.400013125000000,0,0x0001,
0.400020833333333,0,0x1D19,
0.400037166666667,0,0x1551,
0.400045125000000,0,0x9D19,
0.400073791666667,0,0x0003,
0.400081500000000,0,0x241D,
0.400097625000000,0,0x0048,
0.400105541666667,0,0xA41C,
0.400121375000000,0,0x0040,
0.400129333333333,0,0xA51C,
0.400145166666667,0,0x0000,
0.400153083333333,0,0xA61C,
0.400181958333333,0,0x0005,
0.400189625000000,0,0x2D11,
0.400206083333333,0,0x1CCC,
0.400214000000000,0,0xAD1C,
0.400229875000000,0,0xFFFF,
0.400237791666667,0,0xAE1C,
0.400253625000000,0,0xB1B3,
0.400261541666667,0,0xAF1C,
0.400277416666667,0,0xFFFF,
0.400285333333333,0,0xB01C,
0.400301208333333,0,0x830D,
0.400309125000000,0,0xB11C,
0.400339208333333,0,0x0006,
0.400346916666667,0,0x3B15,
0.400363083333333,0,0xB3F5,
0.400371041666667,0,0xBB1C,
0.400386875000000,0,0xB347,
0.400394791666667,0,0xBC1C,
0.400410666666667,0,0xB2D3,
0.400418583333333,0,0xBD1C,
0.400434416666667,0,0xB211,
0.400442375000000,0,0xBE1C,
0.400458208333333,0,0xB211,
0.400466125000000,0,0xBF1C,
0.400482000000000,0,0xB287,
0.400489916666667,0,0xC01C,
0.400519958333333,0,0x000A,
0.400527666666667,0,0x4119,
0.400543875000000,0,0xC0C4,
0.400551791666667,0,0xC11C,
0.400567666666667,0,0xC0C3,
0.400575583333333,0,0xC21C,
0.400591458333333,0,0xC0C5,
0.400599375000000,0,0xC31C,
0.400615208333333,0,0xC0C5,
0.400623125000000,0,0xC41C,
0.400639000000000,0,0xC0C6,
0.400646916666667,0,0xC51C,
0.400662791666667,0,0xE072,
0.400670708333333,0,0xC61C,
0.400686541666667,0,0x8002,
0.400694458333333,0,0xC71C,
0.400710333333333,0,0xA2FE,
0.400718250000000,0,0xC81C,
0.400734125000000,0,0x9E3B,
0.400742041666667,0,0xC91C,
0.400757916666667,0,0x9E3E,
0.400765833333333,0,0xCA1C,
0.400797833333333,0,0x0004,
0.400805541666667,0,0x032D,
0.400821708333333,0,0x0A01,
0.400829583333333,0,0x832D,
0.400845291666667,0,0x0F00,
0.400853166666667,0,0x842D,
0.400868875000000,0,0x0000,
0.400876750000000,0,0x852C,
0.400892458333333,0,0xC73F,
0.400900333333333,0,0x862D,
0.400930791666667,0,0x0001,
0.400938458333333,0,0x1D21,
0.400954875000000,0,0x0055,
0.400962750000000,0,0x9D21,
0.400990916666667,0,0x0003,
0.400998583333333,0,0x2425,
0.401014791666667,0,0x004C,
0.401022666666667,0,0xA42C,
0.401038375000000,0,0x0040,
0.401046250000000,0,0xA52C,
0.401061958333333,0,0x0000,
0.401069833333333,0,0xA62C,
0.401098166666667,0,0x0005,
0.401105833333333,0,0x2D29,
0.401121916666667,0,0x1D20,
0.401129791666667,0,0xAD2C,
0.401145500000000,0,0xFFFF,
0.401153333333333,0,0xAE2C,
0.401169083333333,0,0xE4EC,
0.401176958333333,0,0xAF2C,
0.401192666666667,0,0xFFFF,
0.401200541666667,0,0xB02C,
0.401216250000000,0,0x830D,
0.401224125000000,0,0xB12C,
0.401253625000000,0,0x0006,
0.401261291666667,0,0x3B2D,
0.401277666666667,0,0xE54D,
0.401285541666667,0,0xBB2C,
0.401301250000000,0,0x8001,
0.401309125000000,0,0xBC2C,
0.401324833333333,0,0x8000,
0.401332708333333,0,0xBD2C,
0.401348416666667,0,0x8001,
0.401356291666667,0,0xBE2C,
0.401372000000000,0,0xE5EC,
0.401379875000000,0,0xBF2C,
0.401395583333333,0,0xE606,
0.401403458333333,0,0xC02C,
0.401433458333333,0,0x000A,
0.401441125000000,0,0x4121,
0.401457500000000,0,0xDF04,
0.401465375000000,0,0xC12C,
0.401481083333333,0,0xE015,
0.401488958333333,0,0xC22C,
0.401504708333333,0,0xE00B,
0.401512541666667,0,0xC32C,
0.401528291666667,0,0xE13F,
0.401536125000000,0,0xC42C,
0.401551833333333,0,0xA98B,
0.401559708333333,0,0xC52C,
0.401575458333333,0,0xFF4D,
0.401583291666667,0,0xC62C,
0.401599041666667,0,0xC011,
0.401606875000000,0,0xC72C,
0.401622625000000,0,0xA2DE,
0.401630458333333,0,0xC82C,
0.401646166666667,0,0x9E3B,
0.401654041666667,0,0xC92C,
0.401669750000000,0,0x9E3E,
0.401677625000000,0,0xCA2C,
0.409334416666667,0,0xDC3F,
0.409342083333333,0,0x0607,
0.409369083333333,0,0x0004,
0.409376750000000,0,0x0319,
0.409392833333333,0,0x0A01,
0.409400750000000,0,0x8319,
0.409416625000000,0,0x0F00,
0.409424541666667,0,0x8419,
0.409440375000000,0,0x0000,
0.409448333333333,0,0x851D,
0.409464166666667,0,0xDF3F,
0.409472125000000,0,0x8619,
0.409503041666667,0,0x0004,
0.409510708333333,0,0x031D,
0.409527083333333,0,0x0A01,
0.409535041666667,0,0x831D,
0.409550875000000,0,0x0F00,
0.409558791666667,0,0x841D,
0.409574666666667,0,0x0000,
0.409582583333333,0,0x851D,
0.409598458333333,0,0xDF3F,
0.409606375000000,0,0x861D,
0.409636666666667,0,0x0004,
0.409644333333333,0,0x0311,
0.409660375000000,0,0x0A01,
0.409668291666667,0,0x8311,
0.409684166666667,0,0x0F00,
0.409692083333333,0,0x8411,
0.409707958333333,0,0x0000,
0.409715875000000,0,0x851D,
0.409731750000000,0,0xDF3F,
0.409739666666667,0,0x8611,
0.409770625000000,0,0x0004,
0.409778291666667,0,0x0315,
0.409794666666667,0,0x0A01,
0.409802583333333,0,0x8315,
0.409818458333333,0,0x0F00,
0.409826375000000,0,0x8415,
0.409842250000000,0,0x0000,
0.409850166666667,0,0x851D,
0.409866041666667,0,0xDF3F,
0.409873958333333,0,0x8615,
0.409904791666667,0,0x0004,
0.409912500000000,0,0x0319,
0.409928916666667,0,0x0A01,
0.409936875000000,0,0x8319,
0.409952708333333,0,0x0F00,
0.409960625000000,0,0x8419,
0.409976500000000,0,0x0000,
0.409984416666667,0,0x851D,
0.410000250000000,0,0xD73F,
0.410008208333333,0,0x8619,
0.410040166666667,0,0x0001,
0.410047833333333,0,0x1D1D,
0.410064166666667,0,0x1551,
0.410072083333333,0,0x9D1D,
0.410100041666667,0,0x0003,
0.410107708333333,0,0x2411,
0.410124083333333,0,0x0048,
0.410132000000000,0,0xA41D,
0.410147875000000,0,0x0040,
0.410155791666667,0,0xA51D,
0.410171666666667,0,0x0000,
0.410179583333333,0,0xA61D,
0.410207875000000,0,0x0005,
0.410215583333333,0,0x2D15,
0.410231583333333,0,0x1DD6,
0.410239500000000,0,0xAD1D,
0.410255333333333,0,0xFFFF,
0.410263250000000,0,0xAE1D,
0.410279125000000,0,0xAF98,
0.410287041666667,0,0xAF1D,
0.410302875000000,0,0xFFFF,
0.410310833333333,0,0xB01D,
0.410326666666667,0,0x830B,
0.410334625000000,0,0xB11D,
0.410364250000000,0,0x0006,
0.410371958333333,0,0x3B19,
0.410388083333333,0,0xB3F4,
0.410396000000000,0,0xBB1D,
0.410411875000000,0,0xB345,
0.410419791666667,0,0xBC1D,
0.410435666666667,0,0xB2D1,
0.410443583333333,0,0xBD1D,
0.410459416666667,0,0xB210,
0.410467375000000,0,0xBE1D,
0.410483208333333,0,0xB218,
0.410491125000000,0,0xBF1D,
0.410507000000000,0,0xB28D,
0.410514916666667,0,0xC01D,
0.410544833333333,0,0x000A,
0.410552500000000,0,0x411D,
0.410568916666667,0,0xC0BF,
0.410576875000000,0,0xC11D,
0.410592708333333,0,0xC0BF,
0.410600625000000,0,0xC21D,
0.410616500000000,0,0xC0C4,
0.410624416666667,0,0xC31D,
0.410640291666667,0,0xC0C2,
0.410648208333333,0,0xC41D,
0.410664041666667,0,0xC0C6,
0.410672000000000,0,0xC51D,
0.410687833333333,0,0xE06D,
0.410695791666667,0,0xC61D,
0.410711625000000,0,0x8000,
0.410719583333333,0,0xC71D,
0.410735416666667,0,0xA2FE,
0.410743375000000,0,0xC81D,
0.410759208333333,0,0x9E3B,
0.410767166666667,0,0xC91D,
0.410783000000000,0,0x9E3D,
0.410790916666667,0,0xCA1D,
0.410823375000000,0,0x0004,
0.410831083333333,0,0x0321,
0.410847291666667,0,0x0A01,
0.410855166666667,0,0x8321,
0.410870875000000,0,0x0F00,
0.410878750000000,0,0x8421,
0.410894458333333,0,0x0000,
0.410902333333333,0,0x852D,
0.410918041666667,0,0xD73F,
0.410925916666667,0,0x8621,
0.410957083333333,0,0x0001,
0.410964750000000,0,0x1D25,
0.410980916666667,0,0x0055,
0.410988791666667,0,0x9D25,
0.411017083333333,0,0x0003,
0.411024750000000,0,0x2429,
0.411040875000000,0,0x004C,
0.411048750000000,0,0xA42D,
0.411064458333333,0,0x0040,
0.411072333333333,0,0xA52D,
0.411088041666667,0,0x0000,
0.411095916666667,0,0xA62D,
0.411125041666667,0,0x0005,
0.411132750000000,0,0x2D2D,
0.411148958333333,0,0x1E2D,
0.411156833333333,0,0xAD2D,
0.411172541666667,0,0xFFFF,
0.411180416666667,0,0xAE2D,
0.411196166666667,0,0xE3F2,
0.411204000000000,0,0xAF2D,
0.411219750000000,0,0xFFFF,
0.411227625000000,0,0xB02D,
0.411243333333333,0,0x830E,
0.411251166666667,0,0xB12D,
0.411281625000000,0,0x0006,
0.411289291666667,0,0x3B21,
0.411305208333333,0,0xE550,
0.411313083333333,0,0xBB2D,
0.411328791666667,0,0x8002,
0.411336666666667,0,0xBC2D,
0.411352375000000,0,0x8000,
0.411360250000000,0,0xBD2D,
0.411375958333333,0,0x8001,
0.411383833333333,0,0xBE2D,
0.411399583333333,0,0xE5ED,
0.411407416666667,0,0xBF2D,
0.411423125000000,0,0xE606,
0.411431000000000,0,0xC02D,
0.411461500000000,0,0x000A,
0.411469166666667,0,0x4125,
0.411485541666667,0,0xDF0B,
0.411493416666667,0,0xC12D,
0.411509125000000,0,0xE013,
0.411517000000000,0,0xC22D,
0.411532708333333,0,0xE00A,
0.411540583333333,0,0xC32D,
0.411556291666667,0,0xE143,
0.411564166666667,0,0xC42D,
0.411579875000000,0,0xA98C,
0.411587750000000,0,0xC52D,
0.411603458333333,0,0xFF50,
0.411611333333333,0,0xC62D,
0.411627041666667,0,0xC014,
0.411634916666667,0,0xC72D,
0.411650625000000,0,0xA2DD,
0.411658500000000,0,0xC82D,
0.411674208333333,0,0x9E3B,
0.411682083333333,0,0xC92D,
0.411697833333333,0,0x9E3F,
0.411705708333333,0,0xCA2D,
0.419365208333333,0,0xEC3F,
0.419372875000000,0,0x060B,
0.419400666666667,0,0x0004,
0.419408333333333,0,0x031D,
0.419424333333333,0,0x0A01,
0.419432250000000,0,0x831D,
0.419448125000000,0,0x0F00,
0.419456041666667,0,0x841D,
0.419471916666667,0,0x0000,
0.419479833333333,0,0x851E,
0.419495666666667,0,0xEF3F,
0.419503583333333,0,0x861D,
0.419534291666667,0,0x0004,
0.419542000000000,0,0x0311,
0.419558125000000,0,0x0A01,
0.419566041666667,0,0x8311,
0.419581875000000,0,0x0F00,
0.419589833333333,0,0x8411,
0.419605666666667,0,0x0000,
0.419613625000000,0,0x851E,
0.419629500000000,0,0xEF3F,
0.419637416666667,0,0x8611,
0.419668375000000,0,0x0004,
0.419676041666667,0,0x0315,
0.419692416666667,0,0x0A01,
0.419700333333333,0,0x8315,
0.419716208333333,0,0x0F00,
0.419724125000000,0,0x8415,
0.419739958333333,0,0x0000,
0.419747916666667,0,0x851E,
0.419763750000000,0,0xEF3F,
0.419771708333333,0,0x8615,
0.419802375000000,0,0x0004,
0.419810041666667,0,0x0319,
0.419826166666667,0,0x0A01,
0.419834125000000,0,0x8319,
0.419849958333333,0,0x0F00,
0.419857916666667,0,0x8419,
0.419873750000000,0,0x0000,
0.419881666666667,0,0x851E,
0.419897541666667,0,0xEF3F,
0.419905458333333,0,0x8619,
0.419936250000000,0,0x0004,
0.419943916666667,0,0x031D,
0.419959958333333,0,0x0A01,
0.419967875000000,0,0x831D,
0.419983708333333,0,0x0F00,
0.419991666666667,0,0x841D,
0.420007500000000,0,0x0000,
0.420015458333333,0,0x851E,
0.420031291666667,0,0xE73F,
0.420039208333333,0,0x861D,
0.420070041666667,0,0x0001,
0.420077708333333,0,0x1D11,
0.420093708333333,0,0x1551,
0.420101666666667,0,0x9D11,
0.420129666666667,0,0x0003,
0.420137333333333,0,0x2415,
0.420153708333333,0,0x0048,
0.420161625000000,0,0xA41E,
0.420177458333333,0,0x0040,
0.420185375000000,0,0xA51E,
0.420201250000000,0,0x0000,
0.420209166666667,0,0xA61E,
0.420238416666667,0,0x0005,
0.420246083333333,0,0x2D19,
0.420262166666667,0,0x1EE1,
0.420270083333333,0,0xAD1E,
0.420285958333333,0,0xFFFF,
0.420293875000000,0,0xAE1E,
0.420309750000000,0,0xAD75,
0.420317666666667,0,0xAF1E,
0.420333500000000,0,0xFFFF,
0.420341458333333,0,0xB01E,
0.420357291666667,0,0x830F,
0.420365250000000,0,0xB11E,
0.420395583333333,0,0x0006,
0.420403250000000,0,0x3B1D,
0.420419708333333,0,0xB3EF,
0.420427625000000,0,0xBB1E,
0.420443500000000,0,0xB341,
0.420451416666667,0,0xBC1E,
0.420467291666667,0,0xB2D1,
0.420475208333333,0,0xBD1E,
0.420491083333333,0,0xB212,
0.420499000000000,0,0xBE1E,
0.420514875000000,0,0xB215,
0.420522791666667,0,0xBF1E,
0.420538625000000,0,0xB28A,
0.420546583333333,0,0xC01E,
0.420576500000000,0,0x000A,
0.420584166666667,0,0x4111,
0.420600583333333,0,0xC0C1,
0.420608500000000,0,0xC11E,
0.420624333333333,0,0xC0BF,
0.420632250000000,0,0xC21E,
0.420648125000000,0,0xC0C1,
0.420656041666667,0,0xC31E,
0.420671916666667,0,0xC0C0,
0.420679833333333,0,0xC41E,
0.420695708333333,0,0xC0C6,
0.420703625000000,0,0xC51E,
0.420719458333333,0,0xE06D,
0.420727375000000,0,0xC61E,
0.420743250000000,0,0x8000,
0.420751208333333,0,0xC71E,
0.420767041666667,0,0xA2FE,
0.420774958333333,0,0xC81E,
0.420790833333333,0,0x9E39,
0.420798750000000,0,0xC91E,
0.420814625000000,0,0x9E3D,
0.420822541666667,0,0xCA1E,
0.420854750000000,0,0x0004,
0.420862458333333,0,0x0325,
0.420878833333333,0,0x0A01,
0.420886666666667,0,0x8325,
0.420902375000000,0,0x0F00,
0.420910250000000,0,0x8425,
0.420926000000000,0,0x0000,
0.420933833333333,0,0x852E,
0.420949583333333,0,0xE73F,
0.420957458333333,0,0x8625,
0.420988208333333,0,0x0001,
0.420995875000000,0,0x1D29,
0.421011958333333,0,0x0055,
0.421019833333333,0,0x9D29,
0.421048041666667,0,0x0003,
0.421055708333333,0,0x242D,
0.421071916666667,0,0x004C,
0.421079791666667,0,0xA42E,
0.421095500000000,0,0x0040,
0.421103375000000,0,0xA52E,
0.421119083333333,0,0x0000,
0.421126958333333,0,0xA62E,
0.421156375000000,0,0x0005,
0.421164041666667,0,0x2D21,
0.421180000000000,0,0x1F39,
0.421187875000000,0,0xAD2E,
0.421203583333333,0,0xFFFF,
0.421211458333333,0,0xAE2E,
0.421227166666667,0,0xE307,
0.421235041666667,0,0xAF2E,
0.421250750000000,0,0x8000,
0.421258625000000,0,0xB02E,
0.421274375000000,0,0x8306,
0.421282208333333,0,0xB12E,
0.421312375000000,0,0x0006,
0.421320083333333,0,0x3B25,
0.421336250000000,0,0xE54F,
0.421344125000000,0,0xBB2E,
0.421359833333333,0,0x8000,
0.421367708333333,0,0xBC2E,
0.421383416666667,0,0x8001,
0.421391291666667,0,0xBD2E,
0.421407000000000,0,0x8000,
0.421414875000000,0,0xBE2E,
0.421430583333333,0,0xE5EF,
0.421438458333333,0,0xBF2E,
0.421454166666667,0,0xE605,
0.421462041666667,0,0xC02E,
0.421492250000000,0,0x000A,
0.421499916666667,0,0x4129,
0.421516083333333,0,0xDF0B,
0.421523958333333,0,0xC12E,
0.421539666666667,0,0xE016,
0.421547541666667,0,0xC22E,
0.421563250000000,0,0xE007,
0.421571125000000,0,0xC32E,
0.421586833333333,0,0xE141,
0.421594708333333,0,0xC42E,
0.421610416666667,0,0xA98A,
0.421618291666667,0,0xC52E,
0.421634000000000,0,0xFF4E,
0.421641833333333,0,0xC62E,
0.421657583333333,0,0xC00E,
0.421665458333333,0,0xC72E,
0.421681166666667,0,0xA2DC,
0.421689041666667,0,0xC82E,
0.421704750000000,0,0x9E38,
0.421712625000000,0,0xC92E,
0.421728375000000,0,0x9E43,
0.421736208333333,0,0xCA2E,
0.429310708333333,0,0xFC3F,
0.429318375000000,0,0x060F,
0.429346166666667,0,0x0004,
0.429353875000000,0,0x0311,
0.429370208333333,0,0x0A01,
0.429378125000000,0,0x8311,
0.429394000000000,0,0x0F00,
0.429401916666667,0,0x8411,
0.429417791666667,0,0x0000,
0.429425708333333,0,0x851F,
0.429441583333333,0,0xFF3F,
0.429449500000000,0,0x8611,
0.429480375000000,0,0x0004,
0.429488083333333,0,0x0315,
0.429504458333333,0,0x0A01,
0.429512416666667,0,0x8315,
0.429528250000000,0,0x0F00,
0.429536208333333,0,0x8415,
0.429552041666667,0,0x0000,
0.429559958333333,0,0x851F,
0.429575791666667,0,0xFF3F,
0.429583750000000,0,0x8615,
0.429615041666667,0,0x0004,
0.429622708333333,0,0x0319,
0.429638750000000,0,0x0A01,
0.429646666666667,0,0x8319,
0.429662500000000,0,0x0F00,
0.429670458333333,0,0x8419,
0.429686291666667,0,0x0000,
0.429694250000000,0,0x851F,
0.429710083333333,0,0xFF3F,
0.429718000000000,0,0x8619,
0.429748333333333,0,0x0004,
0.429756000000000,0,0x031D,
0.429772000000000,0,0x0A01,
0.429779916666667,0,0x831D,
0.429795791666667,0,0x0F00,
0.429803708333333,0,0x841D,
0.429819583333333,0,0x0000,
0.429827500000000,0,0x851F,
0.429843333333333,0,0xFF3F,
0.429851291666667,0,0x861D,
0.429881375000000,0,0x0004,
0.429889041666667,0,0x0311,
0.429905250000000,0,0x0A01,
0.429913166666667,0,0x8311,
0.429929041666667,0,0x0F00,
0.429936958333333,0,0x8411,
0.429952791666667,0,0x0000,
0.429960750000000,0,0x851F,
0.429976583333333,0,0xF73F,
0.429984500000000,0,0x8611,
0.430015500000000,0,0x0001,
0.430023208333333,0,0x1D15,
0.430039500000000,0,0x1551,
0.430047416666667,0,0x9D15,
0.430074916666667,0,0x0003,
0.430082625000000,0,0x2419,
0.430098916666667,0,0x0048,
0.430106833333333,0,0xA41F,
0.430122666666667,0,0x0040,
0.430130625000000,0,0xA51F,
0.430146458333333,0,0x0000,
0.430154375000000,0,0xA61F,
0.430182958333333,0,0x0005,
0.430190625000000,0,0x2D1D,
0.430206875000000,0,0x1FE9,
0.430214833333333,0,0xAD1F,
0.430230666666667,0,0xFFFF,
0.430238625000000,0,0xAE1F,
0.430254458333333,0,0xABAD,
0.430262375000000,0,0xAF1F,
0.430278250000000,0,0xFFFF,
0.430286166666667,0,0xB01F,
0.430302041666667,0,0x830E,
0.430309958333333,0,0xB11F,
0.430339708333333,0,0x0006,
0.430347375000000,0,0x3B11,
0.430363458333333,0,0xB3EF,
0.430371375000000,0,0xBB1F,
0.430387208333333,0,0xB343,
0.430395166666667,0,0xBC1F,
0.430411000000000,0,0xB2D0,
0.430418916666667,0,0xBD1F,
0.430434791666667,0,0xB211,
0.430442708333333,0,0xBE1F,
0.430458541666667,0,0xB218,
0.430466500000000,0,0xBF1F,
0.430482333333333,0,0xB28A,
0.430490250000000,0,0xC01F,
0.430520291666667,0,0x000A,
0.430528000000000,0,0x4115,
0.430544250000000,0,0xC0BE,
0.430552166666667,0,0xC11F,
0.430568000000000,0,0xC0BD,
0.430575916666667,0,0xC21F,
0.430591791666667,0,0xC0C2,
0.430599708333333,0,0xC31F,
0.430615583333333,0,0xC0C1,
0.430623500000000,0,0xC41F,
0.430639333333333,0,0xC0C3,
0.430647291666667,0,0xC51F,
0.430663125000000,0,0xE068,
0.430671041666667,0,0xC61F,
0.430686916666667,0,0x8000,
0.430694833333333,0,0xC71F,
0.430710708333333,0,0xA2FC,
0.430718583333333,0,0xC81F,
0.430734458333333,0,0x9E39,
0.430742375000000,0,0xC91F,
0.430758208333333,0,0x9E3E,
0.430766166666667,0,0xCA1F,
0.430798291666667,0,0x0004,
0.430805958333333,0,0x0329,
0.430822125000000,0,0x0A01,
0.430830000000000,0,0x8329,
0.430845708333333,0,0x0F00,
0.430853583333333,0,0x8429,
0.430869291666667,0,0x0000,
0.430877166666667,0,0x852F,
0.430892875000000,0,0xF73F,
0.430900750000000,0,0x8629,
0.430930583333333,0,0x0001,
0.430938291666667,0,0x1D2D,
0.430954291666667,0,0x0055,
0.430962166666667,0,0x9D2D,
0.430990416666667,0,0x0003,
0.430998125000000,0,0x2421,
0.431014250000000,0,0x004C,
0.431022083333333,0,0xA42F,
0.431037833333333,0,0x0040,
0.431045666666667,0,0xA52F,
0.431061416666667,0,0x0000,
0.431069250000000,0,0xA62F,
0.431098583333333,0,0x0005,
0.431106250000000,0,0x2D25,
0.431122333333333,0,0x2044,
0.431130166666667,0,0xAD2F,
0.431145916666667,0,0xFFFF,
0.431153750000000,0,0xAE2F,
0.431169500000000,0,0xE320,
0.431177375000000,0,0xAF2F,
0.431193083333333,0,0xFFFF,
0.431200958333333,0,0xB02F,
0.431216666666667,0,0x830D,
0.431224541666667,0,0xB12F,
0.431255416666667,0,0x0006,
0.431263083333333,0,0x3B29,
0.431279083333333,0,0xE552,
0.431286958333333,0,0xBB2F,
0.431302666666667,0,0x8000,
0.431310541666667,0,0xBC2F,
0.431326250000000,0,0x8000,
0.431334125000000,0,0xBD2F,
0.431349833333333,0,0x8000,
0.431357708333333,0,0xBE2F,
0.431373416666667,0,0xE5F0,
0.431381291666667,0,0xBF2F,
0.431397000000000,0,0xE606,
0.431404875000000,0,0xC02F,
0.431435625000000,0,0x000A,
0.431443291666667,0,0x412D,
0.431459416666667,0,0xDF0F,
0.431467250000000,0,0xC12F,
0.431483000000000,0,0xE015,
0.431490833333333,0,0xC22F,
0.431506583333333,0,0xE009,
0.431514416666667,0,0xC32F,
0.431530166666667,0,0xE144,
0.431538000000000,0,0xC42F,
0.431553750000000,0,0xA98E,
0.431561625000000,0,0xC52F,
0.431577333333333,0,0xFF51,
0.431585208333333,0,0xC62F,
0.431600916666667,0,0xC014,
0.431608791666667,0,0xC72F,
0.431624500000000,0,0xA2DD,
0.431632375000000,0,0xC82F,
0.431648083333333,0,0x9E3C,
0.431655958333333,0,0xC92F,
0.431671708333333,0,0x9E42,
0.431679541666667,0,0xCA2F,
0.439342916666667,0,0x0C3F,
0.439350583333333,0,0x0603,
0.439377666666667,0,0x0004,
0.439385375000000,0,0x0315,
0.439401625000000,0,0x0A01,
0.439409583333333,0,0x8315,
0.439425416666667,0,0x0F00,
0.439433333333333,0,0x8415,
0.439449208333333,0,0x0000,
0.439457125000000,0,0x8510,
0.439473000000000,0,0x0F3F,
0.439480916666667,0,0x8615,
0.439511291666667,0,0x0004,
0.439518958333333,0,0x0319,
0.439535416666667,0,0x0A01,
0.439543333333333,0,0x8319,
0.439559166666667,0,0x0F00,
0.439567125000000,0,0x8419,
0.439582958333333,0,0x0000,
0.439590916666667,0,0x8510,
0.439606750000000,0,0x0F3F,
0.439614708333333,0,0x8619,
0.439645958333333,0,0x0004,
0.439653625000000,0,0x031D,
0.439669666666667,0,0x0A01,
0.439677625000000,0,0x831D,
0.439693458333333,0,0x0F00,
0.439701375000000,0,0x841D,
0.439717250000000,0,0x0000,
0.439725166666667,0,0x8510,
0.439741041666667,0,0x0F3F,
0.439748958333333,0,0x861D,
0.439779583333333,0,0x0004,
0.439787291666667,0,0x0311,
0.439803458333333,0,0x0A01,
0.439811416666667,0,0x8311,
0.439827250000000,0,0x0F00,
0.439835166666667,0,0x8411,
0.439851041666667,0,0x0000,
0.439858958333333,0,0x8510,
0.439874833333333,0,0x0F3F,
0.439882750000000,0,0x8611,
0.439913916666667,0,0x0004,
0.439921625000000,0,0x0315,
0.439937708333333,0,0x0A01,
0.439945625000000,0,0x8315,
0.439961500000000,0,0x0F00,
0.439969416666667,0,0x8415,
0.439985250000000,0,0x0000,
0.439993166666667,0,0x8510,
0.440009041666667,0,0x073F,
0.440016958333333,0,0x8615,
0.440047875000000,0,0x0001,
0.440055541666667,0,0x1D19,
0.440071958333333,0,0x1551,
0.440079875000000,0,0x9D19,
0.440107750000000,0,0x0003,
0.440115458333333,0,0x241D,
0.440131875000000,0,0x0048,
0.440139791666667,0,0xA410,
0.440155666666667,0,0x0040,
0.440163583333333,0,0xA510,
0.440179416666667,0,0x0000,
0.440187333333333,0,0xA610,
0.440216291666667,0,0x0005,
0.440223958333333,0,0x2D11,
0.440240375000000,0,0x20F3,
0.440248291666667,0,0xAD10,
0.440264125000000,0,0xFFFF,
0.440272083333333,0,0xAE10,
0.440287916666667,0,0xAA08,
0.440295833333333,0,0xAF10,
0.440311708333333,0,0xFFFF,
0.440319625000000,0,0xB010,
0.440335458333333,0,0x830B,
0.440343416666667,0,0xB110,
0.440374375000000,0,0x0006,
0.440382041666667,0,0x3B15,
0.440398375000000,0,0xB3F3,
0.440406291666667,0,0xBB10,
0.440422125000000,0,0xB345,
0.440430083333333,0,0xBC10,
0.440445916666667,0,0xB2D7,
0.440453833333333,0,0xBD10,
0.440469666666667,0,0xB217,
0.440477625000000,0,0xBE10,
0.440493458333333,0,0xB217,
0.440501375000000,0,0xBF10,
0.440517250000000,0,0xB288,
0.440525166666667,0,0xC010,
0.440555416666667,0,0x000A,
0.440563083333333,0,0x4119,
0.440579166666667,0,0xC0C5,
0.440587083333333,0,0xC110,
0.440602916666667,0,0xC0BC,
0.440610875000000,0,0xC210,
0.440626708333333,0,0xC0C3,
0.440634625000000,0,0xC310,
0.440650458333333,0,0xC0C5,
0.440658416666667,0,0xC410,
0.440674250000000,0,0xC0C3,
0.440682166666667,0,0xC510,
0.440698041666667,0,0xE06F,
0.440705958333333,0,0xC610,
0.440721791666667,0,0x8001,
0.440729750000000,0,0xC710,
0.440745583333333,0,0xA2FE,
0.440753500000000,0,0xC810,
0.440769375000000,0,0x9E3A,
0.440777250000000,0,0xC910,
0.440793125000000,0,0x9E3C,
0.440801041666667,0,0xCA10,
0.440834375000000,0,0x0004,
0.440842083333333,0,0x032D,
0.440858416666667,0,0x0A01,
0.440866291666667,0,0x832D,
0.440882000000000,0,0x0F00,
0.440889875000000,0,0x842D,
0.440905583333333,0,0x0000,
0.440913458333333,0,0x8520,
0.440929166666667,0,0x073F,
0.440937041666667,0,0x862D,
0.440968250000000,0,0x0001,
0.440975958333333,0,0x1D21,
0.440992083333333,0,0x0055,
0.440999958333333,0,0x9D21,
0.441028500000000,0,0x0003,
0.441036166666667,0,0x2425,
0.441052541666667,0,0x004C,
0.441060375000000,0,0xA420,
0.441076125000000,0,0x0040,
0.441084000000000,0,0xA520,
0.441099708333333,0,0x0000,
0.441107541666667,0,0xA620,
0.441135666666667,0,0x0005,
0.441143375000000,0,0x2D29,
0.441159666666667,0,0x2150,
0.441167541666667,0,0xAD20,
0.441183250000000,0,0xFFFF,
0.441191125000000,0,0xAE20,
0.441206833333333,0,0xE289,
0.441214708333333,0,0xAF20,
0.441230458333333,0,0xFFFF,
0.441238291666667,0,0xB020,
0.441254000000000,0,0x8307,
0.441261875000000,0,0xB120,
0.441291666666667,0,0x0006,
0.441299375000000,0,0x3B2D,
0.441315416666667,0,0xE54F,
0.441323291666667,0,0xBB20,
0.441339000000000,0,0x8000,
0.441346875000000,0,0xBC20,
0.441362625000000,0,0x8000,
0.441370458333333,0,0xBD20,
0.441386208333333,0,0x8001,
0.441394041666667,0,0xBE20,
0.441409791666667,0,0xE5F3,
0.441417625000000,0,0xBF20,
0.441433375000000,0,0xE605,
0.441441208333333,0,0xC020,
0.441471583333333,0,0x000A,
0.441479291666667,0,0x4121,
0.441495291666667,0,0xDF0B,
0.441503166666667,0,0xC120,
0.441518875000000,0,0xE012,
0.441526750000000,0,0xC220,
0.441542458333333,0,0xE007,
0.441550291666667,0,0xC320,
0.441566041666667,0,0xE142,
0.441573916666667,0,0xC420,
0.441589625000000,0,0xA98A,
0.441597500000000,0,0xC520,
0.441613208333333,0,0xFF50,
0.441621083333333,0,0xC620,
0.441636791666667,0,0xC00D,
0.441644666666667,0,0xC720,
0.441660375000000,0,0xA2DE,
0.441668208333333,0,0xC820,
0.441683958333333,0,0x9E39,
0.441691833333333,0,0xC920,
0.441707500000000,0,0x9E3D,
0.441715375000000,0,0xCA20,
0.449344875000000,0,0x1C3F,
0.449352541666667,0,0x0607,
0.449379833333333,0,0x0004,
0.449387500000000,0,0x0319,
0.449404000000000,0,0x0A01,
0.449411916666667,0,0x8319,
0.449427750000000,0,0x0F00,
0.449435708333333,0,0x8419,
0.449451541666667,0,0x0000,
0.449459500000000,0,0x8511,
0.449475333333333,0,0x1F3F,
0.449483291666667,0,0x8619,
0.449513625000000,0,0x0004,
0.449521291666667,0,0x031D,
0.449537291666667,0,0x0A01,
0.449545208333333,0,0x831D,
0.449561041666667,0,0x0F00,
0.449569000000000,0,0x841D,
0.449584833333333,0,0x0000,
0.449592750000000,0,0x8511,
0.449608625000000,0,0x1F3F,
0.449616541666667,0,0x861D,
0.449647583333333,0,0x0004,
0.449655291666667,0,0x0311,
0.449671541666667,0,0x0A01,
0.449679458333333,0,0x8311,
0.449695291666667,0,0x0F00,
0.449703250000000,0,0x8411,
0.449719083333333,0,0x0000,
0.449727041666667,0,0x8511,
0.449742875000000,0,0x1F3F,
0.449750791666667,0,0x8611,
0.449781791666667,0,0x0004,
0.449789500000000,0,0x0315,
0.449805833333333,0,0x0A01,
0.449813750000000,0,0x8315,
0.449829583333333,0,0x0F00,
0.449837500000000,0,0x8415,
0.449853375000000,0,0x0000,
0.449861291666667,0,0x8511,
0.449877125000000,0,0x1F3F,
0.449885083333333,0,0x8615,
0.449916083333333,0,0x0004,
0.449923791666667,0,0x0319,
0.449940041666667,0,0x0A01,
0.449947958333333,0,0x8319,
0.449963833333333,0,0x0F00,
0.449971750000000,0,0x8419,
0.449987583333333,0,0x0000,
0.449995500000000,0,0x8511,
0.450011375000000,0,0x173F,
0.450019291666667,0,0x8619,
0.450050166666667,0,0x0001,
0.450057833333333,0,0x1D1D,
0.450074250000000,0,0x1551,
0.450082166666667,0,0x9D1D,
0.450110166666667,0,0x0003,
0.450117833333333,0,0x2411,
0.450134166666667,0,0x0048,
0.450142041666667,0,0xA411,
0.450157916666667,0,0x0040,
0.450165833333333,0,0xA511,
0.450181666666667,0,0x0000,
0.450189583333333,0,0xA611,
0.450218375000000,0,0x0005,
0.450226041666667,0,0x2D15,
0.450242083333333,0,0x21FD,
0.450250000000000,0,0xAD11,
0.450265833333333,0,0xFFFF,
0.450273750000000,0,0xAE11,
0.450289625000000,0,0xA810,
0.450297541666667,0,0xAF11,
0.450313375000000,0,0xFFFF,
0.450321333333333,0,0xB011,
0.450337166666667,0,0x8309,
0.450345083333333,0,0xB111,
0.450375583333333,0,0x0006,
0.450383250000000,0,0x3B19,
0.450399541666667,0,0xB3F4,
0.450407458333333,0,0xBB11,
0.450423291666667,0,0xB344,
0.450431208333333,0,0xBC11,
0.450447083333333,0,0xB2D2,
0.450455000000000,0,0xBD11,
0.450470833333333,0,0xB215,
0.450478750000000,0,0xBE11,
0.450494583333333,0,0xB218,
0.450502500000000,0,0xBF11,
0.450518375000000,0,0xB28A,
0.450526291666667,0,0xC011,
0.450556000000000,0,0x000A,
0.450563666666667,0,0x411D,
0.450579750000000,0,0xC0C6,
0.450587666666667,0,0xC111,
0.450603541666667,0,0xC0BE,
0.450611458333333,0,0xC211,
0.450627291666667,0,0xC0C5,
0.450635208333333,0,0xC311,
0.450651083333333,0,0xC0C7,
0.450659000000000,0,0xC411,
0.450674833333333,0,0xC0C3,
0.450682750000000,0,0xC511,
0.450698625000000,0,0xE06F,
0.450706541666667,0,0xC611,
0.450722375000000,0,0x8001,
0.450730291666667,0,0xC711,
0.450746125000000,0,0xA301,
0.450754083333333,0,0xC811,
0.450769916666667,0,0x9E3B,
0.450777833333333,0,0xC911,
0.450793666666667,0,0x9E3B,
0.450801583333333,0,0xCA11,
0.450834708333333,0,0x0004,
0.450842416666667,0,0x0321,
0.450858500000000,0,0x0A01,
0.450866375000000,0,0x8321,
0.450882083333333,0,0x0F00,
0.450889958333333,0,0x8421,
0.450905666666667,0,0x0000,
0.450913541666667,0,0x8521,
0.450929291666667,0,0x173F,
0.450937166666667,0,0x8621,
0.450967458333333,0,0x0001,
0.450975166666667,0,0x1D25,
0.450991208333333,0,0x0055,
0.450999041666667,0,0x9D25,
0.451026625000000,0,0x0003,
0.451034333333333,0,0x2429,
0.451050625000000,0,0x004C,
0.451058500000000,0,0xA421,
0.451074208333333,0,0x0040,
0.451082083333333,0,0xA521,
0.451097833333333,0,0x0000,
0.451105708333333,0,0xA621,
0.451134333333333,0,0x0005,
0.451142000000000,0,0x2D2D,
0.451158250000000,0,0x225C,
0.451166125000000,0,0xAD21,
0.451181833333333,0,0xFFFF,
0.451189708333333,0,0xAE21,
0.451205458333333,0,0xE1BE,
0.451213333333333,0,0xAF21,
0.451229041666667,0,0xFFFF,
0.451236916666667,0,0xB021,
0.451252625000000,0,0x830A,
0.451260458333333,0,0xB121,
0.451290125000000,0,0x0006,
0.451297791666667,0,0x3B21,
0.451314041666667,0,0xE556,
0.451321916666667,0,0xBB21,
0.451337625000000,0,0x8000,
0.451345458333333,0,0xBC21,
0.451361208333333,0,0x8000,
0.451369041666667,0,0xBD21,
0.451384791666667,0,0x8000,
0.451392666666667,0,0xBE21,
0.451408375000000,0,0xE5F6,
0.451416208333333,0,0xBF21,
0.451431958333333,0,0xE610,
0.451439833333333,0,0xC021,
0.451469708333333,0,0x000A,
0.451477375000000,0,0x4125,
0.451493375000000,0,0xDF0E,
0.451501250000000,0,0xC121,
0.451516958333333,0,0xE01B,
0.451524833333333,0,0xC221,
0.451540541666667,0,0xE00E,
0.451548416666667,0,0xC321,
0.451564125000000,0,0xE145,
0.451572000000000,0,0xC421,
0.451587708333333,0,0xA992,
0.451595583333333,0,0xC521,
0.451611291666667,0,0xFF53,
0.451619166666667,0,0xC621,
0.451634875000000,0,0xC016,
0.451642750000000,0,0xC721,
0.451658458333333,0,0xA2DC,
0.451666333333333,0,0xC821,
0.451682041666667,0,0x9E3C,
0.451689916666667,0,0xC921,
0.451705625000000,0,0x9E3A,
0.451713500000000,0,0xCA21,
0.459498875000000,0,0x2C3F,
0.459506583333333,0,0x060B,
0.459533958333333,0,0x0004,
0.459541625000000,0,0x031D,
0.459557708333333,0,0x0A01,
0.459565625000000,0,0x831D,
0.459581500000000,0,0x0F00,
0.459589416666667,0,0x841D,
0.459605291666667,0,0x0000,
0.459613208333333,0,0x8512,
0.459629083333333,0,0x2F3F,
0.459637000000000,0,0x861D,
0.459668333333333,0,0x0004,
0.459676000000000,0,0x0311,
0.459692000000000,0,0x0A01,
0.459699916666667,0,0x8311,
0.459715750000000,0,0x0F00,
0.459723708333333,0,0x8411,
0.459739541666667,0,0x0000,
0.459747458333333,0,0x8512,
0.459763333333333,0,0x2F3F,
0.459771250000000,0,0x8611,
0.459802208333333,0,0x0004,
0.459809875000000,0,0x0315,
0.459826250000000,0,0x0A01,
0.459834166666667,0,0x8315,
0.459850041666667,0,0x0F00,
0.459857958333333,0,0x8415,
0.459873833333333,0,0x0000,
0.459881750000000,0,0x8512,
0.459897583333333,0,0x2F3F,
0.459905541666667,0,0x8615,
0.459935916666667,0,0x0004,
0.459943583333333,0,0x0319,
0.459960041666667,0,0x0A01,
0.459967958333333,0,0x8319,
0.459983833333333,0,0x0F00,
0.459991750000000,0,0x8419,
0.460007583333333,0,0x0000,
0.460015541666667,0,0x8512,
0.460031375000000,0,0x2F3F,
0.460039291666667,0,0x8619,
0.460069666666667,0,0x0004,
0.460077333333333,0,0x031D,
0.460093291666667,0,0x0A01,
0.460101250000000,0,0x831D,
0.460117083333333,0,0x0F00,
0.460125000000000,0,0x841D,
0.460140833333333,0,0x0000,
0.460148750000000,0,0x8512,
0.460164625000000,0,0x273F,
0.460172541666667,0,0x861D,
0.460202416666667,0,0x0001,
0.460210083333333,0,0x1D11,
0.460226541666667,0,0x1551,
0.460234458333333,0,0x9D11,
0.460263083333333,0,0x0003,
0.460270750000000,0,0x2415,
0.460286958333333,0,0x0048,
0.460294875000000,0,0xA412,
0.460310708333333,0,0x0040,
0.460318666666667,0,0xA512,
0.460334500000000,0,0x0000,
0.460342416666667,0,0xA612,
0.460372250000000,0,0x0005,
0.460379916666667,0,0x2D19,
0.460395916666667,0,0x230B,
0.460403833333333,0,0xAD12,
0.460419708333333,0,0xFFFF,
0.460427625000000,0,0xAE12,
0.460443458333333,0,0xA599,
0.460451416666667,0,0xAF12,
0.460467250000000,0,0xFFFF,
0.460475166666667,0,0xB012,
0.460491041666667,0,0x830E,
0.460498958333333,0,0xB112,
0.460529250000000,0,0x0006,
0.460536958333333,0,0x3B1D,
0.460552916666667,0,0xB3F7,
0.460560875000000,0,0xBB12,
0.460576708333333,0,0xB34C,
0.460584666666667,0,0xBC12,
0.460600500000000,0,0xB2D2,
0.460608416666667,0,0xBD12,
0.460624250000000,0,0xB217,
0.460632208333333,0,0xBE12,
0.460648041666667,0,0xB219,
0.460655958333333,0,0xBF12,
0.460671791666667,0,0xB28B,
0.460679750000000,0,0xC012,
0.460710583333333,0,0x000A,
0.460718291666667,0,0x4111,
0.460734708333333,0,0xC0C3,
0.460742666666667,0,0xC112,
0.460758500000000,0,0xC0C2,
0.460766416666667,0,0xC212,
0.460782291666667,0,0xC0C2,
0.460790208333333,0,0xC312,
0.460806083333333,0,0xC0C8,
0.460814000000000,0,0xC412,
0.460829833333333,0,0xC0C4,
0.460837791666667,0,0xC512,
0.460853625000000,0,0xE071,
0.460861541666667,0,0xC612,
0.460877416666667,0,0x8000,
0.460885333333333,0,0xC712,
0.460901208333333,0,0xA2FF,
0.460909125000000,0,0xC812,
0.460924958333333,0,0x9E38,
0.460932875000000,0,0xC912,
0.460948750000000,0,0x9E3D,
0.460956666666667,0,0xCA12,
0.460988750000000,0,0x0004,
0.460996458333333,0,0x0325,
0.461012875000000,0,0x0A01,
0.461020750000000,0,0x8325,
0.461036458333333,0,0x0F00,
0.461044333333333,0,0x8425,
0.461060041666667,0,0x0000,
0.461067916666667,0,0x8522,
0.461083625000000,0,0x273F,
0.461091500000000,0,0x8625,
0.461121750000000,0,0x0001,
0.461129416666667,0,0x1D29,
0.461145541666667,0,0x0055,
0.461153416666667,0,0x9D29,
0.461181416666667,0,0x0003,
0.461189083333333,0,0x242D,
0.461205500000000,0,0x004C,
0.461213333333333,0,0xA422,
0.461229083333333,0,0x0040,
0.461236916666667,0,0xA522,
0.461252666666667,0,0x0000,
0.461260541666667,0,0xA622,
0.461289875000000,0,0x0005,
0.461297541666667,0,0x2D21,
0.461313583333333,0,0x236C,
0.461321458333333,0,0xAD22,
0.461337208333333,0,0xFFFF,
0.461345041666667,0,0xAE22,
0.461360791666667,0,0xE1B7,
0.461368625000000,0,0xAF22,
0.461384375000000,0,0xFFFF,
0.461392208333333,0,0xB022,
0.461407958333333,0,0x830E,
0.461415833333333,0,0xB122,
0.461446125000000,0,0x0006,
0.461453791666667,0,0x3B25,
0.461469875000000,0,0xE555,
0.461477750000000,0,0xBB22,
0.461493500000000,0,0x8000,
0.461501333333333,0,0xBC22,
0.461517041666667,0,0x8004,
0.461524916666667,0,0xBD22,
0.461540625000000,0,0x8003,
0.461548500000000,0,0xBE22,
0.461564250000000,0,0xE5F5,
0.461572083333333,0,0xBF22,
0.461587791666667,0,0xE60D,
0.461595666666667,0,0xC022,
0.461625083333333,0,0x000A,
0.461632750000000,0,0x4129,
0.461648750000000,0,0xDF0E,
0.461656583333333,0,0xC122,
0.461672333333333,0,0xE017,
0.461680166666667,0,0xC222,
0.461695916666667,0,0xE00B,
0.461703750000000,0,0xC322,
0.461719500000000,0,0xE14C,
0.461727333333333,0,0xC422,
0.461743083333333,0,0xA995,
0.461750916666667,0,0xC522,
0.461766666666667,0,0xFF4F,
0.461774500000000,0,0xC622,
0.461790250000000,0,0xC011,
0.461798083333333,0,0xC722,
0.461813833333333,0,0xA2DE,
0.461821666666667,0,0xC822,
0.461837416666667,0,0x9E3A,
0.461845291666667,0,0xC922,
0.461861000000000,0,0x9E40,
0.461868875000000,0,0xCA22,
0.469340166666667,0,0x3C3F,
0.469347875000000,0,0x060F,
0.469375833333333,0,0x0004,
0.469383500000000,0,0x0311,
0.469399875000000,0,0x0A01,
0.469407791666667,0,0x8311,
0.469423625000000,0,0x0F00,
0.469431583333333,0,0x8411,
0.469447458333333,0,0x0000,
0.469455375000000,0,0x8513,
0.469471208333333,0,0x3F3F,
0.469479125000000,0,0x8611,
0.469509916666667,0,0x0004,
0.469517583333333,0,0x0315,
0.469533625000000,0,0x0A01,
0.469541583333333,0,0x8315,
0.469557416666667,0,0x0F00,
0.469565333333333,0,0x8415,
0.469581208333333,0,0x0000,
0.469589125000000,0,0x8513,
0.469605000000000,0,0x3F3F,
0.469612916666667,0,0x8615,
0.469644416666667,0,0x0004,
0.469652125000000,0,0x0319,
0.469668416666667,0,0x0A01,
0.469676333333333,0,0x8319,
0.469692208333333,0,0x0F00,
0.469700166666667,0,0x8419,
0.469716000000000,0,0x0000,
0.469723916666667,0,0x8513,
0.469739791666667,0,0x3F3F,
0.469747708333333,0,0x8619,
0.469778916666667,0,0x0004,
0.469786625000000,0,0x031D,
0.469802708333333,0,0x0A01,
0.469810625000000,0,0x831D,
0.469826500000000,0,0x0F00,
0.469834416666667,0,0x841D,
0.469850291666667,0,0x0000,
0.469858208333333,0,0x8513,
0.469874041666667,0,0x3F3F,
0.469882000000000,0,0x861D,
0.469912625000000,0,0x0004,
0.469920291666667,0,0x0311,
0.469936458333333,0,0x0A01,
0.469944416666667,0,0x8311,
0.469960250000000,0,0x0F00,
0.469968208333333,0,0x8411,
0.469984041666667,0,0x0000,
0.469991958333333,0,0x8513,
0.470007833333333,0,0x373F,
0.470015750000000,0,0x8611,
0.470046791666667,0,0x0001,
0.470054458333333,0,0x1D15,
0.470070750000000,0,0x1551,
0.470078666666667,0,0x9D15,
0.470107125000000,0,0x0003,
0.470114833333333,0,0x2419,
0.470131166666667,0,0x0048,
0.470139083333333,0,0xA413,
0.470154916666667,0,0x0040,
0.470162875000000,0,0xA513,
0.470178708333333,0,0x0000,
0.470186625000000,0,0xA613,
0.470215625000000,0,0x0005,
0.470223291666667,0,0x2D1D,
0.470239625000000,0,0x2410,
0.470247541666667,0,0xAD13,
0.470263416666667,0,0xFFFF,
0.470271333333333,0,0xAE13,
0.470287166666667,0,0xA3B6,
0.470295083333333,0,0xAF13,
0.470310916666667,0,0x8000,
0.470318875000000,0,0xB013,
0.470334708333333,0,0x8303,
0.470342666666667,0,0xB113,
0.470373083333333,0,0x0006,
0.470380791666667,0,0x3B11,
0.470397125000000,0,0xB3F6,
0.470405041666667,0,0xBB13,
0.470420875000000,0,0xB347,
0.470428833333333,0,0xBC13,
0.470444666666667,0,0xB2D9,
0.470452625000000,0,0xBD13,
0.470468458333333,0,0xB217,
0.470476375000000,0,0xBE13,
0.470492250000000,0,0xB21A,
0.470500166666667,0,0xBF13,
0.470516041666667,0,0xB28B,
0.470523958333333,0,0xC013,
0.470554250000000,0,0x000A,
0.470561916666667,0,0x4115,
0.470577916666667,0,0xC0C6,
0.470585875000000,0,0xC113,
0.470601708333333,0,0xC0C0,
0.470609625000000,0,0xC213,
0.470625500000000,0,0xC0C6,
0.470633416666667,0,0xC313,
0.470649250000000,0,0xC0C8,
0.470657166666667,0,0xC413,
0.470673041666667,0,0xC0C6,
0.470680958333333,0,0xC513,
0.470696791666667,0,0xE071,
0.470704708333333,0,0xC613,
0.470720583333333,0,0x8004,
0.470728500000000,0,0xC713,
0.470744375000000,0,0xA301,
0.470752291666667,0,0xC813,
0.470768166666667,0,0x9E3F,
0.470776041666667,0,0xC913,
0.470791916666667,0,0x9E41,
0.470799833333333,0,0xCA13,
0.470831875000000,0,0x0004,
0.470839583333333,0,0x0329,
0.470855875000000,0,0x0A01,
0.470863708333333,0,0x8329,
0.470879458333333,0,0x0F00,
0.470887333333333,0,0x8429,
0.470903000000000,0,0x0000,
0.470910875000000,0,0x8523,
0.470926583333333,0,0x373F,
0.470934458333333,0,0x8629,
0.470965125000000,0,0x0001,
0.470972791666667,0,0x1D2D,
0.470989000000000,0,0x0055,
0.470996875000000,0,0x9D2D,
0.471024875000000,0,0x0003,
0.471032583333333,0,0x2421,
0.471048500000000,0,0x004C,
0.471056333333333,0,0xA423,
0.471072083333333,0,0x0040,
0.471079958333333,0,0xA523,
0.471095666666667,0,0x0000,
0.471103541666667,0,0xA623,
0.471132041666667,0,0x0005,
0.471139708333333,0,0x2D25,
0.471155625000000,0,0x2474,
0.471163500000000,0,0xAD23,
0.471179208333333,0,0xFFFF,
0.471187083333333,0,0xAE23,
0.471202791666667,0,0xE146,
0.471210666666667,0,0xAF23,
0.471226375000000,0,0x8000,
0.471234250000000,0,0xB023,
0.471249958333333,0,0x8302,
0.471257833333333,0,0xB123,
0.471288458333333,0,0x0006,
0.471296125000000,0,0x3B29,
0.471312375000000,0,0xE55C,
0.471320250000000,0,0xBB23,
0.471335958333333,0,0x8002,
0.471343833333333,0,0xBC23,
0.471359541666667,0,0x8002,
0.471367416666667,0,0xBD23,
0.471383125000000,0,0x8000,
0.471391000000000,0,0xBE23,
0.471406708333333,0,0xE5F8,
0.471414583333333,0,0xBF23,
0.471430291666667,0,0xE610,
0.471438166666667,0,0xC023,
0.471468750000000,0,0x000A,
0.471476416666667,0,0x412D,
0.471492708333333,0,0xDF12,
0.471500583333333,0,0xC123,
0.471516333333333,0,0xE017,
0.471524166666667,0,0xC223,
0.471539875000000,0,0xE00F,
0.471547750000000,0,0xC323,
0.471563500000000,0,0xE14B,
0.471571333333333,0,0xC423,
0.471587083333333,0,0xA992,
0.471594958333333,0,0xC523,
0.471610666666667,0,0xFF51,
0.471618541666667,0,0xC623,
0.471634250000000,0,0xC012,
0.471642083333333,0,0xC723,
0.471657833333333,0,0xA2DC,
0.471665666666667,0,0xC823,
0.471681416666667,0,0x9E3B,
0.471689291666667,0,0xC923,
0.471705000000000,0,0x9E41,
0.471712875000000,0,0xCA23,
0.479329291666667,0,0x4C3F,
0.479337000000000,0,0x0603,
0.479364541666667,0,0x0004,
0.479372250000000,0,0x0315,
0.479388375000000,0,0x0A01,
0.479396333333333,0,0x8315,
0.479412166666667,0,0x0F00,
0.479420125000000,0,0x8415,
0.479435958333333,0,0x0000,
0.479443916666667,0,0x8514,
0.479459750000000,0,0x4F3F,
0.479467666666667,0,0x8615,
0.479498916666667,0,0x0004,
0.479506583333333,0,0x0319,
0.479522666666667,0,0x0A01,
0.479530625000000,0,0x8319,
0.479546458333333,0,0x0F00,
0.479554375000000,0,0x8419,
0.479570250000000,0,0x0000,
0.479578166666667,0,0x8514,
0.479594041666667,0,0x4F3F,
0.479601958333333,0,0x8619,
0.479632833333333,0,0x0004,
0.479640500000000,0,0x031D,
0.479656458333333,0,0x0A01,
0.479664416666667,0,0x831D,
0.479680250000000,0,0x0F00,
0.479688166666667,0,0x841D,
0.479704041666667,0,0x0000,
0.479711958333333,0,0x8514,
0.479727833333333,0,0x4F3F,
0.479735750000000,0,0x861D,
0.479765833333333,0,0x0004,
0.479773500000000,0,0x0311,
0.479789750000000,0,0x0A01,
0.479797666666667,0,0x8311,
0.479813541666667,0,0x0F00,
0.479821458333333,0,0x8411,
0.479837291666667,0,0x0000,
0.479845250000000,0,0x8514,
0.479861083333333,0,0x4F3F,
0.479869041666667,0,0x8611,
0.479899875000000,0,0x0004,
0.479907541666667,0,0x0315,
0.479924000000000,0,0x0A01,
0.479931916666667,0,0x8315,
0.479947791666667,0,0x0F00,
0.479955708333333,0,0x8415,
0.479971583333333,0,0x0000,
0.479979500000000,0,0x8514,
0.479995333333333,0,0x473F,
0.480003291666667,0,0x8615,
0.480034000000000,0,0x0001,
0.480041666666667,0,0x1D19,
0.480057750000000,0,0x1551,
0.480065666666667,0,0x9D19,
0.480093708333333,0,0x0003,
0.480101375000000,0,0x241D,
0.480117708333333,0,0x0048,
0.480125625000000,0,0xA414,
0.480141458333333,0,0x0040,
0.480149416666667,0,0xA514,
0.480165250000000,0,0x0000,
0.480173166666667,0,0xA614,
0.480202416666667,0,0x0005,
0.480210083333333,0,0x2D11,
0.480226166666667,0,0x251A,
0.480234083333333,0,0xAD14,
0.480249958333333,0,0xFFFF,
0.480257875000000,0,0xAE14,
0.480273708333333,0,0xA0F9,
0.480281666666667,0,0xAF14,
0.480297500000000,0,0xFFFF,
0.480305416666667,0,0xB014,
0.480321291666667,0,0x8308,
0.480329208333333,0,0xB114,
0.480359541666667,0,0x0006,
0.480367208333333,0,0x3B15,
0.480383666666667,0,0xB3F7,
0.480391583333333,0,0xBB14,
0.480407458333333,0,0xB346,
0.480415416666667,0,0xBC14,
0.480431250000000,0,0xB2D6,
0.480439166666667,0,0xBD14,
0.480455041666667,0,0xB21B,
0.480462958333333,0,0xBE14,
0.480478791666667,0,0xB21D,
0.480486708333333,0,0xBF14,
0.480502583333333,0,0xB28E,
0.480510500000000,0,0xC014,
0.480541166666667,0,0x000A,
0.480548833333333,0,0x4119,
0.480564958333333,0,0xC0C5,
0.480572875000000,0,0xC114,
0.480588708333333,0,0xC0C2,
0.480596666666667,0,0xC214,
0.480612500000000,0,0xC0C4,
0.480620458333333,0,0xC314,
0.480636291666667,0,0xC0C4,
0.480644208333333,0,0xC414,
0.480660083333333,0,0xC0C4,
0.480668000000000,0,0xC514,
0.480683833333333,0,0xE070,
0.480691750000000,0,0xC614,
0.480707625000000,0,0x8001,
0.480715541666667,0,0xC714,
0.480731416666667,0,0xA2FF,
0.480739333333333,0,0xC814,
0.480755208333333,0,0x9E3A,
0.480763125000000,0,0xC914,
0.480778958333333,0,0x9E3C,
0.480786875000000,0,0xCA14,
0.480819500000000,0,0x0004,
0.480827166666667,0,0x032D,
0.480843375000000,0,0x0A01,
0.480851208333333,0,0x832D,
0.480866958333333,0,0x0F00,
0.480874791666667,0,0x842D,
0.480890541666667,0,0x0000,
0.480898416666667,0,0x8524,
0.480914125000000,0,0x473F,
0.480922000000000,0,0x862D,
0.480953750000000,0,0x0001,
0.480961416666667,0,0x1D21,
0.480977500000000,0,0x0055,
0.480985375000000,0,0x9D21,
0.481013375000000,0,0x0003,
0.481021041666667,0,0x2425,
0.481037458333333,0,0x004C,
0.481045333333333,0,0xA424,
0.481061041666667,0,0x0040,
0.481068875000000,0,0xA524,
0.481084625000000,0,0x0000,
0.481092500000000,0,0xA624,
0.481121375000000,0,0x0005,
0.481129041666667,0,0x2D29,
0.481145083333333,0,0x257F,
0.481152916666667,0,0xAD24,
0.481168666666667,0,0xFFFF,
0.481176500000000,0,0xAE24,
0.481192250000000,0,0xE064,
0.481200125000000,0,0xAF24,
0.481215833333333,0,0x8000,
0.481223708333333,0,0xB024,
0.481239416666667,0,0x8302,
0.481247291666667,0,0xB124,
0.481278166666667,0,0x0006,
0.481285833333333,0,0x3B2D,
0.481301833333333,0,0xE559,
0.481309708333333,0,0xBB24,
0.481325416666667,0,0x8002,
0.481333291666667,0,0xBC24,
0.481349000000000,0,0x8003,
0.481356875000000,0,0xBD24,
0.481372583333333,0,0x8000,
0.481380458333333,0,0xBE24,
0.481396166666667,0,0xE5F5,
0.481404041666667,0,0xBF24,
0.481419750000000,0,0xE60F,
0.481427625000000,0,0xC024,
0.481457833333333,0,0x000A,
0.481465500000000,0,0x4121,
0.481481666666667,0,0xDF0D,
0.481489500000000,0,0xC124,
0.481505208333333,0,0xE014,
0.481513083333333,0,0xC224,
0.481528791666667,0,0xE010,
0.481536666666667,0,0xC324,
0.481552375000000,0,0xE149,
0.481560250000000,0,0xC424,
0.481576000000000,0,0xA990,
0.481583833333333,0,0xC524,
0.481599583333333,0,0xFF4F,
0.481607416666667,0,0xC624,
0.481623166666667,0,0xC00E,
0.481631041666667,0,0xC724,
0.481646750000000,0,0xA2DE,
0.481654625000000,0,0xC824,
0.481670333333333,0,0x9E38,
0.481678208333333,0,0xC924,
0.481693916666667,0,0x9E3D,
0.481701791666667,0,0xCA24,
0.489342000000000,0,0x5C3F,
0.489349708333333,0,0x0607,
0.489377458333333,0,0x0004,
0.489385125000000,0,0x0319,
0.489401375000000,0,0x0A01,
0.489409291666667,0,0x8319,
0.489425166666667,0,0x0F00,
0.489433083333333,0,0x8419,
0.489448958333333,0,0x0000,
0.489456875000000,0,0x8515,
0.489472750000000,0,0x5F3F,
0.489480666666667,0,0x8619,
0.489511125000000,0,0x0004,
0.489518791666667,0,0x031D,
0.489535166666667,0,0x0A01,
0.489543083333333,0,0x831D,
0.489558958333333,0,0x0F00,
0.489566875000000,0,0x841D,
0.489582750000000,0,0x0000,
0.489590666666667,0,0x8515,
0.489606500000000,0,0x5F3F,
0.489614458333333,0,0x861D,
0.489645500000000,0,0x0004,
0.489653166666667,0,0x0311,
0.489669416666667,0,0x0A01,
0.489677375000000,0,0x8311,
0.489693208333333,0,0x0F00,
0.489701125000000,0,0x8411,
0.489717000000000,0,0x0000,
0.489724916666667,0,0x8515,
0.489740791666667,0,0x5F3F,
0.489748708333333,0,0x8611,
0.489778916666667,0,0x0004,
0.489786625000000,0,0x0315,
0.489802750000000,0,0x0A01,
0.489810666666667,0,0x8315,
0.489826541666667,0,0x0F00,
0.489834458333333,0,0x8415,
0.489850333333333,0,0x0000,
0.489858250000000,0,0x8515,
0.489874083333333,0,0x5F3F,
0.489882041666667,0,0x8615,
0.489912083333333,0,0x0004,
0.489919750000000,0,0x0319,
0.489936000000000,0,0x0A01,
0.489943958333333,0,0x8319,
0.489959791666667,0,0x0F00,
0.489967708333333,0,0x8419,
0.489983583333333,0,0x0000,
0.489991500000000,0,0x8515,
0.490007333333333,0,0x573F,
0.490015250000000,0,0x8619,
0.490046250000000,0,0x0001,
0.490053916666667,0,0x1D1D,
0.490070250000000,0,0x1551,
0.490078166666667,0,0x9D1D,
0.490106375000000,0,0x0003,
0.490114041666667,0,0x2411,
0.490130166666667,0,0x0048,
0.490138125000000,0,0xA415,
0.490153958333333,0,0x0040,
0.490161875000000,0,0xA515,
0.490177708333333,0,0x0000,
0.490185666666667,0,0xA615,
0.490214708333333,0,0x0005,
0.490222375000000,0,0x2D15,
0.490238666666667,0,0x2624,
0.490246583333333,0,0xAD15,
0.490262458333333,0,0xFFFF,
0.490270375000000,0,0xAE15,
0.490286250000000,0,0x9EB3,
0.490294166666667,0,0xAF15,
0.490310000000000,0,0xFFFF,
0.490317958333333,0,0xB015,
0.490333791666667,0,0x830F,
0.490341708333333,0,0xB115,
0.490371833333333,0,0x0006,
0.490379500000000,0,0x3B19,
0.490395708333333,0,0xB3F5,
0.490403625000000,0,0xBB15,
0.490419500000000,0,0xB34B,
0.490427375000000,0,0xBC15,
0.490443250000000,0,0xB2DA,
0.490451166666667,0,0xBD15,
0.490467041666667,0,0xB21B,
0.490474958333333,0,0xBE15,
0.490490791666667,0,0xB21C,
0.490498750000000,0,0xBF15,
0.490514583333333,0,0xB290,
0.490522500000000,0,0xC015,
0.490552666666667,0,0x000A,
0.490560375000000,0,0x411D,
0.490576458333333,0,0xC0C4,
0.490584416666667,0,0xC115,
0.490600250000000,0,0xC0C0,
0.490608166666667,0,0xC215,
0.490624000000000,0,0xC0C4,
0.490631958333333,0,0xC315,
0.490647833333333,0,0xC0C4,
0.490655708333333,0,0xC415,
0.490671583333333,0,0xC0C5,
0.490679500000000,0,0xC515,
0.490695375000000,0,0xE072,
0.490703291666667,0,0xC615,
0.490719125000000,0,0x8002,
0.490727083333333,0,0xC715,
0.490742916666667,0,0xA300,
0.490750833333333,0,0xC815,
0.490766666666667,0,0x9E3C,
0.490774625000000,0,0xC915,
0.490790458333333,0,0x9E3D,
0.490798375000000,0,0xCA15,
0.490830375000000,0,0x0004,
0.490838083333333,0,0x0321,
0.490854125000000,0,0x0A01,
0.490861958333333,0,0x8321,
0.490877666666667,0,0x0F00,
0.490885541666667,0,0x8421,
0.490901250000000,0,0x0000,
0.490909125000000,0,0x8525,
0.490924875000000,0,0x573F,
0.490932708333333,0,0x8621,
0.490963541666667,0,0x0001,
0.490971208333333,0,0x1D25,
0.490987250000000,0,0x0055,
0.490995125000000,0,0x9D25,
0.491022333333333,0,0x0003,
0.491030041666667,0,0x2429,
0.491046208333333,0,0x004C,
0.491054083333333,0,0xA425,
0.491069791666667,0,0x0040,
0.491077666666667,0,0xA525,
0.491093375000000,0,0x0000,
0.491101250000000,0,0xA625,
0.491129458333333,0,0x0005,
0.491137125000000,0,0x2D2D,
0.491153333333333,0,0x268B,
0.491161208333333,0,0xAD25,
0.491176916666667,0,0xFFFF,
0.491184750000000,0,0xAE25,
0.491200500000000,0,0xDF53,
0.491208333333333,0,0xAF25,
0.491224083333333,0,0xFFFF,
0.491231958333333,0,0xB025,
0.491247666666667,0,0x830A,
0.491255500000000,0,0xB125,
0.491287041666667,0,0x0006,
0.491294708333333,0,0x3B21,
0.491311041666667,0,0xE55A,
0.491318916666667,0,0xBB25,
0.491334625000000,0,0x8000,
0.491342500000000,0,0xBC25,
0.491358208333333,0,0x8000,
0.491366083333333,0,0xBD25,
0.491381833333333,0,0x8002,
0.491389666666667,0,0xBE25,
0.491405375000000,0,0xE5FC,
0.491413250000000,0,0xBF25,
0.491428958333333,0,0xE611,
0.491436833333333,0,0xC025,
0.491467583333333,0,0x000A,
0.491475250000000,0,0x4125,
0.491491375000000,0,0xDF0F,
0.491499250000000,0,0xC125,
0.491514958333333,0,0xE017,
0.491522833333333,0,0xC225,
0.491538541666667,0,0xE015,
0.491546416666667,0,0xC325,
0.491562125000000,0,0xE14D,
0.491570000000000,0,0xC425,
0.491585708333333,0,0xA994,
0.491593583333333,0,0xC525,
0.491609291666667,0,0xFF50,
0.491617166666667,0,0xC625,
0.491632875000000,0,0xC010,
0.491640750000000,0,0xC725,
0.491656458333333,0,0xA2DF,
0.491664333333333,0,0xC825,
0.491680041666667,0,0x9E3B,
0.491687916666667,0,0xC925,
0.491703625000000,0,0x9E3E,
0.491711500000000,0,0xCA25,
0.499337000000000,0,0x6C3F,
0.499344666666667,0,0x060B,
0.499371916666667,0,0x0004,
0.499379583333333,0,0x031D,
0.499395708333333,0,0x0A01,
0.499403666666667,0,0x831D,
0.499419500000000,0,0x0F00,
0.499427416666667,0,0x841D,
0.499443291666667,0,0x0000,
0.499451208333333,0,0x8516,
0.499467083333333,0,0x6F3F,
0.499475000000000,0,0x861D,
0.499506666666667,0,0x0004,
0.499514375000000,0,0x0311,
0.499530500000000,0,0x0A01,
0.499538416666667,0,0x8311,
0.499554291666667,0,0x0F00,
0.499562250000000,0,0x8411,
0.499578083333333,0,0x0000,
0.499586041666667,0,0x8516,
0.499601875000000,0,0x6F3F,
0.499609791666667,0,0x8611,
0.499640583333333,0,0x0004,
0.499648291666667,0,0x0315,
0.499664291666667,0,0x0A01,
0.499672208333333,0,0x8315,
0.499688083333333,0,0x0F00,
0.499696000000000,0,0x8415,
0.499711875000000,0,0x0000,
0.499719791666667,0,0x8516,
0.499735666666667,0,0x6F3F,
0.499743583333333,0,0x8615,
0.499774708333333,0,0x0004,
0.499782416666667,0,0x0319,
0.499798583333333,0,0x0A01,
0.499806500000000,0,0x8319,
0.499822375000000,0,0x0F00,
0.499830291666667,0,0x8419,
0.499846166666667,0,0x0000,
0.499854083333333,0,0x8516,
0.499869916666667,0,0x6F3F,
0.499877875000000,0,0x8619,
0.499909083333333,0,0x0004,
0.499916750000000,0,0x031D,
0.499932833333333,0,0x0A01,
0.499940750000000,0,0x831D,
0.499956625000000,0,0x0F00,
0.499964541666667,0,0x841D,
0.499980375000000,0,0x0000,
0.499988291666667,0,0x8516,
0.500004166666667,0,0x673F,
0.500012083333333,0,0x861D,
0.500042750000000,0,0x0001,
0.500050416666667,0,0x1D11,
0.500066541666667,0,0x1551,
0.500074500000000,0,0x9D11,
0.500102291666667,0,0x0003,
0.500109958333333,0,0x2415,
0.500126000000000,0,0x0048,
0.500133916666667,0,0xA416,
0.500149791666667,0,0x0040,
0.500157708333333,0,0xA516,
0.500173583333333,0,0x0000,
0.500181500000000,0,0xA616,
0.500211500000000,0,0x0005,
0.500219166666667,0,0x2D19,
0.500235458333333,0,0x272D,
0.500243416666667,0,0xAD16,
0.500259250000000,0,0xFFFF,
0.500267166666667,0,0xAE16,
0.500283041666667,0,0x9C92,
0.500290958333333,0,0xAF16,
0.500306791666667,0,0xFFFF,
0.500314750000000,0,0xB016,
0.500330583333333,0,0x830E,
0.500338500000000,0,0xB116,
0.500368083333333,0,0x0006,
0.500375750000000,0,0x3B1D,
0.500392000000000,0,0xB3F8,
0.500399916666667,0,0xBB16,
0.500415791666667,0,0xB349,
0.500423708333333,0,0xBC16,
0.500439541666667,0,0xB2D6,
0.500447500000000,0,0xBD16,
0.500463333333333,0,0xB219,
0.500471250000000,0,0xBE16,
0.500487083333333,0,0xB21D,
0.500495041666667,0,0xBF16,
0.500510875000000,0,0xB291,
0.500518791666667,0,0xC016,
0.500548666666667,0,0x000A,
0.500556375000000,0,0x4111,
0.500572791666667,0,0xC0C9,
0.500580708333333,0,0xC116,
0.500596541666667,0,0xC0C2,
0.500604500000000,0,0xC216,
0.500620333333333,0,0xC0C9,
0.500628250000000,0,0xC316,
0.500644125000000,0,0xC0C7,
0.500652041666667,0,0xC416,
0.500667916666667,0,0xC0CC,
0.500675833333333,0,0xC516,
0.500691666666667,0,0xE071,
0.500699583333333,0,0xC616,
0.500715458333333,0,0x8006,
0.500723375000000,0,0xC716,
0.500739208333333,0,0xA302,
0.500747125000000,0,0xC816,
0.500763000000000,0,0x9E3C,
0.500770916666667,0,0xC916,
0.500786750000000,0,0x9E39,
0.500794666666667,0,0xCA16,
0.500827041666667,0,0x0004,
0.500834708333333,0,0x0325,
0.500850958333333,0,0x0A01,
0.500858833333333,0,0x8325,
0.500874583333333,0,0x0F00,
0.500882416666667,0,0x8425,
0.500898125000000,0,0x0000,
0.500906000000000,0,0x8526,
0.500921750000000,0,0x673F,
0.500929625000000,0,0x8625,
0.500959625000000,0,0x0001,
0.500967291666667,0,0x1D29,
0.500983666666667,0,0x0055,
0.500991500000000,0,0x9D29,
0.501020125000000,0,0x0003,
0.501027791666667,0,0x242D,
0.501044083333333,0,0x004C,
0.501051958333333,0,0xA426,
0.501067666666667,0,0x0040,
0.501075541666667,0,0xA526,
0.501091250000000,0,0x0000,
0.501099125000000,0,0xA626,
0.501128375000000,0,0x0005,
0.501136041666667,0,0x2D21,
0.501152208333333,0,0x2797,
0.501160041666667,0,0xAD26,
0.501175750000000,0,0xFFFF,
0.501183625000000,0,0xAE26,
0.501199375000000,0,0xDEFF,
0.501207250000000,0,0xAF26,
0.501222958333333,0,0xFFFF,
0.501230791666667,0,0xB026,
0.501246541666667,0,0x830E,
0.501254375000000,0,0xB126,
0.501285583333333,0,0x0006,
0.501293291666667,0,0x3B25,
0.501309416666667,0,0xE55C,
0.501317291666667,0,0xBB26,
0.501333000000000,0,0x8000,
0.501340833333333,0,0xBC26,
0.501356583333333,0,0x8000,
0.501364416666667,0,0xBD26,
0.501380166666667,0,0x8000,
0.501388041666667,0,0xBE26,
0.501403750000000,0,0xE5FD,
0.501411625000000,0,0xBF26,
0.501427333333333,0,0xE610,
0.501435208333333,0,0xC026,
0.501465750000000,0,0x000A,
0.501473416666667,0,0x4129,
0.501489750000000,0,0xDF10,
0.501497625000000,0,0xC126,
0.501513333333333,0,0xE018,
0.501521208333333,0,0xC226,
0.501536916666667,0,0xE017,
0.501544791666667,0,0xC326,
0.501560500000000,0,0xE14D,
0.501568333333333,0,0xC426,
0.501584083333333,0,0xA994,
0.501591958333333,0,0xC526,
0.501607666666667,0,0xFF55,
0.501615541666667,0,0xC626,
0.501631250000000,0,0xC016,
0.501639125000000,0,0xC726,
0.501654833333333,0,0xA2DF,
0.501662708333333,0,0xC826,
0.501678458333333,0,0x9E3E,
0.501686291666667,0,0xC926,
0.501702000000000,0,0x9E3B,
0.501709875000000,0,0xCA26,
0.509335958333333,0,0x7C3F,
0.509343625000000,0,0x060F,
0.509370750000000,0,0x0004,
0.509378458333333,0,0x0311,
0.509394833333333,0,0x0A01,
0.509402750000000,0,0x8311,
0.509418625000000,0,0x0F00,
0.509426541666667,0,0x8411,
0.509442416666667,0,0x0000,
0.509450291666667,0,0x8517,
0.509466166666667,0,0x7F3F,
0.509474083333333,0,0x8611,
0.509505083333333,0,0x0004,
0.509512750000000,0,0x0315,
0.509529083333333,0,0x0A01,
0.509537000000000,0,0x8315,
0.509552875000000,0,0x0F00,
0.509560791666667,0,0x8415,
0.509576666666667,0,0x0000,
0.509584583333333,0,0x8517,
0.509600458333333,0,0x7F3F,
0.509608375000000,0,0x8615,
0.509639208333333,0,0x0004,
0.509646916666667,0,0x0319,
0.509662875000000,0,0x0A01,
0.509670833333333,0,0x8319,
0.509686666666667,0,0x0F00,
0.509694583333333,0,0x8419,
0.509710416666667,0,0x0000,
0.509718375000000,0,0x8517,
0.509734208333333,0,0x7F3F,
0.509742125000000,0,0x8619,
0.509772708333333,0,0x0004,
0.509780416666667,0,0x031D,
0.509796666666667,0,0x0A01,
0.509804583333333,0,0x831D,
0.509820416666667,0,0x0F00,
0.509828375000000,0,0x841D,
0.509844208333333,0,0x0000,
0.509852125000000,0,0x8517,
0.509868000000000,0,0x7F3F,
0.509875916666667,0,0x861D,
0.509906708333333,0,0x0004,
0.509914375000000,0,0x0311,
0.509930416666667,0,0x0A01,
0.509938333333333,0,0x8311,
0.509954166666667,0,0x0F00,
0.509962125000000,0,0x8411,
0.509977958333333,0,0x0000,
0.509985875000000,0,0x8517,
0.510001750000000,0,0x773F,
0.510009666666667,0,0x8611,
0.510040583333333,0,0x0001,
0.510048250000000,0,0x1D15,
0.510064625000000,0,0x1551,
0.510072541666667,0,0x9D15,
0.510100500000000,0,0x0003,
0.510108166666667,0,0x2419,
0.510124583333333,0,0x0048,
0.510132500000000,0,0xA417,
0.510148333333333,0,0x0040,
0.510156250000000,0,0xA517,
0.510172125000000,0,0x0000,
0.510180041666667,0,0xA617,
0.510209916666667,0,0x0005,
0.510217583333333,0,0x2D1D,
0.510234041666667,0,0x2837,
0.510241958333333,0,0xAD17,
0.510257791666667,0,0xFFFF,
0.510265750000000,0,0xAE17,
0.510281583333333,0,0x9AA2,
0.510289500000000,0,0xAF17,
0.510305375000000,0,0xFFFF,
0.510313291666667,0,0xB017,
0.510329125000000,0,0x830B,
0.510337083333333,0,0xB117,
0.510366958333333,0,0x0006,
0.510374625000000,0,0x3B11,
0.510391083333333,0,0xB3FB,
0.510399000000000,0,0xBB17,
0.510414833333333,0,0xB34A,
0.510422750000000,0,0xBC17,
0.510438625000000,0,0xB2DB,
0.510446541666667,0,0xBD17,
0.510462416666667,0,0xB219,
0.510470333333333,0,0xBE17,
0.510486208333333,0,0xB21F,
0.510494125000000,0,0xBF17,
0.510510000000000,0,0xB291,
0.510517916666667,0,0xC017,
0.510548375000000,0,0x000A,
0.510556041666667,0,0x4115,
0.510572416666667,0,0xC0C4,
0.510580333333333,0,0xC117,
0.510596208333333,0,0xC0C0,
0.510604125000000,0,0xC217,
0.510620000000000,0,0xC0C4,
0.510627916666667,0,0xC317,
0.510643750000000,0,0xC0C6,
0.510651708333333,0,0xC417,
0.510667541666667,0,0xC0C4,
0.510675500000000,0,0xC517,
0.510691333333333,0,0xE06C,
0.510699250000000,0,0xC617,
0.510715125000000,0,0x8002,
0.510723041666667,0,0xC717,
0.510738916666667,0,0xA301,
0.510746833333333,0,0xC817,
0.510762708333333,0,0x9E38,
0.510770625000000,0,0xC917,
0.510786458333333,0,0x9E3D,
0.510794416666667,0,0xCA17,
0.510827208333333,0,0x0004,
0.510834916666667,0,0x0329,
0.510850916666667,0,0x0A01,
0.510858791666667,0,0x8329,
0.510874500000000,0,0x0F00,
0.510882375000000,0,0x8429,
0.510898083333333,0,0x0000,
0.510905958333333,0,0x8527,
0.510921708333333,0,0x773F,
0.510929541666667,0,0x8629,
0.510960375000000,0,0x0001,
0.510968041666667,0,0x1D2D,
0.510984125000000,0,0x0055,
0.510992000000000,0,0x9D2D,
0.511020166666667,0,0x0003,
0.511027833333333,0,0x2421,
0.511044083333333,0,0x004C,
0.511051916666667,0,0xA427,
0.511067625000000,0,0x0040,
0.511075500000000,0,0xA527,
0.511091250000000,0,0x0000,
0.511099083333333,0,0xA627,
0.511128291666667,0,0x0005,
0.511135958333333,0,0x2D25,
0.511152166666667,0,0x28A3,
0.511160041666667,0,0xAD27,
0.511175750000000,0,0xFFFF,
0.511183625000000,0,0xAE27,
0.511199375000000,0,0xDE55,
0.511207208333333,0,0xAF27,
0.511222958333333,0,0xFFFF,
0.511230791666667,0,0xB027,
0.511246541666667,0,0x830C,
0.511254416666667,0,0xB127,
0.511285500000000,0,0x0006,
0.511293208333333,0,0x3B29,
0.511309416666667,0,0xE555,
0.511317291666667,0,0xBB27,
0.511333000000000,0,0x8000,
0.511340875000000,0,0xBC27,
0.511356583333333,0,0x8000,
0.511364458333333,0,0xBD27,
0.511380208333333,0,0x8000,
0.511388041666667,0,0xBE27,
0.511403791666667,0,0xE5F9,
0.511411625000000,0,0xBF27,
0.511427375000000,0,0xE613,
0.511435208333333,0,0xC027,
0.511466125000000,0,0x000A,
0.511473791666667,0,0x412D,
0.511490250000000,0,0xDF0E,
0.511498125000000,0,0xC127,
0.511513833333333,0,0xE016,
0.511521708333333,0,0xC227,
0.511537416666667,0,0xE017,
0.511545291666667,0,0xC327,
0.511561000000000,0,0xE150,
0.511568875000000,0,0xC427,
0.511584625000000,0,0xA994,
0.511592458333333,0,0xC527,
0.511608208333333,0,0xFF51,
0.511616041666667,0,0xC627,
0.511631791666667,0,0xC014,
0.511639625000000,0,0xC727,
0.511655375000000,0,0xA2DF,
0.511663208333333,0,0xC827,
0.511678958333333,0,0x9E38,
0.511686833333333,0,0xC927,
0.511702541666667,0,0x9E41,
0.511710416666667,0,0xCA27,
0.519377291666667,0,0x8C3F,
0.519384958333333,0,0x0603,
0.519412750000000,0,0x0004,
0.519420416666667,0,0x0315,
0.519436833333333,0,0x0A01,
0.519444750000000,0,0x8315,
0.519460583333333,0,0x0F00,
0.519468541666667,0,0x8415,
0.519484375000000,0,0x0000,
0.519492291666667,0,0x8518,
0.519508166666667,0,0x8F3F,
0.519516083333333,0,0x8615,
0.519546708333333,0,0x0004,
0.519554375000000,0,0x0319,
0.519570583333333,0,0x0A01,
0.519578541666667,0,0x8319,
0.519594375000000,0,0x0F00,
0.519602291666667,0,0x8419,
0.519618166666667,0,0x0000,
0.519626083333333,0,0x8518,
0.519641958333333,0,0x8F3F,
0.519649875000000,0,0x8619,
0.519679791666667,0,0x0004,
0.519687458333333,0,0x031D,
0.519703875000000,0,0x0A01,
0.519711791666667,0,0x831D,
0.519727625000000,0,0x0F00,
0.519735583333333,0,0x841D,
0.519751416666667,0,0x0000,
0.519759333333333,0,0x8518,
0.519775208333333,0,0x8F3F,
0.519783125000000,0,0x861D,
0.519814000000000,0,0x0004,
0.519821708333333,0,0x0311,
0.519838125000000,0,0x0A01,
0.519846041666667,0,0x8311,
0.519861916666667,0,0x0F00,
0.519869833333333,0,0x8411,
0.519885666666667,0,0x0000,
0.519893625000000,0,0x8518,
0.519909500000000,0,0x8F3F,
0.519917416666667,0,0x8611,
0.519947916666667,0,0x0004,
0.519955583333333,0,0x0315,
0.519971875000000,0,0x0A01,
0.519979791666667,0,0x8315,
0.519995666666667,0,0x0F00,
0.520003625000000,0,0x8415,
0.520019458333333,0,0x0000,
0.520027375000000,0,0x8518,
0.520043250000000,0,0x873F,
0.520051166666667,0,0x8615,
0.520081208333333,0,0x0001,
0.520088875000000,0,0x1D19,
0.520105166666667,0,0x1551,
0.520113083333333,0,0x9D19,
0.520141041666667,0,0x0003,
0.520148708333333,0,0x241D,
0.520165083333333,0,0x0048,
0.520173000000000,0,0xA418,
0.520188875000000,0,0x0040,
0.520196791666667,0,0xA518,
0.520212666666667,0,0x0000,
0.520220541666667,0,0xA618,
0.520250291666667,0,0x0005,
0.520257958333333,0,0x2D11,
0.520274083333333,0,0x2942,
0.520282000000000,0,0xAD18,
0.520297833333333,0,0xFFFF,
0.520305750000000,0,0xAE18,
0.520321625000000,0,0x988D,
0.520329541666667,0,0xAF18,
0.520345375000000,0,0xFFFF,
0.520353291666667,0,0xB018,
0.520369166666667,0,0x830A,
0.520377083333333,0,0xB118,
0.520407208333333,0,0x0006,
0.520414875000000,0,0x3B15,
0.520431041666667,0,0xB3FB,
0.520438958333333,0,0xBB18,
0.520454833333333,0,0xB347,
0.520462750000000,0,0xBC18,
0.520478583333333,0,0xB2DA,
0.520486541666667,0,0xBD18,
0.520502375000000,0,0xB21C,
0.520510291666667,0,0xBE18,
0.520526166666667,0,0xB21D,
0.520534083333333,0,0xBF18,
0.520549958333333,0,0xB28F,
0.520557875000000,0,0xC018,
0.520589375000000,0,0x000A,
0.520597041666667,0,0x4119,
0.520613333333333,0,0xC0C1,
0.520621250000000,0,0xC118,
0.520637125000000,0,0xC0BD,
0.520645041666667,0,0xC218,
0.520660875000000,0,0xC0C2,
0.520668833333333,0,0xC318,
0.520684666666667,0,0xC0C3,
0.520692583333333,0,0xC418,
0.520708458333333,0,0xC0C2,
0.520716375000000,0,0xC518,
0.520732250000000,0,0xE06F,
0.520740125000000,0,0xC618,
0.520756000000000,0,0x8000,
0.520763916666667,0,0xC718,
0.520779791666667,0,0xA303,
0.520787708333333,0,0xC818,
0.520803541666667,0,0x9E33,
0.520811500000000,0,0xC918,
0.520827333333333,0,0x9E3F,
0.520835250000000,0,0xCA18,
0.520867166666667,0,0x0004,
0.520874833333333,0,0x032D,
0.520891166666667,0,0x0A01,
0.520899041666667,0,0x832D,
0.520914750000000,0,0x0F00,
0.520922625000000,0,0x842D,
0.520938333333333,0,0x0000,
0.520946208333333,0,0x8528,
0.520961916666667,0,0x873F,
0.520969791666667,0,0x862D,
0.520999833333333,0,0x0001,
0.521007500000000,0,0x1D21,
0.521023833333333,0,0x0055,
0.521031708333333,0,0x9D21,
0.521059500000000,0,0x0003,
0.521067208333333,0,0x2425,
0.521083291666667,0,0x004C,
0.521091166666667,0,0xA428,
0.521106875000000,0,0x0040,
0.521114750000000,0,0xA528,
0.521130458333333,0,0x0000,
0.521138333333333,0,0xA628,
0.521167000000000,0,0x0005,
0.521174666666667,0,0x2D29,
0.521190916666667,0,0x29AF,
0.521198791666667,0,0xAD28,
0.521214500000000,0,0xFFFF,
0.521222375000000,0,0xAE28,
0.521238083333333,0,0xDD96,
0.521245958333333,0,0xAF28,
0.521261666666667,0,0xFFFF,
0.521269541666667,0,0xB028,
0.521285291666667,0,0x830F,
0.521293125000000,0,0xB128,
0.521323583333333,0,0x0006,
0.521331291666667,0,0x3B2D,
0.521347666666667,0,0xE55B,
0.521355541666667,0,0xBB28,
0.521371291666667,0,0x8001,
0.521379125000000,0,0xBC28,
0.521394875000000,0,0x8000,
0.521402708333333,0,0xBD28,
0.521418458333333,0,0x8000,
0.521426291666667,0,0xBE28,
0.521442041666667,0,0xE5FA,
0.521449875000000,0,0xBF28,
0.521465625000000,0,0xE610,
0.521473500000000,0,0xC028,
0.521503583333333,0,0x000A,
0.521511250000000,0,0x4121,
0.521527541666667,0,0xDF13,
0.521535416666667,0,0xC128,
0.521551125000000,0,0xE019,
0.521558958333333,0,0xC228,
0.521574708333333,0,0xE016,
0.521582583333333,0,0xC328,
0.521598291666667,0,0xE150,
0.521606125000000,0,0xC428,
0.521621875000000,0,0xA995,
0.521629708333333,0,0xC528,
0.521645458333333,0,0xFF53,
0.521653291666667,0,0xC628,
0.521669041666667,0,0xC011,
0.521676916666667,0,0xC728,
0.521692625000000,0,0xA2DC,
0.521700458333333,0,0xC828,
0.521716208333333,0,0x9E3A,
0.521724083333333,0,0xC928,
0.521739791666667,0,0x9E40,
0.521747666666667,0,0xCA28,
0.529336083333333,0,0x9C3F,
0.529343791666667,0,0x0607,
0.529371083333333,0,0x0004,
0.529378750000000,0,0x0319,
0.529394916666667,0,0x0A01,
0.529402833333333,0,0x8319,
0.529418708333333,0,0x0F00,
0.529426583333333,0,0x8419,
0.529442458333333,0,0x0000,
0.529450375000000,0,0x8519,
0.529466250000000,0,0x9F3F,
0.529474208333333,0,0x8619,
0.529505458333333,0,0x0004,
0.529513125000000,0,0x031D,
0.529529166666667,0,0x0A01,
0.529537083333333,0,0x831D,
0.529552958333333,0,0x0F00,
0.529560875000000,0,0x841D,
0.529576708333333,0,0x0000,
0.529584666666667,0,0x8519,
0.529600500000000,0,0x9F3F,
0.529608458333333,0,0x861D,
0.529640250000000,0,0x0004,
0.529647916666667,0,0x0311,
0.529664416666667,0,0x0A01,
0.529672375000000,0,0x8311,
0.529688208333333,0,0x0F00,
0.529696166666667,0,0x8411,
0.529712000000000,0,0x0000,
0.529719958333333,0,0x8519,
0.529735791666667,0,0x9F3F,
0.529743708333333,0,0x8611,
0.529774541666667,0,0x0004,
0.529782208333333,0,0x0315,
0.529798208333333,0,0x0A01,
0.529806125000000,0,0x8315,
0.529821958333333,0,0x0F00,
0.529829875000000,0,0x8415,
0.529845750000000,0,0x0000,
0.529853625000000,0,0x8519,
0.529869500000000,0,0x9F3F,
0.529877416666667,0,0x8615,
0.529907916666667,0,0x0004,
0.529915625000000,0,0x0319,
0.529931875000000,0,0x0A01,
0.529939791666667,0,0x8319,
0.529955625000000,0,0x0F00,
0.529963583333333,0,0x8419,
0.529979416666667,0,0x0000,
0.529987333333333,0,0x8519,
0.530003208333333,0,0x973F,
0.530011125000000,0,0x8619,
0.530041791666667,0,0x0001,
0.530049458333333,0,0x1D1D,
0.530065541666667,0,0x1551,
0.530073500000000,0,0x9D1D,
0.530101125000000,0,0x0003,
0.530108791666667,0,0x2411,
0.530124958333333,0,0x0048,
0.530132916666667,0,0xA419,
0.530148750000000,0,0x0040,
0.530156666666667,0,0xA519,
0.530172500000000,0,0x0000,
0.530180416666667,0,0xA619,
0.530209291666667,0,0x0005,
0.530217000000000,0,0x2D15,
0.530233416666667,0,0x2A4A,
0.530241333333333,0,0xAD19,
0.530257166666667,0,0xFFFF,
0.530265083333333,0,0xAE19,
0.530280916666667,0,0x9690,
0.530288875000000,0,0xAF19,
0.530304708333333,0,0xFFFF,
0.530312625000000,0,0xB019,
0.530328458333333,0,0x8308,
0.530336375000000,0,0xB119,
0.530365958333333,0,0x0006,
0.530373666666667,0,0x3B19,
0.530389833333333,0,0xB3FB,
0.530397791666667,0,0xBB19,
0.530413625000000,0,0xB349,
0.530421541666667,0,0xBC19,
0.530437375000000,0,0xB2DC,
0.530445291666667,0,0xBD19,
0.530461166666667,0,0xB21E,
0.530469041666667,0,0xBE19,
0.530484916666667,0,0xB21E,
0.530492833333333,0,0xBF19,
0.530508666666667,0,0xB291,
0.530516583333333,0,0xC019,
0.530546666666667,0,0x000A,
0.530554375000000,0,0x411D,
0.530570541666667,0,0xC0C5,
0.530578458333333,0,0xC119,
0.530594333333333,0,0xC0C0,
0.530602250000000,0,0xC219,
0.530618083333333,0,0xC0C5,
0.530626041666667,0,0xC319,
0.530641833333333,0,0xC0C4,
0.530649791666667,0,0xC419,
0.530665625000000,0,0xC0C5,
0.530673541666667,0,0xC519,
0.530689416666667,0,0xE06E,
0.530697333333333,0,0xC619,
0.530713166666667,0,0x8001,
0.530721083333333,0,0xC719,
0.530736916666667,0,0xA2FF,
0.530744833333333,0,0xC819,
0.530760708333333,0,0x9E3B,
0.530768625000000,0,0xC919,
0.530784458333333,0,0x9E38,
0.530792375000000,0,0xCA19,
0.530824250000000,0,0x0004,
0.530831916666667,0,0x0321,
0.530848291666667,0,0x0A01,
0.530856166666667,0,0x8321,
0.530871916666667,0,0x0F00,
0.530879750000000,0,0x8421,
0.530895500000000,0,0x0000,
0.530903375000000,0,0x8529,
0.530919083333333,0,0x973F,
0.530926958333333,0,0x8621,
0.530957750000000,0,0x0001,
0.530965416666667,0,0x1D25,
0.530981500000000,0,0x0055,
0.530989375000000,0,0x9D25,
0.531017375000000,0,0x0003,
0.531025083333333,0,0x2429,
0.531041458333333,0,0x004C,
0.531049291666667,0,0xA429,
0.531065041666667,0,0x0040,
0.531072916666667,0,0xA529,
0.531088625000000,0,0x0000,
0.531096500000000,0,0xA629,
0.531125500000000,0,0x0005,
0.531133166666667,0,0x2D2D,
0.531149541666667,0,0x2ABA,
0.531157416666667,0,0xAD29,
0.531173166666667,0,0xFFFF,
0.531181000000000,0,0xAE29,
0.531196750000000,0,0xDCBF,
0.531204583333333,0,0xAF29,
0.531220333333333,0,0x8000,
0.531228166666667,0,0xB029,
0.531243916666667,0,0x8303,
0.531251750000000,0,0xB129,
0.531283375000000,0,0x0006,
0.531291041666667,0,0x3B21,
0.531307291666667,0,0xE55F,
0.531315166666667,0,0xBB29,
0.531330916666667,0,0x8000,
0.531338750000000,0,0xBC29,
0.531354458333333,0,0x8000,
0.531362333333333,0,0xBD29,
0.531378041666667,0,0x8000,
0.531385916666667,0,0xBE29,
0.531401625000000,0,0xE5FC,
0.531409500000000,0,0xBF29,
0.531425250000000,0,0xE614,
0.531433083333333,0,0xC029,
0.531463750000000,0,0x000A,
0.531471458333333,0,0x4125,
0.531487625000000,0,0xDF10,
0.531495500000000,0,0xC129,
0.531511208333333,0,0xE017,
0.531519083333333,0,0xC229,
0.531534791666667,0,0xE015,
0.531542666666667,0,0xC329,
0.531558375000000,0,0xE153,
0.531566250000000,0,0xC429,
0.531582000000000,0,0xA999,
0.531589875000000,0,0xC529,
0.531605583333333,0,0xFF50,
0.531613416666667,0,0xC629,
0.531629166666667,0,0xC011,
0.531637041666667,0,0xC729,
0.531652750000000,0,0xA2DF,
0.531660625000000,0,0xC829,
0.531676333333333,0,0x9E40,
0.531684208333333,0,0xC929,
0.531699916666667,0,0x9E41,
0.531707791666667,0,0xCA29,
0.539331416666667,0,0xAC3F,
0.539339083333333,0,0x060B,
0.539366166666667,0,0x0004,
0.539373875000000,0,0x031D,
0.539389875000000,0,0x0A01,
0.539397791666667,0,0x831D,
0.539413625000000,0,0x0F00,
0.539421541666667,0,0x841D,
0.539437416666667,0,0x0000,
0.539445333333333,0,0x851A,
0.539461208333333,0,0xAF3F,
0.539469125000000,0,0x861D,
0.539499916666667,0,0x0004,
0.539507625000000,0,0x0311,
0.539523583333333,0,0x0A01,
0.539531541666667,0,0x8311,
0.539547375000000,0,0x0F00,
0.539555291666667,0,0x8411,
0.539571125000000,0,0x0000,
0.539579041666667,0,0x851A,
0.539594916666667,0,0xAF3F,
0.539602833333333,0,0x8611,
0.539633583333333,0,0x0004,
0.539641291666667,0,0x0315,
0.539657291666667,0,0x0A01,
0.539665250000000,0,0x8315,
0.539681083333333,0,0x0F00,
0.539689041666667,0,0x8415,
0.539704875000000,0,0x0000,
0.539712791666667,0,0x851A,
0.539728625000000,0,0xAF3F,
0.539736583333333,0,0x8615,
0.539767125000000,0,0x0004,
0.539774791666667,0,0x0319,
0.539791041666667,0,0x0A01,
0.539798958333333,0,0x8319,
0.539814833333333,0,0x0F00,
0.539822750000000,0,0x8419,
0.539838583333333,0,0x0000,
0.539846500000000,0,0x851A,
0.539862375000000,0,0xAF3F,
0.539870291666667,0,0x8619,
0.539901375000000,0,0x0004,
0.539909041666667,0,0x031D,
0.539925208333333,0,0x0A01,
0.539933166666667,0,0x831D,
0.539949000000000,0,0x0F00,
0.539956916666667,0,0x841D,
0.539972750000000,0,0x0000,
0.539980666666667,0,0x851A,
0.539996500000000,0,0xA73F,
0.540004458333333,0,0x861D,
0.540035125000000,0,0x0001,
0.540042791666667,0,0x1D11,
0.540058916666667,0,0x1551,
0.540066833333333,0,0x9D11,
0.540094833333333,0,0x0003,
0.540102500000000,0,0x2415,
0.540118791666667,0,0x0048,
0.540126708333333,0,0xA41A,
0.540142583333333,0,0x0040,
0.540150500000000,0,0xA51A,
0.540166333333333,0,0x0000,
0.540174250000000,0,0xA61A,
0.540203708333333,0,0x0005,
0.540211375000000,0,0x2D19,
0.540227708333333,0,0x2B54,
0.540235666666667,0,0xAD1A,
0.540251500000000,0,0xFFFF,
0.540259416666667,0,0xAE1A,
0.540275250000000,0,0x944F,
0.540283166666667,0,0xAF1A,
0.540299000000000,0,0xFFFF,
0.540306958333333,0,0xB01A,
0.540322791666667,0,0x830E,
0.540330708333333,0,0xB11A,
0.540360583333333,0,0x0006,
0.540368291666667,0,0x3B1D,
0.540384666666667,0,0xB3F9,
0.540392625000000,0,0xBB1A,
0.540408458333333,0,0xB349,
0.540416375000000,0,0xBC1A,
0.540432208333333,0,0xB2D9,
0.540440166666667,0,0xBD1A,
0.540456000000000,0,0xB21C,
0.540463916666667,0,0xBE1A,
0.540479750000000,0,0xB220,
0.540487666666667,0,0xBF1A,
0.540503541666667,0,0xB292,
0.540511458333333,0,0xC01A,
0.540541833333333,0,0x000A,
0.540549500000000,0,0x4111,
0.540565916666667,0,0xC0C5,
0.540573833333333,0,0xC11A,
0.540589708333333,0,0xC0BF,
0.540597625000000,0,0xC21A,
0.540613458333333,0,0xC0C1,
0.540621375000000,0,0xC31A,
0.540637250000000,0,0xC0C2,
0.540645166666667,0,0xC41A,
0.540661000000000,0,0xC0C2,
0.540668958333333,0,0xC51A,
0.540684791666667,0,0xE06D,
0.540692708333333,0,0xC61A,
0.540708541666667,0,0x8000,
0.540716458333333,0,0xC71A,
0.540732291666667,0,0xA300,
0.540740208333333,0,0xC81A,
0.540756083333333,0,0x9E3A,
0.540764000000000,0,0xC91A,
0.540779833333333,0,0x9E3D,
0.540787750000000,0,0xCA1A,
0.540820416666667,0,0x0004,
0.540828083333333,0,0x0325,
0.540844166666667,0,0x0A01,
0.540852041666667,0,0x8325,
0.540867791666667,0,0x0F00,
0.540875625000000,0,0x8425,
0.540891375000000,0,0x0000,
0.540899250000000,0,0x852A,
0.540914958333333,0,0xA73F,
0.540922833333333,0,0x8625,
0.540954000000000,0,0x0001,
0.540961666666667,0,0x1D29,
0.540977875000000,0,0x0055,
0.540985708333333,0,0x9D29,
0.541013916666667,0,0x0003,
0.541021583333333,0,0x242D,
0.541037833333333,0,0x004C,
0.541045666666667,0,0xA42A,
0.541061375000000,0,0x0040,
0.541069250000000,0,0xA52A,
0.541084958333333,0,0x0000,
0.541092833333333,0,0xA62A,
0.541121583333333,0,0x0005,
0.541129250000000,0,0x2D21,
0.541145416666667,0,0x2BC6,
0.541153291666667,0,0xAD2A,
0.541169000000000,0,0xFFFF,
0.541176875000000,0,0xAE2A,
0.541192583333333,0,0xDC05,
0.541200458333333,0,0xAF2A,
0.541216166666667,0,0xFFFF,
0.541224041666667,0,0xB02A,
0.541239750000000,0,0x830B,
0.541247625000000,0,0xB12A,
0.541279208333333,0,0x0006,
0.541286916666667,0,0x3B25,
0.541303125000000,0,0xE55F,
0.541311000000000,0,0xBB2A,
0.541326708333333,0,0x8005,
0.541334583333333,0,0xBC2A,
0.541350333333333,0,0x8000,
0.541358166666667,0,0xBD2A,
0.541373916666667,0,0x8002,
0.541381791666667,0,0xBE2A,
0.541397541666667,0,0xE5FB,
0.541405375000000,0,0xBF2A,
0.541421125000000,0,0xE613,
0.541429000000000,0,0xC02A,
0.541459958333333,0,0x000A,
0.541467625000000,0,0x4129,
0.541484041666667,0,0xDF11,
0.541491875000000,0,0xC12A,
0.541507625000000,0,0xE019,
0.541515458333333,0,0xC22A,
0.541531166666667,0,0xE015,
0.541539041666667,0,0xC32A,
0.541554750000000,0,0xE155,
0.541562625000000,0,0xC42A,
0.541578375000000,0,0xA993,
0.541586208333333,0,0xC52A,
0.541601958333333,0,0xFF4F,
0.541609833333333,0,0xC62A,
0.541625541666667,0,0xC013,
0.541633416666667,0,0xC72A,
0.541649125000000,0,0xA2E0,
0.541657000000000,0,0xC82A,
0.541672708333333,0,0x9E3B,
0.541680583333333,0,0xC92A,
0.541696291666667,0,0x9E40,
0.541704166666667,0,0xCA2A,
0.549338000000000,0,0xBC3F,
0.549345666666667,0,0x060F,
0.549372958333333,0,0x0004,
0.549380625000000,0,0x0311,
0.549397000000000,0,0x0A01,
0.549404916666667,0,0x8311,
0.549420791666667,0,0x0F00,
0.549428708333333,0,0x8411,
0.549444583333333,0,0x0000,
0.549452500000000,0,0x851B,
0.549468333333333,0,0xBF3F,
0.549476291666667,0,0x8611,
0.549507916666667,0,0x0004,
0.549515625000000,0,0x0315,
0.549531791666667,0,0x0A01,
0.549539708333333,0,0x8315,
0.549555541666667,0,0x0F00,
0.549563500000000,0,0x8415,
0.549579333333333,0,0x0000,
0.549587250000000,0,0x851B,
0.549603125000000,0,0xBF3F,
0.549611041666667,0,0x8615,
0.549642625000000,0,0x0004,
0.549650291666667,0,0x0319,
0.549666541666667,0,0x0A01,
0.549674458333333,0,0x8319,
0.549690333333333,0,0x0F00,
0.549698250000000,0,0x8419,
0.549714125000000,0,0x0000,
0.549722041666667,0,0x851B,
0.549737916666667,0,0xBF3F,
0.549745833333333,0,0x8619,
0.549776416666667,0,0x0004,
0.549784125000000,0,0x031D,
0.549800333333333,0,0x0A01,
0.549808291666667,0,0x831D,
0.549824125000000,0,0x0F00,
0.549832041666667,0,0x841D,
0.549847916666667,0,0x0000,
0.549855833333333,0,0x851B,
0.549871666666667,0,0xBF3F,
0.549879625000000,0,0x861D,
0.549910125000000,0,0x0004,
0.549917791666667,0,0x0311,
0.549934083333333,0,0x0A01,
0.549942041666667,0,0x8311,
0.549957875000000,0,0x0F00,
0.549965791666667,0,0x8411,
0.549981625000000,0,0x0000,
0.549989541666667,0,0x851B,
0.550005416666667,0,0xB73F,
0.550013333333333,0,0x8611,
0.550044083333333,0,0x0001,
0.550051750000000,0,0x1D15,
0.550067833333333,0,0x1551,
0.550075750000000,0,0x9D15,
0.550104041666667,0,0x0003,
0.550111708333333,0,0x2419,
0.550127750000000,0,0x0048,
0.550135666666667,0,0xA41B,
0.550151541666667,0,0x0040,
0.550159458333333,0,0xA51B,
0.550175291666667,0,0x0000,
0.550183250000000,0,0xA61B,
0.550212000000000,0,0x0005,
0.550219708333333,0,0x2D1D,
0.550235750000000,0,0x2C5E,
0.550243666666667,0,0xAD1B,
0.550259541666667,0,0xFFFF,
0.550267458333333,0,0xAE1B,
0.550283291666667,0,0x924D,
0.550291250000000,0,0xAF1B,
0.550307083333333,0,0xFFFF,
0.550315000000000,0,0xB01B,
0.550330875000000,0,0x830C,
0.550338791666667,0,0xB11B,
0.550368625000000,0,0x0006,
0.550376291666667,0,0x3B11,
0.550392291666667,0,0xB3FB,
0.550400208333333,0,0xBB1B,
0.550416041666667,0,0xB34D,
0.550424000000000,0,0xBC1B,
0.550439833333333,0,0xB2DA,
0.550447750000000,0,0xBD1B,
0.550463625000000,0,0xB21B,
0.550471541666667,0,0xBE1B,
0.550487375000000,0,0xB221,
0.550495291666667,0,0xBF1B,
0.550511125000000,0,0xB291,
0.550519083333333,0,0xC01B,
0.550549083333333,0,0x000A,
0.550556791666667,0,0x4115,
0.550573083333333,0,0xC0C4,
0.550581000000000,0,0xC11B,
0.550596833333333,0,0xC0BE,
0.550604791666667,0,0xC21B,
0.550620625000000,0,0xC0C1,
0.550628541666667,0,0xC31B,
0.550644416666667,0,0xC0C1,
0.550652333333333,0,0xC41B,
0.550668166666667,0,0xC0C3,
0.550676083333333,0,0xC51B,
0.550691958333333,0,0xE067,
0.550699875000000,0,0xC61B,
0.550715708333333,0,0x8000,
0.550723666666667,0,0xC71B,
0.550739500000000,0,0xA300,
0.550747458333333,0,0xC81B,
0.550763291666667,0,0x9E38,
0.550771208333333,0,0xC91B,
0.550787083333333,0,0x9E3C,
0.550795000000000,0,0xCA1B,
0.550827708333333,0,0x0004,
0.550835416666667,0,0x0329,
0.550851666666667,0,0x0A01,
0.550859500000000,0,0x8329,
0.550875208333333,0,0x0F00,
0.550883083333333,0,0x8429,
0.550898833333333,0,0x0000,
0.550906666666667,0,0x852B,
0.550922416666667,0,0xB73F,
0.550930250000000,0,0x8629,
0.550961625000000,0,0x0001,
0.550969291666667,0,0x1D2D,
0.550985333333333,0,0x0055,
0.550993166666667,0,0x9D2D,
0.551021125000000,0,0x0003,
0.551028791666667,0,0x2421,
0.551045250000000,0,0x004C,
0.551053125000000,0,0xA42B,
0.551068833333333,0,0x0040,
0.551076708333333,0,0xA52B,
0.551092416666667,0,0x0000,
0.551100291666667,0,0xA62B,
0.551129041666667,0,0x0005,
0.551136750000000,0,0x2D25,
0.551152875000000,0,0x2CD2,
0.551160708333333,0,0xAD2B,
0.551176458333333,0,0xFFFF,
0.551184291666667,0,0xAE2B,
0.551200041666667,0,0xDB34,
0.551207875000000,0,0xAF2B,
0.551223625000000,0,0xFFFF,
0.551231458333333,0,0xB02B,
0.551247208333333,0,0x830D,
0.551255083333333,0,0xB12B,
0.551285708333333,0,0x0006,
0.551293375000000,0,0x3B29,
0.551309625000000,0,0xE55F,
0.551317458333333,0,0xBB2B,
0.551333208333333,0,0x8000,
0.551341083333333,0,0xBC2B,
0.551356791666667,0,0x8002,
0.551364666666667,0,0xBD2B,
0.551380375000000,0,0x8003,
0.551388250000000,0,0xBE2B,
0.551403958333333,0,0xE600,
0.551411833333333,0,0xBF2B,
0.551427541666667,0,0xE616,
0.551435416666667,0,0xC02B,
0.551465958333333,0,0x000A,
0.551473666666667,0,0x412D,
0.551489958333333,0,0xDF0E,
0.551497791666667,0,0xC12B,
0.551513541666667,0,0xE016,
0.551521416666667,0,0xC22B,
0.551537083333333,0,0xE014,
0.551544958333333,0,0xC32B,
0.551560666666667,0,0xE14D,
0.551568541666667,0,0xC42B,
0.551584250000000,0,0xA994,
0.551592166666667,0,0xC52B,
0.551607875000000,0,0xFF4D,
0.551615708333333,0,0xC62B,
0.551631416666667,0,0xC00D,
0.551639291666667,0,0xC72B,
0.551655000000000,0,0xA2E0,
0.551662875000000,0,0xC82B,
0.551678625000000,0,0x9E38,
0.551686458333333,0,0xC92B,
0.551702208333333,0,0x9E42,
0.551710041666667,0,0xCA2B,
0.559508375000000,0,0xCC3F,
0.559516041666667,0,0x0603,
0.559542750000000,0,0x0004,
0.559550416666667,0,0x0315,
0.559566666666667,0,0x0A01,
0.559574583333333,0,0x8315,
0.559590458333333,0,0x0F00,
0.559598416666667,0,0x8415,
0.559614250000000,0,0x0000,
0.559622166666667,0,0x851C,
0.559638041666667,0,0xCF3F,
0.559646000000000,0,0x8615,
0.559676583333333,0,0x0004,
0.559684250000000,0,0x0319,
0.559700500000000,0,0x0A01,
0.559708416666667,0,0x8319,
0.559724291666667,0,0x0F00,
0.559732208333333,0,0x8419,
0.559748041666667,0,0x0000,
0.559755958333333,0,0x851C,
0.559771833333333,0,0xCF3F,
0.559779750000000,0,0x8619,
0.559810083333333,0,0x0004,
0.559817791666667,0,0x031D,
0.559833750000000,0,0x0A01,
0.559841666666667,0,0x831D,
0.559857541666667,0,0x0F00,
0.559865458333333,0,0x841D,
0.559881333333333,0,0x0000,
0.559889250000000,0,0x851C,
0.559905083333333,0,0xCF3F,
0.559913041666667,0,0x861D,
0.559943625000000,0,0x0004,
0.559951291666667,0,0x0311,
0.559967541666667,0,0x0A01,
0.559975458333333,0,0x8311,
0.559991333333333,0,0x0F00,
0.559999250000000,0,0x8411,
0.560015083333333,0,0x0000,
0.560023041666667,0,0x851C,
0.560038875000000,0,0xCF3F,
0.560046833333333,0,0x8611,
0.560077500000000,0,0x0004,
0.560085166666667,0,0x0315,
0.560101291666667,0,0x0A01,
0.560109208333333,0,0x8315,
0.560125083333333,0,0x0F00,
0.560133000000000,0,0x8415,
0.560148833333333,0,0x0000,
0.560156750000000,0,0x851C,
0.560172583333333,0,0xC73F,
0.560180541666667,0,0x8615,
0.560211250000000,0,0x0001,
0.560218916666667,0,0x1D19,
0.560235000000000,0,0x1551,
0.560242916666667,0,0x9D19,
0.560271208333333,0,0x0003,
0.560278875000000,0,0x241D,
0.560294958333333,0,0x0048,
0.560302875000000,0,0xA41C,
0.560318708333333,0,0x0040,
0.560326666666667,0,0xA51C,
0.560342500000000,0,0x0000,
0.560350416666667,0,0xA61C,
0.560380125000000,0,0x0005,
0.560387833333333,0,0x2D11,
0.560403916666667,0,0x2D6C,
0.560411833333333,0,0xAD1C,
0.560427666666667,0,0xFFFF,
0.560435625000000,0,0xAE1C,
0.560451458333333,0,0x8F73,
0.560459375000000,0,0xAF1C,
0.560475250000000,0,0xFFFF,
0.560483166666667,0,0xB01C,
0.560499000000000,0,0x8309,
0.560506958333333,0,0xB11C,
0.560536750000000,0,0x0006,
0.560544458333333,0,0x3B15,
0.560560416666667,0,0xB3FA,
0.560568333333333,0,0xBB1C,
0.560584208333333,0,0xB34A,
0.560592125000000,0,0xBC1C,
0.560608000000000,0,0xB2DA,
0.560615916666667,0,0xBD1C,
0.560631750000000,0,0xB21D,
0.560639708333333,0,0xBE1C,
0.560655541666667,0,0xB21F,
0.560663458333333,0,0xBF1C,
0.560679291666667,0,0xB290,
0.560687250000000,0,0xC01C,
0.560717083333333,0,0x000A,
0.560724750000000,0,0x4119,
0.560740708333333,0,0xC0C4,
0.560748625000000,0,0xC11C,
0.560764458333333,0,0xC0C0,
0.560772416666667,0,0xC21C,
0.560788250000000,0,0xC0C6,
0.560796166666667,0,0xC31C,
0.560812041666667,0,0xC0C7,
0.560819958333333,0,0xC41C,
0.560835791666667,0,0xC0C4,
0.560843708333333,0,0xC51C,
0.560859583333333,0,0xE072,
0.560867500000000,0,0xC61C,
0.560883375000000,0,0x8000,
0.560891291666667,0,0xC71C,
0.560907125000000,0,0xA302,
0.560915041666667,0,0xC81C,
0.560930916666667,0,0x9E3B,
0.560938833333333,0,0xC91C,
0.560954708333333,0,0x9E3C,
0.560962625000000,0,0xCA1C,
0.560994791666667,0,0x0004,
0.561002458333333,0,0x032D,
0.561018458333333,0,0x0A01,
0.561026333333333,0,0x832D,
0.561042041666667,0,0x0F00,
0.561049916666667,0,0x842D,
0.561065625000000,0,0x0000,
0.561073500000000,0,0x852C,
0.561089208333333,0,0xC73F,
0.561097083333333,0,0x862D,
0.561127708333333,0,0x0001,
0.561135375000000,0,0x1D21,
0.561151625000000,0,0x0055,
0.561159458333333,0,0x9D21,
0.561188083333333,0,0x0003,
0.561195791666667,0,0x2425,
0.561212041666667,0,0x004C,
0.561219875000000,0,0xA42C,
0.561235625000000,0,0x0040,
0.561243458333333,0,0xA52C,
0.561259208333333,0,0x0000,
0.561267083333333,0,0xA62C,
0.561295750000000,0,0x0005,
0.561303416666667,0,0x2D29,
0.561319625000000,0,0x2DE2,
0.561327500000000,0,0xAD2C,
0.561343208333333,0,0xFFFF,
0.561351083333333,0,0xAE2C,
0.561366791666667,0,0xDAA9,
0.561374666666667,0,0xAF2C,
0.561390375000000,0,0xFFFF,
0.561398250000000,0,0xB02C,
0.561413958333333,0,0x830E,
0.561421833333333,0,0xB12C,
0.561451458333333,0,0x0006,
0.561459125000000,0,0x3B2D,
0.561475375000000,0,0xE559,
0.561483250000000,0,0xBB2C,
0.561498958333333,0,0x8000,
0.561506833333333,0,0xBC2C,
0.561522541666667,0,0x8000,
0.561530416666667,0,0xBD2C,
0.561546125000000,0,0x8000,
0.561554000000000,0,0xBE2C,
0.561569708333333,0,0xE5FA,
0.561577583333333,0,0xBF2C,
0.561593291666667,0,0xE60E,
0.561601166666667,0,0xC02C,
0.561630250000000,0,0x000A,
0.561637958333333,0,0x4121,
0.561654250000000,0,0xDF0B,
0.561662083333333,0,0xC12C,
0.561677833333333,0,0xE012,
0.561685666666667,0,0xC22C,
0.561701416666667,0,0xE019,
0.561709291666667,0,0xC32C,
0.561725000000000,0,0xE150,
0.561732875000000,0,0xC42C,
0.561748583333333,0,0xA994,
0.561756458333333,0,0xC52C,
0.561772166666667,0,0xFF50,
0.561780041666667,0,0xC62C,
0.561795750000000,0,0xC012,
0.561803625000000,0,0xC72C,
0.561819333333333,0,0xA2DF,
0.561827166666667,0,0xC82C,
0.561842916666667,0,0x9E36,
0.561850791666667,0,0xC92C,
0.561866500000000,0,0x9E3F,
0.561874375000000,0,0xCA2C,
0.569384583333333,0,0xDC3F,
0.569392250000000,0,0x0607,
0.569420916666667,0,0x0004,
0.569428625000000,0,0x0319,
0.569444708333333,0,0x0A01,
0.569452625000000,0,0x8319,
0.569468458333333,0,0x0F00,
0.569476416666667,0,0x8419,
0.569492250000000,0,0x0000,
0.569500166666667,0,0x851D,
0.569516041666667,0,0xDF3F,
0.569523958333333,0,0x8619,
0.569554666666667,0,0x0004,
0.569562333333333,0,0x031D,
0.569578458333333,0,0x0A01,
0.569586375000000,0,0x831D,
0.569602250000000,0,0x0F00,
0.569610166666667,0,0x841D,
0.569626041666667,0,0x0000,
0.569633916666667,0,0x851D,
0.569649791666667,0,0xDF3F,
0.569657708333333,0,0x861D,
0.569688583333333,0,0x0004,
0.569696250000000,0,0x0311,
0.569712708333333,0,0x0A01,
0.569720666666667,0,0x8311,
0.569736500000000,0,0x0F00,
0.569744416666667,0,0x8411,
0.569760250000000,0,0x0000,
0.569768208333333,0,0x851D,
0.569784041666667,0,0xDF3F,
0.569792000000000,0,0x8611,
0.569822000000000,0,0x0004,
0.569829666666667,0,0x0315,
0.569845958333333,0,0x0A01,
0.569853916666667,0,0x8315,
0.569869750000000,0,0x0F00,
0.569877666666667,0,0x8415,
0.569893541666667,0,0x0000,
0.569901458333333,0,0x851D,
0.569917333333333,0,0xDF3F,
0.569925250000000,0,0x8615,
0.569955583333333,0,0x0004,
0.569963291666667,0,0x0319,
0.569979250000000,0,0x0A01,
0.569987166666667,0,0x8319,
0.570003000000000,0,0x0F00,
0.570010916666667,0,0x8419,
0.570026791666667,0,0x0000,
0.570034708333333,0,0x851D,
0.570050541666667,0,0xD73F,
0.570058500000000,0,0x8619,
0.570089541666667,0,0x0001,
0.570097208333333,0,0x1D1D,
0.570113458333333,0,0x1551,
0.570121375000000,0,0x9D1D,
0.570149666666667,0,0x0003,
0.570157333333333,0,0x2411,
0.570173375000000,0,0x0048,
0.570181333333333,0,0xA41D,
0.570197166666667,0,0x0040,
0.570205125000000,0,0xA51D,
0.570220958333333,0,0x0000,
0.570228875000000,0,0xA61D,
0.570257583333333,0,0x0005,
0.570265291666667,0,0x2D15,
0.570281375000000,0,0x2E72,
0.570289291666667,0,0xAD1D,
0.570305166666667,0,0xFFFF,
0.570313083333333,0,0xAE1D,
0.570328958333333,0,0x8D1C,
0.570336875000000,0,0xAF1D,
0.570352708333333,0,0x8000,
0.570360625000000,0,0xB01D,
0.570376500000000,0,0x8303,
0.570384416666667,0,0xB11D,
0.570414416666667,0,0x0006,
0.570422125000000,0,0x3B19,
0.570438416666667,0,0xB3F7,
0.570446333333333,0,0xBB1D,
0.570462166666667,0,0xB349,
0.570470083333333,0,0xBC1D,
0.570485958333333,0,0xB2DB,
0.570493875000000,0,0xBD1D,
0.570509708333333,0,0xB21B,
0.570517666666667,0,0xBE1D,
0.570533500000000,0,0xB21E,
0.570541416666667,0,0xBF1D,
0.570557291666667,0,0xB28F,
0.570565208333333,0,0xC01D,
0.570594833333333,0,0x000A,
0.570602500000000,0,0x411D,
0.570618666666667,0,0xC0C4,
0.570626625000000,0,0xC11D,
0.570642458333333,0,0xC0BE,
0.570650416666667,0,0xC21D,
0.570666250000000,0,0xC0C5,
0.570674166666667,0,0xC31D,
0.570690000000000,0,0xC0C4,
0.570697916666667,0,0xC41D,
0.570713791666667,0,0xC0C5,
0.570721708333333,0,0xC51D,
0.570737541666667,0,0xE06D,
0.570745500000000,0,0xC61D,
0.570761333333333,0,0x8001,
0.570769250000000,0,0xC71D,
0.570785125000000,0,0xA303,
0.570793041666667,0,0xC81D,
0.570808875000000,0,0x9E3B,
0.570816791666667,0,0xC91D,
0.570832666666667,0,0x9E38,
0.570840583333333,0,0xCA1D,
0.570873000000000,0,0x0004,
0.570880708333333,0,0x0321,
0.570897041666667,0,0x0A01,
0.570904916666667,0,0x8321,
0.570920625000000,0,0x0F00,
0.570928500000000,0,0x8421,
0.570944250000000,0,0x0000,
0.570952083333333,0,0x852D,
0.570967791666667,0,0xD73F,
0.570975666666667,0,0x8621,
0.571006000000000,0,0x0001,
0.571013708333333,0,0x1D25,
0.571029708333333,0,0x0055,
0.571037583333333,0,0x9D25,
0.571065458333333,0,0x0003,
0.571073125000000,0,0x2429,
0.571089166666667,0,0x004C,
0.571097041666667,0,0xA42D,
0.571112750000000,0,0x0040,
0.571120625000000,0,0xA52D,
0.571136333333333,0,0x0000,
0.571144208333333,0,0xA62D,
0.571173000000000,0,0x0005,
0.571180708333333,0,0x2D2D,
0.571196791666667,0,0x2EEB,
0.571204666666667,0,0xAD2D,
0.571220375000000,0,0xFFFF,
0.571228250000000,0,0xAE2D,
0.571243958333333,0,0xD9B3,
0.571251833333333,0,0xAF2D,
0.571267541666667,0,0xFFFF,
0.571275416666667,0,0xB02D,
0.571291125000000,0,0x830F,
0.571299000000000,0,0xB12D,
0.571329083333333,0,0x0006,
0.571336750000000,0,0x3B21,
0.571353041666667,0,0xE55D,
0.571360875000000,0,0xBB2D,
0.571376625000000,0,0x8000,
0.571384500000000,0,0xBC2D,
0.571400208333333,0,0x8001,
0.571408041666667,0,0xBD2D,
0.571423791666667,0,0x8001,
0.571431625000000,0,0xBE2D,
0.571447375000000,0,0xE5FC,
0.571455208333333,0,0xBF2D,
0.571470958333333,0,0xE612,
0.571478791666667,0,0xC02D,
0.571508875000000,0,0x000A,
0.571516583333333,0,0x4125,
0.571532833333333,0,0xDF11,
0.571540708333333,0,0xC12D,
0.571556416666667,0,0xE016,
0.571564291666667,0,0xC22D,
0.571580000000000,0,0xE016,
0.571587875000000,0,0xC32D,
0.571603625000000,0,0xE152,
0.571611458333333,0,0xC42D,
0.571627166666667,0,0xA995,
0.571635041666667,0,0xC52D,
0.571650750000000,0,0xFF50,
0.571658625000000,0,0xC62D,
0.571674333333333,0,0xC014,
0.571682208333333,0,0xC72D,
0.571697916666667,0,0xA2E2,
0.571705791666667,0,0xC82D,
0.571721500000000,0,0x9E3B,
0.571729375000000,0,0xC92D,
0.571745083333333,0,0x9E41,
0.571752958333333,0,0xCA2D,
0.579328958333333,0,0xEC3F,
0.579336625000000,0,0x060B,
0.579364250000000,0,0x0004,
0.579371916666667,0,0x031D,
0.579388125000000,0,0x0A01,
0.579396041666667,0,0x831D,
0.579411916666667,0,0x0F00,
0.579419833333333,0,0x841D,
0.579435666666667,0,0x0000,
0.579443625000000,0,0x851E,
0.579459458333333,0,0xEF3F,
0.579467375000000,0,0x861D,
0.579499125000000,0,0x0004,
0.579506833333333,0,0x0311,
0.579522833333333,0,0x0A01,
0.579530791666667,0,0x8311,
0.579546625000000,0,0x0F00,
0.579554583333333,0,0x8411,
0.579570416666667,0,0x0000,
0.579578333333333,0,0x851E,
0.579594208333333,0,0xEF3F,
0.579602125000000,0,0x8611,
0.579633083333333,0,0x0004,
0.579640750000000,0,0x0315,
0.579657166666667,0,0x0A01,
0.579665083333333,0,0x8315,
0.579680916666667,0,0x0F00,
0.579688875000000,0,0x8415,
0.579704708333333,0,0x0000,
0.579712625000000,0,0x851E,
0.579728500000000,0,0xEF3F,
0.579736416666667,0,0x8615,
0.579766625000000,0,0x0004,
0.579774291666667,0,0x0319,
0.579790416666667,0,0x0A01,
0.579798333333333,0,0x8319,
0.579814208333333,0,0x0F00,
0.579822125000000,0,0x8419,
0.579838000000000,0,0x0000,
0.579845916666667,0,0x851E,
0.579861750000000,0,0xEF3F,
0.579869708333333,0,0x8619,
0.579901041666667,0,0x0004,
0.579908708333333,0,0x031D,
0.579925166666667,0,0x0A01,
0.579933125000000,0,0x831D,
0.579948958333333,0,0x0F00,
0.579956875000000,0,0x841D,
0.579972750000000,0,0x0000,
0.579980666666667,0,0x851E,
0.579996541666667,0,0xE73F,
0.580004458333333,0,0x861D,
0.580035125000000,0,0x0001,
0.580042833333333,0,0x1D11,
0.580058958333333,0,0x1551,
0.580066875000000,0,0x9D11,
0.580095291666667,0,0x0003,
0.580103000000000,0,0x2415,
0.580119416666667,0,0x0048,
0.580127333333333,0,0xA41E,
0.580143208333333,0,0x0040,
0.580151083333333,0,0xA51E,
0.580166958333333,0,0x0000,
0.580174875000000,0,0xA61E,
0.580203666666667,0,0x0005,
0.580211333333333,0,0x2D19,
0.580227375000000,0,0x2F7B,
0.580235333333333,0,0xAD1E,
0.580251166666667,0,0xFFFF,
0.580259083333333,0,0xAE1E,
0.580274916666667,0,0x8A70,
0.580282833333333,0,0xAF1E,
0.580298708333333,0,0xFFFF,
0.580306625000000,0,0xB01E,
0.580322458333333,0,0x830F,
0.580330375000000,0,0xB11E,
0.580360208333333,0,0x0006,
0.580367916666667,0,0x3B1D,
0.580384375000000,0,0xB3F7,
0.580392291666667,0,0xBB1E,
0.580408166666667,0,0xB348,
0.580416083333333,0,0xBC1E,
0.580431916666667,0,0xB2D9,
0.580439875000000,0,0xBD1E,
0.580455708333333,0,0xB217,
0.580463625000000,0,0xBE1E,
0.580479458333333,0,0xB21E,
0.580487416666667,0,0xBF1E,
0.580503250000000,0,0xB28F,
0.580511166666667,0,0xC01E,
0.580540833333333,0,0x000A,
0.580548541666667,0,0x4111,
0.580564666666667,0,0xC0C4,
0.580572583333333,0,0xC11E,
0.580588458333333,0,0xC0C1,
0.580596375000000,0,0xC21E,
0.580612208333333,0,0xC0C2,
0.580620125000000,0,0xC31E,
0.580636000000000,0,0xC0C2,
0.580643916666667,0,0xC41E,
0.580659750000000,0,0xC0C4,
0.580667666666667,0,0xC51E,
0.580683500000000,0,0xE06E,
0.580691458333333,0,0xC61E,
0.580707291666667,0,0x8001,
0.580715208333333,0,0xC71E,
0.580731041666667,0,0xA302,
0.580739000000000,0,0xC81E,
0.580754833333333,0,0x9E3C,
0.580762750000000,0,0xC91E,
0.580778583333333,0,0x9E3A,
0.580786541666667,0,0xCA1E,
0.580819750000000,0,0x0004,
0.580827416666667,0,0x0325,
0.580843666666667,0,0x0A01,
0.580851541666667,0,0x8325,
0.580867291666667,0,0x0F00,
0.580875125000000,0,0x8425,
0.580890875000000,0,0x0000,
0.580898708333333,0,0x852E,
0.580914416666667,0,0xE73F,
0.580922291666667,0,0x8625,
0.580953291666667,0,0x0001,
0.580961000000000,0,0x1D29,
0.580977333333333,0,0x0055,
0.580985166666667,0,0x9D29,
0.581013458333333,0,0x0003,
0.581021125000000,0,0x242D,
0.581037250000000,0,0x004C,
0.581045125000000,0,0xA42E,
0.581060833333333,0,0x0040,
0.581068708333333,0,0xA52E,
0.581084416666667,0,0x0000,
0.581092291666667,0,0xA62E,
0.581121416666667,0,0x0005,
0.581129083333333,0,0x2D21,
0.581145333333333,0,0x2FF5,
0.581153208333333,0,0xAD2E,
0.581168916666667,0,0xFFFF,
0.581176791666667,0,0xAE2E,
0.581192500000000,0,0xD97A,
0.581200375000000,0,0xAF2E,
0.581216083333333,0,0xFFFF,
0.581223958333333,0,0xB02E,
0.581239708333333,0,0x830F,
0.581247583333333,0,0xB12E,
0.581278458333333,0,0x0006,
0.581286125000000,0,0x3B25,
0.581302083333333,0,0xE563,
0.581309958333333,0,0xBB2E,
0.581325666666667,0,0x8000,
0.581333541666667,0,0xBC2E,
0.581349250000000,0,0x8000,
0.581357125000000,0,0xBD2E,
0.581372875000000,0,0x8000,
0.581380708333333,0,0xBE2E,
0.581396416666667,0,0xE5FE,
0.581404291666667,0,0xBF2E,
0.581420000000000,0,0xE614,
0.581427875000000,0,0xC02E,
0.581458291666667,0,0x000A,
0.581465958333333,0,0x4129,
0.581481916666667,0,0xDF08,
0.581489791666667,0,0xC12E,
0.581505500000000,0,0xE011,
0.581513333333333,0,0xC22E,
0.581529083333333,0,0xE015,
0.581536958333333,0,0xC32E,
0.581552666666667,0,0xE151,
0.581560541666667,0,0xC42E,
0.581576250000000,0,0xA98F,
0.581584125000000,0,0xC52E,
0.581599833333333,0,0xFF4E,
0.581607708333333,0,0xC62E,
0.581623416666667,0,0xC00E,
0.581631291666667,0,0xC72E,
0.581647041666667,0,0xA2E0,
0.581654875000000,0,0xC82E,
0.581670583333333,0,0x9E36,
0.581678458333333,0,0xC92E,
0.581694208333333,0,0x9E45,
0.581702041666667,0,0xCA2E,
0.589342208333333,0,0xFC3F,
0.589349875000000,0,0x060F,
0.589377208333333,0,0x0004,
0.589384875000000,0,0x0311,
0.589401291666667,0,0x0A01,
0.589409250000000,0,0x8311,
0.589425083333333,0,0x0F00,
0.589433000000000,0,0x8411,
0.589448875000000,0,0x0000,
0.589456833333333,0,0x851F,
0.589472666666667,0,0xFF3F,
0.589480583333333,0,0x8611,
0.589511458333333,0,0x0004,
0.589519125000000,0,0x0315,
0.589535125000000,0,0x0A01,
0.589543041666667,0,0x8315,
0.589558916666667,0,0x0F00,
0.589566833333333,0,0x8415,
0.589582666666667,0,0x0000,
0.589590625000000,0,0x851F,
0.589606458333333,0,0xFF3F,
0.589614416666667,0,0x8615,
0.589646041666667,0,0x0004,
0.589653750000000,0,0x0319,
0.589669916666667,0,0x0A01,
0.589677833333333,0,0x8319,
0.589693666666667,0,0x0F00,
0.589701625000000,0,0x8419,
0.589717500000000,0,0x0000,
0.589725416666667,0,0x851F,
0.589741291666667,0,0xFF3F,
0.589749208333333,0,0x8619,
0.589779666666667,0,0x0004,
0.589787333333333,0,0x031D,
0.589803708333333,0,0x0A01,
0.589811625000000,0,0x831D,
0.589827500000000,0,0x0F00,
0.589835416666667,0,0x841D,
0.589851291666667,0,0x0000,
0.589859208333333,0,0x851F,
0.589875083333333,0,0xFF3F,
0.589883000000000,0,0x861D,
0.589913666666667,0,0x0004,
0.589921333333333,0,0x0311,
0.589937458333333,0,0x0A01,
0.589945375000000,0,0x8311,
0.589961250000000,0,0x0F00,
0.589969166666667,0,0x8411,
0.589985041666667,0,0x0000,
0.589992958333333,0,0x851F,
0.590008791666667,0,0xF73F,
0.590016708333333,0,0x8611,
0.590047333333333,0,0x0001,
0.590055000000000,0,0x1D15,
0.590071208333333,0,0x1551,
0.590079125000000,0,0x9D15,
0.590107125000000,0,0x0003,
0.590114833333333,0,0x2419,
0.590131166666667,0,0x0048,
0.590139083333333,0,0xA41F,
0.590154916666667,0,0x0040,
0.590162833333333,0,0xA51F,
0.590178708333333,0,0x0000,
0.590186625000000,0,0xA61F,
0.590216416666667,0,0x0005,
0.590224083333333,0,0x2D1D,
0.590240125000000,0,0x3085,
0.590248041666667,0,0xAD1F,
0.590263916666667,0,0xFFFF,
0.590271833333333,0,0xAE1F,
0.590287708333333,0,0x880C,
0.590295625000000,0,0xAF1F,
0.590311458333333,0,0xFFFF,
0.590319416666667,0,0xB01F,
0.590335250000000,0,0x830B,
0.590343166666667,0,0xB11F,
0.590373416666667,0,0x0006,
0.590381083333333,0,0x3B11,
0.590397166666667,0,0xB3FB,
0.590405083333333,0,0xBB1F,
0.590420958333333,0,0xB349,
0.590428875000000,0,0xBC1F,
0.590444708333333,0,0xB2DD,
0.590452625000000,0,0xBD1F,
0.590468500000000,0,0xB21E,
0.590476416666667,0,0xBE1F,
0.590492250000000,0,0xB21D,
0.590500208333333,0,0xBF1F,
0.590516041666667,0,0xB291,
0.590523958333333,0,0xC01F,
0.590554041666667,0,0x000A,
0.590561750000000,0,0x4115,
0.590577916666667,0,0xC0C3,
0.590585875000000,0,0xC11F,
0.590601708333333,0,0xC0BE,
0.590609625000000,0,0xC21F,
0.590625500000000,0,0xC0C2,
0.590633416666667,0,0xC31F,
0.590649291666667,0,0xC0BF,
0.590657208333333,0,0xC41F,
0.590673083333333,0,0xC0C4,
0.590681000000000,0,0xC51F,
0.590696833333333,0,0xE06E,
0.590704750000000,0,0xC61F,
0.590720625000000,0,0x8000,
0.590728583333333,0,0xC71F,
0.590744416666667,0,0xA300,
0.590752333333333,0,0xC81F,
0.590768208333333,0,0x9E37,
0.590776125000000,0,0xC91F,
0.590791958333333,0,0x9E3E,
0.590799875000000,0,0xCA1F,
0.590831833333333,0,0x0004,
0.590839500000000,0,0x0329,
0.590855958333333,0,0x0A01,
0.590863833333333,0,0x8329,
0.590879541666667,0,0x0F00,
0.590887416666667,0,0x8429,
0.590903125000000,0,0x0000,
0.590911000000000,0,0x852F,
0.590926750000000,0,0xF73F,
0.590934583333333,0,0x8629,
0.590965166666667,0,0x0001,
0.590972833333333,0,0x1D2D,
0.590989125000000,0,0x0055,
0.590997000000000,0,0x9D2D,
0.591024791666667,0,0x0003,
0.591032458333333,0,0x2421,
0.591048583333333,0,0x004C,
0.591056458333333,0,0xA42F,
0.591072208333333,0,0x0040,
0.591080041666667,0,0xA52F,
0.591095750000000,0,0x0000,
0.591103625000000,0,0xA62F,
0.591132208333333,0,0x0005,
0.591139875000000,0,0x2D25,
0.591156208333333,0,0x3101,
0.591164083333333,0,0xAD2F,
0.591179791666667,0,0xFFFF,
0.591187666666667,0,0xAE2F,
0.591203375000000,0,0xD87A,
0.591211250000000,0,0xAF2F,
0.591226958333333,0,0x8000,
0.591234833333333,0,0xB02F,
0.591250541666667,0,0x8302,
0.591258416666667,0,0xB12F,
0.591289666666667,0,0x0006,
0.591297333333333,0,0x3B29,
0.591313458333333,0,0xE55D,
0.591321291666667,0,0xBB2F,
0.591337041666667,0,0x8000,
0.591344916666667,0,0xBC2F,
0.591360625000000,0,0x8000,
0.591368500000000,0,0xBD2F,
0.591384208333333,0,0x8000,
0.591392083333333,0,0xBE2F,
0.591407791666667,0,0xE5FD,
0.591415666666667,0,0xBF2F,
0.591431375000000,0,0xE612,
0.591439250000000,0,0xC02F,
0.591470375000000,0,0x000A,
0.591478041666667,0,0x412D,
0.591494291666667,0,0xDF0B,
0.591502166666667,0,0xC12F,
0.591517875000000,0,0xE019,
0.591525750000000,0,0xC22F,
0.591541458333333,0,0xE017,
0.591549333333333,0,0xC32F,
0.591565041666667,0,0xE152,
0.591572916666667,0,0xC42F,
0.591588625000000,0,0xA996,
0.591596500000000,0,0xC52F,
0.591612208333333,0,0xFF51,
0.591620083333333,0,0xC62F,
0.591635791666667,0,0xC015,
0.591643666666667,0,0xC72F,
0.591659416666667,0,0xA2DE,
0.591667250000000,0,0xC82F,
0.591682958333333,0,0x9E3E,
0.591690833333333,0,0xC92F,
0.591706541666667,0,0x9E3F,
0.591714416666667,0,0xCA2F,
0.599356375000000,0,0x0C3F,
0.599364041666667,0,0x0603,
0.599391375000000,0,0x0004,
0.599399083333333,0,0x0315,
0.599415125000000,0,0x0A01,
0.599423041666667,0,0x8315,
0.599438875000000,0,0x0F00,
0.599446791666667,0,0x8415,
0.599462666666667,0,0x0000,
0.599470583333333,0,0x8510,
0.599486458333333,0,0x0F3F,
0.599494375000000,0,0x8615,
0.599524958333333,0,0x0004,
0.599532625000000,0,0x0319,
0.599548875000000,0,0x0A01,
0.599556791666667,0,0x8319,
0.599572666666667,0,0x0F00,
0.599580583333333,0,0x8419,
0.599596458333333,0,0x0000,
0.599604375000000,0,0x8510,
0.599620208333333,0,0x0F3F,
0.599628166666667,0,0x8619,
0.599659250000000,0,0x0004,
0.599666958333333,0,0x031D,
0.599683166666667,0,0x0A01,
0.599691125000000,0,0x831D,
0.599706958333333,0,0x0F00,
0.599714916666667,0,0x841D,
0.599730750000000,0,0x0000,
0.599738708333333,0,0x8510,
0.599754541666667,0,0x0F3F,
0.599762458333333,0,0x861D,
0.599793416666667,0,0x0004,
0.599801083333333,0,0x0311,
0.599817458333333,0,0x0A01,
0.599825416666667,0,0x8311,
0.599841250000000,0,0x0F00,
0.599849166666667,0,0x8411,
0.599865041666667,0,0x0000,
0.599872958333333,0,0x8510,
0.599888833333333,0,0x0F3F,
0.599896750000000,0,0x8611,
0.599927625000000,0,0x0004,
0.599935291666667,0,0x0315,
0.599951750000000,0,0x0A01,
0.599959666666667,0,0x8315,
0.599975541666667,0,0x0F00,
0.599983458333333,0,0x8415,
0.599999333333333,0,0x0000,
0.600007291666667,0,0x8510,
0.600023125000000,0,0x073F,
0.600031041666667,0,0x8615,
0.600061916666667,0,0x0001,
0.600069625000000,0,0x1D19,
0.600086041666667,0,0x1551,
0.600093958333333,0,0x9D19,
0.600121875000000,0,0x0003,
0.600129541666667,0,0x241D,
0.600146000000000,0,0x0048,
0.600153916666667,0,0xA410,
0.600169791666667,0,0x0040,
0.600177708333333,0,0xA510,
0.600193541666667,0,0x0000,
0.600201500000000,0,0xA610,
0.600230541666667,0,0x0005,
0.600238250000000,0,0x2D11,
0.600254500000000,0,0x318F,
0.600262416666667,0,0xAD10,
0.600278250000000,0,0xFFFF,
0.600286208333333,0,0xAE10,
0.600302041666667,0,0x858A,
0.600310000000000,0,0xAF10,
0.600325833333333,0,0xFFFF,
0.600333750000000,0,0xB010,
0.600349625000000,0,0x830E,
0.600357583333333,0,0xB110,
0.600387708333333,0,0x0006,
0.600395375000000,0,0x3B15,
0.600411583333333,0,0xB3FE,
0.600419500000000,0,0xBB10,
0.600435375000000,0,0xB34D,
0.600443291666667,0,0xBC10,
0.600459166666667,0,0xB2D3,
0.600467083333333,0,0xBD10,
0.600482916666667,0,0xB217,
0.600490875000000,0,0xBE10,
0.600506708333333,0,0xB21E,
0.600514666666667,0,0xBF10,
0.600530500000000,0,0xB291,
0.600538416666667,0,0xC010,
0.600568583333333,0,0x000A,
0.600576250000000,0,0x4119,
0.600592458333333,0,0xC0C5,
0.600600375000000,0,0xC110,
0.600616208333333,0,0xC0C3,
0.600624125000000,0,0xC210,
0.600640000000000,0,0xC0C5,
0.600647916666667,0,0xC310,
0.600663791666667,0,0xC0C6,
0.600671708333333,0,0xC410,
0.600687541666667,0,0xC0C7,
0.600695458333333,0,0xC510,
0.600711333333333,0,0xE06D,
0.600719250000000,0,0xC610,
0.600735125000000,0,0x8001,
0.600743041666667,0,0xC710,
0.600758875000000,0,0xA303,
0.600766833333333,0,0xC810,
0.600782666666667,0,0x9E3C,
0.600790625000000,0,0xC910,
0.600806458333333,0,0x9E3B,
0.600814375000000,0,0xCA10,
0.600847166666667,0,0x0004,
0.600854833333333,0,0x032D,
0.600871083333333,0,0x0A01,
0.600878916666667,0,0x832D,
0.600894666666667,0,0x0F00,
0.600902500000000,0,0x842D,
0.600918250000000,0,0x0000,
0.600926083333333,0,0x8520,
0.600941833333333,0,0x073F,
0.600949708333333,0,0x862D,
0.600980625000000,0,0x0001,
0.600988333333333,0,0x1D21,
0.601004708333333,0,0x0055,
0.601012583333333,0,0x9D21,
0.601039833333333,0,0x0003,
0.601047541666667,0,0x2425,
0.601063666666667,0,0x004C,
0.601071541666667,0,0xA420,
0.601087250000000,0,0x0040,
0.601095125000000,0,0xA520,
0.601110875000000,0,0x0000,
0.601118708333333,0,0xA620,
0.601147291666667,0,0x0005,
0.601155000000000,0,0x2D29,
0.601171291666667,0,0x320D,
0.601179166666667,0,0xAD20,
0.601194875000000,0,0xFFFF,
0.601202750000000,0,0xAE20,
0.601218458333333,0,0xD806,
0.601226333333333,0,0xAF20,
0.601242041666667,0,0x8000,
0.601249916666667,0,0xB020,
0.601265625000000,0,0x830A,
0.601273500000000,0,0xB120,
0.601302625000000,0,0x0006,
0.601310291666667,0,0x3B2D,
0.601326583333333,0,0xE55D,
0.601334416666667,0,0xBB20,
0.601350125000000,0,0x8000,
0.601358000000000,0,0xBC20,
0.601373708333333,0,0x8001,
0.601381583333333,0,0xBD20,
0.601397291666667,0,0x8003,
0.601405166666667,0,0xBE20,
0.601420875000000,0,0xE5FD,
0.601428750000000,0,0xBF20,
0.601444458333333,0,0xE611,
0.601452333333333,0,0xC020,
0.601482250000000,0,0x000A,
0.601489916666667,0,0x4121,
0.601505916666667,0,0xDF11,
0.601513750000000,0,0xC120,
0.601529500000000,0,0xE01B,
0.601537333333333,0,0xC220,
0.601553083333333,0,0xE01B,
0.601560958333333,0,0xC320,
0.601576666666667,0,0xE157,
0.601584500000000,0,0xC420,
0.601600250000000,0,0xA997,
0.601608083333333,0,0xC520,
0.601623833333333,0,0xFF56,
0.601631666666667,0,0xC620,
0.601647375000000,0,0xC015,
0.601655250000000,0,0xC720,
0.601671000000000,0,0xA2E1,
0.601678833333333,0,0xC820,
0.601694541666667,0,0x9E3C,
0.601702416666667,0,0xC920,
0.601718125000000,0,0x9E3F,
0.601726000000000,0,0xCA20,
0.609343625000000,0,0x1C3F,
0.609351333333333,0,0x0607,
0.609379000000000,0,0x0004,
0.609386708333333,0,0x0319,
0.609402708333333,0,0x0A01,
0.609410625000000,0,0x8319,
0.609426500000000,0,0x0F00,
0.609434416666667,0,0x8419,
0.609450250000000,0,0x0000,
0.609458166666667,0,0x8511,
0.609474041666667,0,0x1F3F,
0.609481958333333,0,0x8619,
0.609512625000000,0,0x0004,
0.609520291666667,0,0x031D,
0.609536458333333,0,0x0A01,
0.609544375000000,0,0x831D,
0.609560250000000,0,0x0F00,
0.609568166666667,0,0x841D,
0.609584041666667,0,0x0000,
0.609591958333333,0,0x8511,
0.609607833333333,0,0x1F3F,
0.609615750000000,0,0x861D,
0.609646833333333,0,0x0004,
0.609654541666667,0,0x0311,
0.609670750000000,0,0x0A01,
0.609678666666667,0,0x8311,
0.609694541666667,0,0x0F00,
0.609702458333333,0,0x8411,
0.609718291666667,0,0x0000,
0.609726250000000,0,0x8511,
0.609742083333333,0,0x1F3F,
0.609750041666667,0,0x8611,
0.609780875000000,0,0x0004,
0.609788541666667,0,0x0315,
0.609805000000000,0,0x0A01,
0.609812958333333,0,0x8315,
0.609828833333333,0,0x0F00,
0.609836750000000,0,0x8415,
0.609852583333333,0,0x0000,
0.609860541666667,0,0x8511,
0.609876375000000,0,0x1F3F,
0.609884291666667,0,0x8615,
0.609915750000000,0,0x0004,
0.609923416666667,0,0x0319,
0.609939791666667,0,0x0A01,
0.609947708333333,0,0x8319,
0.609963583333333,0,0x0F00,
0.609971500000000,0,0x8419,
0.609987333333333,0,0x0000,
0.609995291666667,0,0x8511,
0.610011125000000,0,0x173F,
0.610019041666667,0,0x8619,
0.610049208333333,0,0x0001,
0.610056916666667,0,0x1D1D,
0.610073041666667,0,0x1551,
0.610080958333333,0,0x9D1D,
0.610109125000000,0,0x0003,
0.610116791666667,0,0x2411,
0.610132958333333,0,0x0048,
0.610140875000000,0,0xA411,
0.610156750000000,0,0x0040,
0.610164666666667,0,0xA511,
0.610180541666667,0,0x0000,
0.610188458333333,0,0xA611,
0.610217666666667,0,0x0005,
0.610225375000000,0,0x2D15,
0.610241458333333,0,0x3298,
0.610249375000000,0,0xAD11,
0.610265208333333,0,0xFFFF,
0.610273166666667,0,0xAE11,
0.610289000000000,0,0x8323,
0.610296916666667,0,0xAF11,
0.610312791666667,0,0xFFFF,
0.610320708333333,0,0xB011,
0.610336583333333,0,0x830C,
0.610344500000000,0,0xB111,
0.610375250000000,0,0x0006,
0.610382916666667,0,0x3B19,
0.610398958333333,0,0xB3FA,
0.610406916666667,0,0xBB11,
0.610422750000000,0,0xB34A,
0.610430666666667,0,0xBC11,
0.610446541666667,0,0xB2D9,
0.610454458333333,0,0xBD11,
0.610470333333333,0,0xB21B,
0.610478250000000,0,0xBE11,
0.610494083333333,0,0xB21D,
0.610502000000000,0,0xBF11,
0.610517833333333,0,0xB295,
0.610525791666667,0,0xC011,
0.610556166666667,0,0x000A,
0.610563833333333,0,0x411D,
0.610580250000000,0,0xC0C1,
0.610588166666667,0,0xC111,
0.610604000000000,0,0xC0BD,
0.610611916666667,0,0xC211,
0.610627750000000,0,0xC0BC,
0.610635666666667,0,0xC311,
0.610651541666667,0,0xC0C2,
0.610659458333333,0,0xC411,
0.610675291666667,0,0xC0C0,
0.610683208333333,0,0xC511,
0.610699083333333,0,0xE06E,
0.610707000000000,0,0xC611,
0.610722833333333,0,0x8000,
0.610730791666667,0,0xC711,
0.610746625000000,0,0xA302,
0.610754541666667,0,0xC811,
0.610770416666667,0,0x9E32,
0.610778333333333,0,0xC911,
0.610794166666667,0,0x9E39,
0.610802083333333,0,0xCA11,
0.610834750000000,0,0x0004,
0.610842416666667,0,0x0321,
0.610858750000000,0,0x0A01,
0.610866625000000,0,0x8321,
0.610882333333333,0,0x0F00,
0.610890208333333,0,0x8421,
0.610905916666667,0,0x0000,
0.610913791666667,0,0x8521,
0.610929541666667,0,0x173F,
0.610937375000000,0,0x8621,
0.610967833333333,0,0x0001,
0.610975500000000,0,0x1D25,
0.610991916666667,0,0x0055,
0.610999791666667,0,0x9D25,
0.611027416666667,0,0x0003,
0.611035083333333,0,0x2429,
0.611051375000000,0,0x004C,
0.611059208333333,0,0xA421,
0.611074958333333,0,0x0040,
0.611082833333333,0,0xA521,
0.611098541666667,0,0x0000,
0.611106416666667,0,0xA621,
0.611134708333333,0,0x0005,
0.611142416666667,0,0x2D2D,
0.611158500000000,0,0x3319,
0.611166375000000,0,0xAD21,
0.611182083333333,0,0xFFFF,
0.611189958333333,0,0xAE21,
0.611205666666667,0,0xD72E,
0.611213541666667,0,0xAF21,
0.611229291666667,0,0x8000,
0.611237125000000,0,0xB021,
0.611252875000000,0,0x8305,
0.611260708333333,0,0xB121,
0.611292250000000,0,0x0006,
0.611299916666667,0,0x3B21,
0.611316250000000,0,0xE55F,
0.611324083333333,0,0xBB21,
0.611339833333333,0,0x8000,
0.611347666666667,0,0xBC21,
0.611363416666667,0,0x8000,
0.611371250000000,0,0xBD21,
0.611387000000000,0,0x8000,
0.611394833333333,0,0xBE21,
0.611410583333333,0,0xE5FC,
0.611418416666667,0,0xBF21,
0.611434125000000,0,0xE615,
0.611442000000000,0,0xC021,
0.611472416666667,0,0x000A,
0.611480125000000,0,0x4125,
0.611496541666667,0,0xDF0E,
0.611504416666667,0,0xC121,
0.611520125000000,0,0xE014,
0.611528000000000,0,0xC221,
0.611543708333333,0,0xE01E,
0.611551583333333,0,0xC321,
0.611567291666667,0,0xE157,
0.611575125000000,0,0xC421,
0.611590875000000,0,0xA995,
0.611598750000000,0,0xC521,
0.611614458333333,0,0xFF52,
0.611622333333333,0,0xC621,
0.611638041666667,0,0xC016,
0.611645916666667,0,0xC721,
0.611661625000000,0,0xA2E1,
0.611669500000000,0,0xC821,
0.611685208333333,0,0x9E3A,
0.611693083333333,0,0xC921,
0.611708791666667,0,0x9E3F,
0.611716666666667,0,0xCA21,
0.619352083333333,0,0x2C3F,
0.619359791666667,0,0x060B,
0.619387083333333,0,0x0004,
0.619394750000000,0,0x031D,
0.619410958333333,0,0x0A01,
0.619418916666667,0,0x831D,
0.619434750000000,0,0x0F00,
0.619442708333333,0,0x841D,
0.619458541666667,0,0x0000,
0.619466458333333,0,0x8512,
0.619482333333333,0,0x2F3F,
0.619490250000000,0,0x861D,
0.619521083333333,0,0x0004,
0.619528750000000,0,0x0311,
0.619545208333333,0,0x0A01,
0.619553125000000,0,0x8311,
0.619569000000000,0,0x0F00,
0.619576916666667,0,0x8411,
0.619592791666667,0,0x0000,
0.619600708333333,0,0x8512,
0.619616583333333,0,0x2F3F,
0.619624500000000,0,0x8611,
0.619655708333333,0,0x0004,
0.619663375000000,0,0x0315,
0.619679500000000,0,0x0A01,
0.619687458333333,0,0x8315,
0.619703291666667,0,0x0F00,
0.619711208333333,0,0x8415,
0.619727041666667,0,0x0000,
0.619735000000000,0,0x8512,
0.619750833333333,0,0x2F3F,
0.619758750000000,0,0x8615,
0.619789416666667,0,0x0004,
0.619797083333333,0,0x0319,
0.619813250000000,0,0x0A01,
0.619821166666667,0,0x8319,
0.619837041666667,0,0x0F00,
0.619844958333333,0,0x8419,
0.619860833333333,0,0x0000,
0.619868750000000,0,0x8512,
0.619884625000000,0,0x2F3F,
0.619892541666667,0,0x8619,
0.619924000000000,0,0x0004,
0.619931708333333,0,0x031D,
0.619948000000000,0,0x0A01,
0.619955916666667,0,0x831D,
0.619971791666667,0,0x0F00,
0.619979708333333,0,0x841D,
0.619995541666667,0,0x0000,
0.620003500000000,0,0x8512,
0.620019333333333,0,0x273F,
0.620027291666667,0,0x861D,
0.620058583333333,0,0x0001,
0.620066291666667,0,0x1D11,
0.620082708333333,0,0x1551,
0.620090666666667,0,0x9D11,
0.620118916666667,0,0x0003,
0.620126583333333,0,0x2415,
0.620142666666667,0,0x0048,
0.620150583333333,0,0xA412,
0.620166416666667,0,0x0040,
0.620174375000000,0,0xA512,
0.620190208333333,0,0x0000,
0.620198125000000,0,0xA612,
0.620227083333333,0,0x0005,
0.620234750000000,0,0x2D19,
0.620251125000000,0,0x33A2,
0.620259041666667,0,0xAD12,
0.620274875000000,0,0xFFFF,
0.620282833333333,0,0xAE12,
0.620298666666667,0,0x805C,
0.620306583333333,0,0xAF12,
0.620322458333333,0,0xFFFF,
0.620330375000000,0,0xB012,
0.620346250000000,0,0x830E,
0.620354166666667,0,0xB112,
0.620384916666667,0,0x0006,
0.620392583333333,0,0x3B1D,
0.620408666666667,0,0xB3F6,
0.620416583333333,0,0xBB12,
0.620432458333333,0,0xB347,
0.620440375000000,0,0xBC12,
0.620456208333333,0,0xB2DB,
0.620464166666667,0,0xBD12,
0.620480000000000,0,0xB21C,
0.620487916666667,0,0xBE12,
0.620503750000000,0,0xB21E,
0.620511708333333,0,0xBF12,
0.620527541666667,0,0xB293,
0.620535458333333,0,0xC012,
0.620564708333333,0,0x000A,
0.620572375000000,0,0x4111,
0.620588458333333,0,0xC0C2,
0.620596375000000,0,0xC112,
0.620612250000000,0,0xC0BE,
0.620620166666667,0,0xC212,
0.620636041666667,0,0xC0BD,
0.620643958333333,0,0xC312,
0.620659791666667,0,0xC0C2,
0.620667708333333,0,0xC412,
0.620683541666667,0,0xC0C6,
0.620691500000000,0,0xC512,
0.620707333333333,0,0xE06D,
0.620715291666667,0,0xC612,
0.620731125000000,0,0x8000,
0.620739041666667,0,0xC712,
0.620754916666667,0,0xA302,
0.620762833333333,0,0xC812,
0.620778708333333,0,0x9E37,
0.620786625000000,0,0xC912,
0.620802458333333,0,0x9E41,
0.620810375000000,0,0xCA12,
0.620843875000000,0,0x0004,
0.620851541666667,0,0x0325,
0.620867833333333,0,0x0A01,
0.620875708333333,0,0x8325,
0.620891458333333,0,0x0F00,
0.620899291666667,0,0x8425,
0.620915000000000,0,0x0000,
0.620922875000000,0,0x8522,
0.620938625000000,0,0x273F,
0.620946458333333,0,0x8625,
0.620976916666667,0,0x0001,
0.620984625000000,0,0x1D29,
0.621001000000000,0,0x0055,
0.621008875000000,0,0x9D29,
0.621036250000000,0,0x0003,
0.621043916666667,0,0x242D,
0.621059958333333,0,0x004C,
0.621067833333333,0,0xA422,
0.621083541666667,0,0x0040,
0.621091416666667,0,0xA522,
0.621107125000000,0,0x0000,
0.621115000000000,0,0xA622,
0.621144125000000,0,0x0005,
0.621151791666667,0,0x2D21,
0.621168083333333,0,0x3425,
0.621175958333333,0,0xAD22,
0.621191666666667,0,0xFFFF,
0.621199541666667,0,0xAE22,
0.621215250000000,0,0xD68A,
0.621223125000000,0,0xAF22,
0.621238833333333,0,0xFFFF,
0.621246708333333,0,0xB022,
0.621262416666667,0,0x8309,
0.621270291666667,0,0xB122,
0.621301291666667,0,0x0006,
0.621308958333333,0,0x3B25,
0.621325333333333,0,0xE55F,
0.621333208333333,0,0xBB22,
0.621348916666667,0,0x8000,
0.621356791666667,0,0xBC22,
0.621372500000000,0,0x8000,
0.621380375000000,0,0xBD22,
0.621396083333333,0,0x8000,
0.621403958333333,0,0xBE22,
0.621419708333333,0,0xE5FE,
0.621427541666667,0,0xBF22,
0.621443291666667,0,0xE615,
0.621451125000000,0,0xC022,
0.621481458333333,0,0x000A,
0.621489166666667,0,0x4129,
0.621505250000000,0,0xDF0E,
0.621513083333333,0,0xC122,
0.621528833333333,0,0xE014,
0.621536666666667,0,0xC222,
0.621552416666667,0,0xE01B,
0.621560250000000,0,0xC322,
0.621576000000000,0,0xE150,
0.621583875000000,0,0xC422,
0.621599583333333,0,0xA993,
0.621607458333333,0,0xC522,
0.621623166666667,0,0xFF52,
0.621631041666667,0,0xC622,
0.621646750000000,0,0xC015,
0.621654625000000,0,0xC722,
0.621670375000000,0,0xA2E0,
0.621678208333333,0,0xC822,
0.621693958333333,0,0x9E39,
0.621701833333333,0,0xC922,
0.621717541666667,0,0x9E41,
0.621725416666667,0,0xCA22,
0.629358916666667,0,0x3C3F,
0.629366583333333,0,0x060F,
0.629393833333333,0,0x0004,
0.629401500000000,0,0x0311,
0.629417708333333,0,0x0A01,
0.629425625000000,0,0x8311,
0.629441458333333,0,0x0F00,
0.629449416666667,0,0x8411,
0.629465250000000,0,0x0000,
0.629473208333333,0,0x8513,
0.629489041666667,0,0x3F3F,
0.629497000000000,0,0x8611,
0.629528041666667,0,0x0004,
0.629535750000000,0,0x0315,
0.629552000000000,0,0x0A01,
0.629559875000000,0,0x8315,
0.629575750000000,0,0x0F00,
0.629583666666667,0,0x8415,
0.629599541666667,0,0x0000,
0.629607458333333,0,0x8513,
0.629623333333333,0,0x3F3F,
0.629631250000000,0,0x8615,
0.629662750000000,0,0x0004,
0.629670416666667,0,0x0319,
0.629686750000000,0,0x0A01,
0.629694708333333,0,0x8319,
0.629710541666667,0,0x0F00,
0.629718500000000,0,0x8419,
0.629734333333333,0,0x0000,
0.629742250000000,0,0x8513,
0.629758125000000,0,0x3F3F,
0.629766041666667,0,0x8619,
0.629796916666667,0,0x0004,
0.629804625000000,0,0x031D,
0.629821041666667,0,0x0A01,
0.629828958333333,0,0x831D,
0.629844833333333,0,0x0F00,
0.629852750000000,0,0x841D,
0.629868583333333,0,0x0000,
0.629876500000000,0,0x8513,
0.629892375000000,0,0x3F3F,
0.629900291666667,0,0x861D,
0.629931041666667,0,0x0004,
0.629938708333333,0,0x0311,
0.629954791666667,0,0x0A01,
0.629962750000000,0,0x8311,
0.629978583333333,0,0x0F00,
0.629986500000000,0,0x8411,
0.630002375000000,0,0x0000,
0.630010291666667,0,0x8513,
0.630026166666667,0,0x373F,
0.630034083333333,0,0x8611,
0.630064958333333,0,0x0001,
0.630072666666667,0,0x1D15,
0.630088583333333,0,0x1551,
0.630096541666667,0,0x9D15,
0.630124875000000,0,0x0003,
0.630132583333333,0,0x2419,
0.630148541666667,0,0x0048,
0.630156500000000,0,0xA413,
0.630172333333333,0,0x0040,
0.630180250000000,0,0xA513,
0.630196125000000,0,0x0000,
0.630204041666667,0,0xA613,
0.630232958333333,0,0x0005,
0.630240666666667,0,0x2D1D,
0.630257041666667,0,0x34AC,
0.630264958333333,0,0xAD13,
0.630280791666667,0,0xFFFF,
0.630288750000000,0,0xAE13,
0.630304583333333,0,0x7E78,
0.630312500000000,0,0xAF13,
0.630328333333333,0,0xFFFF,
0.630336291666667,0,0xB013,
0.630352125000000,0,0x830B,
0.630360041666667,0,0xB113,
0.630390791666667,0,0x0006,
0.630398458333333,0,0x3B11,
0.630414541666667,0,0xB3FC,
0.630422458333333,0,0xBB13,
0.630438333333333,0,0xB34A,
0.630446250000000,0,0xBC13,
0.630462083333333,0,0xB2DA,
0.630470041666667,0,0xBD13,
0.630485875000000,0,0xB21B,
0.630493791666667,0,0xBE13,
0.630509666666667,0,0xB21E,
0.630517583333333,0,0xBF13,
0.630533458333333,0,0xB293,
0.630541375000000,0,0xC013,
0.630571125000000,0,0x000A,
0.630578791666667,0,0x4115,
0.630594875000000,0,0xC0C3,
0.630602791666667,0,0xC113,
0.630618625000000,0,0xC0C0,
0.630626541666667,0,0xC213,
0.630642416666667,0,0xC0C3,
0.630650375000000,0,0xC313,
0.630666208333333,0,0xC0C1,
0.630674125000000,0,0xC413,
0.630689958333333,0,0xC0BF,
0.630697916666667,0,0xC513,
0.630713750000000,0,0xE06A,
0.630721666666667,0,0xC613,
0.630737500000000,0,0x8000,
0.630745458333333,0,0xC713,
0.630761291666667,0,0xA301,
0.630769208333333,0,0xC813,
0.630785083333333,0,0x9E3B,
0.630793000000000,0,0xC913,
0.630808833333333,0,0x9E3D,
0.630816791666667,0,0xCA13,
0.630849125000000,0,0x0004,
0.630856791666667,0,0x0329,
0.630872875000000,0,0x0A01,
0.630880750000000,0,0x8329,
0.630896458333333,0,0x0F00,
0.630904333333333,0,0x8429,
0.630920041666667,0,0x0000,
0.630927916666667,0,0x8523,
0.630943666666667,0,0x373F,
0.630951500000000,0,0x8629,
0.630981833333333,0,0x0001,
0.630989500000000,0,0x1D2D,
0.631005541666667,0,0x0055,
0.631013416666667,0,0x9D2D,
0.631041666666667,0,0x0003,
0.631049333333333,0,0x2421,
0.631065500000000,0,0x004C,
0.631073375000000,0,0xA423,
0.631089083333333,0,0x0040,
0.631096958333333,0,0xA523,
0.631112666666667,0,0x0000,
0.631120541666667,0,0xA623,
0.631149500000000,0,0x0005,
0.631157166666667,0,0x2D25,
0.631173125000000,0,0x3531,
0.631180958333333,0,0xAD23,
0.631196708333333,0,0xFFFF,
0.631204583333333,0,0xAE23,
0.631220291666667,0,0xD5D4,
0.631228166666667,0,0xAF23,
0.631243875000000,0,0x8000,
0.631251708333333,0,0xB023,
0.631267458333333,0,0x8300,
0.631275333333333,0,0xB123,
0.631305208333333,0,0x0006,
0.631312875000000,0,0x3B29,
0.631328875000000,0,0xE55D,
0.631336750000000,0,0xBB23,
0.631352458333333,0,0x8000,
0.631360333333333,0,0xBC23,
0.631376041666667,0,0x8001,
0.631383916666667,0,0xBD23,
0.631399625000000,0,0x8002,
0.631407500000000,0,0xBE23,
0.631423208333333,0,0xE5FB,
0.631431083333333,0,0xBF23,
0.631446833333333,0,0xE613,
0.631454666666667,0,0xC023,
0.631485166666667,0,0x000A,
0.631492833333333,0,0x412D,
0.631509208333333,0,0xDF11,
0.631517083333333,0,0xC123,
0.631532791666667,0,0xE01C,
0.631540666666667,0,0xC223,
0.631556375000000,0,0xE01E,
0.631564250000000,0,0xC323,
0.631580000000000,0,0xE159,
0.631587833333333,0,0xC423,
0.631603583333333,0,0xA995,
0.631611458333333,0,0xC523,
0.631627166666667,0,0xFF52,
0.631635041666667,0,0xC623,
0.631650750000000,0,0xC014,
0.631658625000000,0,0xC723,
0.631674333333333,0,0xA2DF,
0.631682208333333,0,0xC823,
0.631697916666667,0,0x9E3D,
0.631705791666667,0,0xC923,
0.631721500000000,0,0x9E41,
0.631729375000000,0,0xCA23,
0.639353916666667,0,0x4C3F,
0.639361625000000,0,0x0603,
0.639388625000000,0,0x0004,
0.639396333333333,0,0x0315,
0.639412416666667,0,0x0A01,
0.639420333333333,0,0x8315,
0.639436208333333,0,0x0F00,
0.639444125000000,0,0x8415,
0.639459958333333,0,0x0000,
0.639467916666667,0,0x8514,
0.639483750000000,0,0x4F3F,
0.639491708333333,0,0x8615,
0.639522250000000,0,0x0004,
0.639529916666667,0,0x0319,
0.639546166666667,0,0x0A01,
0.639554083333333,0,0x8319,
0.639569958333333,0,0x0F00,
0.639577875000000,0,0x8419,
0.639593750000000,0,0x0000,
0.639601666666667,0,0x8514,
0.639617500000000,0,0x4F3F,
0.639625458333333,0,0x8619,
0.639656625000000,0,0x0004,
0.639664291666667,0,0x031D,
0.639680458333333,0,0x0A01,
0.639688375000000,0,0x831D,
0.639704250000000,0,0x0F00,
0.639712166666667,0,0x841D,
0.639728041666667,0,0x0000,
0.639735958333333,0,0x8514,
0.639751833333333,0,0x4F3F,
0.639759750000000,0,0x861D,
0.639790750000000,0,0x0004,
0.639798416666667,0,0x0311,
0.639814708333333,0,0x0A01,
0.639822666666667,0,0x8311,
0.639838500000000,0,0x0F00,
0.639846416666667,0,0x8411,
0.639862291666667,0,0x0000,
0.639870208333333,0,0x8514,
0.639886083333333,0,0x4F3F,
0.639894000000000,0,0x8611,
0.639925333333333,0,0x0004,
0.639933000000000,0,0x0315,
0.639949458333333,0,0x0A01,
0.639957416666667,0,0x8315,
0.639973250000000,0,0x0F00,
0.639981166666667,0,0x8415,
0.639997041666667,0,0x0000,
0.640004958333333,0,0x8514,
0.640020833333333,0,0x473F,
0.640028750000000,0,0x8615,
0.640059583333333,0,0x0001,
0.640067250000000,0,0x1D19,
0.640083250000000,0,0x1551,
0.640091166666667,0,0x9D19,
0.640119333333333,0,0x0003,
0.640127041666667,0,0x241D,
0.640143166666667,0,0x0048,
0.640151125000000,0,0xA414,
0.640167000000000,0,0x0040,
0.640174916666667,0,0xA514,
0.640190750000000,0,0x0000,
0.640198666666667,0,0xA614,
0.640227916666667,0,0x0005,
0.640235583333333,0,0x2D11,
0.640251708333333,0,0x35B5,
0.640259625000000,0,0xAD14,
0.640275458333333,0,0xFFFF,
0.640283416666667,0,0xAE14,
0.640299250000000,0,0x7C31,
0.640307208333333,0,0xAF14,
0.640323041666667,0,0xFFFF,
0.640330958333333,0,0xB014,
0.640346791666667,0,0x830B,
0.640354750000000,0,0xB114,
0.640385083333333,0,0x0006,
0.640392750000000,0,0x3B15,
0.640408750000000,0,0xB3FB,
0.640416666666667,0,0xBB14,
0.640432500000000,0,0xB34E,
0.640440458333333,0,0xBC14,
0.640456291666667,0,0xB2DE,
0.640464250000000,0,0xBD14,
0.640480083333333,0,0xB21F,
0.640488000000000,0,0xBE14,
0.640503875000000,0,0xB21D,
0.640511791666667,0,0xBF14,
0.640527666666667,0,0xB293,
0.640535583333333,0,0xC014,
0.640565958333333,0,0x000A,
0.640573625000000,0,0x4119,
0.640590083333333,0,0xC0C7,
0.640598000000000,0,0xC114,
0.640613833333333,0,0xC0C4,
0.640621791666667,0,0xC214,
0.640637625000000,0,0xC0C6,
0.640645541666667,0,0xC314,
0.640661416666667,0,0xC0C8,
0.640669333333333,0,0xC414,
0.640685166666667,0,0xC0C3,
0.640693083333333,0,0xC514,
0.640708958333333,0,0xE070,
0.640716875000000,0,0xC614,
0.640732708333333,0,0x8002,
0.640740666666667,0,0xC714,
0.640756541666667,0,0xA303,
0.640764458333333,0,0xC814,
0.640780291666667,0,0x9E41,
0.640788250000000,0,0xC914,
0.640804083333333,0,0x9E39,
0.640812000000000,0,0xCA14,
0.640845583333333,0,0x0004,
0.640853250000000,0,0x032D,
0.640869541666667,0,0x0A01,
0.640877416666667,0,0x832D,
0.640893125000000,0,0x0F00,
0.640901000000000,0,0x842D,
0.640916708333333,0,0x0000,
0.640924583333333,0,0x8524,
0.640940333333333,0,0x473F,
0.640948166666667,0,0x862D,
0.640979208333333,0,0x0001,
0.640986875000000,0,0x1D21,
0.641003208333333,0,0x0055,
0.641011083333333,0,0x9D21,
0.641038583333333,0,0x0003,
0.641046250000000,0,0x2425,
0.641062208333333,0,0x004C,
0.641070083333333,0,0xA424,
0.641085791666667,0,0x0040,
0.641093666666667,0,0xA524,
0.641109416666667,0,0x0000,
0.641117250000000,0,0xA624,
0.641145750000000,0,0x0005,
0.641153416666667,0,0x2D29,
0.641169875000000,0,0x363C,
0.641177708333333,0,0xAD24,
0.641193458333333,0,0xFFFF,
0.641201291666667,0,0xAE24,
0.641217041666667,0,0xD4F4,
0.641224875000000,0,0xAF24,
0.641240625000000,0,0xFFFF,
0.641248500000000,0,0xB024,
0.641264208333333,0,0x830E,
0.641272083333333,0,0xB124,
0.641301583333333,0,0x0006,
0.641309250000000,0,0x3B2D,
0.641325625000000,0,0xE55F,
0.641333500000000,0,0xBB24,
0.641349250000000,0,0x8000,
0.641357125000000,0,0xBC24,
0.641372833333333,0,0x8001,
0.641380708333333,0,0xBD24,
0.641396416666667,0,0x8003,
0.641404291666667,0,0xBE24,
0.641420000000000,0,0xE5FB,
0.641427875000000,0,0xBF24,
0.641443583333333,0,0xE613,
0.641451458333333,0,0xC024,
0.641481416666667,0,0x000A,
0.641489083333333,0,0x4121,
0.641505000000000,0,0xDF13,
0.641512875000000,0,0xC124,
0.641528583333333,0,0xE017,
0.641536458333333,0,0xC224,
0.641552166666667,0,0xE01D,
0.641560083333333,0,0xC324,
0.641575791666667,0,0xE156,
0.641583666666667,0,0xC424,
0.641599375000000,0,0xA996,
0.641607208333333,0,0xC524,
0.641622958333333,0,0xFF51,
0.641630833333333,0,0xC624,
0.641646541666667,0,0xC017,
0.641654416666667,0,0xC724,
0.641670125000000,0,0xA2DF,
0.641677958333333,0,0xC824,
0.641693708333333,0,0x9E3C,
0.641701583333333,0,0xC924,
0.641717291666667,0,0x9E41,
0.641725166666667,0,0xCA24,
0.649348666666667,0,0x5C3F,
0.649356375000000,0,0x0607,
0.649383625000000,0,0x0004,
0.649391291666667,0,0x0319,
0.649407250000000,0,0x0A01,
0.649415166666667,0,0x8319,
0.649431041666667,0,0x0F00,
0.649438958333333,0,0x8419,
0.649454833333333,0,0x0000,
0.649462750000000,0,0x8515,
0.649478583333333,0,0x5F3F,
0.649486541666667,0,0x8619,
0.649517916666667,0,0x0004,
0.649525583333333,0,0x031D,
0.649542000000000,0,0x0A01,
0.649549916666667,0,0x831D,
0.649565791666667,0,0x0F00,
0.649573750000000,0,0x841D,
0.649589583333333,0,0x0000,
0.649597500000000,0,0x8515,
0.649613375000000,0,0x5F3F,
0.649621291666667,0,0x861D,
0.649652750000000,0,0x0004,
0.649660416666667,0,0x0311,
0.649676791666667,0,0x0A01,
0.649684750000000,0,0x8311,
0.649700583333333,0,0x0F00,
0.649708541666667,0,0x8411,
0.649724375000000,0,0x0000,
0.649732291666667,0,0x8515,
0.649748166666667,0,0x5F3F,
0.649756083333333,0,0x8611,
0.649787333333333,0,0x0004,
0.649795000000000,0,0x0315,
0.649811083333333,0,0x0A01,
0.649819000000000,0,0x8315,
0.649834875000000,0,0x0F00,
0.649842791666667,0,0x8415,
0.649858666666667,0,0x0000,
0.649866583333333,0,0x8515,
0.649882458333333,0,0x5F3F,
0.649890375000000,0,0x8615,
0.649921333333333,0,0x0004,
0.649929000000000,0,0x0319,
0.649945333333333,0,0x0A01,
0.649953291666667,0,0x8319,
0.649969125000000,0,0x0F00,
0.649977041666667,0,0x8419,
0.649992916666667,0,0x0000,
0.650000833333333,0,0x8515,
0.650016666666667,0,0x573F,
0.650024625000000,0,0x8619,
0.650054916666667,0,0x0001,
0.650062583333333,0,0x1D1D,
0.650078583333333,0,0x1551,
0.650086500000000,0,0x9D1D,
0.650114583333333,0,0x0003,
0.650122250000000,0,0x2411,
0.650138541666667,0,0x0048,
0.650146458333333,0,0xA415,
0.650162333333333,0,0x0040,
0.650170250000000,0,0xA515,
0.650186083333333,0,0x0000,
0.650194000000000,0,0xA615,
0.650223583333333,0,0x0005,
0.650231291666667,0,0x2D15,
0.650247500000000,0,0x36BF,
0.650255416666667,0,0xAD15,
0.650271291666667,0,0xFFFF,
0.650279208333333,0,0xAE15,
0.650295041666667,0,0x7915,
0.650302958333333,0,0xAF15,
0.650318833333333,0,0x8000,
0.650326750000000,0,0xB015,
0.650342625000000,0,0x8303,
0.650350541666667,0,0xB115,
0.650381416666667,0,0x0006,
0.650389083333333,0,0x3B19,
0.650405541666667,0,0xB3FD,
0.650413458333333,0,0xBB15,
0.650429333333333,0,0xB34B,
0.650437250000000,0,0xBC15,
0.650453083333333,0,0xB2E0,
0.650461000000000,0,0xBD15,
0.650476875000000,0,0xB21E,
0.650484791666667,0,0xBE15,
0.650500625000000,0,0xB21E,
0.650508583333333,0,0xBF15,
0.650524416666667,0,0xB291,
0.650532333333333,0,0xC015,
0.650562458333333,0,0x000A,
0.650570125000000,0,0x411D,
0.650586333333333,0,0xC0C6,
0.650594250000000,0,0xC115,
0.650610125000000,0,0xC0C2,
0.650618000000000,0,0xC215,
0.650633875000000,0,0xC0C2,
0.650641791666667,0,0xC315,
0.650657625000000,0,0xC0C5,
0.650665583333333,0,0xC415,
0.650681416666667,0,0xC0C2,
0.650689375000000,0,0xC515,
0.650705208333333,0,0xE070,
0.650713166666667,0,0xC615,
0.650729000000000,0,0x8002,
0.650736916666667,0,0xC715,
0.650752791666667,0,0xA302,
0.650760708333333,0,0xC815,
0.650776541666667,0,0x9E3A,
0.650784500000000,0,0xC915,
0.650800333333333,0,0x9E3E,
0.650808250000000,0,0xCA15,
0.650840875000000,0,0x0004,
0.650848541666667,0,0x0321,
0.650864833333333,0,0x0A01,
0.650872708333333,0,0x8321,
0.650888458333333,0,0x0F00,
0.650896291666667,0,0x8421,
0.650912041666667,0,0x0000,
0.650919875000000,0,0x8525,
0.650935625000000,0,0x573F,
0.650943500000000,0,0x8621,
0.650973916666667,0,0x0001,
0.650981583333333,0,0x1D25,
0.650998000000000,0,0x0055,
0.651005875000000,0,0x9D25,
0.651033291666667,0,0x0003,
0.651040958333333,0,0x2429,
0.651056958333333,0,0x004C,
0.651064833333333,0,0xA425,
0.651080541666667,0,0x0040,
0.651088416666667,0,0xA525,
0.651104166666667,0,0x0000,
0.651112000000000,0,0xA625,
0.651140500000000,0,0x0005,
0.651148166666667,0,0x2D2D,
0.651164583333333,0,0x3748,
0.651172458333333,0,0xAD25,
0.651188166666667,0,0xFFFF,
0.651196041666667,0,0xAE25,
0.651211791666667,0,0xD478,
0.651219625000000,0,0xAF25,
0.651235333333333,0,0xFFFF,
0.651243208333333,0,0xB025,
0.651258916666667,0,0x8304,
0.651266791666667,0,0xB125,
0.651298166666667,0,0x0006,
0.651305833333333,0,0x3B21,
0.651321833333333,0,0xE55E,
0.651329708333333,0,0xBB25,
0.651345416666667,0,0x8004,
0.651353291666667,0,0xBC25,
0.651369000000000,0,0x8000,
0.651376875000000,0,0xBD25,
0.651392583333333,0,0x8002,
0.651400458333333,0,0xBE25,
0.651416166666667,0,0xE5F7,
0.651424041666667,0,0xBF25,
0.651439750000000,0,0xE60C,
0.651447625000000,0,0xC025,
0.651477708333333,0,0x000A,
0.651485375000000,0,0x4125,
0.651501666666667,0,0xDF11,
0.651509541666667,0,0xC125,
0.651525250000000,0,0xE013,
0.651533125000000,0,0xC225,
0.651548833333333,0,0xE01D,
0.651556708333333,0,0xC325,
0.651572416666667,0,0xE156,
0.651580291666667,0,0xC425,
0.651596000000000,0,0xA997,
0.651603875000000,0,0xC525,
0.651619583333333,0,0xFF54,
0.651627458333333,0,0xC625,
0.651643166666667,0,0xC013,
0.651651041666667,0,0xC725,
0.651666750000000,0,0xA2DF,
0.651674625000000,0,0xC825,
0.651690333333333,0,0x9E39,
0.651698208333333,0,0xC925,
0.651713916666667,0,0x9E43,
0.651721791666667,0,0xCA25,
0.659489250000000,0,0x6C3F,
0.659496916666667,0,0x060B,
0.659524583333333,0,0x0004,
0.659532250000000,0,0x031D,
0.659548541666667,0,0x0A01,
0.659556458333333,0,0x831D,
0.659572291666667,0,0x0F00,
0.659580250000000,0,0x841D,
0.659596083333333,0,0x0000,
0.659604000000000,0,0x8516,
0.659619833333333,0,0x6F3F,
0.659627791666667,0,0x861D,
0.659659375000000,0,0x0004,
0.659667041666667,0,0x0311,
0.659683291666667,0,0x0A01,
0.659691208333333,0,0x8311,
0.659707041666667,0,0x0F00,
0.659715000000000,0,0x8411,
0.659730833333333,0,0x0000,
0.659738791666667,0,0x8516,
0.659754625000000,0,0x6F3F,
0.659762541666667,0,0x8611,
0.659794541666667,0,0x0004,
0.659802208333333,0,0x0315,
0.659818541666667,0,0x0A01,
0.659826458333333,0,0x8315,
0.659842333333333,0,0x0F00,
0.659850250000000,0,0x8415,
0.659866125000000,0,0x0000,
0.659874041666667,0,0x8516,
0.659889916666667,0,0x6F3F,
0.659897833333333,0,0x8615,
0.659929166666667,0,0x0004,
0.659936833333333,0,0x0319,
0.659952833333333,0,0x0A01,
0.659960750000000,0,0x8319,
0.659976625000000,0,0x0F00,
0.659984541666667,0,0x8419,
0.660000416666667,0,0x0000,
0.660008333333333,0,0x8516,
0.660024208333333,0,0x6F3F,
0.660032125000000,0,0x8619,
0.660063375000000,0,0x0004,
0.660071041666667,0,0x031D,
0.660087083333333,0,0x0A01,
0.660095000000000,0,0x831D,
0.660110875000000,0,0x0F00,
0.660118791666667,0,0x841D,
0.660134625000000,0,0x0000,
0.660142541666667,0,0x8516,
0.660158416666667,0,0x673F,
0.660166333333333,0,0x861D,
0.660196791666667,0,0x0001,
0.660204500000000,0,0x1D11,
0.660220833333333,0,0x1551,
0.660228750000000,0,0x9D11,
0.660257083333333,0,0x0003,
0.660264750000000,0,0x2415,
0.660280750000000,0,0x0048,
0.660288666666667,0,0xA416,
0.660304541666667,0,0x0040,
0.660312458333333,0,0xA516,
0.660328291666667,0,0x0000,
0.660336250000000,0,0xA616,
0.660365333333333,0,0x0005,
0.660373041666667,0,0x2D19,
0.660389208333333,0,0x37CC,
0.660397166666667,0,0xAD16,
0.660413000000000,0,0xFFFF,
0.660420916666667,0,0xAE16,
0.660436791666667,0,0x76FF,
0.660444708333333,0,0xAF16,
0.660460541666667,0,0xFFFF,
0.660468500000000,0,0xB016,
0.660484333333333,0,0x830D,
0.660492250000000,0,0xB116,
0.660522416666667,0,0x0006,
0.660530083333333,0,0x3B1D,
0.660546250000000,0,0xB3F5,
0.660554166666667,0,0xBB16,
0.660570041666667,0,0xB349,
0.660577958333333,0,0xBC16,
0.660593791666667,0,0xB2DC,
0.660601708333333,0,0xBD16,
0.660617583333333,0,0xB21F,
0.660625500000000,0,0xBE16,
0.660641375000000,0,0xB21D,
0.660649250000000,0,0xBF16,
0.660665125000000,0,0xB28F,
0.660673041666667,0,0xC016,
0.660702833333333,0,0x000A,
0.660710500000000,0,0x4111,
0.660726541666667,0,0xC0C6,
0.660734458333333,0,0xC116,
0.660750291666667,0,0xC0C0,
0.660758250000000,0,0xC216,
0.660774083333333,0,0xC0C1,
0.660782000000000,0,0xC316,
0.660797875000000,0,0xC0C4,
0.660805791666667,0,0xC416,
0.660821666666667,0,0xC0C5,
0.660829583333333,0,0xC516,
0.660845416666667,0,0xE074,
0.660853333333333,0,0xC616,
0.660869208333333,0,0x8000,
0.660877125000000,0,0xC716,
0.660893000000000,0,0xA304,
0.660900875000000,0,0xC816,
0.660916750000000,0,0x9E3C,
0.660924666666667,0,0xC916,
0.660940541666667,0,0x9E39,
0.660948458333333,0,0xCA16,
0.660980666666667,0,0x0004,
0.660988333333333,0,0x0325,
0.661004333333333,0,0x0A01,
0.661012208333333,0,0x8325,
0.661027916666667,0,0x0F00,
0.661035791666667,0,0x8425,
0.661051500000000,0,0x0000,
0.661059375000000,0,0x8526,
0.661075125000000,0,0x673F,
0.661082958333333,0,0x8625,
0.661113166666667,0,0x0001,
0.661120833333333,0,0x1D29,
0.661137041666667,0,0x0055,
0.661144916666667,0,0x9D29,
0.661173458333333,0,0x0003,
0.661181125000000,0,0x242D,
0.661197458333333,0,0x004C,
0.661205333333333,0,0xA426,
0.661221041666667,0,0x0040,
0.661228916666667,0,0xA526,
0.661244625000000,0,0x0000,
0.661252500000000,0,0xA626,
0.661282125000000,0,0x0005,
0.661289833333333,0,0x2D21,
0.661306041666667,0,0x3858,
0.661313916666667,0,0xAD26,
0.661329666666667,0,0xFFFF,
0.661337541666667,0,0xAE26,
0.661353250000000,0,0xD391,
0.661361125000000,0,0xAF26,
0.661376833333333,0,0x8000,
0.661384708333333,0,0xB026,
0.661400416666667,0,0x8300,
0.661408291666667,0,0xB126,
0.661438083333333,0,0x0006,
0.661445750000000,0,0x3B25,
0.661461875000000,0,0xE555,
0.661469708333333,0,0xBB26,
0.661485458333333,0,0x8000,
0.661493291666667,0,0xBC26,
0.661509041666667,0,0x8000,
0.661516875000000,0,0xBD26,
0.661532583333333,0,0x8000,
0.661540458333333,0,0xBE26,
0.661556166666667,0,0xE5F5,
0.661564041666667,0,0xBF26,
0.661579750000000,0,0xE60A,
0.661587625000000,0,0xC026,
0.661617625000000,0,0x000A,
0.661625333333333,0,0x4129,
0.661641666666667,0,0xDF15,
0.661649541666667,0,0xC126,
0.661665291666667,0,0xE01A,
0.661673125000000,0,0xC226,
0.661688875000000,0,0xE01C,
0.661696708333333,0,0xC326,
0.661712416666667,0,0xE156,
0.661720291666667,0,0xC426,
0.661736000000000,0,0xA997,
0.661743875000000,0,0xC526,
0.661759625000000,0,0xFF59,
0.661767458333333,0,0xC626,
0.661783166666667,0,0xC017,
0.661791041666667,0,0xC726,
0.661806750000000,0,0xA2E2,
0.661814625000000,0,0xC826,
0.661830375000000,0,0x9E3D,
0.661838208333333,0,0xC926,
0.661853958333333,0,0x9E40,
0.661861791666667,0,0xCA26,
0.669366958333333,0,0x7C3F,
0.669374666666667,0,0x060F,
0.669402291666667,0,0x0004,
0.669409958333333,0,0x0311,
0.669425958333333,0,0x0A01,
0.669433875000000,0,0x8311,
0.669449708333333,0,0x0F00,
0.669457666666667,0,0x8411,
0.669473500000000,0,0x0000,
0.669481416666667,0,0x8517,
0.669497291666667,0,0x7F3F,
0.669505208333333,0,0x8611,
0.669536500000000,0,0x0004,
0.669544166666667,0,0x0315,
0.669560208333333,0,0x0A01,
0.669568125000000,0,0x8315,
0.669583958333333,0,0x0F00,
0.669591916666667,0,0x8415,
0.669607791666667,0,0x0000,
0.669615708333333,0,0x8517,
0.669631541666667,0,0x7F3F,
0.669639500000000,0,0x8615,
0.669670000000000,0,0x0004,
0.669677666666667,0,0x0319,
0.669694000000000,0,0x0A01,
0.669701958333333,0,0x8319,
0.669717791666667,0,0x0F00,
0.669725708333333,0,0x8419,
0.669741583333333,0,0x0000,
0.669749500000000,0,0x8517,
0.669765375000000,0,0x7F3F,
0.669773291666667,0,0x8619,
0.669804625000000,0,0x0004,
0.669812291666667,0,0x031D,
0.669828791666667,0,0x0A01,
0.669836708333333,0,0x831D,
0.669852541666667,0,0x0F00,
0.669860500000000,0,0x841D,
0.669876333333333,0,0x0000,
0.669884291666667,0,0x8517,
0.669900125000000,0,0x7F3F,
0.669908083333333,0,0x861D,
0.669939000000000,0,0x0004,
0.669946666666667,0,0x0311,
0.669963083333333,0,0x0A01,
0.669971000000000,0,0x8311,
0.669986875000000,0,0x0F00,
0.669994791666667,0,0x8411,
0.670010625000000,0,0x0000,
0.670018583333333,0,0x8517,
0.670034416666667,0,0x773F,
0.670042375000000,0,0x8611,
0.670072541666667,0,0x0001,
0.670080250000000,0,0x1D15,
0.670096333333333,0,0x1551,
0.670104291666667,0,0x9D15,
0.670132875000000,0,0x0003,
0.670140541666667,0,0x2419,
0.670156791666667,0,0x0048,
0.670164708333333,0,0xA417,
0.670180583333333,0,0x0040,
0.670188500000000,0,0xA517,
0.670204333333333,0,0x0000,
0.670212291666667,0,0xA617,
0.670241833333333,0,0x0005,
0.670249500000000,0,0x2D1D,
0.670265791666667,0,0x38D3,
0.670273708333333,0,0xAD17,
0.670289583333333,0,0xFFFF,
0.670297500000000,0,0xAE17,
0.670313333333333,0,0x7598,
0.670321291666667,0,0xAF17,
0.670337125000000,0,0xFFFF,
0.670345041666667,0,0xB017,
0.670360916666667,0,0x830A,
0.670368833333333,0,0xB117,
0.670399083333333,0,0x0006,
0.670406750000000,0,0x3B11,
0.670422833333333,0,0xB3F8,
0.670430750000000,0,0xBB17,
0.670446625000000,0,0xB348,
0.670454541666667,0,0xBC17,
0.670470375000000,0,0xB2DC,
0.670478333333333,0,0xBD17,
0.670494166666667,0,0xB21C,
0.670502083333333,0,0xBE17,
0.670517958333333,0,0xB217,
0.670525875000000,0,0xBF17,
0.670541708333333,0,0xB28A,
0.670549666666667,0,0xC017,
0.670580125000000,0,0x000A,
0.670587833333333,0,0x4115,
0.670604125000000,0,0xC0C2,
0.670612083333333,0,0xC117,
0.670627916666667,0,0xC0BF,
0.670635833333333,0,0xC217,
0.670651666666667,0,0xC0C4,
0.670659625000000,0,0xC317,
0.670675458333333,0,0xC0C3,
0.670683375000000,0,0xC417,
0.670699250000000,0,0xC0C5,
0.670707166666667,0,0xC517,
0.670723041666667,0,0xE06D,
0.670730958333333,0,0xC617,
0.670746791666667,0,0x8000,
0.670754750000000,0,0xC717,
0.670770583333333,0,0xA302,
0.670778541666667,0,0xC817,
0.670794375000000,0,0x9E38,
0.670802291666667,0,0xC917,
0.670818166666667,0,0x9E3D,
0.670826083333333,0,0xCA17,
0.670858250000000,0,0x0004,
0.670865916666667,0,0x0329,
0.670882000000000,0,0x0A01,
0.670889875000000,0,0x8329,
0.670905583333333,0,0x0F00,
0.670913458333333,0,0x8429,
0.670929166666667,0,0x0000,
0.670937041666667,0,0x8527,
0.670952750000000,0,0x773F,
0.670960625000000,0,0x8629,
0.670990208333333,0,0x0001,
0.670997875000000,0,0x1D2D,
0.671014166666667,0,0x0055,
0.671022041666667,0,0x9D2D,
0.671050375000000,0,0x0003,
0.671058083333333,0,0x2421,
0.671074083333333,0,0x004C,
0.671081958333333,0,0xA427,
0.671097666666667,0,0x0040,
0.671105541666667,0,0xA527,
0.671121250000000,0,0x0000,
0.671129125000000,0,0xA627,
0.671157750000000,0,0x0005,
0.671165416666667,0,0x2D25,
0.671181666666667,0,0x3960,
0.671189541666667,0,0xAD27,
0.671205250000000,0,0xFFFF,
0.671213125000000,0,0xAE27,
0.671228833333333,0,0xD31A,
0.671236708333333,0,0xAF27,
0.671252416666667,0,0xFFFF,
0.671260291666667,0,0xB027,
0.671276000000000,0,0x830D,
0.671283875000000,0,0xB127,
0.671314125000000,0,0x0006,
0.671321791666667,0,0x3B29,
0.671337916666667,0,0xE556,
0.671345791666667,0,0xBB27,
0.671361500000000,0,0x8000,
0.671369333333333,0,0xBC27,
0.671385083333333,0,0x8000,
0.671392958333333,0,0xBD27,
0.671408666666667,0,0x8000,
0.671416541666667,0,0xBE27,
0.671432250000000,0,0xE5F7,
0.671440083333333,0,0xBF27,
0.671455833333333,0,0xE60C,
0.671463666666667,0,0xC027,
0.671493625000000,0,0x000A,
0.671501333333333,0,0x412D,
0.671517708333333,0,0xDF15,
0.671525583333333,0,0xC127,
0.671541291666667,0,0xE01A,
0.671549166666667,0,0xC227,
0.671564875000000,0,0xE01B,
0.671572750000000,0,0xC327,
0.671588458333333,0,0xE150,
0.671596333333333,0,0xC427,
0.671612041666667,0,0xA995,
0.671619875000000,0,0xC527,
0.671635625000000,0,0xFF56,
0.671643458333333,0,0xC627,
0.671659166666667,0,0xC016,
0.671667041666667,0,0xC727,
0.671682750000000,0,0xA2DE,
0.671690625000000,0,0xC827,
0.671706333333333,0,0x9E41,
0.671714208333333,0,0xC927,
0.671729916666667,0,0x9E3E,
0.671737791666667,0,0xCA27,
0.679349458333333,0,0x8C3F,
0.679357125000000,0,0x0603,
0.679384291666667,0,0x0004,
0.679392000000000,0,0x0315,
0.679408250000000,0,0x0A01,
0.679416208333333,0,0x8315,
0.679432041666667,0,0x0F00,
0.679440000000000,0,0x8415,
0.679455833333333,0,0x0000,
0.679463750000000,0,0x8518,
0.679479625000000,0,0x8F3F,
0.679487541666667,0,0x8615,
0.679518625000000,0,0x0004,
0.679526291666667,0,0x0319,
0.679542583333333,0,0x0A01,
0.679550500000000,0,0x8319,
0.679566333333333,0,0x0F00,
0.679574291666667,0,0x8419,
0.679590125000000,0,0x0000,
0.679598083333333,0,0x8518,
0.679613916666667,0,0x8F3F,
0.679621875000000,0,0x8619,
0.679652875000000,0,0x0004,
0.679660541666667,0,0x031D,
0.679676875000000,0,0x0A01,
0.679684791666667,0,0x831D,
0.679700666666667,0,0x0F00,
0.679708583333333,0,0x841D,
0.679724458333333,0,0x0000,
0.679732375000000,0,0x8518,
0.679748250000000,0,0x8F3F,
0.679756208333333,0,0x861D,
0.679786958333333,0,0x0004,
0.679794625000000,0,0x0311,
0.679810708333333,0,0x0A01,
0.679818625000000,0,0x8311,
0.679834500000000,0,0x0F00,
0.679842458333333,0,0x8411,
0.679858291666667,0,0x0000,
0.679866250000000,0,0x8518,
0.679882083333333,0,0x8F3F,
0.679890041666667,0,0x8611,
0.679920500000000,0,0x0004,
0.679928208333333,0,0x0315,
0.679944500000000,0,0x0A01,
0.679952416666667,0,0x8315,
0.679968291666667,0,0x0F00,
0.679976208333333,0,0x8415,
0.679992083333333,0,0x0000,
0.680000000000000,0,0x8518,
0.680015833333333,0,0x873F,
0.680023791666667,0,0x8615,
0.680054333333333,0,0x0001,
0.680062000000000,0,0x1D19,
0.680078291666667,0,0x1551,
0.680086208333333,0,0x9D19,
0.680114416666667,0,0x0003,
0.680122083333333,0,0x241D,
0.680138208333333,0,0x0048,
0.680146125000000,0,0xA418,
0.680161958333333,0,0x0040,
0.680169916666667,0,0xA518,
0.680185750000000,0,0x0000,
0.680193708333333,0,0xA618,
0.680223250000000,0,0x0005,
0.680230916666667,0,0x2D11,
0.680247208333333,0,0x39DC,
0.680255125000000,0,0xAD18,
0.680270958333333,0,0xFFFF,
0.680278916666667,0,0xAE18,
0.680294750000000,0,0x734E,
0.680302666666667,0,0xAF18,
0.680318500000000,0,0xFFFF,
0.680326458333333,0,0xB018,
0.680342333333333,0,0x830B,
0.680350250000000,0,0xB118,
0.680380750000000,0,0x0006,
0.680388458333333,0,0x3B15,
0.680404708333333,0,0xB3FB,
0.680412625000000,0,0xBB18,
0.680428500000000,0,0xB347,
0.680436416666667,0,0xBC18,
0.680452250000000,0,0xB2D9,
0.680460208333333,0,0xBD18,
0.680476041666667,0,0xB219,
0.680483958333333,0,0xBE18,
0.680499791666667,0,0xB21A,
0.680507750000000,0,0xBF18,
0.680523583333333,0,0xB28C,
0.680531500000000,0,0xC018,
0.680561833333333,0,0x000A,
0.680569541666667,0,0x4119,
0.680586000000000,0,0xC0C4,
0.680593916666667,0,0xC118,
0.680609791666667,0,0xC0BF,
0.680617708333333,0,0xC218,
0.680633541666667,0,0xC0C0,
0.680641500000000,0,0xC318,
0.680657333333333,0,0xC0C2,
0.680665250000000,0,0xC418,
0.680681125000000,0,0xC0C4,
0.680689041666667,0,0xC518,
0.680704875000000,0,0xE06E,
0.680712791666667,0,0xC618,
0.680728666666667,0,0x8000,
0.680736583333333,0,0xC718,
0.680752458333333,0,0xA304,
0.680760375000000,0,0xC818,
0.680776208333333,0,0x9E36,
0.680784125000000,0,0xC918,
0.680800000000000,0,0x9E3C,
0.680807916666667,0,0xCA18,
0.680841083333333,0,0x0004,
0.680848791666667,0,0x032D,
0.680864833333333,0,0x0A01,
0.680872666666667,0,0x832D,
0.680888416666667,0,0x0F00,
0.680896250000000,0,0x842D,
0.680912000000000,0,0x0000,
0.680919875000000,0,0x8528,
0.680935583333333,0,0x873F,
0.680943458333333,0,0x862D,
0.680974833333333,0,0x0001,
0.680982500000000,0,0x1D21,
0.680998458333333,0,0x0055,
0.681006333333333,0,0x9D21,
0.681035125000000,0,0x0003,
0.681042791666667,0,0x2425,
0.681058916666667,0,0x004C,
0.681066791666667,0,0xA428,
0.681082500000000,0,0x0040,
0.681090375000000,0,0xA528,
0.681106083333333,0,0x0000,
0.681113916666667,0,0xA628,
0.681143375000000,0,0x0005,
0.681151083333333,0,0x2D29,
0.681167000000000,0,0x3A6B,
0.681174875000000,0,0xAD28,
0.681190583333333,0,0xFFFF,
0.681198458333333,0,0xAE28,
0.681214208333333,0,0xD288,
0.681222041666667,0,0xAF28,
0.681237791666667,0,0xFFFF,
0.681245625000000,0,0xB028,
0.681261333333333,0,0x830B,
0.681269208333333,0,0xB128,
0.681300833333333,0,0x0006,
0.681308500000000,0,0x3B2D,
0.681324750000000,0,0xE557,
0.681332583333333,0,0xBB28,
0.681348333333333,0,0x8000,
0.681356208333333,0,0xBC28,
0.681371916666667,0,0x8000,
0.681379791666667,0,0xBD28,
0.681395500000000,0,0x8000,
0.681403375000000,0,0xBE28,
0.681419083333333,0,0xE5EE,
0.681426958333333,0,0xBF28,
0.681442708333333,0,0xE604,
0.681450541666667,0,0xC028,
0.681480750000000,0,0x000A,
0.681488458333333,0,0x4121,
0.681504583333333,0,0xDF13,
0.681512458333333,0,0xC128,
0.681528166666667,0,0xE018,
0.681536041666667,0,0xC228,
0.681551750000000,0,0xE015,
0.681559625000000,0,0xC328,
0.681575333333333,0,0xE151,
0.681583208333333,0,0xC428,
0.681598875000000,0,0xA995,
0.681606750000000,0,0xC528,
0.681622500000000,0,0xFF55,
0.681630333333333,0,0xC628,
0.681646041666667,0,0xC016,
0.681653916666667,0,0xC728,
0.681669625000000,0,0xA2DF,
0.681677500000000,0,0xC828,
0.681693208333333,0,0x9E3E,
0.681701083333333,0,0xC928,
0.681716791666667,0,0x9E3C,
0.681724666666667,0,0xCA28,
0.689393791666667,0,0x9C3F,
0.689401458333333,0,0x0607,
0.689429500000000,0,0x0004,
0.689437166666667,0,0x0319,
0.689453333333333,0,0x0A01,
0.689461250000000,0,0x8319,
0.689477125000000,0,0x0F00,
0.689485041666667,0,0x8419,
0.689500875000000,0,0x0000,
0.689508833333333,0,0x8519,
0.689524666666667,0,0x9F3F,
0.689532583333333,0,0x8619,
0.689563083333333,0,0x0004,
0.689570750000000,0,0x031D,
0.689587083333333,0,0x0A01,
0.689595000000000,0,0x831D,
0.689610833333333,0,0x0F00,
0.689618750000000,0,0x841D,
0.689634625000000,0,0x0000,
0.689642541666667,0,0x8519,
0.689658416666667,0,0x9F3F,
0.689666333333333,0,0x861D,
0.689697458333333,0,0x0004,
0.689705125000000,0,0x0311,
0.689721333333333,0,0x0A01,
0.689729250000000,0,0x8311,
0.689745125000000,0,0x0F00,
0.689753041666667,0,0x8411,
0.689768875000000,0,0x0000,
0.689776791666667,0,0x8519,
0.689792666666667,0,0x9F3F,
0.689800583333333,0,0x8611,
0.689830416666667,0,0x0004,
0.689838125000000,0,0x0315,
0.689854541666667,0,0x0A01,
0.689862500000000,0,0x8315,
0.689878333333333,0,0x0F00,
0.689886250000000,0,0x8415,
0.689902125000000,0,0x0000,
0.689910041666667,0,0x8519,
0.689925916666667,0,0x9F3F,
0.689933833333333,0,0x8615,
0.689964166666667,0,0x0004,
0.689971833333333,0,0x0319,
0.689988291666667,0,0x0A01,
0.689996250000000,0,0x8319,
0.690012083333333,0,0x0F00,
0.690020041666667,0,0x8419,
0.690035875000000,0,0x0000,
0.690043791666667,0,0x8519,
0.690059666666667,0,0x973F,
0.690067583333333,0,0x8619,
0.690098125000000,0,0x0001,
0.690105791666667,0,0x1D1D,
0.690122041666667,0,0x1551,
0.690130000000000,0,0x9D1D,
0.690157500000000,0,0x0003,
0.690165166666667,0,0x2411,
0.690181500000000,0,0x0048,
0.690189458333333,0,0xA419,
0.690205291666667,0,0x0040,
0.690213208333333,0,0xA519,
0.690229083333333,0,0x0000,
0.690237000000000,0,0xA619,
0.690265708333333,0,0x0005,
0.690273375000000,0,0x2D15,
0.690289500000000,0,0x3AE7,
0.690297458333333,0,0xAD19,
0.690313291666667,0,0xFFFF,
0.690321208333333,0,0xAE19,
0.690337083333333,0,0x7206,
0.690345000000000,0,0xAF19,
0.690360833333333,0,0x8000,
0.690368791666667,0,0xB019,
0.690384625000000,0,0x8301,
0.690392541666667,0,0xB119,
0.690422416666667,0,0x0006,
0.690430083333333,0,0x3B19,
0.690446083333333,0,0xB3F6,
0.690454000000000,0,0xBB19,
0.690469875000000,0,0xB348,
0.690477791666667,0,0xBC19,
0.690493625000000,0,0xB2D6,
0.690501541666667,0,0xBD19,
0.690517416666667,0,0xB218,
0.690525333333333,0,0xBE19,
0.690541208333333,0,0xB218,
0.690549125000000,0,0xBF19,
0.690564958333333,0,0xB28B,
0.690572916666667,0,0xC019,
0.690603125000000,0,0x000A,
0.690610833333333,0,0x411D,
0.690626916666667,0,0xC0C4,
0.690634833333333,0,0xC119,
0.690650708333333,0,0xC0BE,
0.690658625000000,0,0xC219,
0.690674500000000,0,0xC0C6,
0.690682416666667,0,0xC319,
0.690698250000000,0,0xC0C7,
0.690706208333333,0,0xC419,
0.690722041666667,0,0xC0C3,
0.690729958333333,0,0xC519,
0.690745833333333,0,0xE070,
0.690753750000000,0,0xC619,
0.690769583333333,0,0x8001,
0.690777500000000,0,0xC719,
0.690793375000000,0,0xA305,
0.690801291666667,0,0xC819,
0.690817125000000,0,0x9E39,
0.690825041666667,0,0xC919,
0.690840916666667,0,0x9E3B,
0.690848833333333,0,0xCA19,
0.690881458333333,0,0x0004,
0.690889125000000,0,0x0321,
0.690905291666667,0,0x0A01,
0.690913125000000,0,0x8321,
0.690928875000000,0,0x0F00,
0.690936750000000,0,0x8421,
0.690952458333333,0,0x0000,
0.690960291666667,0,0x8529,
0.690976041666667,0,0x973F,
0.690983875000000,0,0x8621,
0.691014083333333,0,0x0001,
0.691021791666667,0,0x1D25,
0.691037958333333,0,0x0055,
0.691045791666667,0,0x9D25,
0.691074041666667,0,0x0003,
0.691081708333333,0,0x2429,
0.691097916666667,0,0x004C,
0.691105750000000,0,0xA429,
0.691121500000000,0,0x0040,
0.691129333333333,0,0xA529,
0.691145083333333,0,0x0000,
0.691152916666667,0,0xA629,
0.691182166666667,0,0x0005,
0.691189833333333,0,0x2D2D,
0.691206000000000,0,0x3B78,
0.691213875000000,0,0xAD29,
0.691229583333333,0,0xFFFF,
0.691237416666667,0,0xAE29,
0.691253166666667,0,0xD1CA,
0.691261041666667,0,0xAF29,
0.691276750000000,0,0xFFFF,
0.691284625000000,0,0xB029,
0.691300333333333,0,0x830E,
0.691308208333333,0,0xB129,
0.691338750000000,0,0x0006,
0.691346416666667,0,0x3B21,
0.691362750000000,0,0xE553,
0.691370625000000,0,0xBB29,
0.691386375000000,0,0x8001,
0.691394208333333,0,0xBC29,
0.691409916666667,0,0x8000,
0.691417791666667,0,0xBD29,
0.691433500000000,0,0x8000,
0.691441375000000,0,0xBE29,
0.691457125000000,0,0xE5F2,
0.691465000000000,0,0xBF29,
0.691480708333333,0,0xE609,
0.691488583333333,0,0xC029,
0.691518708333333,0,0x000A,
0.691526375000000,0,0x4125,
0.691542625000000,0,0xDF0C,
0.691550500000000,0,0xC129,
0.691566208333333,0,0xE013,
0.691574083333333,0,0xC229,
0.691589791666667,0,0xE013,
0.691597666666667,0,0xC329,
0.691613375000000,0,0xE14A,
0.691621250000000,0,0xC429,
0.691637000000000,0,0xA991,
0.691644833333333,0,0xC529,
0.691660541666667,0,0xFF51,
0.691668416666667,0,0xC629,
0.691684166666667,0,0xC010,
0.691692000000000,0,0xC729,
0.691707750000000,0,0xA2E2,
0.691715583333333,0,0xC829,
0.691731291666667,0,0x9E3B,
0.691739166666667,0,0xC929,
0.691754875000000,0,0x9E3D,
0.691762750000000,0,0xCA29,
0.699360541666667,0,0xAC3F,
0.699368250000000,0,0x060B,
0.699395750000000,0,0x0004,
0.699403416666667,0,0x031D,
0.699419791666667,0,0x0A01,
0.699427750000000,0,0x831D,
0.699443583333333,0,0x0F00,
0.699451500000000,0,0x841D,
0.699467375000000,0,0x0000,
0.699475291666667,0,0x851A,
0.699491166666667,0,0xAF3F,
0.699499083333333,0,0x861D,
0.699529500000000,0,0x0004,
0.699537166666667,0,0x0311,
0.699553583333333,0,0x0A01,
0.699561541666667,0,0x8311,
0.699577375000000,0,0x0F00,
0.699585291666667,0,0x8411,
0.699601166666667,0,0x0000,
0.699609083333333,0,0x851A,
0.699624958333333,0,0xAF3F,
0.699632875000000,0,0x8611,
0.699663666666667,0,0x0004,
0.699671375000000,0,0x0315,
0.699687375000000,0,0x0A01,
0.699695291666667,0,0x8315,
0.699711166666667,0,0x0F00,
0.699719083333333,0,0x8415,
0.699734958333333,0,0x0000,
0.699742875000000,0,0x851A,
0.699758750000000,0,0xAF3F,
0.699766666666667,0,0x8615,
0.699797541666667,0,0x0004,
0.699805208333333,0,0x0319,
0.699821708333333,0,0x0A01,
0.699829625000000,0,0x8319,
0.699845458333333,0,0x0F00,
0.699853416666667,0,0x8419,
0.699869291666667,0,0x0000,
0.699877208333333,0,0x851A,
0.699893041666667,0,0xAF3F,
0.699901000000000,0,0x8619,
0.699931666666667,0,0x0004,
0.699939333333333,0,0x031D,
0.699955458333333,0,0x0A01,
0.699963375000000,0,0x831D,
0.699979250000000,0,0x0F00,
0.699987166666667,0,0x841D,
0.700003041666667,0,0x0000,
0.700010958333333,0,0x851A,
0.700026833333333,0,0xA73F,
0.700034750000000,0,0x861D,
0.700066291666667,0,0x0001,
0.700073958333333,0,0x1D11,
0.700090250000000,0,0x1551,
0.700098166666667,0,0x9D11,
0.700126000000000,0,0x0003,
0.700133666666667,0,0x2415,
0.700149708333333,0,0x0048,
0.700157625000000,0,0xA41A,
0.700173500000000,0,0x0040,
0.700181416666667,0,0xA51A,
0.700197250000000,0,0x0000,
0.700205208333333,0,0xA61A,
0.700234208333333,0,0x0005,
0.700241875000000,0,0x2D19,
0.700258208333333,0,0x3BF0,
0.700266125000000,0,0xAD1A,
0.700281958333333,0,0xFFFF,
0.700289916666667,0,0xAE1A,
0.700305791666667,0,0x700E,
0.700313666666667,0,0xAF1A,
0.700329541666667,0,0xFFFF,
0.700337458333333,0,0xB01A,
0.700353333333333,0,0x8308,
0.700361250000000,0,0xB11A,
0.700392000000000,0,0x0006,
0.700399666666667,0,0x3B1D,
0.700415750000000,0,0xB3F6,
0.700423666666667,0,0xBB1A,
0.700439500000000,0,0xB345,
0.700447458333333,0,0xBC1A,
0.700463291666667,0,0xB2D8,
0.700471208333333,0,0xBD1A,
0.700487083333333,0,0xB21D,
0.700495000000000,0,0xBE1A,
0.700510833333333,0,0xB217,
0.700518750000000,0,0xBF1A,
0.700534625000000,0,0xB28A,
0.700542541666667,0,0xC01A,
0.700572958333333,0,0x000A,
0.700580625000000,0,0x4111,
0.700597000000000,0,0xC0C2,
0.700604958333333,0,0xC11A,
0.700620791666667,0,0xC0BF,
0.700628750000000,0,0xC21A,
0.700644583333333,0,0xC0C3,
0.700652500000000,0,0xC31A,
0.700668375000000,0,0xC0C6,
0.700676291666667,0,0xC41A,
0.700692125000000,0,0xC0C6,
0.700700083333333,0,0xC51A,
0.700715916666667,0,0xE070,
0.700723875000000,0,0xC61A,
0.700739708333333,0,0x8000,
0.700747625000000,0,0xC71A,
0.700763458333333,0,0xA303,
0.700771416666667,0,0xC81A,
0.700787250000000,0,0x9E3A,
0.700795166666667,0,0xC91A,
0.700811000000000,0,0x9E3C,
0.700818958333333,0,0xCA1A,
0.700852041666667,0,0x0004,
0.700859708333333,0,0x0325,
0.700876125000000,0,0x0A01,
0.700883958333333,0,0x8325,
0.700899708333333,0,0x0F00,
0.700907583333333,0,0x8425,
0.700923291666667,0,0x0000,
0.700931166666667,0,0x852A,
0.700946875000000,0,0xA73F,
0.700954750000000,0,0x8625,
0.700985708333333,0,0x0001,
0.700993416666667,0,0x1D29,
0.701009750000000,0,0x0055,
0.701017625000000,0,0x9D29,
0.701045500000000,0,0x0003,
0.701053208333333,0,0x242D,
0.701069208333333,0,0x004C,
0.701077083333333,0,0xA42A,
0.701092833333333,0,0x0040,
0.701100666666667,0,0xA52A,
0.701116375000000,0,0x0000,
0.701124250000000,0,0xA62A,
0.701152875000000,0,0x0005,
0.701160541666667,0,0x2D21,
0.701176833333333,0,0x3C83,
0.701184708333333,0,0xAD2A,
0.701200416666667,0,0xFFFF,
0.701208291666667,0,0xAE2A,
0.701224000000000,0,0xD0FF,
0.701231833333333,0,0xAF2A,
0.701247583333333,0,0xFFFF,
0.701255416666667,0,0xB02A,
0.701271166666667,0,0x830F,
0.701279000000000,0,0xB12A,
0.701310041666667,0,0x0006,
0.701317750000000,0,0x3B25,
0.701334041666667,0,0xE54B,
0.701341916666667,0,0xBB2A,
0.701357625000000,0,0x8000,
0.701365458333333,0,0xBC2A,
0.701381208333333,0,0x8002,
0.701389041666667,0,0xBD2A,
0.701404791666667,0,0x8002,
0.701412666666667,0,0xBE2A,
0.701428375000000,0,0xE5EF,
0.701436250000000,0,0xBF2A,
0.701451958333333,0,0xE607,
0.701459833333333,0,0xC02A,
0.701489916666667,0,0x000A,
0.701497583333333,0,0x4129,
0.701513875000000,0,0xDF0B,
0.701521750000000,0,0xC12A,
0.701537458333333,0,0xE015,
0.701545333333333,0,0xC22A,
0.701561041666667,0,0xE012,
0.701568916666667,0,0xC32A,
0.701584625000000,0,0xE14A,
0.701592500000000,0,0xC42A,
0.701608208333333,0,0xA98E,
0.701616083333333,0,0xC52A,
0.701631833333333,0,0xFF4E,
0.701639666666667,0,0xC62A,
0.701655416666667,0,0xC00E,
0.701663250000000,0,0xC72A,
0.701678958333333,0,0xA2E2,
0.701686833333333,0,0xC82A,
0.701702541666667,0,0x9E36,
0.701710416666667,0,0xC92A,
0.701726125000000,0,0x9E3E,
0.701734000000000,0,0xCA2A,
0.709348416666667,0,0xBC3F,
0.709356083333333,0,0x060F,
0.709383833333333,0,0x0004,
0.709391541666667,0,0x0311,
0.709407666666667,0,0x0A01,
0.709415583333333,0,0x8311,
0.709431458333333,0,0x0F00,
0.709439375000000,0,0x8411,
0.709455250000000,0,0x0000,
0.709463166666667,0,0x851B,
0.709479041666667,0,0xBF3F,
0.709486958333333,0,0x8611,
0.709517541666667,0,0x0004,
0.709525208333333,0,0x0315,
0.709541458333333,0,0x0A01,
0.709549375000000,0,0x8315,
0.709565250000000,0,0x0F00,
0.709573166666667,0,0x8415,
0.709589000000000,0,0x0000,
0.709596916666667,0,0x851B,
0.709612791666667,0,0xBF3F,
0.709620708333333,0,0x8615,
0.709652333333333,0,0x0004,
0.709660041666667,0,0x0319,
0.709676250000000,0,0x0A01,
0.709684166666667,0,0x8319,
0.709700041666667,0,0x0F00,
0.709707958333333,0,0x8419,
0.709723833333333,0,0x0000,
0.709731750000000,0,0x851B,
0.709747583333333,0,0xBF3F,
0.709755541666667,0,0x8619,
0.709785958333333,0,0x0004,
0.709793666666667,0,0x031D,
0.709810041666667,0,0x0A01,
0.709818000000000,0,0x831D,
0.709833833333333,0,0x0F00,
0.709841791666667,0,0x841D,
0.709857625000000,0,0x0000,
0.709865541666667,0,0x851B,
0.709881416666667,0,0xBF3F,
0.709889333333333,0,0x861D,
0.709920041666667,0,0x0004,
0.709927750000000,0,0x0311,
0.709943833333333,0,0x0A01,
0.709951750000000,0,0x8311,
0.709967625000000,0,0x0F00,
0.709975541666667,0,0x8411,
0.709991416666667,0,0x0000,
0.709999333333333,0,0x851B,
0.710015166666667,0,0xB73F,
0.710023125000000,0,0x8611,
0.710053458333333,0,0x0001,
0.710061166666667,0,0x1D15,
0.710077625000000,0,0x1551,
0.710085541666667,0,0x9D15,
0.710113541666667,0,0x0003,
0.710121250000000,0,0x2419,
0.710137583333333,0,0x0048,
0.710145500000000,0,0xA41B,
0.710161333333333,0,0x0040,
0.710169250000000,0,0xA51B,
0.710185125000000,0,0x0000,
0.710193083333333,0,0xA61B,
0.710221500000000,0,0x0005,
0.710229166666667,0,0x2D1D,
0.710245541666667,0,0x3CF9,
0.710253500000000,0,0xAD1B,
0.710269333333333,0,0xFFFF,
0.710277291666667,0,0xAE1B,
0.710293125000000,0,0x6DA8,
0.710301041666667,0,0xAF1B,
0.710316916666667,0,0xFFFF,
0.710324833333333,0,0xB01B,
0.710340708333333,0,0x8309,
0.710348625000000,0,0xB11B,
0.710379083333333,0,0x0006,
0.710386750000000,0,0x3B11,
0.710403083333333,0,0xB3F2,
0.710411041666667,0,0xBB1B,
0.710426875000000,0,0xB348,
0.710434791666667,0,0xBC1B,
0.710450666666667,0,0xB2D1,
0.710458583333333,0,0xBD1B,
0.710474416666667,0,0xB215,
0.710482333333333,0,0xBE1B,
0.710498208333333,0,0xB219,
0.710506125000000,0,0xBF1B,
0.710521958333333,0,0xB28D,
0.710529916666667,0,0xC01B,
0.710559416666667,0,0x000A,
0.710567083333333,0,0x4115,
0.710583416666667,0,0xC0C5,
0.710591333333333,0,0xC11B,
0.710607166666667,0,0xC0C2,
0.710615083333333,0,0xC21B,
0.710630958333333,0,0xC0C5,
0.710638875000000,0,0xC31B,
0.710654750000000,0,0xC0C3,
0.710662666666667,0,0xC41B,
0.710678500000000,0,0xC0C5,
0.710686458333333,0,0xC51B,
0.710702291666667,0,0xE06F,
0.710710208333333,0,0xC61B,
0.710726083333333,0,0x8000,
0.710734000000000,0,0xC71B,
0.710749833333333,0,0xA306,
0.710757791666667,0,0xC81B,
0.710773583333333,0,0x9E3E,
0.710781541666667,0,0xC91B,
0.710797375000000,0,0x9E3E,
0.710805333333333,0,0xCA1B,
0.710838000000000,0,0x0004,
0.710845666666667,0,0x0329,
0.710861791666667,0,0x0A01,
0.710869666666667,0,0x8329,
0.710885375000000,0,0x0F00,
0.710893250000000,0,0x8429,
0.710908958333333,0,0x0000,
0.710916833333333,0,0x852B,
0.710932541666667,0,0xB73F,
0.710940416666667,0,0x8629,
0.710971375000000,0,0x0001,
0.710979041666667,0,0x1D2D,
0.710995458333333,0,0x0055,
0.711003333333333,0,0x9D2D,
0.711031000000000,0,0x0003,
0.711038666666667,0,0x2421,
0.711054958333333,0,0x004C,
0.711062791666667,0,0xA42B,
0.711078541666667,0,0x0040,
0.711086416666667,0,0xA52B,
0.711102125000000,0,0x0000,
0.711110000000000,0,0xA62B,
0.711138958333333,0,0x0005,
0.711146666666667,0,0x2D25,
0.711163041666667,0,0x3D8F,
0.711170916666667,0,0xAD2B,
0.711186625000000,0,0xFFFF,
0.711194500000000,0,0xAE2B,
0.711210250000000,0,0xCFB0,
0.711218125000000,0,0xAF2B,
0.711233833333333,0,0xFFFF,
0.711241666666667,0,0xB02B,
0.711257375000000,0,0x830B,
0.711265250000000,0,0xB12B,
0.711295916666667,0,0x0006,
0.711303625000000,0,0x3B29,
0.711319791666667,0,0xE552,
0.711327666666667,0,0xBB2B,
0.711343375000000,0,0x8002,
0.711351250000000,0,0xBC2B,
0.711366958333333,0,0x8000,
0.711374833333333,0,0xBD2B,
0.711390541666667,0,0x8001,
0.711398416666667,0,0xBE2B,
0.711414125000000,0,0xE5F0,
0.711421958333333,0,0xBF2B,
0.711437708333333,0,0xE605,
0.711445583333333,0,0xC02B,
0.711475750000000,0,0x000A,
0.711483416666667,0,0x412D,
0.711499625000000,0,0xDF0E,
0.711507500000000,0,0xC12B,
0.711523208333333,0,0xE014,
0.711531083333333,0,0xC22B,
0.711546791666667,0,0xE00F,
0.711554666666667,0,0xC32B,
0.711570375000000,0,0xE146,
0.711578250000000,0,0xC42B,
0.711594000000000,0,0xA98F,
0.711601833333333,0,0xC52B,
0.711617583333333,0,0xFF51,
0.711625458333333,0,0xC62B,
0.711641166666667,0,0xC011,
0.711649000000000,0,0xC72B,
0.711664750000000,0,0xA2E1,
0.711672583333333,0,0xC82B,
0.711688333333333,0,0x9E38,
0.711696208333333,0,0xC92B,
0.711711916666667,0,0x9E3F,
0.711719791666667,0,0xCA2B,
0.719366416666667,0,0xCC3F,
0.719374083333333,0,0x0603,
0.719400833333333,0,0x0004,
0.719408541666667,0,0x0315,
0.719424750000000,0,0x0A01,
0.719432666666667,0,0x8315,
0.719448500000000,0,0x0F00,
0.719456458333333,0,0x8415,
0.719472291666667,0,0x0000,
0.719480250000000,0,0x851C,
0.719496083333333,0,0xCF3F,
0.719504000000000,0,0x8615,
0.719535291666667,0,0x0004,
0.719542958333333,0,0x0319,
0.719559000000000,0,0x0A01,
0.719566916666667,0,0x8319,
0.719582791666667,0,0x0F00,
0.719590708333333,0,0x8419,
0.719606583333333,0,0x0000,
0.719614500000000,0,0x851C,
0.719630333333333,0,0xCF3F,
0.719638250000000,0,0x8619,
0.719669083333333,0,0x0004,
0.719676791666667,0,0x031D,
0.719692791666667,0,0x0A01,
0.719700708333333,0,0x831D,
0.719716583333333,0,0x0F00,
0.719724541666667,0,0x841D,
0.719740375000000,0,0x0000,
0.719748291666667,0,0x851C,
0.719764166666667,0,0xCF3F,
0.719772083333333,0,0x861D,
0.719803041666667,0,0x0004,
0.719810708333333,0,0x0311,
0.719827125000000,0,0x0A01,
0.719835041666667,0,0x8311,
0.719850916666667,0,0x0F00,
0.719858833333333,0,0x8411,
0.719874666666667,0,0x0000,
0.719882583333333,0,0x851C,
0.719898458333333,0,0xCF3F,
0.719906375000000,0,0x8611,
0.719938041666667,0,0x0004,
0.719945750000000,0,0x0315,
0.719961833333333,0,0x0A01,
0.719969750000000,0,0x8315,
0.719985625000000,0,0x0F00,
0.719993541666667,0,0x8415,
0.720009375000000,0,0x0000,
0.720017333333333,0,0x851C,
0.720033166666667,0,0xC73F,
0.720041125000000,0,0x8615,
0.720071875000000,0,0x0001,
0.720079583333333,0,0x1D19,
0.720095583333333,0,0x1551,
0.720103541666667,0,0x9D19,
0.720131958333333,0,0x0003,
0.720139666666667,0,0x241D,
0.720156041666667,0,0x0048,
0.720163958333333,0,0xA41C,
0.720179791666667,0,0x0040,
0.720187708333333,0,0xA51C,
0.720203583333333,0,0x0000,
0.720211500000000,0,0xA61C,
0.720240125000000,0,0x0005,
0.720247791666667,0,0x2D11,
0.720264000000000,0,0x3E03,
0.720271916666667,0,0xAD1C,
0.720287750000000,0,0xFFFF,
0.720295708333333,0,0xAE1C,
0.720311541666667,0,0x6B07,
0.720319458333333,0,0xAF1C,
0.720335333333333,0,0x8000,
0.720343250000000,0,0xB01C,
0.720359125000000,0,0x8300,
0.720367041666667,0,0xB11C,
0.720397708333333,0,0x0006,
0.720405375000000,0,0x3B15,
0.720421500000000,0,0xB3F6,
0.720429458333333,0,0xBB1C,
0.720445291666667,0,0xB345,
0.720453208333333,0,0xBC1C,
0.720469083333333,0,0xB2D4,
0.720477000000000,0,0xBD1C,
0.720492833333333,0,0xB21A,
0.720500791666667,0,0xBE1C,
0.720516625000000,0,0xB217,
0.720524583333333,0,0xBF1C,
0.720540416666667,0,0xB28E,
0.720548333333333,0,0xC01C,
0.720578625000000,0,0x000A,
0.720586333333333,0,0x4119,
0.720602333333333,0,0xC0C5,
0.720610250000000,0,0xC11C,
0.720626125000000,0,0xC0BF,
0.720634041666667,0,0xC21C,
0.720649875000000,0,0xC0C2,
0.720657833333333,0,0xC31C,
0.720673708333333,0,0xC0C6,
0.720681625000000,0,0xC41C,
0.720697500000000,0,0xC0C7,
0.720705416666667,0,0xC51C,
0.720721250000000,0,0xE06F,
0.720729166666667,0,0xC61C,
0.720745041666667,0,0x8000,
0.720752958333333,0,0xC71C,
0.720768833333333,0,0xA303,
0.720776750000000,0,0xC81C,
0.720792583333333,0,0x9E3D,
0.720800541666667,0,0xC91C,
0.720816375000000,0,0x9E3C,
0.720824291666667,0,0xCA1C,
0.720856916666667,0,0x0004,
0.720864625000000,0,0x032D,
0.720880791666667,0,0x0A01,
0.720888666666667,0,0x832D,
0.720904416666667,0,0x0F00,
0.720912291666667,0,0x842D,
0.720928000000000,0,0x0000,
0.720935833333333,0,0x852C,
0.720951541666667,0,0xC73F,
0.720959416666667,0,0x862D,
0.720990000000000,0,0x0001,
0.720997666666667,0,0x1D21,
0.721013958333333,0,0x0055,
0.721021833333333,0,0x9D21,
0.721049750000000,0,0x0003,
0.721057416666667,0,0x2425,
0.721073416666667,0,0x004C,
0.721081291666667,0,0xA42C,
0.721097000000000,0,0x0040,
0.721104875000000,0,0xA52C,
0.721120583333333,0,0x0000,
0.721128458333333,0,0xA62C,
0.721157291666667,0,0x0005,
0.721164958333333,0,0x2D29,
0.721181041666667,0,0x3E9B,
0.721188875000000,0,0xAD2C,
0.721204625000000,0,0xFFFF,
0.721212458333333,0,0xAE2C,
0.721228166666667,0,0xD007,
0.721236083333333,0,0xAF2C,
0.721251791666667,0,0xFFFF,
0.721259666666667,0,0xB02C,
0.721275333333333,0,0x830F,
0.721283208333333,0,0xB12C,
0.721313458333333,0,0x0006,
0.721321125000000,0,0x3B2D,
0.721337291666667,0,0xE552,
0.721345125000000,0,0xBB2C,
0.721360833333333,0,0x8004,
0.721368708333333,0,0xBC2C,
0.721384416666667,0,0x8000,
0.721392291666667,0,0xBD2C,
0.721408000000000,0,0x8000,
0.721415875000000,0,0xBE2C,
0.721431583333333,0,0xE5EE,
0.721439458333333,0,0xBF2C,
0.721455208333333,0,0xE607,
0.721463041666667,0,0xC02C,
0.721492583333333,0,0x000A,
0.721500250000000,0,0x4121,
0.721516625000000,0,0xDF0E,
0.721524458333333,0,0xC12C,
0.721540208333333,0,0xE015,
0.721548041666667,0,0xC22C,
0.721563791666667,0,0xE014,
0.721571666666667,0,0xC32C,
0.721587375000000,0,0xE14C,
0.721595250000000,0,0xC42C,
0.721610958333333,0,0xA993,
0.721618833333333,0,0xC52C,
0.721634541666667,0,0xFF52,
0.721642416666667,0,0xC62C,
0.721658125000000,0,0xC014,
0.721666000000000,0,0xC72C,
0.721681708333333,0,0xA2E3,
0.721689583333333,0,0xC82C,
0.721705291666667,0,0x9E39,
0.721713166666667,0,0xC92C,
0.721728875000000,0,0x9E41,
0.721736750000000,0,0xCA2C,
0.729353000000000,0,0xDC3F,
0.729360666666667,0,0x0607,
0.729388333333333,0,0x0004,
0.729396000000000,0,0x0319,
0.729412000000000,0,0x0A01,
0.729419916666667,0,0x8319,
0.729435791666667,0,0x0F00,
0.729443708333333,0,0x8419,
0.729459583333333,0,0x0000,
0.729467500000000,0,0x851D,
0.729483333333333,0,0xDF3F,
0.729491291666667,0,0x8619,
0.729522625000000,0,0x0004,
0.729530291666667,0,0x031D,
0.729546250000000,0,0x0A01,
0.729554166666667,0,0x831D,
0.729570041666667,0,0x0F00,
0.729577958333333,0,0x841D,
0.729593791666667,0,0x0000,
0.729601750000000,0,0x851D,
0.729617583333333,0,0xDF3F,
0.729625500000000,0,0x861D,
0.729656541666667,0,0x0004,
0.729664208333333,0,0x0311,
0.729680458333333,0,0x0A01,
0.729688416666667,0,0x8311,
0.729704250000000,0,0x0F00,
0.729712166666667,0,0x8411,
0.729728041666667,0,0x0000,
0.729735916666667,0,0x851D,
0.729751791666667,0,0xDF3F,
0.729759708333333,0,0x8611,
0.729790083333333,0,0x0004,
0.729797750000000,0,0x0315,
0.729814208333333,0,0x0A01,
0.729822125000000,0,0x8315,
0.729837958333333,0,0x0F00,
0.729845916666667,0,0x8415,
0.729861708333333,0,0x0000,
0.729869666666667,0,0x851D,
0.729885500000000,0,0xDF3F,
0.729893416666667,0,0x8615,
0.729924208333333,0,0x0004,
0.729931916666667,0,0x0319,
0.729947875000000,0,0x0A01,
0.729955791666667,0,0x8319,
0.729971625000000,0,0x0F00,
0.729979583333333,0,0x8419,
0.729995416666667,0,0x0000,
0.730003375000000,0,0x851D,
0.730019208333333,0,0xD73F,
0.730027125000000,0,0x8619,
0.730057500000000,0,0x0001,
0.730065166666667,0,0x1D1D,
0.730081625000000,0,0x1551,
0.730089541666667,0,0x9D1D,
0.730117375000000,0,0x0003,
0.730125041666667,0,0x2411,
0.730141083333333,0,0x0048,
0.730149000000000,0,0xA41D,
0.730164833333333,0,0x0040,
0.730172750000000,0,0xA51D,
0.730188625000000,0,0x0000,
0.730196541666667,0,0xA61D,
0.730226750000000,0,0x0005,
0.730234416666667,0,0x2D15,
0.730250541666667,0,0x3F0C,
0.730258458333333,0,0xAD1D,
0.730274291666667,0,0xFFFF,
0.730282250000000,0,0xAE1D,
0.730298083333333,0,0x6943,
0.730306041666667,0,0xAF1D,
0.730321875000000,0,0xFFFF,
0.730329791666667,0,0xB01D,
0.730345625000000,0,0x830E,
0.730353583333333,0,0xB11D,
0.730383500000000,0,0x0006,
0.730391166666667,0,0x3B19,
0.730407541666667,0,0xB3F9,
0.730415458333333,0,0xBB1D,
0.730431333333333,0,0xB349,
0.730439250000000,0,0xBC1D,
0.730455083333333,0,0xB2D5,
0.730463000000000,0,0xBD1D,
0.730478833333333,0,0xB218,
0.730486791666667,0,0xBE1D,
0.730502625000000,0,0xB21A,
0.730510541666667,0,0xBF1D,
0.730526416666667,0,0xB28C,
0.730534333333333,0,0xC01D,
0.730564916666667,0,0x000A,
0.730572583333333,0,0x411D,
0.730588833333333,0,0xC0C2,
0.730596750000000,0,0xC11D,
0.730612583333333,0,0xC0BC,
0.730620500000000,0,0xC21D,
0.730636375000000,0,0xC0C1,
0.730644291666667,0,0xC31D,
0.730660166666667,0,0xC0C1,
0.730668083333333,0,0xC41D,
0.730683958333333,0,0xC0C3,
0.730691875000000,0,0xC51D,
0.730707708333333,0,0xE06B,
0.730715666666667,0,0xC61D,
0.730731500000000,0,0x8000,
0.730739416666667,0,0xC71D,
0.730755250000000,0,0xA302,
0.730763208333333,0,0xC81D,
0.730779041666667,0,0x9E38,
0.730786958333333,0,0xC91D,
0.730802833333333,0,0x9E3B,
0.730810750000000,0,0xCA1D,
0.730842625000000,0,0x0004,
0.730850291666667,0,0x0321,
0.730866500000000,0,0x0A01,
0.730874375000000,0,0x8321,
0.730890083333333,0,0x0F00,
0.730897958333333,0,0x8421,
0.730913666666667,0,0x0000,
0.730921541666667,0,0x852D,
0.730937250000000,0,0xD73F,
0.730945125000000,0,0x8621,
0.730975666666667,0,0x0001,
0.730983333333333,0,0x1D25,
0.730999708333333,0,0x0055,
0.731007541666667,0,0x9D25,
0.731035541666667,0,0x0003,
0.731043208333333,0,0x2429,
0.731059625000000,0,0x004C,
0.731067500000000,0,0xA42D,
0.731083208333333,0,0x0040,
0.731091083333333,0,0xA52D,
0.731106791666667,0,0x0000,
0.731114666666667,0,0xA62D,
0.731144041666667,0,0x0005,
0.731151750000000,0,0x2D2D,
0.731167750000000,0,0x3FA6,
0.731175625000000,0,0xAD2D,
0.731191333333333,0,0xFFFF,
0.731199208333333,0,0xAE2D,
0.731214916666667,0,0xCFDF,
0.731222791666667,0,0xAF2D,
0.731238541666667,0,0xFFFF,
0.731246375000000,0,0xB02D,
0.731262083333333,0,0x830F,
0.731269958333333,0,0xB12D,
0.731300916666667,0,0x0006,
0.731308583333333,0,0x3B21,
0.731325000000000,0,0xE554,
0.731332875000000,0,0xBB2D,
0.731348583333333,0,0x8000,
0.731356458333333,0,0xBC2D,
0.731372166666667,0,0x8003,
0.731380041666667,0,0xBD2D,
0.731395791666667,0,0x8003,
0.731403625000000,0,0xBE2D,
0.731419333333333,0,0xE5F1,
0.731427208333333,0,0xBF2D,
0.731442916666667,0,0xE605,
0.731450791666667,0,0xC02D,
0.731482000000000,0,0x000A,
0.731489666666667,0,0x4125,
0.731505833333333,0,0xDF13,
0.731513708333333,0,0xC12D,
0.731529416666667,0,0xE019,
0.731537291666667,0,0xC22D,
0.731553000000000,0,0xE014,
0.731560875000000,0,0xC32D,
0.731576625000000,0,0xE14C,
0.731584458333333,0,0xC42D,
0.731600208333333,0,0xA98E,
0.731608041666667,0,0xC52D,
0.731623791666667,0,0xFF55,
0.731631625000000,0,0xC62D,
0.731647375000000,0,0xC013,
0.731655208333333,0,0xC72D,
0.731670916666667,0,0xA2E1,
0.731678791666667,0,0xC82D,
0.731694500000000,0,0x9E3B,
0.731702375000000,0,0xC92D,
0.731718125000000,0,0x9E42,
0.731726000000000,0,0xCA2D,
0.739362500000000,0,0xEC3F,
0.739370166666667,0,0x060B,
0.739397791666667,0,0x0004,
0.739405458333333,0,0x031D,
0.739421916666667,0,0x0A01,
0.739429875000000,0,0x831D,
0.739445708333333,0,0x0F00,
0.739453625000000,0,0x841D,
0.739469500000000,0,0x0000,
0.739477416666667,0,0x851E,
0.739493291666667,0,0xEF3F,
0.739501208333333,0,0x861D,
0.739531375000000,0,0x0004,
0.739539041666667,0,0x0311,
0.739555208333333,0,0x0A01,
0.739563166666667,0,0x8311,
0.739579000000000,0,0x0F00,
0.739586916666667,0,0x8411,
0.739602791666667,0,0x0000,
0.739610708333333,0,0x851E,
0.739626541666667,0,0xEF3F,
0.739634458333333,0,0x8611,
0.739666041666667,0,0x0004,
0.739673750000000,0,0x0315,
0.739689958333333,0,0x0A01,
0.739697916666667,0,0x8315,
0.739713791666667,0,0x0F00,
0.739721708333333,0,0x8415,
0.739737541666667,0,0x0000,
0.739745500000000,0,0x851E,
0.739761333333333,0,0xEF3F,
0.739769291666667,0,0x8615,
0.739800083333333,0,0x0004,
0.739807791666667,0,0x0319,
0.739823791666667,0,0x0A01,
0.739831708333333,0,0x8319,
0.739847541666667,0,0x0F00,
0.739855500000000,0,0x8419,
0.739871333333333,0,0x0000,
0.739879250000000,0,0x851E,
0.739895125000000,0,0xEF3F,
0.739903041666667,0,0x8619,
0.739934125000000,0,0x0004,
0.739941791666667,0,0x031D,
0.739958000000000,0,0x0A01,
0.739965916666667,0,0x831D,
0.739981750000000,0,0x0F00,
0.739989708333333,0,0x841D,
0.740005541666667,0,0x0000,
0.740013458333333,0,0x851E,
0.740029333333333,0,0xE73F,
0.740037250000000,0,0x861D,
0.740068208333333,0,0x0001,
0.740075875000000,0,0x1D11,
0.740092208333333,0,0x1551,
0.740100166666667,0,0x9D11,
0.740128000000000,0,0x0003,
0.740135666666667,0,0x2415,
0.740152166666667,0,0x0048,
0.740160083333333,0,0xA41E,
0.740175916666667,0,0x0040,
0.740183875000000,0,0xA51E,
0.740199708333333,0,0x0000,
0.740207625000000,0,0xA61E,
0.740237416666667,0,0x0005,
0.740245083333333,0,0x2D19,
0.740261125000000,0,0x4016,
0.740269041666667,0,0xAD1E,
0.740284875000000,0,0xFFFF,
0.740292791666667,0,0xAE1E,
0.740308666666667,0,0x6719,
0.740316583333333,0,0xAF1E,
0.740332416666667,0,0xFFFF,
0.740340375000000,0,0xB01E,
0.740356208333333,0,0x8309,
0.740364125000000,0,0xB11E,
0.740394333333333,0,0x0006,
0.740402041666667,0,0x3B1D,
0.740418125000000,0,0xB3F4,
0.740426041666667,0,0xBB1E,
0.740441875000000,0,0xB344,
0.740449791666667,0,0xBC1E,
0.740465666666667,0,0xB2D7,
0.740473583333333,0,0xBD1E,
0.740489416666667,0,0xB21B,
0.740497333333333,0,0xBE1E,
0.740513208333333,0,0xB217,
0.740521125000000,0,0xBF1E,
0.740537000000000,0,0xB289,
0.740544916666667,0,0xC01E,
0.740574375000000,0,0x000A,
0.740582041666667,0,0x4111,
0.740598416666667,0,0xC0C1,
0.740606291666667,0,0xC11E,
0.740622166666667,0,0xC0BA,
0.740630083333333,0,0xC21E,
0.740645958333333,0,0xC0C1,
0.740653875000000,0,0xC31E,
0.740669750000000,0,0xC0C3,
0.740677666666667,0,0xC41E,
0.740693500000000,0,0xC0C4,
0.740701416666667,0,0xC51E,
0.740717250000000,0,0xE06D,
0.740725208333333,0,0xC61E,
0.740741041666667,0,0x8000,
0.740748958333333,0,0xC71E,
0.740764833333333,0,0xA304,
0.740772750000000,0,0xC81E,
0.740788583333333,0,0x9E37,
0.740796500000000,0,0xC91E,
0.740812375000000,0,0x9E3E,
0.740820291666667,0,0xCA1E,
0.740852875000000,0,0x0004,
0.740860583333333,0,0x0325,
0.740876708333333,0,0x0A01,
0.740884583333333,0,0x8325,
0.740900291666667,0,0x0F00,
0.740908166666667,0,0x8425,
0.740923875000000,0,0x0000,
0.740931750000000,0,0x852E,
0.740947458333333,0,0xE73F,
0.740955333333333,0,0x8625,
0.740986916666667,0,0x0001,
0.740994625000000,0,0x1D29,
0.741010833333333,0,0x0055,
0.741018708333333,0,0x9D29,
0.741046958333333,0,0x0003,
0.741054625000000,0,0x242D,
0.741070791666667,0,0x004C,
0.741078666666667,0,0xA42E,
0.741094375000000,0,0x0040,
0.741102250000000,0,0xA52E,
0.741117958333333,0,0x0000,
0.741125833333333,0,0xA62E,
0.741154958333333,0,0x0005,
0.741162625000000,0,0x2D21,
0.741178916666667,0,0x40B2,
0.741186750000000,0,0xAD2E,
0.741202500000000,0,0xFFFF,
0.741210375000000,0,0xAE2E,
0.741226083333333,0,0xCF83,
0.741233958333333,0,0xAF2E,
0.741249666666667,0,0xFFFF,
0.741257541666667,0,0xB02E,
0.741273250000000,0,0x830A,
0.741281125000000,0,0xB12E,
0.741312625000000,0,0x0006,
0.741320291666667,0,0x3B25,
0.741336625000000,0,0xE552,
0.741344500000000,0,0xBB2E,
0.741360250000000,0,0x8000,
0.741368083333333,0,0xBC2E,
0.741383833333333,0,0x8000,
0.741391666666667,0,0xBD2E,
0.741407416666667,0,0x8000,
0.741415250000000,0,0xBE2E,
0.741431000000000,0,0xE5F2,
0.741438833333333,0,0xBF2E,
0.741454583333333,0,0xE607,
0.741462416666667,0,0xC02E,
0.741492208333333,0,0x000A,
0.741499916666667,0,0x4129,
0.741516000000000,0,0xDF11,
0.741523833333333,0,0xC12E,
0.741539583333333,0,0xE019,
0.741547458333333,0,0xC22E,
0.741563166666667,0,0xE014,
0.741571041666667,0,0xC32E,
0.741586750000000,0,0xE14C,
0.741594625000000,0,0xC42E,
0.741610333333333,0,0xA991,
0.741618208333333,0,0xC52E,
0.741633916666667,0,0xFF54,
0.741641791666667,0,0xC62E,
0.741657500000000,0,0xC014,
0.741665375000000,0,0xC72E,
0.741681083333333,0,0xA2E0,
0.741688958333333,0,0xC82E,
0.741704666666667,0,0x9E3C,
0.741712541666667,0,0xC92E,
0.741728291666667,0,0x9E3F,
0.741736125000000,0,0xCA2E,
0.749358041666667,0,0xFC3F,
0.749365708333333,0,0x060F,
0.749393125000000,0,0x0004,
0.749400791666667,0,0x0311,
0.749416958333333,0,0x0A01,
0.749424875000000,0,0x8311,
0.749440750000000,0,0x0F00,
0.749448666666667,0,0x8411,
0.749464541666667,0,0x0000,
0.749472458333333,0,0x851F,
0.749488333333333,0,0xFF3F,
0.749496250000000,0,0x8611,
0.749527583333333,0,0x0004,
0.749535250000000,0,0x0315,
0.749551708333333,0,0x0A01,
0.749559625000000,0,0x8315,
0.749575500000000,0,0x0F00,
0.749583416666667,0,0x8415,
0.749599250000000,0,0x0000,
0.749607208333333,0,0x851F,
0.749623041666667,0,0xFF3F,
0.749631000000000,0,0x8615,
0.749662666666667,0,0x0004,
0.749670333333333,0,0x0319,
0.749686458333333,0,0x0A01,
0.749694375000000,0,0x8319,
0.749710250000000,0,0x0F00,
0.749718208333333,0,0x8419,
0.749734041666667,0,0x0000,
0.749741958333333,0,0x851F,
0.749757833333333,0,0xFF3F,
0.749765750000000,0,0x8619,
0.749796583333333,0,0x0004,
0.749804291666667,0,0x031D,
0.749820250000000,0,0x0A01,
0.749828166666667,0,0x831D,
0.749844041666667,0,0x0F00,
0.749851958333333,0,0x841D,
0.749867791666667,0,0x0000,
0.749875750000000,0,0x851F,
0.749891583333333,0,0xFF3F,
0.749899500000000,0,0x861D,
0.749930125000000,0,0x0004,
0.749937833333333,0,0x0311,
0.749954000000000,0,0x0A01,
0.749961916666667,0,0x8311,
0.749977750000000,0,0x0F00,
0.749985708333333,0,0x8411,
0.750001541666667,0,0x0000,
0.750009458333333,0,0x851F,
0.750025333333333,0,0xF73F,
0.750033250000000,0,0x8611,
0.750064333333333,0,0x0001,
0.750072000000000,0,0x1D15,
0.750088208333333,0,0x1551,
0.750096125000000,0,0x9D15,
0.750124375000000,0,0x0003,
0.750132041666667,0,0x2419,
0.750148125000000,0,0x0048,
0.750156083333333,0,0xA41F,
0.750171916666667,0,0x0040,
0.750179833333333,0,0xA51F,
0.750195708333333,0,0x0000,
0.750203625000000,0,0xA61F,
0.750232916666667,0,0x0005,
0.750240625000000,0,0x2D1D,
0.750256625000000,0,0x4120,
0.750264541666667,0,0xAD1F,
0.750280375000000,0,0xFFFF,
0.750288333333333,0,0xAE1F,
0.750304166666667,0,0x64F3,
0.750312083333333,0,0xAF1F,
0.750327916666667,0,0xFFFF,
0.750335875000000,0,0xB01F,
0.750351708333333,0,0x8309,
0.750359625000000,0,0xB11F,
0.750389333333333,0,0x0006,
0.750397041666667,0,0x3B11,
0.750413125000000,0,0xB3F6,
0.750421041666667,0,0xBB1F,
0.750436916666667,0,0xB344,
0.750444833333333,0,0xBC1F,
0.750460708333333,0,0xB2D7,
0.750468625000000,0,0xBD1F,
0.750484500000000,0,0xB215,
0.750492416666667,0,0xBE1F,
0.750508250000000,0,0xB219,
0.750516208333333,0,0xBF1F,
0.750532041666667,0,0xB28E,
0.750539958333333,0,0xC01F,
0.750569875000000,0,0x000A,
0.750577583333333,0,0x4115,
0.750593958333333,0,0xC0C5,
0.750601875000000,0,0xC11F,
0.750617750000000,0,0xC0BE,
0.750625666666667,0,0xC21F,
0.750641541666667,0,0xC0C1,
0.750649458333333,0,0xC31F,
0.750665333333333,0,0xC0C3,
0.750673250000000,0,0xC41F,
0.750689083333333,0,0xC0C3,
0.750697000000000,0,0xC51F,
0.750712875000000,0,0xE06F,
0.750720791666667,0,0xC61F,
0.750736625000000,0,0x8000,
0.750744541666667,0,0xC71F,
0.750760416666667,0,0xA303,
0.750768333333333,0,0xC81F,
0.750784208333333,0,0x9E3C,
0.750792125000000,0,0xC91F,
0.750807958333333,0,0x9E3F,
0.750815916666667,0,0xCA1F,
0.750848416666667,0,0x0004,
0.750856083333333,0,0x0329,
0.750872125000000,0,0x0A01,
0.750880000000000,0,0x8329,
0.750895708333333,0,0x0F00,
0.750903583333333,0,0x8429,
0.750919333333333,0,0x0000,
0.750927166666667,0,0x852F,
0.750942916666667,0,0xF73F,
0.750950750000000,0,0x8629,
0.750982083333333,0,0x0001,
0.750989750000000,0,0x1D2D,
0.751005791666667,0,0x0055,
0.751013666666667,0,0x9D2D,
0.751041416666667,0,0x0003,
0.751049125000000,0,0x2421,
0.751065250000000,0,0x004C,
0.751073125000000,0,0xA42F,
0.751088833333333,0,0x0040,
0.751096708333333,0,0xA52F,
0.751112416666667,0,0x0000,
0.751120291666667,0,0xA62F,
0.751149291666667,0,0x0005,
0.751156958333333,0,0x2D25,
0.751172875000000,0,0x41BE,
0.751180750000000,0,0xAD2F,
0.751196458333333,0,0xFFFF,
0.751204333333333,0,0xAE2F,
0.751220083333333,0,0xCE06,
0.751227958333333,0,0xAF2F,
0.751243666666667,0,0xFFFF,
0.751251500000000,0,0xB02F,
0.751267250000000,0,0x830B,
0.751275125000000,0,0xB12F,
0.751305458333333,0,0x0006,
0.751313166666667,0,0x3B29,
0.751329166666667,0,0xE555,
0.751337000000000,0,0xBB2F,
0.751352750000000,0,0x8000,
0.751360583333333,0,0xBC2F,
0.751376333333333,0,0x8004,
0.751384208333333,0,0xBD2F,
0.751399916666667,0,0x8000,
0.751407791666667,0,0xBE2F,
0.751423500000000,0,0xE5F7,
0.751431375000000,0,0xBF2F,
0.751447125000000,0,0xE610,
0.751454958333333,0,0xC02F,
0.751486125000000,0,0x000A,
0.751493791666667,0,0x412D,
0.751510000000000,0,0xDF08,
0.751517875000000,0,0xC12F,
0.751533625000000,0,0xE013,
0.751541500000000,0,0xC22F,
0.751557208333333,0,0xE013,
0.751565083333333,0,0xC32F,
0.751580791666667,0,0xE149,
0.751588666666667,0,0xC42F,
0.751604375000000,0,0xA98E,
0.751612208333333,0,0xC52F,
0.751627958333333,0,0xFF51,
0.751635833333333,0,0xC62F,
0.751651541666667,0,0xC011,
0.751659416666667,0,0xC72F,
0.751675125000000,0,0xA2E5,
0.751682958333333,0,0xC82F,
0.751698708333333,0,0x9E3B,
0.751706541666667,0,0xC92F,
0.751722291666667,0,0x9E44,
0.751730125000000,0,0xCA2F,
0.759525250000000,0,0x0C3F,
0.759532916666667,0,0x0603,
0.759560291666667,0,0x0004,
0.759567958333333,0,0x0315,
0.759584000000000,0,0x0A01,
0.759591916666667,0,0x8315,
0.759607791666667,0,0x0F00,
0.759615708333333,0,0x8415,
0.759631583333333,0,0x0000,
0.759639500000000,0,0x8510,
0.759655333333333,0,0x0F3F,
0.759663291666667,0,0x8615,
0.759693916666667,0,0x0004,
0.759701625000000,0,0x0319,
0.759717750000000,0,0x0A01,
0.759725708333333,0,0x8319,
0.759741541666667,0,0x0F00,
0.759749458333333,0,0x8419,
0.759765333333333,0,0x0000,
0.759773291666667,0,0x8510,
0.759789125000000,0,0x0F3F,
0.759797083333333,0,0x8619,
0.759827541666667,0,0x0004,
0.759835208333333,0,0x031D,
0.759851583333333,0,0x0A01,
0.759859500000000,0,0x831D,
0.759875333333333,0,0x0F00,
0.759883291666667,0,0x841D,
0.759899125000000,0,0x0000,
0.759907083333333,0,0x8510,
0.759922916666667,0,0x0F3F,
0.759930833333333,0,0x861D,
0.759960958333333,0,0x0004,
0.759968666666667,0,0x0311,
0.759984875000000,0,0x0A01,
0.759992791666667,0,0x8311,
0.760008666666667,0,0x0F00,
0.760016583333333,0,0x8411,
0.760032458333333,0,0x0000,
0.760040375000000,0,0x8510,
0.760056208333333,0,0x0F3F,
0.760064166666667,0,0x8611,
0.760094125000000,0,0x0004,
0.760101791666667,0,0x0315,
0.760118166666667,0,0x0A01,
0.760126083333333,0,0x8315,
0.760141958333333,0,0x0F00,
0.760149875000000,0,0x8415,
0.760165750000000,0,0x0000,
0.760173666666667,0,0x8510,
0.760189500000000,0,0x073F,
0.760197458333333,0,0x8615,
0.760228041666667,0,0x0001,
0.760235708333333,0,0x1D19,
0.760251958333333,0,0x1551,
0.760259875000000,0,0x9D19,
0.760287958333333,0,0x0003,
0.760295625000000,0,0x241D,
0.760311916666667,0,0x0048,
0.760319833333333,0,0xA410,
0.760335666666667,0,0x0040,
0.760343625000000,0,0xA510,
0.760359458333333,0,0x0000,
0.760367375000000,0,0xA610,
0.760396791666667,0,0x0005,
0.760404458333333,0,0x2D11,
0.760420916666667,0,0x422E,
0.760428833333333,0,0xAD10,
0.760444666666667,0,0xFFFF,
0.760452625000000,0,0xAE10,
0.760468458333333,0,0x63D5,
0.760476416666667,0,0xAF10,
0.760492250000000,0,0x8000,
0.760500166666667,0,0xB010,
0.760516041666667,0,0x8301,
0.760523958333333,0,0xB110,
0.760553583333333,0,0x0006,
0.760561291666667,0,0x3B15,
0.760577458333333,0,0xB3FA,
0.760585375000000,0,0xBB10,
0.760601250000000,0,0xB349,
0.760609166666667,0,0xBC10,
0.760625000000000,0,0xB2DD,
0.760632958333333,0,0xBD10,
0.760648791666667,0,0xB21C,
0.760656708333333,0,0xBE10,
0.760672583333333,0,0xB21C,
0.760680500000000,0,0xBF10,
0.760696333333333,0,0xB291,
0.760704291666667,0,0xC010,
0.760734458333333,0,0x000A,
0.760742166666667,0,0x4119,
0.760758291666667,0,0xC0C4,
0.760766208333333,0,0xC110,
0.760782083333333,0,0xC0BE,
0.760790000000000,0,0xC210,
0.760805833333333,0,0xC0C2,
0.760813750000000,0,0xC310,
0.760829625000000,0,0xC0C3,
0.760837541666667,0,0xC410,
0.760853375000000,0,0xC0C6,
0.760861333333333,0,0xC510,
0.760877166666667,0,0xE070,
0.760885083333333,0,0xC610,
0.760900958333333,0,0x8000,
0.760908875000000,0,0xC710,
0.760924708333333,0,0xA304,
0.760932666666667,0,0xC810,
0.760948500000000,0,0x9E35,
0.760956416666667,0,0xC910,
0.760972291666667,0,0x9E3D,
0.760980208333333,0,0xCA10,
0.761011750000000,0,0x0004,
0.761019416666667,0,0x032D,
0.761035458333333,0,0x0A01,
0.761043333333333,0,0x832D,
0.761059083333333,0,0x0F00,
0.761066916666667,0,0x842D,
0.761082666666667,0,0x0000,
0.761090500000000,0,0x8520,
0.761106208333333,0,0x073F,
0.761114083333333,0,0x862D,
0.761144666666667,0,0x0001,
0.761152333333333,0,0x1D21,
0.761168625000000,0,0x0055,
0.761176500000000,0,0x9D21,
0.761204708333333,0,0x0003,
0.761212416666667,0,0x2425,
0.761228583333333,0,0x004C,
0.761236458333333,0,0xA420,
0.761252166666667,0,0x0040,
0.761260041666667,0,0xA520,
0.761275750000000,0,0x0000,
0.761283625000000,0,0xA620,
0.761311750000000,0,0x0005,
0.761319416666667,0,0x2D29,
0.761335708333333,0,0x42CE,
0.761343583333333,0,0xAD20,
0.761359291666667,0,0xFFFF,
0.761367166666667,0,0xAE20,
0.761382875000000,0,0xCD63,
0.761390750000000,0,0xAF20,
0.761406458333333,0,0xFFFF,
0.761414333333333,0,0xB020,
0.761430041666667,0,0x830F,
0.761437916666667,0,0xB120,
0.761467000000000,0,0x0006,
0.761474708333333,0,0x3B2D,
0.761491000000000,0,0xE55C,
0.761498875000000,0,0xBB20,
0.761514583333333,0,0x8002,
0.761522458333333,0,0xBC20,
0.761538166666667,0,0x8001,
0.761546041666667,0,0xBD20,
0.761561791666667,0,0x8002,
0.761569625000000,0,0xBE20,
0.761585375000000,0,0xE5F7,
0.761593250000000,0,0xBF20,
0.761608958333333,0,0xE60F,
0.761616791666667,0,0xC020,
0.761646708333333,0,0x000A,
0.761654375000000,0,0x4121,
0.761670375000000,0,0xDF0F,
0.761678250000000,0,0xC120,
0.761693958333333,0,0xE00C,
0.761701833333333,0,0xC220,
0.761717583333333,0,0xE011,
0.761725416666667,0,0xC320,
0.761741125000000,0,0xE14C,
0.761749000000000,0,0xC420,
0.761764750000000,0,0xA993,
0.761772583333333,0,0xC520,
0.761788333333333,0,0xFF51,
0.761796166666667,0,0xC620,
0.761811916666667,0,0xC011,
0.761819750000000,0,0xC720,
0.761835500000000,0,0xA2E3,
0.761843375000000,0,0xC820,
0.761859083333333,0,0x9E38,
0.761866958333333,0,0xC920,
0.761882666666667,0,0x9E44,
0.761890541666667,0,0xCA20,
0.769398916666667,0,0x1C3F,
0.769406583333333,0,0x0607,
0.769433958333333,0,0x0004,
0.769441666666667,0,0x0319,
0.769457708333333,0,0x0A01,
0.769465625000000,0,0x8319,
0.769481458333333,0,0x0F00,
0.769489416666667,0,0x8419,
0.769505250000000,0,0x0000,
0.769513208333333,0,0x8511,
0.769529041666667,0,0x1F3F,
0.769537000000000,0,0x8619,
0.769567750000000,0,0x0004,
0.769575416666667,0,0x031D,
0.769591500000000,0,0x0A01,
0.769599416666667,0,0x831D,
0.769615250000000,0,0x0F00,
0.769623208333333,0,0x841D,
0.769639041666667,0,0x0000,
0.769646958333333,0,0x8511,
0.769662833333333,0,0x1F3F,
0.769670750000000,0,0x861D,
0.769701500000000,0,0x0004,
0.769709166666667,0,0x0311,
0.769725250000000,0,0x0A01,
0.769733166666667,0,0x8311,
0.769749041666667,0,0x0F00,
0.769756958333333,0,0x8411,
0.769772833333333,0,0x0000,
0.769780750000000,0,0x8511,
0.769796625000000,0,0x1F3F,
0.769804541666667,0,0x8611,
0.769835125000000,0,0x0004,
0.769842833333333,0,0x0315,
0.769859083333333,0,0x0A01,
0.769867000000000,0,0x8315,
0.769882833333333,0,0x0F00,
0.769890750000000,0,0x8415,
0.769906625000000,0,0x0000,
0.769914583333333,0,0x8511,
0.769930416666667,0,0x1F3F,
0.769938333333333,0,0x8615,
0.769969250000000,0,0x0004,
0.769976916666667,0,0x0319,
0.769993291666667,0,0x0A01,
0.770001208333333,0,0x8319,
0.770017083333333,0,0x0F00,
0.770025000000000,0,0x8419,
0.770040833333333,0,0x0000,
0.770048791666667,0,0x8511,
0.770064625000000,0,0x173F,
0.770072541666667,0,0x8619,
0.770102958333333,0,0x0001,
0.770110666666667,0,0x1D1D,
0.770127041666667,0,0x1551,
0.770134958333333,0,0x9D1D,
0.770162666666667,0,0x0003,
0.770170333333333,0,0x2411,
0.770186500000000,0,0x0048,
0.770194416666667,0,0xA411,
0.770210250000000,0,0x0040,
0.770218166666667,0,0xA511,
0.770234041666667,0,0x0000,
0.770241958333333,0,0xA611,
0.770271375000000,0,0x0005,
0.770279041666667,0,0x2D15,
0.770295458333333,0,0x4334,
0.770303416666667,0,0xAD11,
0.770319250000000,0,0xFFFF,
0.770327208333333,0,0xAE11,
0.770343041666667,0,0x619F,
0.770351000000000,0,0xAF11,
0.770366833333333,0,0x8000,
0.770374750000000,0,0xB011,
0.770390625000000,0,0x8300,
0.770398541666667,0,0xB111,
0.770427916666667,0,0x0006,
0.770435625000000,0,0x3B19,
0.770452041666667,0,0xB3FA,
0.770459958333333,0,0xBB11,
0.770475791666667,0,0xB34D,
0.770483750000000,0,0xBC11,
0.770499583333333,0,0xB2D9,
0.770507500000000,0,0xBD11,
0.770523375000000,0,0xB21B,
0.770531291666667,0,0xBE11,
0.770547166666667,0,0xB219,
0.770555083333333,0,0xBF11,
0.770570916666667,0,0xB28F,
0.770578833333333,0,0xC011,
0.770609625000000,0,0x000A,
0.770617291666667,0,0x411D,
0.770633333333333,0,0xC0C3,
0.770641250000000,0,0xC111,
0.770657125000000,0,0xC0BE,
0.770665041666667,0,0xC211,
0.770680875000000,0,0xC0BF,
0.770688791666667,0,0xC311,
0.770704666666667,0,0xC0C3,
0.770712583333333,0,0xC411,
0.770728458333333,0,0xC0C2,
0.770736375000000,0,0xC511,
0.770752250000000,0,0xE06F,
0.770760166666667,0,0xC611,
0.770776000000000,0,0x8000,
0.770783958333333,0,0xC711,
0.770799791666667,0,0xA305,
0.770807708333333,0,0xC811,
0.770823583333333,0,0x9E38,
0.770831500000000,0,0xC911,
0.770847375000000,0,0x9E3D,
0.770855291666667,0,0xCA11,
0.770887666666667,0,0x0004,
0.770895375000000,0,0x0321,
0.770911458333333,0,0x0A01,
0.770919291666667,0,0x8321,
0.770935041666667,0,0x0F00,
0.770942916666667,0,0x8421,
0.770958625000000,0,0x0000,
0.770966500000000,0,0x8521,
0.770982208333333,0,0x173F,
0.770990083333333,0,0x8621,
0.771020708333333,0,0x0001,
0.771028375000000,0,0x1D25,
0.771044625000000,0,0x0055,
0.771052458333333,0,0x9D25,
0.771080750000000,0,0x0003,
0.771088458333333,0,0x2429,
0.771104541666667,0,0x004C,
0.771112416666667,0,0xA421,
0.771128125000000,0,0x0040,
0.771136000000000,0,0xA521,
0.771151708333333,0,0x0000,
0.771159583333333,0,0xA621,
0.771188041666667,0,0x0005,
0.771195708333333,0,0x2D2D,
0.771212166666667,0,0x43D7,
0.771220000000000,0,0xAD21,
0.771235708333333,0,0xFFFF,
0.771243583333333,0,0xAE21,
0.771259333333333,0,0xCCBD,
0.771267166666667,0,0xAF21,
0.771282916666667,0,0x8000,
0.771290750000000,0,0xB021,
0.771306500000000,0,0x8305,
0.771314333333333,0,0xB121,
0.771344833333333,0,0x0006,
0.771352541666667,0,0x3B21,
0.771368875000000,0,0xE55E,
0.771376750000000,0,0xBB21,
0.771392458333333,0,0x8000,
0.771400333333333,0,0xBC21,
0.771416041666667,0,0x8000,
0.771423916666667,0,0xBD21,
0.771439625000000,0,0x8000,
0.771447500000000,0,0xBE21,
0.771463208333333,0,0xE5F9,
0.771471083333333,0,0xBF21,
0.771486791666667,0,0xE60E,
0.771494666666667,0,0xC021,
0.771525333333333,0,0x000A,
0.771533000000000,0,0x4125,
0.771549208333333,0,0xDF16,
0.771557083333333,0,0xC121,
0.771572791666667,0,0xE014,
0.771580666666667,0,0xC221,
0.771596375000000,0,0xE01A,
0.771604250000000,0,0xC321,
0.771619958333333,0,0xE151,
0.771627833333333,0,0xC421,
0.771643541666667,0,0xA996,
0.771651416666667,0,0xC521,
0.771667166666667,0,0xFF51,
0.771675000000000,0,0xC621,
0.771690750000000,0,0xC013,
0.771698583333333,0,0xC721,
0.771714333333333,0,0xA2E2,
0.771722166666667,0,0xC821,
0.771737916666667,0,0x9E3C,
0.771745791666667,0,0xC921,
0.771761500000000,0,0x9E3D,
0.771769375000000,0,0xCA21,
0.779357916666667,0,0x2C3F,
0.779365625000000,0,0x060B,
0.779392791666667,0,0x0004,
0.779400458333333,0,0x031D,
0.779416541666667,0,0x0A01,
0.779424458333333,0,0x831D,
0.779440333333333,0,0x0F00,
0.779448250000000,0,0x841D,
0.779464125000000,0,0x0000,
0.779472041666667,0,0x8512,
0.779487916666667,0,0x2F3F,
0.779495833333333,0,0x861D,
0.779526375000000,0,0x0004,
0.779534041666667,0,0x0311,
0.779550333333333,0,0x0A01,
0.779558250000000,0,0x8311,
0.779574125000000,0,0x0F00,
0.779582041666667,0,0x8411,
0.779597916666667,0,0x0000,
0.779605833333333,0,0x8512,
0.779621708333333,0,0x2F3F,
0.779629625000000,0,0x8611,
0.779660333333333,0,0x0004,
0.779668000000000,0,0x0315,
0.779684125000000,0,0x0A01,
0.779692041666667,0,0x8315,
0.779707916666667,0,0x0F00,
0.779715833333333,0,0x8415,
0.779731666666667,0,0x0000,
0.779739625000000,0,0x8512,
0.779755500000000,0,0x2F3F,
0.779763416666667,0,0x8615,
0.779793666666667,0,0x0004,
0.779801333333333,0,0x0319,
0.779817416666667,0,0x0A01,
0.779825333333333,0,0x8319,
0.779841166666667,0,0x0F00,
0.779849125000000,0,0x8419,
0.779864958333333,0,0x0000,
0.779872916666667,0,0x8512,
0.779888750000000,0,0x2F3F,
0.779896666666667,0,0x8619,
0.779928458333333,0,0x0004,
0.779936125000000,0,0x031D,
0.779952166666667,0,0x0A01,
0.779960041666667,0,0x831D,
0.779975916666667,0,0x0F00,
0.779983833333333,0,0x841D,
0.779999708333333,0,0x0000,
0.780007625000000,0,0x8512,
0.780023458333333,0,0x273F,
0.780031375000000,0,0x861D,
0.780062291666667,0,0x0001,
0.780070000000000,0,0x1D11,
0.780086375000000,0,0x1551,
0.780094291666667,0,0x9D11,
0.780122333333333,0,0x0003,
0.780130000000000,0,0x2415,
0.780146291666667,0,0x0048,
0.780154208333333,0,0xA412,
0.780170083333333,0,0x0040,
0.780178000000000,0,0xA512,
0.780193875000000,0,0x0000,
0.780201791666667,0,0xA612,
0.780230708333333,0,0x0005,
0.780238375000000,0,0x2D19,
0.780254791666667,0,0x443D,
0.780262708333333,0,0xAD12,
0.780278541666667,0,0xFFFF,
0.780286500000000,0,0xAE12,
0.780302333333333,0,0x5F34,
0.780310291666667,0,0xAF12,
0.780326125000000,0,0xFFFF,
0.780334041666667,0,0xB012,
0.780349875000000,0,0x830E,
0.780357833333333,0,0xB112,
0.780388166666667,0,0x0006,
0.780395875000000,0,0x3B1D,
0.780411833333333,0,0xB3F7,
0.780419750000000,0,0xBB12,
0.780435625000000,0,0xB348,
0.780443541666667,0,0xBC12,
0.780459375000000,0,0xB2D7,
0.780467333333333,0,0xBD12,
0.780483166666667,0,0xB217,
0.780491083333333,0,0xBE12,
0.780506958333333,0,0xB219,
0.780514875000000,0,0xBF12,
0.780530750000000,0,0xB28B,
0.780538666666667,0,0xC012,
0.780568083333333,0,0x000A,
0.780575750000000,0,0x4111,
0.780592125000000,0,0xC0C2,
0.780600083333333,0,0xC112,
0.780615916666667,0,0xC0C0,
0.780623833333333,0,0xC212,
0.780639708333333,0,0xC0C4,
0.780647625000000,0,0xC312,
0.780663458333333,0,0xC0C1,
0.780671416666667,0,0xC412,
0.780687250000000,0,0xC0C5,
0.780695166666667,0,0xC512,
0.780711000000000,0,0xE070,
0.780718958333333,0,0xC612,
0.780734791666667,0,0x8000,
0.780742750000000,0,0xC712,
0.780758583333333,0,0xA305,
0.780766500000000,0,0xC812,
0.780782333333333,0,0x9E3D,
0.780790291666667,0,0xC912,
0.780806125000000,0,0x9E40,
0.780814041666667,0,0xCA12,
0.780847041666667,0,0x0004,
0.780854708333333,0,0x0325,
0.780870833333333,0,0x0A01,
0.780878708333333,0,0x8325,
0.780894416666667,0,0x0F00,
0.780902291666667,0,0x8425,
0.780918000000000,0,0x0000,
0.780925875000000,0,0x8522,
0.780941583333333,0,0x273F,
0.780949458333333,0,0x8625,
0.780980208333333,0,0x0001,
0.780987916666667,0,0x1D29,
0.781004000000000,0,0x0055,
0.781011875000000,0,0x9D29,
0.781039708333333,0,0x0003,
0.781047375000000,0,0x242D,
0.781063458333333,0,0x004C,
0.781071333333333,0,0xA422,
0.781087041666667,0,0x0040,
0.781094916666667,0,0xA522,
0.781110625000000,0,0x0000,
0.781118500000000,0,0xA622,
0.781147750000000,0,0x0005,
0.781155416666667,0,0x2D21,
0.781171583333333,0,0x44E1,
0.781179416666667,0,0xAD22,
0.781195125000000,0,0xFFFF,
0.781203000000000,0,0xAE22,
0.781218750000000,0,0xCC08,
0.781226583333333,0,0xAF22,
0.781242291666667,0,0xFFFF,
0.781250166666667,0,0xB022,
0.781265916666667,0,0x8304,
0.781273750000000,0,0xB122,
0.781304875000000,0,0x0006,
0.781312583333333,0,0x3B25,
0.781328791666667,0,0xE55D,
0.781336666666667,0,0xBB22,
0.781352375000000,0,0x8001,
0.781360250000000,0,0xBC22,
0.781375958333333,0,0x8002,
0.781383833333333,0,0xBD22,
0.781399541666667,0,0x8002,
0.781407416666667,0,0xBE22,
0.781423125000000,0,0xE5FA,
0.781431000000000,0,0xBF22,
0.781446708333333,0,0xE60E,
0.781454583333333,0,0xC022,
0.781485250000000,0,0x000A,
0.781492916666667,0,0x4129,
0.781509125000000,0,0xDF13,
0.781517000000000,0,0xC122,
0.781532708333333,0,0xE019,
0.781540583333333,0,0xC222,
0.781556291666667,0,0xE018,
0.781564166666667,0,0xC322,
0.781579875000000,0,0xE156,
0.781587750000000,0,0xC422,
0.781603458333333,0,0xA993,
0.781611333333333,0,0xC522,
0.781627041666667,0,0xFF55,
0.781634916666667,0,0xC622,
0.781650625000000,0,0xC011,
0.781658500000000,0,0xC722,
0.781674208333333,0,0xA2E4,
0.781682083333333,0,0xC822,
0.781697833333333,0,0x9E3B,
0.781705666666667,0,0xC922,
0.781721416666667,0,0x9E40,
0.781729250000000,0,0xCA22,
0.789425916666667,0,0x3C3F,
0.789433583333333,0,0x060F,
0.789461583333333,0,0x0004,
0.789469291666667,0,0x0311,
0.789485708333333,0,0x0A01,
0.789493625000000,0,0x8311,
0.789509500000000,0,0x0F00,
0.789517416666667,0,0x8411,
0.789533291666667,0,0x0000,
0.789541208333333,0,0x8513,
0.789557083333333,0,0x3F3F,
0.789565000000000,0,0x8611,
0.789595541666667,0,0x0004,
0.789603166666667,0,0x0315,
0.789619500000000,0,0x0A01,
0.789627416666667,0,0x8315,
0.789643250000000,0,0x0F00,
0.789651208333333,0,0x8415,
0.789667083333333,0,0x0000,
0.789674958333333,0,0x8513,
0.789690833333333,0,0x3F3F,
0.789698750000000,0,0x8615,
0.789729416666667,0,0x0004,
0.789737083333333,0,0x0319,
0.789753250000000,0,0x0A01,
0.789761208333333,0,0x8319,
0.789777041666667,0,0x0F00,
0.789785000000000,0,0x8419,
0.789800833333333,0,0x0000,
0.789808791666667,0,0x8513,
0.789824625000000,0,0x3F3F,
0.789832583333333,0,0x8619,
0.789863083333333,0,0x0004,
0.789870750000000,0,0x031D,
0.789887083333333,0,0x0A01,
0.789895000000000,0,0x831D,
0.789910875000000,0,0x0F00,
0.789918791666667,0,0x841D,
0.789934666666667,0,0x0000,
0.789942583333333,0,0x8513,
0.789958416666667,0,0x3F3F,
0.789966333333333,0,0x861D,
0.789996083333333,0,0x0004,
0.790003791666667,0,0x0311,
0.790019875000000,0,0x0A01,
0.790027791666667,0,0x8311,
0.790043625000000,0,0x0F00,
0.790051541666667,0,0x8411,
0.790067416666667,0,0x0000,
0.790075333333333,0,0x8513,
0.790091166666667,0,0x373F,
0.790099083333333,0,0x8611,
0.790129500000000,0,0x0001,
0.790137166666667,0,0x1D15,
0.790153583333333,0,0x1551,
0.790161500000000,0,0x9D15,
0.790190291666667,0,0x0003,
0.790198000000000,0,0x2419,
0.790214000000000,0,0x0048,
0.790221958333333,0,0xA413,
0.790237791666667,0,0x0040,
0.790245708333333,0,0xA513,
0.790261583333333,0,0x0000,
0.790269500000000,0,0xA613,
0.790298250000000,0,0x0005,
0.790305958333333,0,0x2D1D,
0.790322000000000,0,0x4548,
0.790329916666667,0,0xAD13,
0.790345750000000,0,0xFFFF,
0.790353708333333,0,0xAE13,
0.790369541666667,0,0x5DF7,
0.790377458333333,0,0xAF13,
0.790393333333333,0,0x8000,
0.790401250000000,0,0xB013,
0.790417125000000,0,0x8305,
0.790425041666667,0,0xB113,
0.790455000000000,0,0x0006,
0.790462666666667,0,0x3B11,
0.790479000000000,0,0xB3F6,
0.790486958333333,0,0xBB13,
0.790502791666667,0,0xB34B,
0.790510708333333,0,0xBC13,
0.790526583333333,0,0xB2DB,
0.790534500000000,0,0xBD13,
0.790550375000000,0,0xB21E,
0.790558291666667,0,0xBE13,
0.790574125000000,0,0xB21E,
0.790582041666667,0,0xBF13,
0.790597916666667,0,0xB292,
0.790605833333333,0,0xC013,
0.790637208333333,0,0x000A,
0.790644875000000,0,0x4115,
0.790661291666667,0,0xC0C4,
0.790669250000000,0,0xC113,
0.790685083333333,0,0xC0C2,
0.790693041666667,0,0xC213,
0.790708875000000,0,0xC0C4,
0.790716791666667,0,0xC313,
0.790732666666667,0,0xC0C1,
0.790740583333333,0,0xC413,
0.790756416666667,0,0xC0C4,
0.790764375000000,0,0xC513,
0.790780208333333,0,0xE06A,
0.790788125000000,0,0xC613,
0.790803958333333,0,0x8001,
0.790811916666667,0,0xC713,
0.790827750000000,0,0xA305,
0.790835666666667,0,0xC813,
0.790851541666667,0,0x9E3B,
0.790859458333333,0,0xC913,
0.790875291666667,0,0x9E40,
0.790883208333333,0,0xCA13,
0.790915416666667,0,0x0004,
0.790923125000000,0,0x0329,
0.790939375000000,0,0x0A01,
0.790947208333333,0,0x8329,
0.790962958333333,0,0x0F00,
0.790970833333333,0,0x8429,
0.790986541666667,0,0x0000,
0.790994375000000,0,0x8523,
0.791010125000000,0,0x373F,
0.791017958333333,0,0x8629,
0.791047708333333,0,0x0001,
0.791055416666667,0,0x1D2D,
0.791071541666667,0,0x0055,
0.791079416666667,0,0x9D2D,
0.791107333333333,0,0x0003,
0.791115000000000,0,0x2421,
0.791131458333333,0,0x004C,
0.791139333333333,0,0xA423,
0.791155041666667,0,0x0040,
0.791162916666667,0,0xA523,
0.791178625000000,0,0x0000,
0.791186500000000,0,0xA623,
0.791215125000000,0,0x0005,
0.791222791666667,0,0x2D25,
0.791239083333333,0,0x45EF,
0.791246958333333,0,0xAD23,
0.791262625000000,0,0xFFFF,
0.791270500000000,0,0xAE23,
0.791286250000000,0,0xCBBA,
0.791294083333333,0,0xAF23,
0.791309833333333,0,0x8000,
0.791317708333333,0,0xB023,
0.791333416666667,0,0x8302,
0.791341291666667,0,0xB123,
0.791371000000000,0,0x0006,
0.791378666666667,0,0x3B29,
0.791394833333333,0,0xE55F,
0.791402708333333,0,0xBB23,
0.791418416666667,0,0x8000,
0.791426291666667,0,0xBC23,
0.791442000000000,0,0x8002,
0.791449875000000,0,0xBD23,
0.791465583333333,0,0x8003,
0.791473458333333,0,0xBE23,
0.791489166666667,0,0xE5FF,
0.791497041666667,0,0xBF23,
0.791512750000000,0,0xE612,
0.791520625000000,0,0xC023,
0.791551250000000,0,0x000A,
0.791558958333333,0,0x412D,
0.791575166666667,0,0xDF0F,
0.791583000000000,0,0xC123,
0.791598708333333,0,0xE015,
0.791606583333333,0,0xC223,
0.791622333333333,0,0xE018,
0.791630166666667,0,0xC323,
0.791645916666667,0,0xE154,
0.791653750000000,0,0xC423,
0.791669500000000,0,0xA993,
0.791677375000000,0,0xC523,
0.791693083333333,0,0xFF55,
0.791700916666667,0,0xC623,
0.791716666666667,0,0xC011,
0.791724541666667,0,0xC723,
0.791740250000000,0,0xA2E3,
0.791748125000000,0,0xC823,
0.791763833333333,0,0x9E39,
0.791771708333333,0,0xC923,
0.791787416666667,0,0x9E3F,
0.791795291666667,0,0xCA23,
0.799349541666667,0,0x4C3F,
0.799357208333333,0,0x0603,
0.799385375000000,0,0x0004,
0.799393083333333,0,0x0315,
0.799409125000000,0,0x0A01,
0.799417041666667,0,0x8315,
0.799432916666667,0,0x0F00,
0.799440833333333,0,0x8415,
0.799456666666667,0,0x0000,
0.799464625000000,0,0x8514,
0.799480458333333,0,0x4F3F,
0.799488375000000,0,0x8615,
0.799519333333333,0,0x0004,
0.799527000000000,0,0x0319,
0.799543375000000,0,0x0A01,
0.799551333333333,0,0x8319,
0.799567166666667,0,0x0F00,
0.799575083333333,0,0x8419,
0.799590958333333,0,0x0000,
0.799598875000000,0,0x8514,
0.799614708333333,0,0x4F3F,
0.799622666666667,0,0x8619,
0.799653291666667,0,0x0004,
0.799660958333333,0,0x031D,
0.799677166666667,0,0x0A01,
0.799685083333333,0,0x831D,
0.799700958333333,0,0x0F00,
0.799708875000000,0,0x841D,
0.799724750000000,0,0x0000,
0.799732666666667,0,0x8514,
0.799748541666667,0,0x4F3F,
0.799756458333333,0,0x861D,
0.799787291666667,0,0x0004,
0.799794958333333,0,0x0311,
0.799810958333333,0,0x0A01,
0.799818875000000,0,0x8311,
0.799834750000000,0,0x0F00,
0.799842666666667,0,0x8411,
0.799858500000000,0,0x0000,
0.799866458333333,0,0x8514,
0.799882291666667,0,0x4F3F,
0.799890208333333,0,0x8611,
0.799919791666667,0,0x0004,
0.799927500000000,0,0x0315,
0.799943708333333,0,0x0A01,
0.799951625000000,0,0x8315,
0.799967458333333,0,0x0F00,
0.799975416666667,0,0x8415,
0.799991250000000,0,0x0000,
0.799999166666667,0,0x8514,
0.800015041666667,0,0x473F,
0.800022958333333,0,0x8615,
0.800054000000000,0,0x0001,
0.800061666666667,0,0x1D19,
0.800077916666667,0,0x1551,
0.800085833333333,0,0x9D19,
0.800114208333333,0,0x0003,
0.800121916666667,0,0x241D,
0.800138333333333,0,0x0048,
0.800146250000000,0,0xA414,
0.800162125000000,0,0x0040,
0.800170041666667,0,0xA514,
0.800185875000000,0,0x0000,
0.800193791666667,0,0xA614,
0.800223291666667,0,0x0005,
0.800231000000000,0,0x2D11,
0.800247291666667,0,0x4650,
0.800255250000000,0,0xAD14,
0.800271083333333,0,0xFFFF,
0.800279000000000,0,0xAE14,
0.800294875000000,0,0x5B40,
0.800302791666667,0,0xAF14,
0.800318625000000,0,0x8000,
0.800326583333333,0,0xB014,
0.800342416666667,0,0x8300,
0.800350333333333,0,0xB114,
0.800380333333333,0,0x0006,
0.800388000000000,0,0x3B15,
0.800404333333333,0,0xB3F6,
0.800412250000000,0,0xBB14,
0.800428125000000,0,0xB348,
0.800436041666667,0,0xBC14,
0.800451875000000,0,0xB2DD,
0.800459791666667,0,0xBD14,
0.800475666666667,0,0xB21D,
0.800483583333333,0,0xBE14,
0.800499416666667,0,0xB21E,
0.800507333333333,0,0xBF14,
0.800523208333333,0,0xB292,
0.800531125000000,0,0xC014,
0.800561875000000,0,0x000A,
0.800569541666667,0,0x4119,
0.800585583333333,0,0xC0C0,
0.800593541666667,0,0xC114,
0.800609375000000,0,0xC0BF,
0.800617291666667,0,0xC214,
0.800633166666667,0,0xC0C3,
0.800641083333333,0,0xC314,
0.800656916666667,0,0xC0C4,
0.800664875000000,0,0xC414,
0.800680708333333,0,0xC0C4,
0.800688625000000,0,0xC514,
0.800704458333333,0,0xE069,
0.800712416666667,0,0xC614,
0.800728250000000,0,0x8000,
0.800736166666667,0,0xC714,
0.800752000000000,0,0xA304,
0.800759958333333,0,0xC814,
0.800775791666667,0,0x9E3A,
0.800783708333333,0,0xC914,
0.800799541666667,0,0x9E3D,
0.800807500000000,0,0xCA14,
0.800840000000000,0,0x0004,
0.800847708333333,0,0x032D,
0.800863791666667,0,0x0A01,
0.800871666666667,0,0x832D,
0.800887375000000,0,0x0F00,
0.800895291666667,0,0x842D,
0.800911000000000,0,0x0000,
0.800918875000000,0,0x8524,
0.800934583333333,0,0x473F,
0.800942458333333,0,0x862D,
0.800972791666667,0,0x0001,
0.800980458333333,0,0x1D21,
0.800996500000000,0,0x0055,
0.801004375000000,0,0x9D21,
0.801033250000000,0,0x0003,
0.801040958333333,0,0x2425,
0.801056916666667,0,0x004C,
0.801064791666667,0,0xA424,
0.801080500000000,0,0x0040,
0.801088375000000,0,0xA524,
0.801104083333333,0,0x0000,
0.801111958333333,0,0xA624,
0.801140166666667,0,0x0005,
0.801147833333333,0,0x2D29,
0.801164041666667,0,0x46F9,
0.801171875000000,0,0xAD24,
0.801187625000000,0,0xFFFF,
0.801195458333333,0,0xAE24,
0.801211208333333,0,0xCB59,
0.801219083333333,0,0xAF24,
0.801234791666667,0,0xFFFF,
0.801242666666667,0,0xB024,
0.801258375000000,0,0x830C,
0.801266250000000,0,0xB124,
0.801295708333333,0,0x0006,
0.801303375000000,0,0x3B2D,
0.801319791666667,0,0xE55E,
0.801327666666667,0,0xBB24,
0.801343375000000,0,0x8002,
0.801351250000000,0,0xBC24,
0.801366958333333,0,0x8000,
0.801374791666667,0,0xBD24,
0.801390541666667,0,0x8001,
0.801398416666667,0,0xBE24,
0.801414125000000,0,0xE5FF,
0.801422000000000,0,0xBF24,
0.801437708333333,0,0xE610,
0.801445583333333,0,0xC024,
0.801476791666667,0,0x000A,
0.801484458333333,0,0x4121,
0.801500625000000,0,0xDF0F,
0.801508500000000,0,0xC124,
0.801524208333333,0,0xE016,
0.801532083333333,0,0xC224,
0.801547791666667,0,0xE01D,
0.801555666666667,0,0xC324,
0.801571375000000,0,0xE153,
0.801579250000000,0,0xC424,
0.801595000000000,0,0xA994,
0.801602833333333,0,0xC524,
0.801618541666667,0,0xFF54,
0.801626416666667,0,0xC624,
0.801642125000000,0,0xC011,
0.801650000000000,0,0xC724,
0.801665750000000,0,0xA2E3,
0.801673583333333,0,0xC824,
0.801689333333333,0,0x9E3C,
0.801697166666667,0,0xC924,
0.801712916666667,0,0x9E43,
0.801720791666667,0,0xCA24,
0.809352375000000,0,0x5C3F,
0.809360083333333,0,0x0607,
0.809387208333333,0,0x0004,
0.809394875000000,0,0x0319,
0.809411291666667,0,0x0A01,
0.809419250000000,0,0x8319,
0.809435083333333,0,0x0F00,
0.809443000000000,0,0x8419,
0.809458875000000,0,0x0000,
0.809466791666667,0,0x8515,
0.809482666666667,0,0x5F3F,
0.809490583333333,0,0x8619,
0.809521583333333,0,0x0004,
0.809529250000000,0,0x031D,
0.809545541666667,0,0x0A01,
0.809553500000000,0,0x831D,
0.809569333333333,0,0x0F00,
0.809577291666667,0,0x841D,
0.809593125000000,0,0x0000,
0.809601041666667,0,0x8515,
0.809616916666667,0,0x5F3F,
0.809624833333333,0,0x861D,
0.809655708333333,0,0x0004,
0.809663375000000,0,0x0311,
0.809679833333333,0,0x0A01,
0.809687791666667,0,0x8311,
0.809703625000000,0,0x0F00,
0.809711583333333,0,0x8411,
0.809727416666667,0,0x0000,
0.809735375000000,0,0x8515,
0.809751208333333,0,0x5F3F,
0.809759125000000,0,0x8611,
0.809789416666667,0,0x0004,
0.809797125000000,0,0x0315,
0.809813166666667,0,0x0A01,
0.809821083333333,0,0x8315,
0.809836916666667,0,0x0F00,
0.809844875000000,0,0x8415,
0.809860708333333,0,0x0000,
0.809868625000000,0,0x8515,
0.809884500000000,0,0x5F3F,
0.809892416666667,0,0x8615,
0.809922916666667,0,0x0004,
0.809930625000000,0,0x0319,
0.809946875000000,0,0x0A01,
0.809954833333333,0,0x8319,
0.809970666666667,0,0x0F00,
0.809978583333333,0,0x8419,
0.809994458333333,0,0x0000,
0.810002375000000,0,0x8515,
0.810018208333333,0,0x573F,
0.810026125000000,0,0x8619,
0.810057083333333,0,0x0001,
0.810064750000000,0,0x1D1D,
0.810081125000000,0,0x1551,
0.810089041666667,0,0x9D1D,
0.810116875000000,0,0x0003,
0.810124541666667,0,0x2411,
0.810140541666667,0,0x0048,
0.810148458333333,0,0xA415,
0.810164333333333,0,0x0040,
0.810172250000000,0,0xA515,
0.810188125000000,0,0x0000,
0.810196041666667,0,0xA615,
0.810225166666667,0,0x0005,
0.810232833333333,0,0x2D15,
0.810249041666667,0,0x475A,
0.810256958333333,0,0xAD15,
0.810272833333333,0,0xFFFF,
0.810280750000000,0,0xAE15,
0.810296583333333,0,0x5966,
0.810304500000000,0,0xAF15,
0.810320375000000,0,0x8000,
0.810328291666667,0,0xB015,
0.810344166666667,0,0x8304,
0.810352083333333,0,0xB115,
0.810381958333333,0,0x0006,
0.810389666666667,0,0x3B19,
0.810406083333333,0,0xB3F9,
0.810414000000000,0,0xBB15,
0.810429875000000,0,0xB34C,
0.810437791666667,0,0xBC15,
0.810453625000000,0,0xB2DC,
0.810461541666667,0,0xBD15,
0.810477416666667,0,0xB21E,
0.810485333333333,0,0xBE15,
0.810501166666667,0,0xB21C,
0.810509125000000,0,0xBF15,
0.810524958333333,0,0xB290,
0.810532875000000,0,0xC015,
0.810563166666667,0,0x000A,
0.810570833333333,0,0x411D,
0.810586875000000,0,0xC0C3,
0.810594791666667,0,0xC115,
0.810610625000000,0,0xC0C2,
0.810618583333333,0,0xC215,
0.810634416666667,0,0xC0C8,
0.810642333333333,0,0xC315,
0.810658208333333,0,0xC0C4,
0.810666125000000,0,0xC415,
0.810681958333333,0,0xC0C8,
0.810689916666667,0,0xC515,
0.810705750000000,0,0xE072,
0.810713666666667,0,0xC615,
0.810729541666667,0,0x8002,
0.810737458333333,0,0xC715,
0.810753291666667,0,0xA305,
0.810761208333333,0,0xC815,
0.810777083333333,0,0x9E3B,
0.810785000000000,0,0xC915,
0.810800833333333,0,0x9E40,
0.810808791666667,0,0xCA15,
0.810840750000000,0,0x0004,
0.810848458333333,0,0x0321,
0.810864708333333,0,0x0A01,
0.810872583333333,0,0x8321,
0.810888333333333,0,0x0F00,
0.810896208333333,0,0x8421,
0.810911916666667,0,0x0000,
0.810919750000000,0,0x8525,
0.810935500000000,0,0x573F,
0.810943375000000,0,0x8621,
0.810974083333333,0,0x0001,
0.810981791666667,0,0x1D25,
0.810997916666667,0,0x0055,
0.811005791666667,0,0x9D25,
0.811034416666667,0,0x0003,
0.811042083333333,0,0x2429,
0.811058375000000,0,0x004C,
0.811066250000000,0,0xA425,
0.811081958333333,0,0x0040,
0.811089791666667,0,0xA525,
0.811105541666667,0,0x0000,
0.811113416666667,0,0xA625,
0.811141750000000,0,0x0005,
0.811149416666667,0,0x2D2D,
0.811165500000000,0,0x4805,
0.811173375000000,0,0xAD25,
0.811189083333333,0,0xFFFF,
0.811196958333333,0,0xAE25,
0.811212708333333,0,0xCA54,
0.811220541666667,0,0xAF25,
0.811236291666667,0,0x8000,
0.811244166666667,0,0xB025,
0.811259875000000,0,0x8308,
0.811267750000000,0,0xB125,
0.811297333333333,0,0x0006,
0.811305000000000,0,0x3B21,
0.811321291666667,0,0xE55C,
0.811329166666667,0,0xBB25,
0.811344916666667,0,0x8000,
0.811352750000000,0,0xBC25,
0.811368500000000,0,0x8000,
0.811376333333333,0,0xBD25,
0.811392041666667,0,0x8001,
0.811399916666667,0,0xBE25,
0.811415666666667,0,0xE5FC,
0.811423500000000,0,0xBF25,
0.811439250000000,0,0xE610,
0.811447083333333,0,0xC025,
0.811477125000000,0,0x000A,
0.811484833333333,0,0x4125,
0.811501166666667,0,0xDF12,
0.811509041666667,0,0xC125,
0.811524750000000,0,0xE01C,
0.811532583333333,0,0xC225,
0.811548333333333,0,0xE01E,
0.811556208333333,0,0xC325,
0.811571916666667,0,0xE156,
0.811579791666667,0,0xC425,
0.811595500000000,0,0xA996,
0.811603375000000,0,0xC525,
0.811619083333333,0,0xFF52,
0.811626958333333,0,0xC625,
0.811642708333333,0,0xC014,
0.811650583333333,0,0xC725,
0.811666291666667,0,0xA2E4,
0.811674166666667,0,0xC825,
0.811689916666667,0,0x9E3E,
0.811697750000000,0,0xC925,
0.811713500000000,0,0x9E40,
0.811721333333333,0,0xCA25,
0.819351083333333,0,0x6C3F,
0.819358750000000,0,0x060B,
0.819386083333333,0,0x0004,
0.819393791666667,0,0x031D,
0.819410208333333,0,0x0A01,
0.819418125000000,0,0x831D,
0.819434000000000,0,0x0F00,
0.819441916666667,0,0x841D,
0.819457750000000,0,0x0000,
0.819465708333333,0,0x8516,
0.819481541666667,0,0x6F3F,
0.819489458333333,0,0x861D,
0.819520041666667,0,0x0004,
0.819527708333333,0,0x0311,
0.819543958333333,0,0x0A01,
0.819551875000000,0,0x8311,
0.819567750000000,0,0x0F00,
0.819575666666667,0,0x8411,
0.819591541666667,0,0x0000,
0.819599458333333,0,0x8516,
0.819615333333333,0,0x6F3F,
0.819623250000000,0,0x8611,
0.819654125000000,0,0x0004,
0.819661791666667,0,0x0315,
0.819678250000000,0,0x0A01,
0.819686166666667,0,0x8315,
0.819702041666667,0,0x0F00,
0.819709958333333,0,0x8415,
0.819725833333333,0,0x0000,
0.819733750000000,0,0x8516,
0.819749583333333,0,0x6F3F,
0.819757541666667,0,0x8615,
0.819788208333333,0,0x0004,
0.819795875000000,0,0x0319,
0.819812000000000,0,0x0A01,
0.819819958333333,0,0x8319,
0.819835791666667,0,0x0F00,
0.819843708333333,0,0x8419,
0.819859583333333,0,0x0000,
0.819867500000000,0,0x8516,
0.819883375000000,0,0x6F3F,
0.819891291666667,0,0x8619,
0.819921500000000,0,0x0004,
0.819929166666667,0,0x031D,
0.819945250000000,0,0x0A01,
0.819953208333333,0,0x831D,
0.819969041666667,0,0x0F00,
0.819977000000000,0,0x841D,
0.819992833333333,0,0x0000,
0.820000750000000,0,0x8516,
0.820016583333333,0,0x673F,
0.820024500000000,0,0x861D,
0.820055000000000,0,0x0001,
0.820062708333333,0,0x1D11,
0.820079000000000,0,0x1551,
0.820086916666667,0,0x9D11,
0.820114958333333,0,0x0003,
0.820122666666667,0,0x2415,
0.820138916666667,0,0x0048,
0.820146833333333,0,0xA416,
0.820162708333333,0,0x0040,
0.820170625000000,0,0xA516,
0.820186500000000,0,0x0000,
0.820194416666667,0,0xA616,
0.820223291666667,0,0x0005,
0.820231000000000,0,0x2D19,
0.820247375000000,0,0x4863,
0.820255333333333,0,0xAD16,
0.820271166666667,0,0xFFFF,
0.820279083333333,0,0xAE16,
0.820294958333333,0,0x56F0,
0.820302875000000,0,0xAF16,
0.820318708333333,0,0xFFFF,
0.820326625000000,0,0xB016,
0.820342500000000,0,0x8307,
0.820350416666667,0,0xB116,
0.820380125000000,0,0x0006,
0.820387791666667,0,0x3B1D,
0.820403916666667,0,0xB3F8,
0.820411833333333,0,0xBB16,
0.820427708333333,0,0xB34D,
0.820435625000000,0,0xBC16,
0.820451500000000,0,0xB2D9,
0.820459416666667,0,0xBD16,
0.820475250000000,0,0xB21D,
0.820483208333333,0,0xBE16,
0.820499041666667,0,0xB222,
0.820507000000000,0,0xBF16,
0.820522833333333,0,0xB291,
0.820530750000000,0,0xC016,
0.820560125000000,0,0x000A,
0.820567791666667,0,0x4111,
0.820584208333333,0,0xC0C5,
0.820592166666667,0,0xC116,
0.820608000000000,0,0xC0C2,
0.820615916666667,0,0xC216,
0.820631791666667,0,0xC0C3,
0.820639708333333,0,0xC316,
0.820655541666667,0,0xC0C4,
0.820663458333333,0,0xC416,
0.820679333333333,0,0xC0C4,
0.820687250000000,0,0xC516,
0.820703083333333,0,0xE06F,
0.820711041666667,0,0xC616,
0.820726875000000,0,0x8001,
0.820734791666667,0,0xC716,
0.820750625000000,0,0xA305,
0.820758583333333,0,0xC816,
0.820774416666667,0,0x9E39,
0.820782333333333,0,0xC916,
0.820798166666667,0,0x9E3F,
0.820806125000000,0,0xCA16,
0.820838250000000,0,0x0004,
0.820845958333333,0,0x0325,
0.820862041666667,0,0x0A01,
0.820869916666667,0,0x8325,
0.820885625000000,0,0x0F00,
0.820893500000000,0,0x8425,
0.820909250000000,0,0x0000,
0.820917083333333,0,0x8526,
0.820932833333333,0,0x673F,
0.820940708333333,0,0x8625,
0.820971083333333,0,0x0001,
0.820978750000000,0,0x1D29,
0.820994791666667,0,0x0055,
0.821002666666667,0,0x9D29,
0.821030708333333,0,0x0003,
0.821038416666667,0,0x242D,
0.821054791666667,0,0x004C,
0.821062666666667,0,0xA426,
0.821078375000000,0,0x0040,
0.821086250000000,0,0xA526,
0.821101958333333,0,0x0000,
0.821109833333333,0,0xA626,
0.821138958333333,0,0x0005,
0.821146666666667,0,0x2D21,
0.821162916666667,0,0x4910,
0.821170791666667,0,0xAD26,
0.821186541666667,0,0xFFFF,
0.821194375000000,0,0xAE26,
0.821210125000000,0,0xC990,
0.821217958333333,0,0xAF26,
0.821233708333333,0,0xFFFF,
0.821241541666667,0,0xB026,
0.821257291666667,0,0x8307,
0.821265166666667,0,0xB126,
0.821296291666667,0,0x0006,
0.821303958333333,0,0x3B25,
0.821320208333333,0,0xE55B,
0.821328041666667,0,0xBB26,
0.821343791666667,0,0x8000,
0.821351666666667,0,0xBC26,
0.821367375000000,0,0x8000,
0.821375250000000,0,0xBD26,
0.821390958333333,0,0x8004,
0.821398833333333,0,0xBE26,
0.821414583333333,0,0xE5FF,
0.821422416666667,0,0xBF26,
0.821438166666667,0,0xE616,
0.821446041666667,0,0xC026,
0.821476708333333,0,0x000A,
0.821484375000000,0,0x4129,
0.821500583333333,0,0xDF13,
0.821508458333333,0,0xC126,
0.821524166666667,0,0xE015,
0.821532041666667,0,0xC226,
0.821547750000000,0,0xE01F,
0.821555625000000,0,0xC326,
0.821571333333333,0,0xE158,
0.821579208333333,0,0xC426,
0.821594916666667,0,0xA997,
0.821602791666667,0,0xC526,
0.821618541666667,0,0xFF56,
0.821626375000000,0,0xC626,
0.821642125000000,0,0xC014,
0.821649958333333,0,0xC726,
0.821665708333333,0,0xA2E3,
0.821673541666667,0,0xC826,
0.821689291666667,0,0x9E3D,
0.821697125000000,0,0xC926,
0.821712875000000,0,0x9E41,
0.821720750000000,0,0xCA26,
0.829369125000000,0,0x7C3F,
0.829376791666667,0,0x060F,
0.829404083333333,0,0x0004,
0.829411750000000,0,0x0311,
0.829427958333333,0,0x0A01,
0.829435875000000,0,0x8311,
0.829451750000000,0,0x0F00,
0.829459666666667,0,0x8411,
0.829475500000000,0,0x0000,
0.829483458333333,0,0x8517,
0.829499333333333,0,0x7F3F,
0.829507250000000,0,0x8611,
0.829538000000000,0,0x0004,
0.829545666666667,0,0x0315,
0.829561750000000,0,0x0A01,
0.829569666666667,0,0x8315,
0.829585541666667,0,0x0F00,
0.829593458333333,0,0x8415,
0.829609291666667,0,0x0000,
0.829617250000000,0,0x8517,
0.829633125000000,0,0x7F3F,
0.829641041666667,0,0x8615,
0.829672500000000,0,0x0004,
0.829680166666667,0,0x0319,
0.829696500000000,0,0x0A01,
0.829704458333333,0,0x8319,
0.829720291666667,0,0x0F00,
0.829728250000000,0,0x8419,
0.829744083333333,0,0x0000,
0.829752041666667,0,0x8517,
0.829767875000000,0,0x7F3F,
0.829775791666667,0,0x8619,
0.829807125000000,0,0x0004,
0.829814791666667,0,0x031D,
0.829830833333333,0,0x0A01,
0.829838708333333,0,0x831D,
0.829854583333333,0,0x0F00,
0.829862500000000,0,0x841D,
0.829878375000000,0,0x0000,
0.829886291666667,0,0x8517,
0.829902166666667,0,0x7F3F,
0.829910083333333,0,0x861D,
0.829940041666667,0,0x0004,
0.829947750000000,0,0x0311,
0.829964083333333,0,0x0A01,
0.829972000000000,0,0x8311,
0.829987833333333,0,0x0F00,
0.829995750000000,0,0x8411,
0.830011625000000,0,0x0000,
0.830019541666667,0,0x8517,
0.830035375000000,0,0x773F,
0.830043333333333,0,0x8611,
0.830073750000000,0,0x0001,
0.830081458333333,0,0x1D15,
0.830097791666667,0,0x1551,
0.830105708333333,0,0x9D15,
0.830134125000000,0,0x0003,
0.830141791666667,0,0x2419,
0.830158208333333,0,0x0048,
0.830166166666667,0,0xA417,
0.830182000000000,0,0x0040,
0.830189916666667,0,0xA517,
0.830205750000000,0,0x0000,
0.830213666666667,0,0xA617,
0.830243166666667,0,0x0005,
0.830250833333333,0,0x2D1D,
0.830267166666667,0,0x496E,
0.830275083333333,0,0xAD17,
0.830290958333333,0,0xFFFF,
0.830298875000000,0,0xAE17,
0.830314708333333,0,0x54E2,
0.830322625000000,0,0xAF17,
0.830338500000000,0,0xFFFF,
0.830346416666667,0,0xB017,
0.830362250000000,0,0x8307,
0.830370208333333,0,0xB117,
0.830400041666667,0,0x0006,
0.830407708333333,0,0x3B11,
0.830424208333333,0,0xB3FB,
0.830432125000000,0,0xBB17,
0.830447958333333,0,0xB349,
0.830455916666667,0,0xBC17,
0.830471750000000,0,0xB2DD,
0.830479666666667,0,0xBD17,
0.830495541666667,0,0xB21E,
0.830503458333333,0,0xBE17,
0.830519333333333,0,0xB21E,
0.830527250000000,0,0xBF17,
0.830543083333333,0,0xB291,
0.830551000000000,0,0xC017,
0.830581583333333,0,0x000A,
0.830589250000000,0,0x4115,
0.830605458333333,0,0xC0BD,
0.830613416666667,0,0xC117,
0.830629250000000,0,0xC0BE,
0.830637166666667,0,0xC217,
0.830653000000000,0,0xC0C1,
0.830660958333333,0,0xC317,
0.830676791666667,0,0xC0C0,
0.830684708333333,0,0xC417,
0.830700583333333,0,0xC0C1,
0.830708500000000,0,0xC517,
0.830724375000000,0,0xE06B,
0.830732291666667,0,0xC617,
0.830748125000000,0,0x8000,
0.830756041666667,0,0xC717,
0.830771916666667,0,0xA306,
0.830779833333333,0,0xC817,
0.830795666666667,0,0x9E35,
0.830803583333333,0,0xC917,
0.830819458333333,0,0x9E37,
0.830827375000000,0,0xCA17,
0.830859041666667,0,0x0004,
0.830866750000000,0,0x0329,
0.830883166666667,0,0x0A01,
0.830891000000000,0,0x8329,
0.830906750000000,0,0x0F00,
0.830914625000000,0,0x8429,
0.830930333333333,0,0x0000,
0.830938208333333,0,0x8527,
0.830953916666667,0,0x773F,
0.830961791666667,0,0x8629,
0.830992500000000,0,0x0001,
0.831000166666667,0,0x1D2D,
0.831016333333333,0,0x0055,
0.831024208333333,0,0x9D2D,
0.831052250000000,0,0x0003,
0.831059916666667,0,0x2421,
0.831076291666667,0,0x004C,
0.831084166666667,0,0xA427,
0.831099875000000,0,0x0040,
0.831107750000000,0,0xA527,
0.831123500000000,0,0x0000,
0.831131375000000,0,0xA627,
0.831159791666667,0,0x0005,
0.831167458333333,0,0x2D25,
0.831183458333333,0,0x4A1C,
0.831191333333333,0,0xAD27,
0.831207083333333,0,0xFFFF,
0.831214916666667,0,0xAE27,
0.831230666666667,0,0xC908,
0.831238500000000,0,0xAF27,
0.831254250000000,0,0x8000,
0.831262125000000,0,0xB027,
0.831277833333333,0,0x8301,
0.831285708333333,0,0xB127,
0.831317333333333,0,0x0006,
0.831325041666667,0,0x3B29,
0.831341250000000,0,0xE55F,
0.831349083333333,0,0xBB27,
0.831364833333333,0,0x8000,
0.831372708333333,0,0xBC27,
0.831388416666667,0,0x8000,
0.831396291666667,0,0xBD27,
0.831412000000000,0,0x8000,
0.831419875000000,0,0xBE27,
0.831435583333333,0,0xE5FA,
0.831443458333333,0,0xBF27,
0.831459166666667,0,0xE611,
0.831467041666667,0,0xC027,
0.831498166666667,0,0x000A,
0.831505875000000,0,0x412D,
0.831522083333333,0,0xDF0E,
0.831529958333333,0,0xC127,
0.831545666666667,0,0xE018,
0.831553541666667,0,0xC227,
0.831569291666667,0,0xE01D,
0.831577166666667,0,0xC327,
0.831592875000000,0,0xE15A,
0.831600750000000,0,0xC427,
0.831616458333333,0,0xA996,
0.831624333333333,0,0xC527,
0.831640041666667,0,0xFF55,
0.831647916666667,0,0xC627,
0.831663666666667,0,0xC015,
0.831671500000000,0,0xC727,
0.831687250000000,0,0xA2E5,
0.831695083333333,0,0xC827,
0.831710833333333,0,0x9E3C,
0.831718708333333,0,0xC927,
0.831734416666667,0,0x9E41,
0.831742291666667,0,0xCA27,
0.839408916666667,0,0x8C3F,
0.839416583333333,0,0x0603,
0.839444791666667,0,0x0004,
0.839452458333333,0,0x0315,
0.839468541666667,0,0x0A01,
0.839476458333333,0,0x8315,
0.839492333333333,0,0x0F00,
0.839500250000000,0,0x8415,
0.839516125000000,0,0x0000,
0.839524041666667,0,0x8518,
0.839539916666667,0,0x8F3F,
0.839547833333333,0,0x8615,
0.839578791666667,0,0x0004,
0.839586458333333,0,0x0319,
0.839602833333333,0,0x0A01,
0.839610750000000,0,0x8319,
0.839626625000000,0,0x0F00,
0.839634541666667,0,0x8419,
0.839650375000000,0,0x0000,
0.839658333333333,0,0x8518,
0.839674166666667,0,0x8F3F,
0.839682125000000,0,0x8619,
0.839712125000000,0,0x0004,
0.839719791666667,0,0x031D,
0.839736125000000,0,0x0A01,
0.839744041666667,0,0x831D,
0.839759916666667,0,0x0F00,
0.839767833333333,0,0x841D,
0.839783666666667,0,0x0000,
0.839791583333333,0,0x8518,
0.839807458333333,0,0x8F3F,
0.839815375000000,0,0x861D,
0.839845708333333,0,0x0004,
0.839853375000000,0,0x0311,
0.839869375000000,0,0x0A01,
0.839877291666667,0,0x8311,
0.839893166666667,0,0x0F00,
0.839901083333333,0,0x8411,
0.839916958333333,0,0x0000,
0.839924875000000,0,0x8518,
0.839940708333333,0,0x8F3F,
0.839948666666667,0,0x8611,
0.839979666666667,0,0x0004,
0.839987375000000,0,0x0315,
0.840003625000000,0,0x0A01,
0.840011541666667,0,0x8315,
0.840027375000000,0,0x0F00,
0.840035291666667,0,0x8415,
0.840051166666667,0,0x0000,
0.840059083333333,0,0x8518,
0.840074958333333,0,0x873F,
0.840082833333333,0,0x8615,
0.840113291666667,0,0x0001,
0.840121000000000,0,0x1D19,
0.840137333333333,0,0x1551,
0.840145250000000,0,0x9D19,
0.840173166666667,0,0x0003,
0.840180833333333,0,0x241D,
0.840197291666667,0,0x0048,
0.840205208333333,0,0xA418,
0.840221041666667,0,0x0040,
0.840229000000000,0,0xA518,
0.840244791666667,0,0x0000,
0.840252750000000,0,0xA618,
0.840282000000000,0,0x0005,
0.840289666666667,0,0x2D11,
0.840305750000000,0,0x4A78,
0.840313666666667,0,0xAD18,
0.840329500000000,0,0xFFFF,
0.840337458333333,0,0xAE18,
0.840353291666667,0,0x5244,
0.840361208333333,0,0xAF18,
0.840377083333333,0,0xFFFF,
0.840385000000000,0,0xB018,
0.840400833333333,0,0x830E,
0.840408750000000,0,0xB118,
0.840439458333333,0,0x0006,
0.840447125000000,0,0x3B15,
0.840463250000000,0,0xB3F8,
0.840471166666667,0,0xBB18,
0.840487000000000,0,0xB34B,
0.840494958333333,0,0xBC18,
0.840510791666667,0,0xB2DE,
0.840518750000000,0,0xBD18,
0.840534583333333,0,0xB21F,
0.840542500000000,0,0xBE18,
0.840558333333333,0,0xB21F,
0.840566291666667,0,0xBF18,
0.840582125000000,0,0xB295,
0.840590041666667,0,0xC018,
0.840620416666667,0,0x000A,
0.840628083333333,0,0x4119,
0.840644041666667,0,0xC0C5,
0.840651958333333,0,0xC118,
0.840667833333333,0,0xC0C1,
0.840675750000000,0,0xC218,
0.840691583333333,0,0xC0C5,
0.840699500000000,0,0xC318,
0.840715375000000,0,0xC0C3,
0.840723291666667,0,0xC418,
0.840739125000000,0,0xC0C4,
0.840747083333333,0,0xC518,
0.840762916666667,0,0xE06D,
0.840770875000000,0,0xC618,
0.840786708333333,0,0x8000,
0.840794625000000,0,0xC718,
0.840810500000000,0,0xA307,
0.840818416666667,0,0xC818,
0.840834250000000,0,0x9E3C,
0.840842208333333,0,0xC918,
0.840858041666667,0,0x9E37,
0.840865958333333,0,0xCA18,
0.840897958333333,0,0x0004,
0.840905625000000,0,0x032D,
0.840921625000000,0,0x0A01,
0.840929500000000,0,0x832D,
0.840945208333333,0,0x0F00,
0.840953083333333,0,0x842D,
0.840968791666667,0,0x0000,
0.840976666666667,0,0x8528,
0.840992375000000,0,0x873F,
0.841000250000000,0,0x862D,
0.841030916666667,0,0x0001,
0.841038625000000,0,0x1D21,
0.841054791666667,0,0x0055,
0.841062666666667,0,0x9D21,
0.841090458333333,0,0x0003,
0.841098125000000,0,0x2425,
0.841114291666667,0,0x004C,
0.841122125000000,0,0xA428,
0.841137833333333,0,0x0040,
0.841145708333333,0,0xA528,
0.841161416666667,0,0x0000,
0.841169291666667,0,0xA628,
0.841198750000000,0,0x0005,
0.841206416666667,0,0x2D29,
0.841222375000000,0,0x4B29,
0.841230250000000,0,0xAD28,
0.841245958333333,0,0xFFFF,
0.841253833333333,0,0xAE28,
0.841269541666667,0,0xC800,
0.841277416666667,0,0xAF28,
0.841293125000000,0,0xFFFF,
0.841301000000000,0,0xB028,
0.841316708333333,0,0x830A,
0.841324583333333,0,0xB128,
0.841354833333333,0,0x0006,
0.841362500000000,0,0x3B2D,
0.841378625000000,0,0xE55E,
0.841386500000000,0,0xBB28,
0.841402208333333,0,0x8001,
0.841410083333333,0,0xBC28,
0.841425833333333,0,0x8002,
0.841433666666667,0,0xBD28,
0.841449416666667,0,0x8005,
0.841457291666667,0,0xBE28,
0.841473000000000,0,0xE603,
0.841480875000000,0,0xBF28,
0.841496625000000,0,0xE61B,
0.841504458333333,0,0xC028,
0.841534125000000,0,0x000A,
0.841541833333333,0,0x4121,
0.841558041666667,0,0xDF0B,
0.841565916666667,0,0xC128,
0.841581625000000,0,0xE019,
0.841589500000000,0,0xC228,
0.841605208333333,0,0xE01C,
0.841613083333333,0,0xC328,
0.841628791666667,0,0xE15A,
0.841636666666667,0,0xC428,
0.841652375000000,0,0xA996,
0.841660250000000,0,0xC528,
0.841675958333333,0,0xFF54,
0.841683833333333,0,0xC628,
0.841699541666667,0,0xC012,
0.841707416666667,0,0xC728,
0.841723125000000,0,0xA2E5,
0.841731000000000,0,0xC828,
0.841746750000000,0,0x9E3E,
0.841754583333333,0,0xC928,
0.841770333333333,0,0x9E3F,
0.841778166666667,0,0xCA28,
0.850346291666667,0,0x9C3F,
0.850353958333333,0,0x0607,
0.850381416666667,0,0x0004,
0.850389125000000,0,0x0319,
0.850405333333333,0,0x0A01,
0.850413250000000,0,0x8319,
0.850429125000000,0,0x0F00,
0.850437041666667,0,0x8419,
0.850452875000000,0,0x0000,
0.850460833333333,0,0x8519,
0.850476666666667,0,0x9F3F,
0.850484625000000,0,0x8619,
0.850514541666667,0,0x0004,
0.850522208333333,0,0x031D,
0.850538583333333,0,0x0A01,
0.850546541666667,0,0x831D,
0.850562375000000,0,0x0F00,
0.850570291666667,0,0x841D,
0.850586166666667,0,0x0000,
0.850594125000000,0,0x8519,
0.850609958333333,0,0x9F3F,
0.850617875000000,0,0x861D,
0.850648541666667,0,0x0004,
0.850656208333333,0,0x0311,
0.850672416666667,0,0x0A01,
0.850680333333333,0,0x8311,
0.850696208333333,0,0x0F00,
0.850704125000000,0,0x8411,
0.850720000000000,0,0x0000,
0.850727916666667,0,0x8519,
0.850743791666667,0,0x9F3F,
0.850751708333333,0,0x8611,
0.850782166666667,0,0x0004,
0.850789833333333,0,0x0315,
0.850806208333333,0,0x0A01,
0.850814125000000,0,0x8315,
0.850830000000000,0,0x0F00,
0.850837916666667,0,0x8415,
0.850853750000000,0,0x0000,
0.850861666666667,0,0x8519,
0.850877541666667,0,0x9F3F,
0.850885458333333,0,0x8615,
0.850916291666667,0,0x0004,
0.850923958333333,0,0x0319,
0.850939916666667,0,0x0A01,
0.850947875000000,0,0x8319,
0.850963708333333,0,0x0F00,
0.850971666666667,0,0x8419,
0.850987500000000,0,0x0000,
0.850995416666667,0,0x8519,
0.851011291666667,0,0x973F,
0.851019208333333,0,0x8619,
0.851049750000000,0,0x0001,
0.851057416666667,0,0x1D1D,
0.851073666666667,0,0x1551,
0.851081625000000,0,0x9D1D,
0.851109458333333,0,0x0003,
0.851117166666667,0,0x2411,
0.851133583333333,0,0x0048,
0.851141541666667,0,0xA419,
0.851157375000000,0,0x0040,
0.851165291666667,0,0xA519,
0.851181166666667,0,0x0000,
0.851189083333333,0,0xA619,
0.851218583333333,0,0x0005,
0.851226291666667,0,0x2D15,
0.851242583333333,0,0x4B9B,
0.851250500000000,0,0xAD19,
0.851266333333333,0,0xFFFF,
0.851274250000000,0,0xAE19,
0.851290125000000,0,0x4FF6,
0.851298041666667,0,0xAF19,
0.851313916666667,0,0xFFFF,
0.851321791666667,0,0xB019,
0.851337666666667,0,0x8308,
0.851345583333333,0,0xB119,
0.851376791666667,0,0x0006,
0.851384500000000,0,0x3B19,
0.851400583333333,0,0xB401,
0.851408458333333,0,0xBB19,
0.851424333333333,0,0xB351,
0.851432250000000,0,0xBC19,
0.851448083333333,0,0xB2DD,
0.851456000000000,0,0xBD19,
0.851471875000000,0,0xB220,
0.851479791666667,0,0xBE19,
0.851495625000000,0,0xB221,
0.851503583333333,0,0xBF19,
0.851519416666667,0,0xB298,
0.851527333333333,0,0xC019,
0.851557333333333,0,0x000A,
0.851565000000000,0,0x411D,
0.851581333333333,0,0xC0C5,
0.851589250000000,0,0xC119,
0.851605125000000,0,0xC0BE,
0.851613041666667,0,0xC219,
0.851628916666667,0,0xC0C5,
0.851636833333333,0,0xC319,
0.851652666666667,0,0xC0C5,
0.851660583333333,0,0xC419,
0.851676458333333,0,0xC0C7,
0.851684375000000,0,0xC519,
0.851700208333333,0,0xE071,
0.851708166666667,0,0xC619,
0.851724000000000,0,0x8000,
0.851731916666667,0,0xC719,
0.851747750000000,0,0xA307,
0.851755666666667,0,0xC819,
0.851771541666667,0,0x9E3B,
0.851779458333333,0,0xC919,
0.851795333333333,0,0x9E3A,
0.851803250000000,0,0xCA19,
0.851834875000000,0,0x0004,
0.851842583333333,0,0x0321,
0.851858541666667,0,0x0A01,
0.851866416666667,0,0x8321,
0.851882125000000,0,0x0F00,
0.851890000000000,0,0x8421,
0.851905708333333,0,0x0000,
0.851913583333333,0,0x8529,
0.851929333333333,0,0x973F,
0.851937208333333,0,0x8621,
0.851967750000000,0,0x0001,
0.851975416666667,0,0x1D25,
0.851991750000000,0,0x0055,
0.851999625000000,0,0x9D25,
0.852028125000000,0,0x0003,
0.852035791666667,0,0x2429,
0.852052208333333,0,0x004C,
0.852060083333333,0,0xA429,
0.852075791666667,0,0x0040,
0.852083666666667,0,0xA529,
0.852099416666667,0,0x0000,
0.852107250000000,0,0xA629,
0.852136500000000,0,0x0005,
0.852144208333333,0,0x2D2D,
0.852160333333333,0,0x4C4E,
0.852168208333333,0,0xAD29,
0.852183958333333,0,0xFFFF,
0.852191791666667,0,0xAE29,
0.852207541666667,0,0xC6E9,
0.852215416666667,0,0xAF29,
0.852231125000000,0,0xFFFF,
0.852238958333333,0,0xB029,
0.852254708333333,0,0x8308,
0.852262583333333,0,0xB129,
0.852292416666667,0,0x0006,
0.852300083333333,0,0x3B21,
0.852316125000000,0,0xE55E,
0.852324000000000,0,0xBB29,
0.852339708333333,0,0x8000,
0.852347583333333,0,0xBC29,
0.852363333333333,0,0x8000,
0.852371166666667,0,0xBD29,
0.852386916666667,0,0x8000,
0.852394750000000,0,0xBE29,
0.852410500000000,0,0xE603,
0.852418375000000,0,0xBF29,
0.852434083333333,0,0xE61C,
0.852441958333333,0,0xC029,
0.852471916666667,0,0x000A,
0.852479583333333,0,0x4125,
0.852496041666667,0,0xDF12,
0.852503916666667,0,0xC129,
0.852519625000000,0,0xE01A,
0.852527500000000,0,0xC229,
0.852543208333333,0,0xE01E,
0.852551083333333,0,0xC329,
0.852566791666667,0,0xE15F,
0.852574666666667,0,0xC429,
0.852590416666667,0,0xA99A,
0.852598250000000,0,0xC529,
0.852613958333333,0,0xFF56,
0.852621833333333,0,0xC629,
0.852637583333333,0,0xC013,
0.852645416666667,0,0xC729,
0.852661166666667,0,0xA2E6,
0.852669041666667,0,0xC829,
0.852684750000000,0,0x9E3D,
0.852692625000000,0,0xC929,
0.852708333333333,0,0x9E44,
0.852716208333333,0,0xCA29,
0.859595750000000,0,0xAC3F,
0.859603458333333,0,0x060B,
0.859631250000000,0,0x0004,
0.859638958333333,0,0x031D,
0.859655208333333,0,0x0A01,
0.859663125000000,0,0x831D,
0.859679000000000,0,0x0F00,
0.859686916666667,0,0x841D,
0.859702750000000,0,0x0000,
0.859710708333333,0,0x851A,
0.859726541666667,0,0xAF3F,
0.859734500000000,0,0x861D,
0.859765500000000,0,0x0004,
0.859773166666667,0,0x0311,
0.859789458333333,0,0x0A01,
0.859797416666667,0,0x8311,
0.859813291666667,0,0x0F00,
0.859821208333333,0,0x8411,
0.859837083333333,0,0x0000,
0.859845000000000,0,0x851A,
0.859860875000000,0,0xAF3F,
0.859868791666667,0,0x8611,
0.859899458333333,0,0x0004,
0.859907125000000,0,0x0315,
0.859923333333333,0,0x0A01,
0.859931250000000,0,0x8315,
0.859947125000000,0,0x0F00,
0.859955041666667,0,0x8415,
0.859970916666667,0,0x0000,
0.859978833333333,0,0x851A,
0.859994708333333,0,0xAF3F,
0.860002625000000,0,0x8615,
0.860033458333333,0,0x0004,
0.860041166666667,0,0x0319,
0.860057125000000,0,0x0A01,
0.860065041666667,0,0x8319,
0.860080916666667,0,0x0F00,
0.860088833333333,0,0x8419,
0.860104708333333,0,0x0000,
0.860112625000000,0,0x851A,
0.860128500000000,0,0xAF3F,
0.860136416666667,0,0x8619,
0.860167125000000,0,0x0004,
0.860174791666667,0,0x031D,
0.860190916666667,0,0x0A01,
0.860198833333333,0,0x831D,
0.860214708333333,0,0x0F00,
0.860222625000000,0,0x841D,
0.860238500000000,0,0x0000,
0.860246416666667,0,0x851A,
0.860262291666667,0,0xA73F,
0.860270208333333,0,0x861D,
0.860300458333333,0,0x0001,
0.860308125000000,0,0x1D11,
0.860324208333333,0,0x1551,
0.860332125000000,0,0x9D11,
0.860360166666667,0,0x0003,
0.860367833333333,0,0x2415,
0.860384125000000,0,0x0048,
0.860392083333333,0,0xA41A,
0.860407916666667,0,0x0040,
0.860415875000000,0,0xA51A,
0.860431708333333,0,0x0000,
0.860439625000000,0,0xA61A,
0.860468916666667,0,0x0005,
0.860476625000000,0,0x2D19,
0.860492666666667,0,0x4C91,
0.860500583333333,0,0xAD1A,
0.860516416666667,0,0xFFFF,
0.860524375000000,0,0xAE1A,
0.860540208333333,0,0x4D40,
0.860548125000000,0,0xAF1A,
0.860564000000000,0,0xFFFF,
0.860571916666667,0,0xB01A,
0.860587750000000,0,0x830C,
0.860595666666667,0,0xB11A,
0.860626416666667,0,0x0006,
0.860634083333333,0,0x3B1D,
0.860650166666667,0,0xB3FC,
0.860658083333333,0,0xBB1A,
0.860673916666667,0,0xB34B,
0.860681875000000,0,0xBC1A,
0.860697708333333,0,0xB2DD,
0.860705666666667,0,0xBD1A,
0.860721500000000,0,0xB222,
0.860729416666667,0,0xBE1A,
0.860745291666667,0,0xB21F,
0.860753208333333,0,0xBF1A,
0.860769041666667,0,0xB292,
0.860776958333333,0,0xC01A,
0.860807625000000,0,0x000A,
0.860815333333333,0,0x4111,
0.860831458333333,0,0xC0C4,
0.860839375000000,0,0xC11A,
0.860855208333333,0,0xC0C0,
0.860863166666667,0,0xC21A,
0.860879000000000,0,0xC0CB,
0.860886916666667,0,0xC31A,
0.860902750000000,0,0xC0C7,
0.860910708333333,0,0xC41A,
0.860926541666667,0,0xC0C5,
0.860934458333333,0,0xC51A,
0.860950291666667,0,0xE070,
0.860958250000000,0,0xC61A,
0.860974083333333,0,0x8000,
0.860982000000000,0,0xC71A,
0.860997875000000,0,0xA305,
0.861005791666667,0,0xC81A,
0.861021666666667,0,0x9E3C,
0.861029541666667,0,0xC91A,
0.861045416666667,0,0x9E3D,
0.861053333333333,0,0xCA1A,
0.861085583333333,0,0x0004,
0.861093250000000,0,0x0325,
0.861109541666667,0,0x0A01,
0.861117416666667,0,0x8325,
0.861133125000000,0,0x0F00,
0.861141000000000,0,0x8425,
0.861156708333333,0,0x0000,
0.861164583333333,0,0x852A,
0.861180333333333,0,0xA73F,
0.861188166666667,0,0x8625,
0.861218833333333,0,0x0001,
0.861226541666667,0,0x1D29,
0.861242708333333,0,0x0055,
0.861250583333333,0,0x9D29,
0.861278833333333,0,0x0003,
0.861286541666667,0,0x242D,
0.861302666666667,0,0x004C,
0.861310541666667,0,0xA42A,
0.861326250000000,0,0x0040,
0.861334125000000,0,0xA52A,
0.861349875000000,0,0x0000,
0.861357750000000,0,0xA62A,
0.861386500000000,0,0x0005,
0.861394208333333,0,0x2D21,
0.861410333333333,0,0x4D46,
0.861418166666667,0,0xAD2A,
0.861433916666667,0,0xFFFF,
0.861441791666667,0,0xAE2A,
0.861457500000000,0,0xC6BB,
0.861465375000000,0,0xAF2A,
0.861481083333333,0,0x8000,
0.861488958333333,0,0xB02A,
0.861504666666667,0,0x8308,
0.861512541666667,0,0xB12A,
0.861542208333333,0,0x0006,
0.861549875000000,0,0x3B25,
0.861566125000000,0,0xE561,
0.861574000000000,0,0xBB2A,
0.861589708333333,0,0x8000,
0.861597583333333,0,0xBC2A,
0.861613291666667,0,0x8001,
0.861621166666667,0,0xBD2A,
0.861636916666667,0,0x8002,
0.861644750000000,0,0xBE2A,
0.861660500000000,0,0xE5FD,
0.861668375000000,0,0xBF2A,
0.861684083333333,0,0xE617,
0.861691958333333,0,0xC02A,
0.861721666666667,0,0x000A,
0.861729375000000,0,0x4129,
0.861745500000000,0,0xDF13,
0.861753375000000,0,0xC12A,
0.861769083333333,0,0xE019,
0.861776958333333,0,0xC22A,
0.861792708333333,0,0xE01F,
0.861800541666667,0,0xC32A,
0.861816291666667,0,0xE158,
0.861824125000000,0,0xC42A,
0.861839875000000,0,0xA99A,
0.861847750000000,0,0xC52A,
0.861863458333333,0,0xFF54,
0.861871333333333,0,0xC62A,
0.861887041666667,0,0xC016,
0.861894916666667,0,0xC72A,
0.861910666666667,0,0xA2E2,
0.861918500000000,0,0xC82A,
0.861934208333333,0,0x9E3B,
0.861942083333333,0,0xC92A,
0.861957791666667,0,0x9E3F,
0.861965666666667,0,0xCA2A,
0.869409958333333,0,0xBC3F,
0.869417666666667,0,0x060F,
0.869445500000000,0,0x0004,
0.869453208333333,0,0x0311,
0.869469666666667,0,0x0A01,
0.869477625000000,0,0x8311,
0.869493458333333,0,0x0F00,
0.869501375000000,0,0x8411,
0.869517208333333,0,0x0000,
0.869525166666667,0,0x851B,
0.869541041666667,0,0xBF3F,
0.869548958333333,0,0x8611,
0.869579166666667,0,0x0004,
0.869586833333333,0,0x0315,
0.869602958333333,0,0x0A01,
0.869610875000000,0,0x8315,
0.869626708333333,0,0x0F00,
0.869634666666667,0,0x8415,
0.869650500000000,0,0x0000,
0.869658458333333,0,0x851B,
0.869674291666667,0,0xBF3F,
0.869682208333333,0,0x8615,
0.869712708333333,0,0x0004,
0.869720375000000,0,0x0319,
0.869736708333333,0,0x0A01,
0.869744625000000,0,0x8319,
0.869760500000000,0,0x0F00,
0.869768416666667,0,0x8419,
0.869784291666667,0,0x0000,
0.869792208333333,0,0x851B,
0.869808083333333,0,0xBF3F,
0.869816000000000,0,0x8619,
0.869846750000000,0,0x0004,
0.869854416666667,0,0x031D,
0.869870500000000,0,0x0A01,
0.869878416666667,0,0x831D,
0.869894291666667,0,0x0F00,
0.869902166666667,0,0x841D,
0.869918041666667,0,0x0000,
0.869925958333333,0,0x851B,
0.869941833333333,0,0xBF3F,
0.869949750000000,0,0x861D,
0.869979958333333,0,0x0004,
0.869987625000000,0,0x0311,
0.870003750000000,0,0x0A01,
0.870011666666667,0,0x8311,
0.870027500000000,0,0x0F00,
0.870035458333333,0,0x8411,
0.870051291666667,0,0x0000,
0.870059208333333,0,0x851B,
0.870075041666667,0,0xB73F,
0.870083000000000,0,0x8611,
0.870113041666667,0,0x0001,
0.870120708333333,0,0x1D15,
0.870136958333333,0,0x1551,
0.870144875000000,0,0x9D15,
0.870172625000000,0,0x0003,
0.870180291666667,0,0x2419,
0.870196375000000,0,0x0048,
0.870204333333333,0,0xA41B,
0.870220166666667,0,0x0040,
0.870228083333333,0,0xA51B,
0.870243958333333,0,0x0000,
0.870251833333333,0,0xA61B,
0.870280708333333,0,0x0005,
0.870288375000000,0,0x2D1D,
0.870304333333333,0,0x4D95,
0.870312291666667,0,0xAD1B,
0.870328125000000,0,0xFFFF,
0.870336041666667,0,0xAE1B,
0.870351875000000,0,0x4B27,
0.870359833333333,0,0xAF1B,
0.870375666666667,0,0x8000,
0.870383583333333,0,0xB01B,
0.870399416666667,0,0x8301,
0.870407375000000,0,0xB11B,
0.870437541666667,0,0x0006,
0.870445208333333,0,0x3B11,
0.870461375000000,0,0xB3F9,
0.870469291666667,0,0xBB1B,
0.870485125000000,0,0xB34F,
0.870493083333333,0,0xBC1B,
0.870508916666667,0,0xB2D9,
0.870516833333333,0,0xBD1B,
0.870532708333333,0,0xB21B,
0.870540625000000,0,0xBE1B,
0.870556458333333,0,0xB21F,
0.870564375000000,0,0xBF1B,
0.870580250000000,0,0xB293,
0.870588166666667,0,0xC01B,
0.870618250000000,0,0x000A,
0.870625916666667,0,0x4115,
0.870642125000000,0,0xC0C5,
0.870650083333333,0,0xC11B,
0.870665916666667,0,0xC0C1,
0.870673833333333,0,0xC21B,
0.870689666666667,0,0xC0C6,
0.870697625000000,0,0xC31B,
0.870713458333333,0,0xC0C4,
0.870721375000000,0,0xC41B,
0.870737250000000,0,0xC0C4,
0.870745166666667,0,0xC51B,
0.870761000000000,0,0xE074,
0.870768916666667,0,0xC61B,
0.870784791666667,0,0x8000,
0.870792708333333,0,0xC71B,
0.870808541666667,0,0xA308,
0.870816458333333,0,0xC81B,
0.870832333333333,0,0x9E3B,
0.870840250000000,0,0xC91B,
0.870856125000000,0,0x9E3A,
0.870864041666667,0,0xCA1B,
0.870896000000000,0,0x0004,
0.870903708333333,0,0x0329,
0.870919791666667,0,0x0A01,
0.870927666666667,0,0x8329,
0.870943375000000,0,0x0F00,
0.870951250000000,0,0x8429,
0.870966958333333,0,0x0000,
0.870974833333333,0,0x852B,
0.870990541666667,0,0xB73F,
0.870998416666667,0,0x8629,
0.871028500000000,0,0x0001,
0.871036208333333,0,0x1D2D,
0.871052458333333,0,0x0055,
0.871060333333333,0,0x9D2D,
0.871088375000000,0,0x0003,
0.871096041666667,0,0x2421,
0.871112416666667,0,0x004C,
0.871120291666667,0,0xA42B,
0.871136000000000,0,0x0040,
0.871143875000000,0,0xA52B,
0.871159625000000,0,0x0000,
0.871167458333333,0,0xA62B,
0.871196708333333,0,0x0005,
0.871204375000000,0,0x2D25,
0.871220583333333,0,0x4E4C,
0.871228458333333,0,0xAD2B,
0.871244166666667,0,0xFFFF,
0.871252041666667,0,0xAE2B,
0.871267791666667,0,0xC5F0,
0.871275666666667,0,0xAF2B,
0.871291375000000,0,0x8000,
0.871299250000000,0,0xB02B,
0.871314958333333,0,0x8308,
0.871322833333333,0,0xB12B,
0.871352666666667,0,0x0006,
0.871360375000000,0,0x3B29,
0.871376375000000,0,0xE55B,
0.871384250000000,0,0xBB2B,
0.871400000000000,0,0x8000,
0.871407833333333,0,0xBC2B,
0.871423583333333,0,0x8001,
0.871431458333333,0,0xBD2B,
0.871447166666667,0,0x8000,
0.871455041666667,0,0xBE2B,
0.871470750000000,0,0xE5FE,
0.871478625000000,0,0xBF2B,
0.871494333333333,0,0xE612,
0.871502208333333,0,0xC02B,
0.871532125000000,0,0x000A,
0.871539791666667,0,0x412D,
0.871555750000000,0,0xDF12,
0.871563625000000,0,0xC12B,
0.871579333333333,0,0xE012,
0.871587208333333,0,0xC22B,
0.871602958333333,0,0xE01E,
0.871610833333333,0,0xC32B,
0.871626541666667,0,0xE155,
0.871634375000000,0,0xC42B,
0.871650125000000,0,0xA997,
0.871657958333333,0,0xC52B,
0.871673708333333,0,0xFF51,
0.871681541666667,0,0xC62B,
0.871697291666667,0,0xC012,
0.871705166666667,0,0xC72B,
0.871720875000000,0,0xA2E5,
0.871728750000000,0,0xC82B,
0.871744458333333,0,0x9E38,
0.871752333333333,0,0xC92B,
0.871768041666667,0,0x9E3D,
0.871775916666667,0,0xCA2B,
0.879370083333333,0,0xCC3F,
0.879377750000000,0,0x0603,
0.879405291666667,0,0x0004,
0.879412958333333,0,0x0315,
0.879429000000000,0,0x0A01,
0.879436958333333,0,0x8315,
0.879452791666667,0,0x0F00,
0.879460708333333,0,0x8415,
0.879476583333333,0,0x0000,
0.879484500000000,0,0x851C,
0.879500333333333,0,0xCF3F,
0.879508291666667,0,0x8615,
0.879539041666667,0,0x0004,
0.879546708333333,0,0x0319,
0.879562791666667,0,0x0A01,
0.879570708333333,0,0x8319,
0.879586541666667,0,0x0F00,
0.879594458333333,0,0x8419,
0.879610333333333,0,0x0000,
0.879618250000000,0,0x851C,
0.879634125000000,0,0xCF3F,
0.879642041666667,0,0x8619,
0.879673250000000,0,0x0004,
0.879680958333333,0,0x031D,
0.879697041666667,0,0x0A01,
0.879705000000000,0,0x831D,
0.879720875000000,0,0x0F00,
0.879728750000000,0,0x841D,
0.879744625000000,0,0x0000,
0.879752541666667,0,0x851C,
0.879768416666667,0,0xCF3F,
0.879776333333333,0,0x861D,
0.879806750000000,0,0x0004,
0.879814416666667,0,0x0311,
0.879830833333333,0,0x0A01,
0.879838750000000,0,0x8311,
0.879854625000000,0,0x0F00,
0.879862541666667,0,0x8411,
0.879878375000000,0,0x0000,
0.879886333333333,0,0x851C,
0.879902166666667,0,0xCF3F,
0.879910125000000,0,0x8611,
0.879941708333333,0,0x0004,
0.879949375000000,0,0x0315,
0.879965583333333,0,0x0A01,
0.879973500000000,0,0x8315,
0.879989375000000,0,0x0F00,
0.879997291666667,0,0x8415,
0.880013166666667,0,0x0000,
0.880021083333333,0,0x851C,
0.880036916666667,0,0xC73F,
0.880044833333333,0,0x8615,
0.880075500000000,0,0x0001,
0.880083166666667,0,0x1D19,
0.880099333333333,0,0x1551,
0.880107250000000,0,0x9D19,
0.880135416666667,0,0x0003,
0.880143083333333,0,0x241D,
0.880159291666667,0,0x0048,
0.880167208333333,0,0xA41C,
0.880183083333333,0,0x0040,
0.880191000000000,0,0xA51C,
0.880206833333333,0,0x0000,
0.880214750000000,0,0xA61C,
0.880244333333333,0,0x0005,
0.880252041666667,0,0x2D11,
0.880268250000000,0,0x4E9E,
0.880276208333333,0,0xAD1C,
0.880292041666667,0,0xFFFF,
0.880299958333333,0,0xAE1C,
0.880315833333333,0,0x492A,
0.880323750000000,0,0xAF1C,
0.880339583333333,0,0x8000,
0.880347500000000,0,0xB01C,
0.880363375000000,0,0x8305,
0.880371291666667,0,0xB11C,
0.880402166666667,0,0x0006,
0.880409875000000,0,0x3B15,
0.880426291666667,0,0xB3FA,
0.880434208333333,0,0xBB1C,
0.880450083333333,0,0xB352,
0.880458000000000,0,0xBC1C,
0.880473875000000,0,0xB2DE,
0.880481791666667,0,0xBD1C,
0.880497666666667,0,0xB21E,
0.880505583333333,0,0xBE1C,
0.880521416666667,0,0xB21D,
0.880529375000000,0,0xBF1C,
0.880545208333333,0,0xB290,
0.880553125000000,0,0xC01C,
0.880583791666667,0,0x000A,
0.880591458333333,0,0x4119,
0.880607625000000,0,0xC0C7,
0.880615583333333,0,0xC11C,
0.880631416666667,0,0xC0C1,
0.880639333333333,0,0xC21C,
0.880655208333333,0,0xC0C3,
0.880663125000000,0,0xC31C,
0.880679000000000,0,0xC0C5,
0.880686916666667,0,0xC41C,
0.880702791666667,0,0xC0C8,
0.880710708333333,0,0xC51C,
0.880726541666667,0,0xE06D,
0.880734500000000,0,0xC61C,
0.880750333333333,0,0x8001,
0.880758250000000,0,0xC71C,
0.880774125000000,0,0xA307,
0.880782041666667,0,0xC81C,
0.880797875000000,0,0x9E3D,
0.880805833333333,0,0xC91C,
0.880821666666667,0,0x9E3A,
0.880829625000000,0,0xCA1C,
0.880862458333333,0,0x0004,
0.880870166666667,0,0x032D,
0.880886541666667,0,0x0A01,
0.880894416666667,0,0x832D,
0.880910125000000,0,0x0F00,
0.880918000000000,0,0x842D,
0.880933750000000,0,0x0000,
0.880941583333333,0,0x852C,
0.880957333333333,0,0xC73F,
0.880965208333333,0,0x862D,
0.880996666666667,0,0x0001,
0.881004333333333,0,0x1D21,
0.881020750000000,0,0x0055,
0.881028625000000,0,0x9D21,
0.881057000000000,0,0x0003,
0.881064708333333,0,0x2425,
0.881080708333333,0,0x004C,
0.881088541666667,0,0xA42C,
0.881104291666667,0,0x0040,
0.881112125000000,0,0xA52C,
0.881127875000000,0,0x0000,
0.881135750000000,0,0xA62C,
0.881164583333333,0,0x0005,
0.881172250000000,0,0x2D29,
0.881188333333333,0,0x4F57,
0.881196208333333,0,0xAD2C,
0.881211916666667,0,0xFFFF,
0.881219791666667,0,0xAE2C,
0.881235500000000,0,0xC528,
0.881243375000000,0,0xAF2C,
0.881259125000000,0,0xFFFF,
0.881267000000000,0,0xB02C,
0.881282708333333,0,0x830E,
0.881290583333333,0,0xB12C,
0.881321833333333,0,0x0006,
0.881329500000000,0,0x3B2D,
0.881345625000000,0,0xE55B,
0.881353500000000,0,0xBB2C,
0.881369208333333,0,0x8000,
0.881377083333333,0,0xBC2C,
0.881392791666667,0,0x8000,
0.881400625000000,0,0xBD2C,
0.881416375000000,0,0x8000,
0.881424250000000,0,0xBE2C,
0.881439958333333,0,0xE600,
0.881447833333333,0,0xBF2C,
0.881463583333333,0,0xE619,
0.881471416666667,0,0xC02C,
0.881501750000000,0,0x000A,
0.881509416666667,0,0x4121,
0.881525500000000,0,0xDF12,
0.881533375000000,0,0xC12C,
0.881549083333333,0,0xE013,
0.881556958333333,0,0xC22C,
0.881572666666667,0,0xE01D,
0.881580541666667,0,0xC32C,
0.881596250000000,0,0xE155,
0.881604125000000,0,0xC42C,
0.881619875000000,0,0xA994,
0.881627708333333,0,0xC52C,
0.881643458333333,0,0xFF53,
0.881651333333333,0,0xC62C,
0.881667041666667,0,0xC00F,
0.881674916666667,0,0xC72C,
0.881690666666667,0,0xA2E4,
0.881698500000000,0,0xC82C,
0.881714250000000,0,0x9E39,
0.881722083333333,0,0xC92C,
0.881737791666667,0,0x9E43,
0.881745666666667,0,0xCA2C,
0.889389375000000,0,0xDC3F,
0.889397041666667,0,0x0607,
0.889424458333333,0,0x0004,
0.889432125000000,0,0x0319,
0.889448208333333,0,0x0A01,
0.889456166666667,0,0x8319,
0.889472000000000,0,0x0F00,
0.889479916666667,0,0x8419,
0.889495791666667,0,0x0000,
0.889503708333333,0,0x851D,
0.889519583333333,0,0xDF3F,
0.889527500000000,0,0x8619,
0.889558458333333,0,0x0004,
0.889566166666667,0,0x031D,
0.889582500000000,0,0x0A01,
0.889590416666667,0,0x831D,
0.889606250000000,0,0x0F00,
0.889614208333333,0,0x841D,
0.889630041666667,0,0x0000,
0.889638000000000,0,0x851D,
0.889653833333333,0,0xDF3F,
0.889661750000000,0,0x861D,
0.889692666666667,0,0x0004,
0.889700375000000,0,0x0311,
0.889716750000000,0,0x0A01,
0.889724666666667,0,0x8311,
0.889740541666667,0,0x0F00,
0.889748458333333,0,0x8411,
0.889764333333333,0,0x0000,
0.889772250000000,0,0x851D,
0.889788125000000,0,0xDF3F,
0.889796041666667,0,0x8611,
0.889826666666667,0,0x0004,
0.889834375000000,0,0x0315,
0.889850541666667,0,0x0A01,
0.889858500000000,0,0x8315,
0.889874333333333,0,0x0F00,
0.889882250000000,0,0x8415,
0.889898125000000,0,0x0000,
0.889906041666667,0,0x851D,
0.889921916666667,0,0xDF3F,
0.889929833333333,0,0x8615,
0.889960958333333,0,0x0004,
0.889968625000000,0,0x0319,
0.889984791666667,0,0x0A01,
0.889992750000000,0,0x8319,
0.890008583333333,0,0x0F00,
0.890016541666667,0,0x8419,
0.890032375000000,0,0x0000,
0.890040291666667,0,0x851D,
0.890056125000000,0,0xD73F,
0.890064041666667,0,0x8619,
0.890094458333333,0,0x0001,
0.890102125000000,0,0x1D1D,
0.890118541666667,0,0x1551,
0.890126458333333,0,0x9D1D,
0.890154333333333,0,0x0003,
0.890162041666667,0,0x2411,
0.890178500000000,0,0x0048,
0.890186416666667,0,0xA41D,
0.890202250000000,0,0x0040,
0.890210208333333,0,0xA51D,
0.890226041666667,0,0x0000,
0.890233958333333,0,0xA61D,
0.890263333333333,0,0x0005,
0.890271041666667,0,0x2D15,
0.890287458333333,0,0x4FA8,
0.890295375000000,0,0xAD1D,
0.890311250000000,0,0xFFFF,
0.890319166666667,0,0xAE1D,
0.890335041666667,0,0x4780,
0.890342958333333,0,0xAF1D,
0.890358791666667,0,0xFFFF,
0.890366708333333,0,0xB01D,
0.890382583333333,0,0x830B,
0.890390500000000,0,0xB11D,
0.890421083333333,0,0x0006,
0.890428750000000,0,0x3B19,
0.890445000000000,0,0xB3FD,
0.890452958333333,0,0xBB1D,
0.890468791666667,0,0xB34A,
0.890476708333333,0,0xBC1D,
0.890492583333333,0,0xB2DF,
0.890500500000000,0,0xBD1D,
0.890516375000000,0,0xB21D,
0.890524291666667,0,0xBE1D,
0.890540125000000,0,0xB21A,
0.890548083333333,0,0xBF1D,
0.890563916666667,0,0xB293,
0.890571833333333,0,0xC01D,
0.890601791666667,0,0x000A,
0.890609500000000,0,0x411D,
0.890625875000000,0,0xC0C4,
0.890633791666667,0,0xC11D,
0.890649666666667,0,0xC0C3,
0.890657583333333,0,0xC21D,
0.890673458333333,0,0xC0C5,
0.890681375000000,0,0xC31D,
0.890697208333333,0,0xC0C4,
0.890705166666667,0,0xC41D,
0.890721000000000,0,0xC0C5,
0.890728958333333,0,0xC51D,
0.890744791666667,0,0xE072,
0.890752750000000,0,0xC61D,
0.890768583333333,0,0x8000,
0.890776500000000,0,0xC71D,
0.890792375000000,0,0xA308,
0.890800291666667,0,0xC81D,
0.890816125000000,0,0x9E3E,
0.890824083333333,0,0xC91D,
0.890839916666667,0,0x9E3B,
0.890847875000000,0,0xCA1D,
0.890880375000000,0,0x0004,
0.890888041666667,0,0x0321,
0.890904291666667,0,0x0A01,
0.890912166666667,0,0x8321,
0.890927916666667,0,0x0F00,
0.890935750000000,0,0x8421,
0.890951500000000,0,0x0000,
0.890959333333333,0,0x852D,
0.890975083333333,0,0xD73F,
0.890982958333333,0,0x8621,
0.891012541666667,0,0x0001,
0.891020208333333,0,0x1D25,
0.891036500000000,0,0x0055,
0.891044375000000,0,0x9D25,
0.891072625000000,0,0x0003,
0.891080333333333,0,0x2429,
0.891096458333333,0,0x004C,
0.891104333333333,0,0xA42D,
0.891120083333333,0,0x0040,
0.891127916666667,0,0xA52D,
0.891143625000000,0,0x0000,
0.891151500000000,0,0xA62D,
0.891180458333333,0,0x0005,
0.891188125000000,0,0x2D2D,
0.891204583333333,0,0x5063,
0.891212458333333,0,0xAD2D,
0.891228166666667,0,0xFFFF,
0.891236041666667,0,0xAE2D,
0.891251750000000,0,0xC492,
0.891259625000000,0,0xAF2D,
0.891275375000000,0,0xFFFF,
0.891283208333333,0,0xB02D,
0.891298958333333,0,0x830C,
0.891306791666667,0,0xB12D,
0.891336333333333,0,0x0006,
0.891344041666667,0,0x3B21,
0.891360375000000,0,0xE55E,
0.891368250000000,0,0xBB2D,
0.891383958333333,0,0x8001,
0.891391833333333,0,0xBC2D,
0.891407541666667,0,0x8000,
0.891415416666667,0,0xBD2D,
0.891431125000000,0,0x8001,
0.891439000000000,0,0xBE2D,
0.891454708333333,0,0xE5FB,
0.891462583333333,0,0xBF2D,
0.891478291666667,0,0xE614,
0.891486166666667,0,0xC02D,
0.891516208333333,0,0x000A,
0.891523875000000,0,0x4125,
0.891540208333333,0,0xDF12,
0.891548083333333,0,0xC12D,
0.891563791666667,0,0xE014,
0.891571666666667,0,0xC22D,
0.891587375000000,0,0xE019,
0.891595250000000,0,0xC32D,
0.891610958333333,0,0xE157,
0.891618833333333,0,0xC42D,
0.891634583333333,0,0xA996,
0.891642416666667,0,0xC52D,
0.891658166666667,0,0xFF53,
0.891666041666667,0,0xC62D,
0.891681750000000,0,0xC016,
0.891689625000000,0,0xC72D,
0.891705375000000,0,0xA2E4,
0.891713208333333,0,0xC82D,
0.891728958333333,0,0x9E3B,
0.891736791666667,0,0xC92D,
0.891752541666667,0,0x9E3E,
0.891760375000000,0,0xCA2D,
0.899388833333333,0,0xEC3F,
0.899396541666667,0,0x060B,
0.899423416666667,0,0x0004,
0.899431083333333,0,0x031D,
0.899447250000000,0,0x0A01,
0.899455166666667,0,0x831D,
0.899471000000000,0,0x0F00,
0.899478958333333,0,0x841D,
0.899494791666667,0,0x0000,
0.899502708333333,0,0x851E,
0.899518583333333,0,0xEF3F,
0.899526500000000,0,0x861D,
0.899557500000000,0,0x0004,
0.899565208333333,0,0x0311,
0.899581500000000,0,0x0A01,
0.899589416666667,0,0x8311,
0.899605291666667,0,0x0F00,
0.899613208333333,0,0x8411,
0.899629041666667,0,0x0000,
0.899637000000000,0,0x851E,
0.899652833333333,0,0xEF3F,
0.899660791666667,0,0x8611,
0.899691916666667,0,0x0004,
0.899699583333333,0,0x0315,
0.899715791666667,0,0x0A01,
0.899723708333333,0,0x8315,
0.899739541666667,0,0x0F00,
0.899747500000000,0,0x8415,
0.899763333333333,0,0x0000,
0.899771250000000,0,0x851E,
0.899787125000000,0,0xEF3F,
0.899795041666667,0,0x8615,
0.899826500000000,0,0x0004,
0.899834166666667,0,0x0319,
0.899850541666667,0,0x0A01,
0.899858458333333,0,0x8319,
0.899874291666667,0,0x0F00,
0.899882250000000,0,0x8419,
0.899898083333333,0,0x0000,
0.899906000000000,0,0x851E,
0.899921875000000,0,0xEF3F,
0.899929833333333,0,0x8619,
0.899960875000000,0,0x0004,
0.899968541666667,0,0x031D,
0.899984791666667,0,0x0A01,
0.899992708333333,0,0x831D,
0.900008583333333,0,0x0F00,
0.900016500000000,0,0x841D,
0.900032333333333,0,0x0000,
0.900040250000000,0,0x851E,
0.900056125000000,0,0xE73F,
0.900064041666667,0,0x861D,
0.900095041666667,0,0x0001,
0.900102750000000,0,0x1D11,
0.900119000000000,0,0x1551,
0.900126916666667,0,0x9D11,
0.900154958333333,0,0x0003,
0.900162666666667,0,0x2415,
0.900178958333333,0,0x0048,
0.900186875000000,0,0xA41E,
0.900202708333333,0,0x0040,
0.900210625000000,0,0xA51E,
0.900226500000000,0,0x0000,
0.900234416666667,0,0xA61E,
0.900263708333333,0,0x0005,
0.900271416666667,0,0x2D19,
0.900287416666667,0