Time [s],Packet ID,MOSI,MISO
-0.000057875000000,0,0x0000,
-0.000050000000000,0,0x852B,
-0.000034291666667,0,0xB73F,
-0.000026458333333,0,0x8621,
0.000004041666667,0,0x0001,
0.000011708333333,0,0x1D25,
0.000028041666667,0,0x0055,
0.000035875000000,0,0x9D25,
0.000063166666667,0,0x0003,
0.000070833333333,0,0x2429,
0.000086958333333,0,0x004C,
0.000094791666667,0,0xA42B,
0.000110500000000,0,0x0040,
0.000118333333333,0,0xA52B,
0.000134083333333,0,0x8000,
0.000141916666667,0,0xA62B,
0.000170458333333,0,0x0005,
0.000178125000000,0,0x2D2D,
0.000194458333333,0,0x8116,
0.000202291666667,0,0xAD2B,
0.000218000000000,0,0xFFFE,
0.000225833333333,0,0xAE2B,
0.000241583333333,0,0xCF7F,
0.000249416666667,0,0xAF2B,
0.000265125000000,0,0xFFFF,
0.000272958333333,0,0xB02B,
0.000288708333333,0,0x830A,
0.000296541666667,0,0xB12B,
0.000326333333333,0,0x0006,
0.000334000000000,0,0x3B21,
0.000350041666667,0,0xE51A,
0.000357875000000,0,0xBB2B,
0.000373625000000,0,0x8000,
0.000381500000000,0,0xBC2B,
0.000397166666667,0,0x8000,
0.000405041666667,0,0xBD2B,
0.000420750000000,0,0x8003,
0.000428583333333,0,0xBE2B,
0.000444291666667,0,0xE5B8,
0.000452166666667,0,0xBF2B,
0.000467875000000,0,0xE5D6,
0.000475708333333,0,0xC02B,
0.000506208333333,0,0x000A,
0.000513916666667,0,0x4125,
0.000530208333333,0,0xDB4F,
0.000538083333333,0,0xC12B,
0.000553791666667,0,0xDC51,
0.000561625000000,0,0xC22B,
0.000577333333333,0,0xDF3D,
0.000585166666667,0,0xC32B,
0.000600875000000,0,0xE120,
0.000608750000000,0,0xC42B,
0.000624458333333,0,0xA97E,
0.000632291666667,0,0xC52B,
0.000648000000000,0,0xFF4B,
0.000655875000000,0,0xC62B,
0.000671583333333,0,0xC013,
0.000679416666667,0,0xC72B,
0.000695125000000,0,0xA3B8,
0.000702958333333,0,0xC82B,
0.000718708333333,0,0x9E3B,
0.000726541666667,0,0xC92B,
0.000742250000000,0,0x9E3A,
0.000750125000000,0,0xCA2B,
0.008387375000000,0,0xCC3F,
0.008395083333333,0,0x060B,
0.008422750000000,0,0x0004,
0.008430416666667,0,0x031D,
0.008446625000000,0,0x0A01,
0.008454583333333,0,0x831D,
0.008470375000000,0,0x0F00,
0.008478333333333,0,0x841D,
0.008494166666667,0,0x0000,
0.008502041666667,0,0x851C,
0.008517916666667,0,0xCF3F,
0.008525833333333,0,0x861D,
0.008556083333333,0,0x0004,
0.008563750000000,0,0x0311,
0.008579750000000,0,0x0A01,
0.008587666666667,0,0x8311,
0.008603541666667,0,0x0F00,
0.008611458333333,0,0x8411,
0.008627291666667,0,0x0000,
0.008635208333333,0,0x851C,
0.008651041666667,0,0xCF3F,
0.008658958333333,0,0x8611,
0.008689125000000,0,0x0004,
0.008696791666667,0,0x0315,
0.008712916666667,0,0x0A01,
0.008720875000000,0,0x8315,
0.008736666666667,0,0x0F00,
0.008744625000000,0,0x8415,
0.008760458333333,0,0x0000,
0.008768375000000,0,0x851C,
0.008784208333333,0,0xCF3F,
0.008792125000000,0,0x8615,
0.008823541666667,0,0x0004,
0.008831208333333,0,0x0319,
0.008847541666667,0,0x0A01,
0.008855458333333,0,0x8319,
0.008871291666667,0,0x0F00,
0.008879208333333,0,0x8419,
0.008895041666667,0,0x0000,
0.008902958333333,0,0x851C,
0.008918791666667,0,0xCF3F,
0.008926750000000,0,0x8619,
0.008957750000000,0,0x0004,
0.008965416666667,0,0x031D,
0.008981666666667,0,0x0A01,
0.008989583333333,0,0x831D,
0.009005375000000,0,0x0F00,
0.009013291666667,0,0x841D,
0.009029125000000,0,0x0000,
0.009037041666667,0,0x851C,
0.009052875000000,0,0xC73F,
0.009060791666667,0,0x861D,
0.009091333333333,0,0x0001,
0.009099041666667,0,0x1D11,
0.009115208333333,0,0x1551,
0.009123125000000,0,0x9D11,
0.009151500000000,0,0x0003,
0.009159166666667,0,0x2415,
0.009175583333333,0,0x0048,
0.009183500000000,0,0xA41C,
0.009199333333333,0,0x0040,
0.009207250000000,0,0xA51C,
0.009223041666667,0,0x0000,
0.009231000000000,0,0xA61C,
0.009259708333333,0,0x0005,
0.009267375000000,0,0x2D19,
0.009283416666667,0,0x8107,
0.009291333333333,0,0xAD1C,
0.009307166666667,0,0xFFFE,
0.009315083333333,0,0xAE1C,
0.009330916666667,0,0x9BEC,
0.009338833333333,0,0xAF1C,
0.009354666666667,0,0x8000,
0.009362583333333,0,0xB01C,
0.009378416666667,0,0x8300,
0.009386333333333,0,0xB11C,
0.009417125000000,0,0x0006,
0.009424791666667,0,0x3B1D,
0.009441208333333,0,0xB3E0,
0.009449166666667,0,0xBB1C,
0.009465000000000,0,0xB32A,
0.009472916666667,0,0xBC1C,
0.009488750000000,0,0xB2BF,
0.009496666666667,0,0xBD1C,
0.009512500000000,0,0xB1FD,
0.009520416666667,0,0xBE1C,
0.009536250000000,0,0xB202,
0.009544166666667,0,0xBF1C,
0.009560000000000,0,0xB271,
0.009567916666667,0,0xC01C,
0.009597958333333,0,0x000A,
0.009605625000000,0,0x4111,
0.009621833333333,0,0xC096,
0.009629750000000,0,0xC11C,
0.009645583333333,0,0xC0C9,
0.009653500000000,0,0xC21C,
0.009669333333333,0,0xC088,
0.009677250000000,0,0xC31C,
0.009693083333333,0,0xC0C9,
0.009701000000000,0,0xC41C,
0.009716833333333,0,0xC0C8,
0.009724708333333,0,0xC51C,
0.009740541666667,0,0xDCFB,
0.009748458333333,0,0xC61C,
0.009764291666667,0,0x801F,
0.009772208333333,0,0xC71C,
0.009788083333333,0,0xA3D7,
0.009795958333333,0,0xC81C,
0.009811791666667,0,0x9E3B,
0.009819708333333,0,0xC91C,
0.009835541666667,0,0x9E3B,
0.009843458333333,0,0xCA1C,
0.009875750000000,0,0x0004,
0.009883416666667,0,0x0325,
0.009899833333333,0,0x0A01,
0.009907666666667,0,0x8325,
0.009923375000000,0,0x0F00,
0.009931250000000,0,0x8425,
0.009946958333333,0,0x0000,
0.009954791666667,0,0x852C,
0.009970500000000,0,0xC73F,
0.009978333333333,0,0x8625,
0.010008583333333,0,0x0001,
0.010016291666667,0,0x1D29,
0.010032333333333,0,0x0055,
0.010040208333333,0,0x9D29,
0.010068083333333,0,0x0003,
0.010075750000000,0,0x242D,
0.010091750000000,0,0x004C,
0.010099583333333,0,0xA42C,
0.010115291666667,0,0x0040,
0.010123166666667,0,0xA52C,
0.010138875000000,0,0x8000,
0.010146708333333,0,0xA62C,
0.010175958333333,0,0x0005,
0.010183625000000,0,0x2D21,
0.010199708333333,0,0x8222,
0.010207583333333,0,0xAD2C,
0.010223250000000,0,0xFFFE,
0.010231125000000,0,0xAE2C,
0.010246833333333,0,0xCD52,
0.010254666666667,0,0xAF2C,
0.010270375000000,0,0xFFFF,
0.010278250000000,0,0xB02C,
0.010293958333333,0,0x830D,
0.010301791666667,0,0xB12C,
0.010332083333333,0,0x0006,
0.010339750000000,0,0x3B25,
0.010355791666667,0,0xE512,
0.010363666666667,0,0xBB2C,
0.010379333333333,0,0x8000,
0.010387208333333,0,0xBC2C,
0.010402916666667,0,0x8000,
0.010410750000000,0,0xBD2C,
0.010426458333333,0,0x8000,
0.010434333333333,0,0xBE2C,
0.010450041666667,0,0xE5BB,
0.010457916666667,0,0xBF2C,
0.010473625000000,0,0xE5D5,
0.010481458333333,0,0xC02C,
0.010511708333333,0,0x000A,
0.010519375000000,0,0x4129,
0.010535458333333,0,0xDB52,
0.010543291666667,0,0xC12C,
0.010559000000000,0,0xDC54,
0.010566875000000,0,0xC22C,
0.010582583333333,0,0xDF3E,
0.010590416666667,0,0xC32C,
0.010606125000000,0,0xE121,
0.010614000000000,0,0xC42C,
0.010629708333333,0,0xA97E,
0.010637541666667,0,0xC52C,
0.010653250000000,0,0xFF4A,
0.010661083333333,0,0xC62C,
0.010676833333333,0,0xC014,
0.010684666666667,0,0xC72C,
0.010700375000000,0,0xA3BB,
0.010708208333333,0,0xC82C,
0.010723916666667,0,0x9E3D,
0.010731791666667,0,0xC92C,
0.010747500000000,0,0x9E3F,
0.010755333333333,0,0xCA2C,
0.018382500000000,0,0xDC3F,
0.018390166666667,0,0x060F,
0.018417041666667,0,0x0004,
0.018424750000000,0,0x0311,
0.018441166666667,0,0x0A01,
0.018449083333333,0,0x8311,
0.018464916666667,0,0x0F00,
0.018472833333333,0,0x8411,
0.018488708333333,0,0x0000,
0.018496625000000,0,0x851D,
0.018512458333333,0,0xDF3F,
0.018520375000000,0,0x8611,
0.018551291666667,0,0x0004,
0.018558958333333,0,0x0315,
0.018575291666667,0,0x0A01,
0.018583208333333,0,0x8315,
0.018599041666667,0,0x0F00,
0.018606958333333,0,0x8415,
0.018622833333333,0,0x0000,
0.018630708333333,0,0x851D,
0.018646583333333,0,0xDF3F,
0.018654500000000,0,0x8615,
0.018684458333333,0,0x0004,
0.018692125000000,0,0x0319,
0.018708458333333,0,0x0A01,
0.018716375000000,0,0x8319,
0.018732208333333,0,0x0F00,
0.018740125000000,0,0x8419,
0.018755958333333,0,0x0000,
0.018763875000000,0,0x851D,
0.018779708333333,0,0xDF3F,
0.018787666666667,0,0x8619,
0.018818458333333,0,0x0004,
0.018826166666667,0,0x031D,
0.018842583333333,0,0x0A01,
0.018850500000000,0,0x831D,
0.018866375000000,0,0x0F00,
0.018874291666667,0,0x841D,
0.018890083333333,0,0x0000,
0.018898000000000,0,0x851D,
0.018913875000000,0,0xDF3F,
0.018921791666667,0,0x861D,
0.018952791666667,0,0x0004,
0.018960458333333,0,0x0311,
0.018976708333333,0,0x0A01,
0.018984625000000,0,0x8311,
0.019000416666667,0,0x0F00,
0.019008375000000,0,0x8411,
0.019024208333333,0,0x0000,
0.019032083333333,0,0x851D,
0.019047958333333,0,0xD73F,
0.019055875000000,0,0x8611,
0.019086083333333,0,0x0001,
0.019093791666667,0,0x1D15,
0.019109791666667,0,0x1551,
0.019117708333333,0,0x9D15,
0.019145375000000,0,0x0003,
0.019153083333333,0,0x2419,
0.019169125000000,0,0x0048,
0.019177083333333,0,0xA41D,
0.019192875000000,0,0x0040,
0.019200833333333,0,0xA51D,
0.019216666666667,0,0x0000,
0.019224583333333,0,0xA61D,
0.019253541666667,0,0x0005,
0.019261208333333,0,0x2D1D,
0.019277500000000,0,0x8211,
0.019285416666667,0,0xAD1D,
0.019301250000000,0,0xFFFE,
0.019309208333333,0,0xAE1D,
0.019325000000000,0,0x995D,
0.019332916666667,0,0xAF1D,
0.019348750000000,0,0xFFFF,
0.019356666666667,0,0xB01D,
0.019372500000000,0,0x830E,
0.019380416666667,0,0xB11D,
0.019411208333333,0,0x0006,
0.019418916666667,0,0x3B11,
0.019435333333333,0,0xB3DB,
0.019443291666667,0,0xBB1D,
0.019459083333333,0,0xB323,
0.019467000000000,0,0xBC1D,
0.019482833333333,0,0xB2BE,
0.019490750000000,0,0xBD1D,
0.019506583333333,0,0xB202,
0.019514500000000,0,0xBE1D,
0.019530333333333,0,0xB203,
0.019538250000000,0,0xBF1D,
0.019554083333333,0,0xB273,
0.019562000000000,0,0xC01D,
0.019592250000000,0,0x000A,
0.019599916666667,0,0x4115,
0.019615958333333,0,0xC08E,
0.019623875000000,0,0xC11D,
0.019639708333333,0,0xC0C3,
0.019647625000000,0,0xC21D,
0.019663458333333,0,0xC083,
0.019671375000000,0,0xC31D,
0.019687208333333,0,0xC0C2,
0.019695125000000,0,0xC41D,
0.019710958333333,0,0xC0C3,
0.019718875000000,0,0xC51D,
0.019734708333333,0,0xDCF6,
0.019742625000000,0,0xC61D,
0.019758458333333,0,0x8019,
0.019766375000000,0,0xC71D,
0.019782208333333,0,0xA3D8,
0.019790125000000,0,0xC81D,
0.019805958333333,0,0x9E35,
0.019813875000000,0,0xC91D,
0.019829708333333,0,0x9E3B,
0.019837625000000,0,0xCA1D,
0.019869833333333,0,0x0004,
0.019877541666667,0,0x0329,
0.019893958333333,0,0x0A01,
0.019901833333333,0,0x8329,
0.019917541666667,0,0x0F00,
0.019925375000000,0,0x8429,
0.019941083333333,0,0x0000,
0.019948958333333,0,0x852D,
0.019964666666667,0,0xD73F,
0.019972500000000,0,0x8629,
0.020002291666667,0,0x0001,
0.020009958333333,0,0x1D2D,
0.020026000000000,0,0x0055,
0.020033875000000,0,0x9D2D,
0.020062000000000,0,0x0003,
0.020069666666667,0,0x2421,
0.020085875000000,0,0x004C,
0.020093750000000,0,0xA42D,
0.020109458333333,0,0x0040,
0.020117333333333,0,0xA52D,
0.020133041666667,0,0x8000,
0.020140875000000,0,0xA62D,
0.020170125000000,0,0x0005,
0.020177791666667,0,0x2D25,
0.020193875000000,0,0x832E,
0.020201750000000,0,0xAD2D,
0.020217416666667,0,0xFFFE,
0.020225291666667,0,0xAE2D,
0.020241000000000,0,0xCA9A,
0.020248875000000,0,0xAF2D,
0.020264583333333,0,0x8000,
0.020272416666667,0,0xB02D,
0.020288125000000,0,0x8303,
0.020295958333333,0,0xB12D,
0.020327833333333,0,0x0006,
0.020335541666667,0,0x3B29,
0.020351458333333,0,0xE515,
0.020359333333333,0,0xBB2D,
0.020375000000000,0,0x8000,
0.020382875000000,0,0xBC2D,
0.020398583333333,0,0x8000,
0.020406458333333,0,0xBD2D,
0.020422125000000,0,0x8005,
0.020430000000000,0,0xBE2D,
0.020445708333333,0,0xE5B6,
0.020453541666667,0,0xBF2D,
0.020469291666667,0,0xE5D0,
0.020477125000000,0,0xC02D,
0.020507958333333,0,0x000A,
0.020515625000000,0,0x412D,
0.020531625000000,0,0xDB52,
0.020539500000000,0,0xC12D,
0.020555166666667,0,0xDC56,
0.020563041666667,0,0xC22D,
0.020578750000000,0,0xDF3F,
0.020586625000000,0,0xC32D,
0.020602333333333,0,0xE125,
0.020610166666667,0,0xC42D,
0.020625916666667,0,0xA97F,
0.020633750000000,0,0xC52D,
0.020649458333333,0,0xFF4F,
0.020657333333333,0,0xC62D,
0.020673000000000,0,0xC019,
0.020680875000000,0,0xC72D,
0.020696583333333,0,0xA3BA,
0.020704458333333,0,0xC82D,
0.020720125000000,0,0x9E3F,
0.020728000000000,0,0xC92D,
0.020743708333333,0,0x9E3B,
0.020751583333333,0,0xCA2D,
0.028340791666667,0,0xEC3F,
0.028348458333333,0,0x0603,
0.028375916666667,0,0x0004,
0.028383625000000,0,0x0315,
0.028399708333333,0,0x0A01,
0.028407625000000,0,0x8315,
0.028423458333333,0,0x0F00,
0.028431375000000,0,0x8415,
0.028447250000000,0,0x0000,
0.028455166666667,0,0x851E,
0.028471000000000,0,0xEF3F,
0.028478916666667,0,0x8615,
0.028509458333333,0,0x0004,
0.028517125000000,0,0x0319,
0.028533333333333,0,0x0A01,
0.028541250000000,0,0x8319,
0.028557083333333,0,0x0F00,
0.028565000000000,0,0x8419,
0.028580875000000,0,0x0000,
0.028588750000000,0,0x851E,
0.028604625000000,0,0xEF3F,
0.028612541666667,0,0x8619,
0.028643375000000,0,0x0004,
0.028651041666667,0,0x031D,
0.028667458333333,0,0x0A01,
0.028675375000000,0,0x831D,
0.028691208333333,0,0x0F00,
0.028699125000000,0,0x841D,
0.028714958333333,0,0x0000,
0.028722875000000,0,0x851E,
0.028738708333333,0,0xEF3F,
0.028746625000000,0,0x861D,
0.028776916666667,0,0x0004,
0.028784625000000,0,0x0311,
0.028801083333333,0,0x0A01,
0.028809000000000,0,0x8311,
0.028824833333333,0,0x0F00,
0.028832750000000,0,0x8411,
0.028848583333333,0,0x0000,
0.028856500000000,0,0x851E,
0.028872333333333,0,0xEF3F,
0.028880250000000,0,0x8611,
0.028910958333333,0,0x0004,
0.028918666666667,0,0x0315,
0.028934666666667,0,0x0A01,
0.028942583333333,0,0x8315,
0.028958416666667,0,0x0F00,
0.028966333333333,0,0x8415,
0.028982166666667,0,0x0000,
0.028990083333333,0,0x851E,
0.029005916666667,0,0xE73F,
0.029013833333333,0,0x8615,
0.029044583333333,0,0x0001,
0.029052291666667,0,0x1D19,
0.029068250000000,0,0x1551,
0.029076166666667,0,0x9D19,
0.029104208333333,0,0x0003,
0.029111875000000,0,0x241D,
0.029128083333333,0,0x0048,
0.029136000000000,0,0xA41E,
0.029151833333333,0,0x0040,
0.029159750000000,0,0xA51E,
0.029175583333333,0,0x0000,
0.029183500000000,0,0xA61E,
0.029211541666667,0,0x0005,
0.029219208333333,0,0x2D11,
0.029235416666667,0,0x831A,
0.029243333333333,0,0xAD1E,
0.029259166666667,0,0xFFFE,
0.029267083333333,0,0xAE1E,
0.029282916666667,0,0x96AB,
0.029290833333333,0,0xAF1E,
0.029306666666667,0,0xFFFF,
0.029314583333333,0,0xB01E,
0.029330416666667,0,0x830B,
0.029338333333333,0,0xB11E,
0.029368416666667,0,0x0006,
0.029376083333333,0,0x3B15,
0.029392250000000,0,0xB3DE,
0.029400166666667,0,0xBB1E,
0.029416000000000,0,0xB329,
0.029423916666667,0,0xBC1E,
0.029439750000000,0,0xB2C2,
0.029447666666667,0,0xBD1E,
0.029463541666667,0,0xB1FC,
0.029471458333333,0,0xBE1E,
0.029487291666667,0,0xB201,
0.029495208333333,0,0xBF1E,
0.029511041666667,0,0xB274,
0.029518958333333,0,0xC01E,
0.029549083333333,0,0x000A,
0.029556750000000,0,0x4119,
0.029572875000000,0,0xC095,
0.029580791666667,0,0xC11E,
0.029596625000000,0,0xC0C5,
0.029604541666667,0,0xC21E,
0.029620375000000,0,0xC088,
0.029628291666667,0,0xC31E,
0.029644125000000,0,0xC0C6,
0.029652041666667,0,0xC41E,
0.029667833333333,0,0xC0C4,
0.029675791666667,0,0xC51E,
0.029691583333333,0,0xDCF5,
0.029699500000000,0,0xC61E,
0.029715333333333,0,0x8020,
0.029723291666667,0,0xC71E,
0.029739083333333,0,0xA3D8,
0.029747041666667,0,0xC81E,
0.029762833333333,0,0x9E3A,
0.029770750000000,0,0xC91E,
0.029786583333333,0,0x9E3D,
0.029794541666667,0,0xCA1E,
0.029826833333333,0,0x0004,
0.029834500000000,0,0x032D,
0.029850708333333,0,0x0A01,
0.029858541666667,0,0x832D,
0.029874250000000,0,0x0F00,
0.029882125000000,0,0x842D,
0.029897833333333,0,0x0000,
0.029905666666667,0,0x852E,
0.029921375000000,0,0xE73F,
0.029929250000000,0,0x862D,
0.029959208333333,0,0x0001,
0.029966875000000,0,0x1D21,
0.029983250000000,0,0x0055,
0.029991083333333,0,0x9D21,
0.030018958333333,0,0x0003,
0.030026666666667,0,0x2425,
0.030042625000000,0,0x004C,
0.030050458333333,0,0xA42E,
0.030066208333333,0,0x0040,
0.030074041666667,0,0xA52E,
0.030089750000000,0,0x8000,
0.030097625000000,0,0xA62E,
0.030126750000000,0,0x0005,
0.030134416666667,0,0x2D29,
0.030150625000000,0,0x8439,
0.030158500000000,0,0xAD2E,
0.030174166666667,0,0xFFFE,
0.030182041666667,0,0xAE2E,
0.030197750000000,0,0xC7DE,
0.030205625000000,0,0xAF2E,
0.030221291666667,0,0xFFFF,
0.030229166666667,0,0xB02E,
0.030244875000000,0,0x8309,
0.030252750000000,0,0xB12E,
0.030283541666667,0,0x0006,
0.030291250000000,0,0x3B2D,
0.030307208333333,0,0xE51A,
0.030315083333333,0,0xBB2E,
0.030330750000000,0,0x8004,
0.030338625000000,0,0xBC2E,
0.030354333333333,0,0x8000,
0.030362166666667,0,0xBD2E,
0.030377875000000,0,0x8000,
0.030385750000000,0,0xBE2E,
0.030401458333333,0,0xE5BB,
0.030409333333333,0,0xBF2E,
0.030425041666667,0,0xE5D3,
0.030432875000000,0,0xC02E,
0.030462458333333,0,0x000A,
0.030470125000000,0,0x4121,
0.030486416666667,0,0xDB4C,
0.030494250000000,0,0xC12E,
0.030509958333333,0,0xDC4E,
0.030517833333333,0,0xC22E,
0.030533500000000,0,0xDF3A,
0.030541375000000,0,0xC32E,
0.030557083333333,0,0xE11D,
0.030564958333333,0,0xC42E,
0.030580625000000,0,0xA97C,
0.030588500000000,0,0xC52E,
0.030604208333333,0,0xFF48,
0.030612083333333,0,0xC62E,
0.030627750000000,0,0xC013,
0.030635625000000,0,0xC72E,
0.030651333333333,0,0xA3B8,
0.030659208333333,0,0xC82E,
0.030674875000000,0,0x9E38,
0.030682750000000,0,0xC92E,
0.030698458333333,0,0x9E3E,
0.030706291666667,0,0xCA2E,
0.038407250000000,0,0xFC3F,
0.038414916666667,0,0x0607,
0.038442083333333,0,0x0004,
0.038449750000000,0,0x0319,
0.038466000000000,0,0x0A01,
0.038473916666667,0,0x8319,
0.038489750000000,0,0x0F00,
0.038497666666667,0,0x8419,
0.038513500000000,0,0x0000,
0.038521416666667,0,0x851F,
0.038537250000000,0,0xFF3F,
0.038545166666667,0,0x8619,
0.038575708333333,0,0x0004,
0.038583416666667,0,0x031D,
0.038599625000000,0,0x0A01,
0.038607541666667,0,0x831D,
0.038623375000000,0,0x0F00,
0.038631291666667,0,0x841D,
0.038647125000000,0,0x0000,
0.038655041666667,0,0x851F,
0.038670875000000,0,0xFF3F,
0.038678833333333,0,0x861D,
0.038708791666667,0,0x0004,
0.038716500000000,0,0x0311,
0.038732791666667,0,0x0A01,
0.038740708333333,0,0x8311,
0.038756541666667,0,0x0F00,
0.038764458333333,0,0x8411,
0.038780333333333,0,0x0000,
0.038788250000000,0,0x851F,
0.038804083333333,0,0xFF3F,
0.038812000000000,0,0x8611,
0.038843333333333,0,0x0004,
0.038851041666667,0,0x0315,
0.038867416666667,0,0x0A01,
0.038875375000000,0,0x8315,
0.038891208333333,0,0x0F00,
0.038899125000000,0,0x8415,
0.038914958333333,0,0x0000,
0.038922875000000,0,0x851F,
0.038938708333333,0,0xFF3F,
0.038946625000000,0,0x8615,
0.038976916666667,0,0x0004,
0.038984625000000,0,0x0319,
0.039001041666667,0,0x0A01,
0.039008958333333,0,0x8319,
0.039024791666667,0,0x0F00,
0.039032708333333,0,0x8419,
0.039048541666667,0,0x0000,
0.039056458333333,0,0x851F,
0.039072333333333,0,0xF73F,
0.039080208333333,0,0x8619,
0.039110708333333,0,0x0001,
0.039118416666667,0,0x1D1D,
0.039134625000000,0,0x1551,
0.039142583333333,0,0x9D1D,
0.039170791666667,0,0x0003,
0.039178500000000,0,0x2411,
0.039194500000000,0,0x0048,
0.039202416666667,0,0xA41F,
0.039218250000000,0,0x0040,
0.039226166666667,0,0xA51F,
0.039242041666667,0,0x0000,
0.039249916666667,0,0xA61F,
0.039279500000000,0,0x0005,
0.039287166666667,0,0x2D15,
0.039303375000000,0,0x8426,
0.039311291666667,0,0xAD1F,
0.039327125000000,0,0xFFFE,
0.039335041666667,0,0xAE1F,
0.039350875000000,0,0x93BF,
0.039358791666667,0,0xAF1F,
0.039374625000000,0,0x8000,
0.039382541666667,0,0xB01F,
0.039398375000000,0,0x8302,
0.039406291666667,0,0xB11F,
0.039436916666667,0,0x0006,
0.039444625000000,0,0x3B19,
0.039460708333333,0,0xB3E0,
0.039468625000000,0,0xBB1F,
0.039484458333333,0,0xB32D,
0.039492375000000,0,0xBC1F,
0.039508250000000,0,0xB2C0,
0.039516166666667,0,0xBD1F,
0.039532000000000,0,0xB201,
0.039539916666667,0,0xBE1F,
0.039555750000000,0,0xB1FE,
0.039563666666667,0,0xBF1F,
0.039579500000000,0,0xB270,
0.039587416666667,0,0xC01F,
0.039618625000000,0,0x000A,
0.039626333333333,0,0x411D,
0.039642333333333,0,0xC097,
0.039650250000000,0,0xC11F,
0.039666083333333,0,0xC0C7,
0.039674041666667,0,0xC21F,
0.039689875000000,0,0xC083,
0.039697791666667,0,0xC31F,
0.039713625000000,0,0xC0C7,
0.039721541666667,0,0xC41F,
0.039737375000000,0,0xC0C6,
0.039745291666667,0,0xC51F,
0.039761125000000,0,0xDCF9,
0.039769041666667,0,0xC61F,
0.039784875000000,0,0x8021,
0.039792791666667,0,0xC71F,
0.039808625000000,0,0xA3D5,
0.039816541666667,0,0xC81F,
0.039832375000000,0,0x9E39,
0.039840291666667,0,0xC91F,
0.039856125000000,0,0x9E38,
0.039864041666667,0,0xCA1F,
0.039895208333333,0,0x0004,
0.039902875000000,0,0x0321,
0.039919291666667,0,0x0A01,
0.039927125000000,0,0x8321,
0.039942833333333,0,0x0F00,
0.039950708333333,0,0x8421,
0.039966416666667,0,0x0000,
0.039974250000000,0,0x852F,
0.039989958333333,0,0xF73F,
0.039997791666667,0,0x8621,
0.040028541666667,0,0x0001,
0.040036208333333,0,0x1D25,
0.040052291666667,0,0x0055,
0.040060125000000,0,0x9D25,
0.040087958333333,0,0x0003,
0.040095666666667,0,0x2429,
0.040111708333333,0,0x004C,
0.040119541666667,0,0xA42F,
0.040135250000000,0,0x0040,
0.040143083333333,0,0xA52F,
0.040158791666667,0,0x8000,
0.040166666666667,0,0xA62F,
0.040195833333333,0,0x0005,
0.040203500000000,0,0x2D2D,
0.040219666666667,0,0x8547,
0.040227500000000,0,0xAD2F,
0.040243208333333,0,0xFFFE,
0.040251083333333,0,0xAE2F,
0.040266791666667,0,0xC50F,
0.040274625000000,0,0xAF2F,
0.040290333333333,0,0xFFFF,
0.040298208333333,0,0xB02F,
0.040313916666667,0,0x8309,
0.040321750000000,0,0xB12F,
0.040351333333333,0,0x0006,
0.040359000000000,0,0x3B21,
0.040375250000000,0,0xE519,
0.040383125000000,0,0xBB2F,
0.040398833333333,0,0x8000,
0.040406666666667,0,0xBC2F,
0.040422375000000,0,0x8000,
0.040430250000000,0,0xBD2F,
0.040445916666667,0,0x8000,
0.040453791666667,0,0xBE2F,
0.040469500000000,0,0xE5BA,
0.040477375000000,0,0xBF2F,
0.040493083333333,0,0xE5D7,
0.040500916666667,0,0xC02F,
0.040530958333333,0,0x000A,
0.040538666666667,0,0x4125,
0.040554916666667,0,0xDB4B,
0.040562791666667,0,0xC12F,
0.040578500000000,0,0xDC4F,
0.040586375000000,0,0xC22F,
0.040602041666667,0,0xDF35,
0.040609916666667,0,0xC32F,
0.040625625000000,0,0xE11F,
0.040633458333333,0,0xC42F,
0.040649166666667,0,0xA97D,
0.040657041666667,0,0xC52F,
0.040672750000000,0,0xFF46,
0.040680583333333,0,0xC62F,
0.040696291666667,0,0xC010,
0.040704125000000,0,0xC72F,
0.040719875000000,0,0xA3BA,
0.040727708333333,0,0xC82F,
0.040743416666667,0,0x9E35,
0.040751250000000,0,0xC92F,
0.040766958333333,0,0x9E42,
0.040774833333333,0,0xCA2F,
0.048345041666667,0,0x0C3F,
0.048352750000000,0,0x060B,
0.048379958333333,0,0x0004,
0.048387625000000,0,0x031D,
0.048403625000000,0,0x0A01,
0.048411541666667,0,0x831D,
0.048427375000000,0,0x0F00,
0.048435291666667,0,0x841D,
0.048451125000000,0,0x0000,
0.048459041666667,0,0x8510,
0.048474875000000,0,0x0F3F,
0.048482791666667,0,0x861D,
0.048513875000000,0,0x0004,
0.048521583333333,0,0x0311,
0.048537708333333,0,0x0A01,
0.048545625000000,0,0x8311,
0.048561458333333,0,0x0F00,
0.048569375000000,0,0x8411,
0.048585208333333,0,0x0000,
0.048593125000000,0,0x8510,
0.048608958333333,0,0x0F3F,
0.048616875000000,0,0x8611,
0.048648166666667,0,0x0004,
0.048655833333333,0,0x0315,
0.048671791666667,0,0x0A01,
0.048679708333333,0,0x8315,
0.048695541666667,0,0x0F00,
0.048703458333333,0,0x8415,
0.048719250000000,0,0x0000,
0.048727208333333,0,0x8510,
0.048743000000000,0,0x0F3F,
0.048750958333333,0,0x8615,
0.048781916666667,0,0x0004,
0.048789583333333,0,0x0319,
0.048805833333333,0,0x0A01,
0.048813791666667,0,0x8319,
0.048829583333333,0,0x0F00,
0.048837500000000,0,0x8419,
0.048853375000000,0,0x0000,
0.048861291666667,0,0x8510,
0.048877083333333,0,0x0F3F,
0.048885000000000,0,0x8619,
0.048915375000000,0,0x0004,
0.048923041666667,0,0x031D,
0.048939416666667,0,0x0A01,
0.048947333333333,0,0x831D,
0.048963166666667,0,0x0F00,
0.048971083333333,0,0x841D,
0.048986916666667,0,0x0000,
0.048994833333333,0,0x8510,
0.049010666666667,0,0x073F,
0.049018583333333,0,0x861D,
0.049049041666667,0,0x0001,
0.049056750000000,0,0x1D11,
0.049073000000000,0,0x1551,
0.049080916666667,0,0x9D11,
0.049108750000000,0,0x0003,
0.049116416666667,0,0x2415,
0.049132875000000,0,0x0048,
0.049140791666667,0,0xA410,
0.049156625000000,0,0x0040,
0.049164541666667,0,0xA510,
0.049180375000000,0,0x0000,
0.049188291666667,0,0xA610,
0.049217041666667,0,0x0005,
0.049224708333333,0,0x2D19,
0.049240708333333,0,0x852E,
0.049248625000000,0,0xAD10,
0.049264458333333,0,0xFFFE,
0.049272375000000,0,0xAE10,
0.049288208333333,0,0x90EE,
0.049296125000000,0,0xAF10,
0.049311958333333,0,0x8000,
0.049319875000000,0,0xB010,
0.049335708333333,0,0x8302,
0.049343625000000,0,0xB110,
0.049373083333333,0,0x0006,
0.049380750000000,0,0x3B1D,
0.049397041666667,0,0xB3DF,
0.049404958333333,0,0xBB10,
0.049420791666667,0,0xB32C,
0.049428708333333,0,0xBC10,
0.049444541666667,0,0xB2B9,
0.049452458333333,0,0xBD10,
0.049468291666667,0,0xB1FB,
0.049476208333333,0,0xBE10,
0.049492041666667,0,0xB1FE,
0.049499958333333,0,0xBF10,
0.049515791666667,0,0xB275,
0.049523708333333,0,0xC010,
0.049554083333333,0,0x000A,
0.049561750000000,0,0x4111,
0.049578125000000,0,0xC093,
0.049586083333333,0,0xC110,
0.049601875000000,0,0xC0C3,
0.049609791666667,0,0xC210,
0.049625625000000,0,0xC083,
0.049633541666667,0,0xC310,
0.049649375000000,0,0xC0C4,
0.049657291666667,0,0xC410,
0.049673125000000,0,0xC0C5,
0.049681041666667,0,0xC510,
0.049696875000000,0,0xDCFB,
0.049704791666667,0,0xC610,
0.049720625000000,0,0x801D,
0.049728541666667,0,0xC710,
0.049744375000000,0,0xA3D7,
0.049752291666667,0,0xC810,
0.049768125000000,0,0x9E38,
0.049776041666667,0,0xC910,
0.049791875000000,0,0x9E3A,
0.049799791666667,0,0xCA10,
0.049831708333333,0,0x0004,
0.049839416666667,0,0x0325,
0.049855791666667,0,0x0A01,
0.049863666666667,0,0x8325,
0.049879333333333,0,0x0F00,
0.049887208333333,0,0x8425,
0.049902916666667,0,0x0000,
0.049910750000000,0,0x8520,
0.049926500000000,0,0x073F,
0.049934333333333,0,0x8625,
0.049964500000000,0,0x0001,
0.049972208333333,0,0x1D29,
0.049988333333333,0,0x0055,
0.049996208333333,0,0x9D29,
0.050023958333333,0,0x0003,
0.050031625000000,0,0x242D,
0.050047750000000,0,0x004C,
0.050055583333333,0,0xA420,
0.050071291666667,0,0x0040,
0.050079166666667,0,0xA520,
0.050094833333333,0,0x8000,
0.050102708333333,0,0xA620,
0.050131125000000,0,0x0005,
0.050138791666667,0,0x2D21,
0.050154750000000,0,0x8651,
0.050162583333333,0,0xAD20,
0.050178291666667,0,0xFFFE,
0.050186125000000,0,0xAE20,
0.050201875000000,0,0xC27A,
0.050209708333333,0,0xAF20,
0.050225416666667,0,0xFFFF,
0.050233291666667,0,0xB020,
0.050248958333333,0,0x830F,
0.050256833333333,0,0xB120,
0.050286541666667,0,0x0006,
0.050294208333333,0,0x3B25,
0.050310333333333,0,0xE51B,
0.050318208333333,0,0xBB20,
0.050333875000000,0,0x8003,
0.050341750000000,0,0xBC20,
0.050357416666667,0,0x8001,
0.050365291666667,0,0xBD20,
0.050381000000000,0,0x8002,
0.050388833333333,0,0xBE20,
0.050404583333333,0,0xE5BB,
0.050412416666667,0,0xBF20,
0.050428125000000,0,0xE5D2,
0.050435958333333,0,0xC020,
0.050465958333333,0,0x000A,
0.050473625000000,0,0x4129,
0.050489958333333,0,0xDB51,
0.050497833333333,0,0xC120,
0.050513541666667,0,0xDC55,
0.050521375000000,0,0xC220,
0.050537083333333,0,0xDF3A,
0.050544958333333,0,0xC320,
0.050560666666667,0,0xE122,
0.050568541666667,0,0xC420,
0.050584250000000,0,0xA97C,
0.050592083333333,0,0xC520,
0.050607791666667,0,0xFF4B,
0.050615666666667,0,0xC620,
0.050631375000000,0,0xC017,
0.050639208333333,0,0xC720,
0.050654916666667,0,0xA3BA,
0.050662791666667,0,0xC820,
0.050678458333333,0,0x9E3D,
0.050686333333333,0,0xC920,
0.050702041666667,0,0x9E41,
0.050709875000000,0,0xCA20,
0.058632666666667,0,0x1C3F,
0.058640333333333,0,0x060F,
0.058668166666667,0,0x0004,
0.058675833333333,0,0x0311,
0.058692291666667,0,0x0A01,
0.058700208333333,0,0x8311,
0.058716041666667,0,0x0F00,
0.058723958333333,0,0x8411,
0.058739791666667,0,0x0000,
0.058747708333333,0,0x8511,
0.058763541666667,0,0x1F3F,
0.058771458333333,0,0x8611,
0.058802416666667,0,0x0004,
0.058810083333333,0,0x0315,
0.058826375000000,0,0x0A01,
0.058834333333333,0,0x8315,
0.058850166666667,0,0x0F00,
0.058858083333333,0,0x8415,
0.058873916666667,0,0x0000,
0.058881833333333,0,0x8511,
0.058897666666667,0,0x1F3F,
0.058905583333333,0,0x8615,
0.058936291666667,0,0x0004,
0.058943958333333,0,0x0319,
0.058960041666667,0,0x0A01,
0.058967958333333,0,0x8319,
0.058983791666667,0,0x0F00,
0.058991750000000,0,0x8419,
0.059007583333333,0,0x0000,
0.059015500000000,0,0x8511,
0.059031333333333,0,0x1F3F,
0.059039250000000,0,0x8619,
0.059070625000000,0,0x0004,
0.059078291666667,0,0x031D,
0.059094666666667,0,0x0A01,
0.059102583333333,0,0x831D,
0.059118416666667,0,0x0F00,
0.059126333333333,0,0x841D,
0.059142166666667,0,0x0000,
0.059150083333333,0,0x8511,
0.059165916666667,0,0x1F3F,
0.059173833333333,0,0x861D,
0.059203750000000,0,0x0004,
0.059211416666667,0,0x0311,
0.059227750000000,0,0x0A01,
0.059235708333333,0,0x8311,
0.059251541666667,0,0x0F00,
0.059259458333333,0,0x8411,
0.059275291666667,0,0x0000,
0.059283208333333,0,0x8511,
0.059299041666667,0,0x173F,
0.059306958333333,0,0x8611,
0.059337125000000,0,0x0001,
0.059344791666667,0,0x1D15,
0.059360875000000,0,0x1551,
0.059368791666667,0,0x9D15,
0.059396791666667,0,0x0003,
0.059404458333333,0,0x2419,
0.059420750000000,0,0x0048,
0.059428666666667,0,0xA411,
0.059444500000000,0,0x0040,
0.059452416666667,0,0xA511,
0.059468250000000,0,0x0000,
0.059476166666667,0,0xA611,
0.059505250000000,0,0x0005,
0.059512958333333,0,0x2D1D,
0.059529125000000,0,0x8640,
0.059537041666667,0,0xAD11,
0.059552875000000,0,0xFFFE,
0.059560791666667,0,0xAE11,
0.059576625000000,0,0x8E99,
0.059584541666667,0,0xAF11,
0.059600375000000,0,0xFFFF,
0.059608291666667,0,0xB011,
0.059624125000000,0,0x8307,
0.059632041666667,0,0xB111,
0.059662541666667,0,0x0006,
0.059670208333333,0,0x3B11,
0.059686458333333,0,0xB3E3,
0.059694375000000,0,0xBB11,
0.059710208333333,0,0xB32C,
0.059718125000000,0,0xBC11,
0.059733958333333,0,0xB2BC,
0.059741875000000,0,0xBD11,
0.059757708333333,0,0xB200,
0.059765625000000,0,0xBE11,
0.059781458333333,0,0xB200,
0.059789375000000,0,0xBF11,
0.059805208333333,0,0xB273,
0.059813125000000,0,0xC011,
0.059843833333333,0,0x000A,
0.059851500000000,0,0x4115,
0.059867541666667,0,0xC093,
0.059875500000000,0,0xC111,
0.059891333333333,0,0xC0C4,
0.059899250000000,0,0xC211,
0.059915083333333,0,0xC085,
0.059923000000000,0,0xC311,
0.059938833333333,0,0xC0C6,
0.059946750000000,0,0xC411,
0.059962583333333,0,0xC0C4,
0.059970541666667,0,0xC511,
0.059986375000000,0,0xDCFB,
0.059994291666667,0,0xC611,
0.060010125000000,0,0x801F,
0.060018041666667,0,0xC711,
0.060033833333333,0,0xA3D7,
0.060041791666667,0,0xC811,
0.060057583333333,0,0x9E38,
0.060065541666667,0,0xC911,
0.060081375000000,0,0x9E3E,
0.060089291666667,0,0xCA11,
0.060121875000000,0,0x0004,
0.060129541666667,0,0x0329,
0.060145916666667,0,0x0A01,
0.060153791666667,0,0x8329,
0.060169500000000,0,0x0F00,
0.060177375000000,0,0x8429,
0.060193083333333,0,0x0000,
0.060200916666667,0,0x8521,
0.060216625000000,0,0x173F,
0.060224458333333,0,0x8629,
0.060254708333333,0,0x0001,
0.060262416666667,0,0x1D2D,
0.060278458333333,0,0x0055,
0.060286333333333,0,0x9D2D,
0.060314458333333,0,0x0003,
0.060322125000000,0,0x2421,
0.060338375000000,0,0x004C,
0.060346208333333,0,0xA421,
0.060361916666667,0,0x0040,
0.060369791666667,0,0xA521,
0.060385500000000,0,0x8000,
0.060393333333333,0,0xA621,
0.060421750000000,0,0x0005,
0.060429416666667,0,0x2D25,
0.060445375000000,0,0x8765,
0.060453208333333,0,0xAD21,
0.060468916666667,0,0xFFFE,
0.060476791666667,0,0xAE21,
0.060492500000000,0,0xBFDF,
0.060500333333333,0,0xAF21,
0.060516041666667,0,0xFFFF,
0.060523916666667,0,0xB021,
0.060539625000000,0,0x8306,
0.060547500000000,0,0xB121,
0.060577000000000,0,0x0006,
0.060584666666667,0,0x3B29,
0.060601000000000,0,0xE51B,
0.060608833333333,0,0xBB21,
0.060624541666667,0,0x8001,
0.060632375000000,0,0xBC21,
0.060648083333333,0,0x8000,
0.060655958333333,0,0xBD21,
0.060671666666667,0,0x8002,
0.060679500000000,0,0xBE21,
0.060695208333333,0,0xE5BC,
0.060703041666667,0,0xBF21,
0.060718750000000,0,0xE5D7,
0.060726625000000,0,0xC021,
0.060756625000000,0,0x000A,
0.060764291666667,0,0x412D,
0.060780625000000,0,0xDB4C,
0.060788458333333,0,0xC121,
0.060804166666667,0,0xDC56,
0.060812000000000,0,0xC221,
0.060827708333333,0,0xDF37,
0.060835583333333,0,0xC321,
0.060851291666667,0,0xE123,
0.060859125000000,0,0xC421,
0.060874833333333,0,0xA97F,
0.060882708333333,0,0xC521,
0.060898416666667,0,0xFF49,
0.060906291666667,0,0xC621,
0.060921958333333,0,0xC017,
0.060929833333333,0,0xC721,
0.060945541666667,0,0xA3B8,
0.060953375000000,0,0xC821,
0.060969083333333,0,0x9E39,
0.060976958333333,0,0xC921,
0.060992666666667,0,0x9E41,
0.061000500000000,0,0xCA21,
0.068404333333333,0,0x2C3F,
0.068412000000000,0,0x0603,
0.068439583333333,0,0x0004,
0.068447250000000,0,0x0315,
0.068463250000000,0,0x0A01,
0.068471208333333,0,0x8315,
0.068487000000000,0,0x0F00,
0.068494958333333,0,0x8415,
0.068510791666667,0,0x0000,
0.068518666666667,0,0x8512,
0.068534541666667,0,0x2F3F,
0.068542458333333,0,0x8615,
0.068573375000000,0,0x0004,
0.068581041666667,0,0x0319,
0.068597375000000,0,0x0A01,
0.068605291666667,0,0x8319,
0.068621125000000,0,0x0F00,
0.068629041666667,0,0x8419,
0.068644875000000,0,0x0000,
0.068652791666667,0,0x8512,
0.068668625000000,0,0x2F3F,
0.068676541666667,0,0x8619,
0.068706666666667,0,0x0004,
0.068714333333333,0,0x031D,
0.068730500000000,0,0x0A01,
0.068738416666667,0,0x831D,
0.068754250000000,0,0x0F00,
0.068762166666667,0,0x841D,
0.068778000000000,0,0x0000,
0.068785916666667,0,0x8512,
0.068801791666667,0,0x2F3F,
0.068809666666667,0,0x861D,
0.068840375000000,0,0x0004,
0.068848041666667,0,0x0311,
0.068864125000000,0,0x0A01,
0.068872041666667,0,0x8311,
0.068887916666667,0,0x0F00,
0.068895833333333,0,0x8411,
0.068911666666667,0,0x0000,
0.068919583333333,0,0x8512,
0.068935416666667,0,0x2F3F,
0.068943333333333,0,0x8611,
0.068974291666667,0,0x0004,
0.068982000000000,0,0x0315,
0.068998250000000,0,0x0A01,
0.069006166666667,0,0x8315,
0.069022000000000,0,0x0F00,
0.069029916666667,0,0x8415,
0.069045750000000,0,0x0000,
0.069053666666667,0,0x8512,
0.069069500000000,0,0x273F,
0.069077416666667,0,0x8615,
0.069107916666667,0,0x0001,
0.069115625000000,0,0x1D19,
0.069131833333333,0,0x1551,
0.069139750000000,0,0x9D19,
0.069168208333333,0,0x0003,
0.069175875000000,0,0x241D,
0.069192166666667,0,0x0048,
0.069200083333333,0,0xA412,
0.069215916666667,0,0x0040,
0.069223833333333,0,0xA512,
0.069239666666667,0,0x0000,
0.069247583333333,0,0xA612,
0.069276708333333,0,0x0005,
0.069284375000000,0,0x2D11,
0.069300500000000,0,0x8744,
0.069308416666667,0,0xAD12,
0.069324250000000,0,0xFFFE,
0.069332166666667,0,0xAE12,
0.069348000000000,0,0x8C36,
0.069355916666667,0,0xAF12,
0.069371750000000,0,0x8000,
0.069379666666667,0,0xB012,
0.069395500000000,0,0x8303,
0.069403416666667,0,0xB112,
0.069433291666667,0,0x0006,
0.069440958333333,0,0x3B15,
0.069457375000000,0,0xB3E2,
0.069465291666667,0,0xBB12,
0.069481125000000,0,0xB32E,
0.069489041666667,0,0xBC12,
0.069504875000000,0,0xB2BC,
0.069512791666667,0,0xBD12,
0.069528625000000,0,0xB1FE,
0.069536541666667,0,0xBE12,
0.069552375000000,0,0xB202,
0.069560291666667,0,0xBF12,
0.069576125000000,0,0xB274,
0.069584041666667,0,0xC012,
0.069614791666667,0,0x000A,
0.069622458333333,0,0x4119,
0.069638458333333,0,0xC094,
0.069646375000000,0,0xC112,
0.069662208333333,0,0xC0C6,
0.069670125000000,0,0xC212,
0.069685958333333,0,0xC084,
0.069693875000000,0,0xC312,
0.069709708333333,0,0xC0C3,
0.069717625000000,0,0xC412,
0.069733416666667,0,0xC0C3,
0.069741375000000,0,0xC512,
0.069757208333333,0,0xDCF7,
0.069765125000000,0,0xC612,
0.069780958333333,0,0x801B,
0.069788875000000,0,0xC712,
0.069804708333333,0,0xA3D8,
0.069812625000000,0,0xC812,
0.069828458333333,0,0x9E37,
0.069836375000000,0,0xC912,
0.069852208333333,0,0x9E3C,
0.069860125000000,0,0xCA12,
0.069891375000000,0,0x0004,
0.069899041666667,0,0x032D,
0.069915458333333,0,0x0A01,
0.069923291666667,0,0x832D,
0.069939000000000,0,0x0F00,
0.069946875000000,0,0x842D,
0.069962541666667,0,0x0000,
0.069970416666667,0,0x8522,
0.069986125000000,0,0x273F,
0.069993958333333,0,0x862D,
0.070024500000000,0,0x0001,
0.070032166666667,0,0x1D21,
0.070048458333333,0,0x0055,
0.070056291666667,0,0x9D21,
0.070084208333333,0,0x0003,
0.070091875000000,0,0x2425,
0.070107833333333,0,0x004C,
0.070115666666667,0,0xA422,
0.070131416666667,0,0x0040,
0.070139250000000,0,0xA522,
0.070154958333333,0,0x8000,
0.070162791666667,0,0xA622,
0.070191458333333,0,0x0005,
0.070199125000000,0,0x2D29,
0.070215333333333,0,0x886B,
0.070223166666667,0,0xAD22,
0.070238875000000,0,0xFFFE,
0.070246750000000,0,0xAE22,
0.070262458333333,0,0xBDA2,
0.070270333333333,0,0xAF22,
0.070286000000000,0,0xFFFF,
0.070293875000000,0,0xB022,
0.070309583333333,0,0x830A,
0.070317416666667,0,0xB122,
0.070347375000000,0,0x0006,
0.070355083333333,0,0x3B2D,
0.070371416666667,0,0xE519,
0.070379291666667,0,0xBB22,
0.070394958333333,0,0x8004,
0.070402833333333,0,0xBC22,
0.070418541666667,0,0x8000,
0.070426416666667,0,0xBD22,
0.070442125000000,0,0x8000,
0.070449958333333,0,0xBE22,
0.070465666666667,0,0xE5B9,
0.070473541666667,0,0xBF22,
0.070489250000000,0,0xE5D2,
0.070497083333333,0,0xC022,
0.070526666666667,0,0x000A,
0.070534333333333,0,0x4121,
0.070550583333333,0,0xDB4F,
0.070558458333333,0,0xC122,
0.070574166666667,0,0xDC55,
0.070582000000000,0,0xC222,
0.070597708333333,0,0xDF38,
0.070605583333333,0,0xC322,
0.070621291666667,0,0xE122,
0.070629125000000,0,0xC422,
0.070644875000000,0,0xA97F,
0.070652708333333,0,0xC522,
0.070668416666667,0,0xFF49,
0.070676250000000,0,0xC622,
0.070691958333333,0,0xC018,
0.070699833333333,0,0xC722,
0.070715541666667,0,0xA3BA,
0.070723375000000,0,0xC822,
0.070739083333333,0,0x9E39,
0.070746916666667,0,0xC922,
0.070762625000000,0,0x9E43,
0.070770500000000,0,0xCA22,
0.078402250000000,0,0x3C3F,
0.078409916666667,0,0x0607,
0.078437000000000,0,0x0004,
0.078444666666667,0,0x0319,
0.078460958333333,0,0x0A01,
0.078468875000000,0,0x8319,
0.078484708333333,0,0x0F00,
0.078492625000000,0,0x8419,
0.078508458333333,0,0x0000,
0.078516375000000,0,0x8513,
0.078532208333333,0,0x3F3F,
0.078540125000000,0,0x8619,
0.078570625000000,0,0x0004,
0.078578333333333,0,0x031D,
0.078594541666667,0,0x0A01,
0.078602458333333,0,0x831D,
0.078618333333333,0,0x0F00,
0.078626250000000,0,0x841D,
0.078642041666667,0,0x0000,
0.078649958333333,0,0x8513,
0.078665791666667,0,0x3F3F,
0.078673750000000,0,0x861D,
0.078704291666667,0,0x0004,
0.078711958333333,0,0x0311,
0.078728166666667,0,0x0A01,
0.078736083333333,0,0x8311,
0.078751916666667,0,0x0F00,
0.078759833333333,0,0x8411,
0.078775708333333,0,0x0000,
0.078783625000000,0,0x8513,
0.078799416666667,0,0x3F3F,
0.078807333333333,0,0x8611,
0.078838166666667,0,0x0004,
0.078845833333333,0,0x0315,
0.078862250000000,0,0x0A01,
0.078870208333333,0,0x8315,
0.078886041666667,0,0x0F00,
0.078893916666667,0,0x8415,
0.078909791666667,0,0x0000,
0.078917666666667,0,0x8513,
0.078933541666667,0,0x3F3F,
0.078941458333333,0,0x8615,
0.078972458333333,0,0x0004,
0.078980166666667,0,0x0319,
0.078996333333333,0,0x0A01,
0.079004250000000,0,0x8319,
0.079020083333333,0,0x0F00,
0.079028000000000,0,0x8419,
0.079043875000000,0,0x0000,
0.079051750000000,0,0x8513,
0.079067583333333,0,0x373F,
0.079075500000000,0,0x8619,
0.079105750000000,0,0x0001,
0.079113458333333,0,0x1D1D,
0.079129416666667,0,0x1551,
0.079137333333333,0,0x9D1D,
0.079165833333333,0,0x0003,
0.079173500000000,0,0x2411,
0.079189791666667,0,0x0048,
0.079197708333333,0,0xA413,
0.079213541666667,0,0x0040,
0.079221458333333,0,0xA513,
0.079237250000000,0,0x0000,
0.079245208333333,0,0xA613,
0.079274125000000,0,0x0005,
0.079281833333333,0,0x2D15,
0.079298125000000,0,0x884E,
0.079306083333333,0,0xAD13,
0.079321916666667,0,0xFFFE,
0.079329833333333,0,0xAE13,
0.079345666666667,0,0x8990,
0.079353541666667,0,0xAF13,
0.079369416666667,0,0x8000,
0.079377333333333,0,0xB013,
0.079393125000000,0,0x8301,
0.079401083333333,0,0xB113,
0.079430500000000,0,0x0006,
0.079438166666667,0,0x3B19,
0.079454500000000,0,0xB3DE,
0.079462416666667,0,0xBB13,
0.079478250000000,0,0xB32A,
0.079486166666667,0,0xBC13,
0.079502000000000,0,0xB2BC,
0.079509916666667,0,0xBD13,
0.079525750000000,0,0xB1FF,
0.079533708333333,0,0xBE13,
0.079549500000000,0,0xB1FE,
0.079557458333333,0,0xBF13,
0.079573291666667,0,0xB272,
0.079581208333333,0,0xC013,
0.079611500000000,0,0x000A,
0.079619166666667,0,0x411D,
0.079635625000000,0,0xC092,
0.079643541666667,0,0xC113,
0.079659375000000,0,0xC0C1,
0.079667291666667,0,0xC213,
0.079683125000000,0,0xC083,
0.079691041666667,0,0xC313,
0.079706875000000,0,0xC0C4,
0.079714791666667,0,0xC413,
0.079730625000000,0,0xC0C3,
0.079738541666667,0,0xC513,
0.079754375000000,0,0xDCF9,
0.079762291666667,0,0xC613,
0.079778125000000,0,0x8019,
0.079786041666667,0,0xC713,
0.079801875000000,0,0xA3DA,
0.079809791666667,0,0xC813,
0.079825625000000,0,0x9E36,
0.079833541666667,0,0xC913,
0.079849375000000,0,0x9E3A,
0.079857291666667,0,0xCA13,
0.079889500000000,0,0x0004,
0.079897166666667,0,0x0321,
0.079913333333333,0,0x0A01,
0.079921166666667,0,0x8321,
0.079936875000000,0,0x0F00,
0.079944750000000,0,0x8421,
0.079960458333333,0,0x0000,
0.079968291666667,0,0x8523,
0.079984000000000,0,0x373F,
0.079991875000000,0,0x8621,
0.080021625000000,0,0x0001,
0.080029291666667,0,0x1D25,
0.080045333333333,0,0x0055,
0.080053208333333,0,0x9D25,
0.080081583333333,0,0x0003,
0.080089250000000,0,0x2429,
0.080105250000000,0,0x004C,
0.080113083333333,0,0xA423,
0.080128833333333,0,0x0040,
0.080136666666667,0,0xA523,
0.080152375000000,0,0x8000,
0.080160208333333,0,0xA623,
0.080189041666667,0,0x0005,
0.080196708333333,0,0x2D2D,
0.080212750000000,0,0x8977,
0.080220583333333,0,0xAD23,
0.080236291666667,0,0xFFFE,
0.080244166666667,0,0xAE23,
0.080259875000000,0,0xBBA0,
0.080267708333333,0,0xAF23,
0.080283416666667,0,0xFFFF,
0.080291291666667,0,0xB023,
0.080307000000000,0,0x8309,
0.080314833333333,0,0xB123,
0.080346416666667,0,0x0006,
0.080354083333333,0,0x3B21,
0.080370291666667,0,0xE514,
0.080378166666667,0,0xBB23,
0.080393833333333,0,0x8000,
0.080401708333333,0,0xBC23,
0.080417416666667,0,0x8000,
0.080425291666667,0,0xBD23,
0.080440958333333,0,0x8000,
0.080448833333333,0,0xBE23,
0.080464541666667,0,0xE5BC,
0.080472375000000,0,0xBF23,
0.080488083333333,0,0xE5D6,
0.080495958333333,0,0xC023,
0.080526625000000,0,0x000A,
0.080534333333333,0,0x4125,
0.080550416666667,0,0xDB4D,
0.080558291666667,0,0xC123,
0.080574000000000,0,0xDC4D,
0.080581833333333,0,0xC223,
0.080597583333333,0,0xDF39,
0.080605416666667,0,0xC323,
0.080621125000000,0,0xE121,
0.080629000000000,0,0xC423,
0.080644666666667,0,0xA97B,
0.080652541666667,0,0xC523,
0.080668250000000,0,0xFF4C,
0.080676125000000,0,0xC623,
0.080691791666667,0,0xC014,
0.080699666666667,0,0xC723,
0.080715375000000,0,0xA3B9,
0.080723250000000,0,0xC823,
0.080738958333333,0,0x9E36,
0.080746791666667,0,0xC923,
0.080762500000000,0,0x9E3C,
0.080770333333333,0,0xCA23,
0.088383250000000,0,0x4C3F,
0.088390958333333,0,0x060B,
0.088418416666667,0,0x0004,
0.088426083333333,0,0x031D,
0.088442125000000,0,0x0A01,
0.088450041666667,0,0x831D,
0.088465875000000,0,0x0F00,
0.088473791666667,0,0x841D,
0.088489625000000,0,0x0000,
0.088497541666667,0,0x8514,
0.088513375000000,0,0x4F3F,
0.088521291666667,0,0x861D,
0.088553000000000,0,0x0004,
0.088560666666667,0,0x0311,
0.088576750000000,0,0x0A01,
0.088584625000000,0,0x8311,
0.088600500000000,0,0x0F00,
0.088608416666667,0,0x8411,
0.088624250000000,0,0x0000,
0.088632166666667,0,0x8514,
0.088648000000000,0,0x4F3F,
0.088655916666667,0,0x8611,
0.088686416666667,0,0x0004,
0.088694125000000,0,0x0315,
0.088710416666667,0,0x0A01,
0.088718333333333,0,0x8315,
0.088734166666667,0,0x0F00,
0.088742083333333,0,0x8415,
0.088757958333333,0,0x0000,
0.088765833333333,0,0x8514,
0.088781708333333,0,0x4F3F,
0.088789625000000,0,0x8615,
0.088820666666667,0,0x0004,
0.088828333333333,0,0x0319,
0.088844541666667,0,0x0A01,
0.088852458333333,0,0x8319,
0.088868291666667,0,0x0F00,
0.088876250000000,0,0x8419,
0.088892041666667,0,0x0000,
0.088899958333333,0,0x8514,
0.088915833333333,0,0x4F3F,
0.088923750000000,0,0x8619,
0.088955458333333,0,0x0004,
0.088963125000000,0,0x031D,
0.088979166666667,0,0x0A01,
0.088987083333333,0,0x831D,
0.089002875000000,0,0x0F00,
0.089010791666667,0,0x841D,
0.089026625000000,0,0x0000,
0.089034541666667,0,0x8514,
0.089050375000000,0,0x473F,
0.089058291666667,0,0x861D,
0.089088666666667,0,0x0001,
0.089096375000000,0,0x1D11,
0.089112708333333,0,0x1551,
0.089120625000000,0,0x9D11,
0.089149291666667,0,0x0003,
0.089156958333333,0,0x2415,
0.089173083333333,0,0x0048,
0.089181000000000,0,0xA414,
0.089196833333333,0,0x0040,
0.089204750000000,0,0xA514,
0.089220583333333,0,0x0000,
0.089228500000000,0,0xA614,
0.089257916666667,0,0x0005,
0.089265583333333,0,0x2D19,
0.089281958333333,0,0x8957,
0.089289833333333,0,0xAD14,
0.089305666666667,0,0xFFFE,
0.089313583333333,0,0xAE14,
0.089329416666667,0,0x8712,
0.089337333333333,0,0xAF14,
0.089353208333333,0,0xFFFF,
0.089361083333333,0,0xB014,
0.089376916666667,0,0x8304,
0.089384833333333,0,0xB114,
0.089414708333333,0,0x0006,
0.089422416666667,0,0x3B1D,
0.089438791666667,0,0xB3DD,
0.089446708333333,0,0xBB14,
0.089462500000000,0,0xB32D,
0.089470416666667,0,0xBC14,
0.089486291666667,0,0xB2BD,
0.089494208333333,0,0xBD14,
0.089510041666667,0,0xB1FD,
0.089517958333333,0,0xBE14,
0.089533791666667,0,0xB201,
0.089541708333333,0,0xBF14,
0.089557500000000,0,0xB272,
0.089565458333333,0,0xC014,
0.089595791666667,0,0x000A,
0.089603458333333,0,0x4111,
0.089619875000000,0,0xC093,
0.089627791666667,0,0xC114,
0.089643625000000,0,0xC0C4,
0.089651541666667,0,0xC214,
0.089667375000000,0,0xC082,
0.089675291666667,0,0xC314,
0.089691125000000,0,0xC0C2,
0.089699041666667,0,0xC414,
0.089714916666667,0,0xC0C3,
0.089722791666667,0,0xC514,
0.089738666666667,0,0xDCF8,
0.089746583333333,0,0xC614,
0.089762416666667,0,0x801C,
0.089770333333333,0,0xC714,
0.089786166666667,0,0xA3DA,
0.089794083333333,0,0xC814,
0.089809916666667,0,0x9E34,
0.089817833333333,0,0xC914,
0.089833666666667,0,0x9E3C,
0.089841583333333,0,0xCA14,
0.089873666666667,0,0x0004,
0.089881333333333,0,0x0325,
0.089897583333333,0,0x0A01,
0.089905458333333,0,0x8325,
0.089921166666667,0,0x0F00,
0.089929000000000,0,0x8425,
0.089944708333333,0,0x0000,
0.089952541666667,0,0x8524,
0.089968291666667,0,0x473F,
0.089976125000000,0,0x8625,
0.090006333333333,0,0x0001,
0.090014000000000,0,0x1D29,
0.090030125000000,0,0x0055,
0.090037958333333,0,0x9D29,
0.090065833333333,0,0x0003,
0.090073500000000,0,0x242D,
0.090089500000000,0,0x004C,
0.090097375000000,0,0xA424,
0.090113041666667,0,0x0040,
0.090120916666667,0,0xA524,
0.090136625000000,0,0x8000,
0.090144458333333,0,0xA624,
0.090173208333333,0,0x0005,
0.090180916666667,0,0x2D21,
0.090197000000000,0,0x8A83,
0.090204833333333,0,0xAD24,
0.090220541666667,0,0xFFFE,
0.090228416666667,0,0xAE24,
0.090244125000000,0,0xB8E2,
0.090251958333333,0,0xAF24,
0.090267666666667,0,0xFFFF,
0.090275500000000,0,0xB024,
0.090291250000000,0,0x8306,
0.090299083333333,0,0xB124,
0.090328750000000,0,0x0006,
0.090336458333333,0,0x3B25,
0.090352583333333,0,0xE516,
0.090360416666667,0,0xBB24,
0.090376125000000,0,0x8000,
0.090384000000000,0,0xBC24,
0.090399708333333,0,0x8000,
0.090407541666667,0,0xBD24,
0.090423250000000,0,0x8000,
0.090431125000000,0,0xBE24,
0.090446791666667,0,0xE5B9,
0.090454666666667,0,0xBF24,
0.090470375000000,0,0xE5D5,
0.090478250000000,0,0xC024,
0.090508208333333,0,0x000A,
0.090515916666667,0,0x4129,
0.090532208333333,0,0xDB4D,
0.090540041666667,0,0xC124,
0.090555750000000,0,0xDC52,
0.090563625000000,0,0xC224,
0.090579333333333,0,0xDF3A,
0.090587208333333,0,0xC324,
0.090602916666667,0,0xE120,
0.090610750000000,0,0xC424,
0.090626458333333,0,0xA97D,
0.090634291666667,0,0xC524,
0.090650000000000,0,0xFF4B,
0.090657875000000,0,0xC624,
0.090673541666667,0,0xC014,
0.090681416666667,0,0xC724,
0.090697125000000,0,0xA3BB,
0.090704958333333,0,0xC824,
0.090720666666667,0,0x9E39,
0.090728541666667,0,0xC924,
0.090744208333333,0,0x9E3E,
0.090752083333333,0,0xCA24,
0.098410208333333,0,0x5C3F,
0.098417875000000,0,0x060F,
0.098444916666667,0,0x0004,
0.098452583333333,0,0x0311,
0.098468875000000,0,0x0A01,
0.098476791666667,0,0x8311,
0.098492625000000,0,0x0F00,
0.098500541666667,0,0x8411,
0.098516375000000,0,0x0000,
0.098524291666667,0,0x8515,
0.098540125000000,0,0x5F3F,
0.098548041666667,0,0x8611,
0.098578833333333,0,0x0004,
0.098586500000000,0,0x0315,
0.098602500000000,0,0x0A01,
0.098610416666667,0,0x8315,
0.098626250000000,0,0x0F00,
0.098634166666667,0,0x8415,
0.098650000000000,0,0x0000,
0.098657958333333,0,0x8515,
0.098673791666667,0,0x5F3F,
0.098681708333333,0,0x8615,
0.098712041666667,0,0x0004,
0.098719750000000,0,0x0319,
0.098736166666667,0,0x0A01,
0.098744083333333,0,0x8319,
0.098759916666667,0,0x0F00,
0.098767833333333,0,0x8419,
0.098783666666667,0,0x0000,
0.098791583333333,0,0x8515,
0.098807458333333,0,0x5F3F,
0.098815375000000,0,0x8619,
0.098845875000000,0,0x0004,
0.098853541666667,0,0x031D,
0.098869791666667,0,0x0A01,
0.098877708333333,0,0x831D,
0.098893541666667,0,0x0F00,
0.098901458333333,0,0x841D,
0.098917291666667,0,0x0000,
0.098925208333333,0,0x8515,
0.098941041666667,0,0x5F3F,
0.098948958333333,0,0x861D,
0.098979541666667,0,0x0004,
0.098987250000000,0,0x0311,
0.099003375000000,0,0x0A01,
0.099011291666667,0,0x8311,
0.099027125000000,0,0x0F00,
0.099035041666667,0,0x8411,
0.099050833333333,0,0x0000,
0.099058791666667,0,0x8515,
0.099074625000000,0,0x573F,
0.099082541666667,0,0x8611,
0.099112625000000,0,0x0001,
0.099120291666667,0,0x1D15,
0.099136458333333,0,0x1551,
0.099144375000000,0,0x9D15,
0.099172708333333,0,0x0003,
0.099180416666667,0,0x2419,
0.099196791666667,0,0x0048,
0.099204750000000,0,0xA415,
0.099220583333333,0,0x0040,
0.099228500000000,0,0xA515,
0.099244333333333,0,0x0000,
0.099252250000000,0,0xA615,
0.099281666666667,0,0x0005,
0.099289333333333,0,0x2D1D,
0.099305708333333,0,0x8A62,
0.099313625000000,0,0xAD15,
0.099329458333333,0,0xFFFE,
0.099337375000000,0,0xAE15,
0.099353208333333,0,0x847F,
0.099361125000000,0,0xAF15,
0.099376958333333,0,0x8000,
0.099384875000000,0,0xB015,
0.099400708333333,0,0x8302,
0.099408625000000,0,0xB115,
0.099438583333333,0,0x0006,
0.099446250000000,0,0x3B11,
0.099462541666667,0,0xB3E0,
0.099470458333333,0,0xBB15,
0.099486291666667,0,0xB32A,
0.099494166666667,0,0xBC15,
0.099510041666667,0,0xB2BF,
0.099517958333333,0,0xBD15,
0.099533791666667,0,0xB1FE,
0.099541708333333,0,0xBE15,
0.099557541666667,0,0xB1FE,
0.099565458333333,0,0xBF15,
0.099581291666667,0,0xB273,
0.099589208333333,0,0xC015,
0.099619750000000,0,0x000A,
0.099627416666667,0,0x4115,
0.099643625000000,0,0xC091,
0.099651541666667,0,0xC115,
0.099667375000000,0,0xC0C3,
0.099675291666667,0,0xC215,
0.099691125000000,0,0xC086,
0.099699041666667,0,0xC315,
0.099714875000000,0,0xC0C4,
0.099722791666667,0,0xC415,
0.099738625000000,0,0xC0C2,
0.099746541666667,0,0xC515,
0.099762375000000,0,0xDCF7,
0.099770291666667,0,0xC615,
0.099786125000000,0,0x801B,
0.099794083333333,0,0xC715,
0.099809916666667,0,0xA3D6,
0.099817791666667,0,0xC815,
0.099833666666667,0,0x9E34,
0.099841541666667,0,0xC915,
0.099857416666667,0,0x9E39,
0.099865291666667,0,0xCA15,
0.099897291666667,0,0x0004,
0.099904958333333,0,0x0329,
0.099921333333333,0,0x0A01,
0.099929166666667,0,0x8329,
0.099944875000000,0,0x0F00,
0.099952750000000,0,0x8429,
0.099968458333333,0,0x0000,
0.099976291666667,0,0x8525,
0.099992041666667,0,0x573F,
0.099999875000000,0,0x8629,
0.100030625000000,0,0x0001,
0.100038291666667,0,0x1D2D,
0.100054375000000,0,0x0055,
0.100062208333333,0,0x9D2D,
0.100090458333333,0,0x0003,
0.100098166666667,0,0x2421,
0.100114250000000,0,0x004C,
0.100122125000000,0,0xA425,
0.100137791666667,0,0x0040,
0.100145666666667,0,0xA525,
0.100161375000000,0,0x8000,
0.100169250000000,0,0xA625,
0.100198958333333,0,0x0005,
0.100206625000000,0,0x2D25,
0.100222708333333,0,0x8B8F,
0.100230583333333,0,0xAD25,
0.100246291666667,0,0xFFFE,
0.100254166666667,0,0xAE25,
0.100269833333333,0,0xB62D,
0.100277708333333,0,0xAF25,
0.100293416666667,0,0xFFFF,
0.100301250000000,0,0xB025,
0.100316958333333,0,0x830E,
0.100324833333333,0,0xB125,
0.100356500000000,0,0x0006,
0.100364166666667,0,0x3B29,
0.100380291666667,0,0xE517,
0.100388125000000,0,0xBB25,
0.100403833333333,0,0x8000,
0.100411708333333,0,0xBC25,
0.100427375000000,0,0x8000,
0.100435250000000,0,0xBD25,
0.100450958333333,0,0x8000,
0.100458833333333,0,0xBE25,
0.100474541666667,0,0xE5BC,
0.100482375000000,0,0xBF25,
0.100498083333333,0,0xE5D3,
0.100505958333333,0,0xC025,
0.100536333333333,0,0x000A,
0.100544041666667,0,0x412D,
0.100560458333333,0,0xDB4D,
0.100568291666667,0,0xC125,
0.100584000000000,0,0xDC53,
0.100591833333333,0,0xC225,
0.100607583333333,0,0xDF37,
0.100615416666667,0,0xC325,
0.100631125000000,0,0xE120,
0.100639000000000,0,0xC425,
0.100654666666667,0,0xA97A,
0.100662541666667,0,0xC525,
0.100678250000000,0,0xFF49,
0.100686125000000,0,0xC625,
0.100701833333333,0,0xC015,
0.100709666666667,0,0xC725,
0.100725375000000,0,0xA3B9,
0.100733250000000,0,0xC825,
0.100748958333333,0,0x9E39,
0.100756791666667,0,0xC925,
0.100772541666667,0,0x9E3D,
0.100780375000000,0,0xCA25,
0.108385291666667,0,0x6C3F,
0.108393000000000,0,0x0603,
0.108420583333333,0,0x0004,
0.108428250000000,0,0x0315,
0.108444375000000,0,0x0A01,
0.108452291666667,0,0x8315,
0.108468125000000,0,0x0F00,
0.108476041666667,0,0x8415,
0.108491875000000,0,0x0000,
0.108499791666667,0,0x8516,
0.108515625000000,0,0x6F3F,
0.108523583333333,0,0x8615,
0.108555083333333,0,0x0004,
0.108562791666667,0,0x0319,
0.108579000000000,0,0x0A01,
0.108586916666667,0,0x8319,
0.108602750000000,0,0x0F00,
0.108610666666667,0,0x8419,
0.108626541666667,0,0x0000,
0.108634458333333,0,0x8516,
0.108650291666667,0,0x6F3F,
0.108658208333333,0,0x8619,
0.108688833333333,0,0x0004,
0.108696500000000,0,0x031D,
0.108712666666667,0,0x0A01,
0.108720583333333,0,0x831D,
0.108736416666667,0,0x0F00,
0.108744375000000,0,0x841D,
0.108760208333333,0,0x0000,
0.108768125000000,0,0x8516,
0.108783958333333,0,0x6F3F,
0.108791875000000,0,0x861D,
0.108823500000000,0,0x0004,
0.108831166666667,0,0x0311,
0.108847333333333,0,0x0A01,
0.108855208333333,0,0x8311,
0.108871083333333,0,0x0F00,
0.108879000000000,0,0x8411,
0.108894833333333,0,0x0000,
0.108902750000000,0,0x8516,
0.108918583333333,0,0x6F3F,
0.108926500000000,0,0x8611,
0.108958833333333,0,0x0004,
0.108966541666667,0,0x0315,
0.108982916666667,0,0x0A01,
0.108990833333333,0,0x8315,
0.109006666666667,0,0x0F00,
0.109014583333333,0,0x8415,
0.109030416666667,0,0x0000,
0.109038333333333,0,0x8516,
0.109054166666667,0,0x673F,
0.109062083333333,0,0x8615,
0.109093458333333,0,0x0001,
0.109101125000000,0,0x1D19,
0.109117500000000,0,0x1551,
0.109125416666667,0,0x9D19,
0.109153000000000,0,0x0003,
0.109160666666667,0,0x241D,
0.109176875000000,0,0x0048,
0.109184791666667,0,0xA416,
0.109200625000000,0,0x0040,
0.109208500000000,0,0xA516,
0.109224375000000,0,0x0000,
0.109232250000000,0,0xA616,
0.109260791666667,0,0x0005,
0.109268458333333,0,0x2D11,
0.109284708333333,0,0x8B6B,
0.109292625000000,0,0xAD16,
0.109308458333333,0,0xFFFE,
0.109316375000000,0,0xAE16,
0.109332208333333,0,0x81B5,
0.109340125000000,0,0xAF16,
0.109355958333333,0,0xFFFF,
0.109363875000000,0,0xB016,
0.109379708333333,0,0x830A,
0.109387625000000,0,0xB116,
0.109417666666667,0,0x0006,
0.109425375000000,0,0x3B15,
0.109441541666667,0,0xB3E1,
0.109449458333333,0,0xBB16,
0.109465291666667,0,0xB330,
0.109473208333333,0,0xBC16,
0.109489041666667,0,0xB2BD,
0.109496958333333,0,0xBD16,
0.109512791666667,0,0xB1FB,
0.109520708333333,0,0xBE16,
0.109536541666667,0,0xB1FF,
0.109544458333333,0,0xBF16,
0.109560291666667,0,0xB26E,
0.109568208333333,0,0xC016,
0.109598125000000,0,0x000A,
0.109605791666667,0,0x4119,
0.109622125000000,0,0xC096,
0.109630083333333,0,0xC116,
0.109645875000000,0,0xC0C9,
0.109653791666667,0,0xC216,
0.109669625000000,0,0xC087,
0.109677541666667,0,0xC316,
0.109693375000000,0,0xC0C7,
0.109701291666667,0,0xC416,
0.109717125000000,0,0xC0C6,
0.109725041666667,0,0xC516,
0.109740875000000,0,0xDCFB,
0.109748791666667,0,0xC616,
0.109764625000000,0,0x8021,
0.109772541666667,0,0xC716,
0.109788375000000,0,0xA3D8,
0.109796291666667,0,0xC816,
0.109812125000000,0,0x9E3A,
0.109820041666667,0,0xC916,
0.109835875000000,0,0x9E39,
0.109843791666667,0,0xCA16,
0.109876625000000,0,0x0004,
0.109884291666667,0,0x032D,
0.109900333333333,0,0x0A01,
0.109908166666667,0,0x832D,
0.109923875000000,0,0x0F00,
0.109931750000000,0,0x842D,
0.109947458333333,0,0x0000,
0.109955333333333,0,0x8526,
0.109971000000000,0,0x673F,
0.109978875000000,0,0x862D,
0.110009083333333,0,0x0001,
0.110016750000000,0,0x1D21,
0.110032875000000,0,0x0055,
0.110040708333333,0,0x9D21,
0.110068500000000,0,0x0003,
0.110076208333333,0,0x2425,
0.110092291666667,0,0x004C,
0.110100125000000,0,0xA426,
0.110115833333333,0,0x0040,
0.110123708333333,0,0xA526,
0.110139375000000,0,0x8000,
0.110147250000000,0,0xA626,
0.110176333333333,0,0x0005,
0.110184000000000,0,0x2D29,
0.110200291666667,0,0x8C9B,
0.110208125000000,0,0xAD26,
0.110223833333333,0,0xFFFE,
0.110231708333333,0,0xAE26,
0.110247375000000,0,0xB4BA,
0.110255250000000,0,0xAF26,
0.110270958333333,0,0xFFFF,
0.110278791666667,0,0xB026,
0.110294500000000,0,0x830D,
0.110302375000000,0,0xB126,
0.110332541666667,0,0x0006,
0.110340208333333,0,0x3B2D,
0.110356375000000,0,0xE517,
0.110364208333333,0,0xBB26,
0.110379916666667,0,0x8000,
0.110387791666667,0,0xBC26,
0.110403500000000,0,0x8000,
0.110411333333333,0,0xBD26,
0.110427041666667,0,0x8000,
0.110434916666667,0,0xBE26,
0.110450625000000,0,0xE5BA,
0.110458500000000,0,0xBF26,
0.110474166666667,0,0xE5D3,
0.110482041666667,0,0xC026,
0.110512500000000,0,0x000A,
0.110520166666667,0,0x4121,
0.110536541666667,0,0xDB50,
0.110544375000000,0,0xC126,
0.110560083333333,0,0xDC54,
0.110567958333333,0,0xC226,
0.110583666666667,0,0xDF38,
0.110591500000000,0,0xC326,
0.110607208333333,0,0xE11D,
0.110615083333333,0,0xC426,
0.110630791666667,0,0xA97E,
0.110638625000000,0,0xC526,
0.110654333333333,0,0xFF4B,
0.110662208333333,0,0xC626,
0.110677916666667,0,0xC012,
0.110685750000000,0,0xC726,
0.110701458333333,0,0xA3B9,
0.110709291666667,0,0xC826,
0.110725041666667,0,0x9E3B,
0.110732875000000,0,0xC926,
0.110748583333333,0,0x9E3C,
0.110756416666667,0,0xCA26,
0.118403916666667,0,0x7C3F,
0.118411625000000,0,0x0607,
0.118438791666667,0,0x0004,
0.118446500000000,0,0x0319,
0.118462833333333,0,0x0A01,
0.118470750000000,0,0x8319,
0.118486583333333,0,0x0F00,
0.118494500000000,0,0x8419,
0.118510375000000,0,0x0000,
0.118518291666667,0,0x8517,
0.118534125000000,0,0x7F3F,
0.118542041666667,0,0x8619,
0.118573500000000,0,0x0004,
0.118581166666667,0,0x031D,
0.118597500000000,0,0x0A01,
0.118605416666667,0,0x831D,
0.118621250000000,0,0x0F00,
0.118629166666667,0,0x841D,
0.118645000000000,0,0x0000,
0.118652916666667,0,0x8517,
0.118668750000000,0,0x7F3F,
0.118676666666667,0,0x861D,
0.118706666666667,0,0x0004,
0.118714333333333,0,0x0311,
0.118730666666667,0,0x0A01,
0.118738583333333,0,0x8311,
0.118754416666667,0,0x0F00,
0.118762375000000,0,0x8411,
0.118778166666667,0,0x0000,
0.118786125000000,0,0x8517,
0.118801958333333,0,0x7F3F,
0.118809875000000,0,0x8611,
0.118840958333333,0,0x0004,
0.118848666666667,0,0x0315,
0.118864833333333,0,0x0A01,
0.118872750000000,0,0x8315,
0.118888583333333,0,0x0F00,
0.118896500000000,0,0x8415,
0.118912333333333,0,0x0000,
0.118920250000000,0,0x8517,
0.118936125000000,0,0x7F3F,
0.118944000000000,0,0x8615,
0.118975125000000,0,0x0004,
0.118982791666667,0,0x0319,
0.118998916666667,0,0x0A01,
0.119006833333333,0,0x8319,
0.119022666666667,0,0x0F00,
0.119030583333333,0,0x8419,
0.119046416666667,0,0x0000,
0.119054333333333,0,0x8517,
0.119070166666667,0,0x773F,
0.119078083333333,0,0x8619,
0.119109041666667,0,0x0001,
0.119116708333333,0,0x1D1D,
0.119133041666667,0,0x1551,
0.119140958333333,0,0x9D1D,
0.119169083333333,0,0x0003,
0.119176750000000,0,0x2411,
0.119192875000000,0,0x0048,
0.119200791666667,0,0xA417,
0.119216625000000,0,0x0040,
0.119224541666667,0,0xA517,
0.119240375000000,0,0x0000,
0.119248291666667,0,0xA617,
0.119277208333333,0,0x0005,
0.119284875000000,0,0x2D15,
0.119301208333333,0,0x8C76,
0.119309125000000,0,0xAD17,
0.119325000000000,0,0xFFFE,
0.119332916666667,0,0xAE17,
0.119348750000000,0,0x7EBB,
0.119356666666667,0,0xAF17,
0.119372458333333,0,0xFFFF,
0.119380375000000,0,0xB017,
0.119396250000000,0,0x830B,
0.119404166666667,0,0xB117,
0.119433750000000,0,0x0006,
0.119441458333333,0,0x3B19,
0.119457583333333,0,0xB3DB,
0.119465500000000,0,0xBB17,
0.119481333333333,0,0xB328,
0.119489250000000,0,0xBC17,
0.119505083333333,0,0xB2BE,
0.119513000000000,0,0xBD17,
0.119528833333333,0,0xB203,
0.119536750000000,0,0xBE17,
0.119552583333333,0,0xB201,
0.119560500000000,0,0xBF17,
0.119576333333333,0,0xB270,
0.119584250000000,0,0xC017,
0.119614541666667,0,0x000A,
0.119622208333333,0,0x411D,
0.119638666666667,0,0xC090,
0.119646583333333,0,0xC117,
0.119662416666667,0,0xC0C0,
0.119670333333333,0,0xC217,
0.119686166666667,0,0xC083,
0.119694083333333,0,0xC317,
0.119709916666667,0,0xC0C1,
0.119717833333333,0,0xC417,
0.119733666666667,0,0xC0C1,
0.119741583333333,0,0xC517,
0.119757416666667,0,0xDCF4,
0.119765333333333,0,0xC617,
0.119781166666667,0,0x8019,
0.119789083333333,0,0xC717,
0.119804916666667,0,0xA3D9,
0.119812833333333,0,0xC817,
0.119828666666667,0,0x9E35,
0.119836583333333,0,0xC917,
0.119852416666667,0,0x9E37,
0.119860333333333,0,0xCA17,
0.119892458333333,0,0x0004,
0.119900125000000,0,0x0321,
0.119916166666667,0,0x0A01,
0.119924041666667,0,0x8321,
0.119939750000000,0,0x0F00,
0.119947583333333,0,0x8421,
0.119963291666667,0,0x0000,
0.119971166666667,0,0x8527,
0.119986875000000,0,0x773F,
0.119994750000000,0,0x8621,
0.120024833333333,0,0x0001,
0.120032500000000,0,0x1D25,
0.120048708333333,0,0x0055,
0.120056541666667,0,0x9D25,
0.120085125000000,0,0x0003,
0.120092791666667,0,0x2429,
0.120109083333333,0,0x004C,
0.120116916666667,0,0xA427,
0.120132625000000,0,0x0040,
0.120140500000000,0,0xA527,
0.120156208333333,0,0x8000,
0.120164083333333,0,0xA627,
0.120193666666667,0,0x0005,
0.120201333333333,0,0x2D2D,
0.120217583333333,0,0x8DA7,
0.120225416666667,0,0xAD27,
0.120241125000000,0,0xFFFE,
0.120248958333333,0,0xAE27,
0.120264708333333,0,0xB21E,
0.120272541666667,0,0xAF27,
0.120288250000000,0,0xFFFF,
0.120296083333333,0,0xB027,
0.120311791666667,0,0x8309,
0.120319666666667,0,0xB127,
0.120350958333333,0,0x0006,
0.120358625000000,0,0x3B21,
0.120374625000000,0,0xE51A,
0.120382458333333,0,0xBB27,
0.120398166666667,0,0x8001,
0.120406041666667,0,0xBC27,
0.120421750000000,0,0x8002,
0.120429583333333,0,0xBD27,
0.120445291666667,0,0x8000,
0.120453125000000,0,0xBE27,
0.120468875000000,0,0xE5BF,
0.120476708333333,0,0xBF27,
0.120492416666667,0,0xE5D7,
0.120500291666667,0,0xC027,
0.120531083333333,0,0x000A,
0.120538791666667,0,0x4125,
0.120554791666667,0,0xDB51,
0.120562625000000,0,0xC127,
0.120578375000000,0,0xDC55,
0.120586208333333,0,0xC227,
0.120601916666667,0,0xDF3F,
0.120609791666667,0,0xC327,
0.120625500000000,0,0xE122,
0.120633333333333,0,0xC427,
0.120649041666667,0,0xA97F,
0.120656916666667,0,0xC527,
0.120672625000000,0,0xFF4C,
0.120680458333333,0,0xC627,
0.120696208333333,0,0xC016,
0.120704041666667,0,0xC727,
0.120719750000000,0,0xA3B9,
0.120727583333333,0,0xC827,
0.120743291666667,0,0x9E3B,
0.120751125000000,0,0xC927,
0.120766833333333,0,0x9E3A,
0.120774708333333,0,0xCA27,
0.128380666666667,0,0x8C3F,
0.128388333333333,0,0x060B,
0.128415708333333,0,0x0004,
0.128423375000000,0,0x031D,
0.128439750000000,0,0x0A01,
0.128447666666667,0,0x831D,
0.128463500000000,0,0x0F00,
0.128471416666667,0,0x841D,
0.128487250000000,0,0x0000,
0.128495166666667,0,0x8518,
0.128511000000000,0,0x8F3F,
0.128518916666667,0,0x861D,
0.128549583333333,0,0x0004,
0.128557291666667,0,0x0311,
0.128573333333333,0,0x0A01,
0.128581250000000,0,0x8311,
0.128597083333333,0,0x0F00,
0.128605000000000,0,0x8411,
0.128620833333333,0,0x0000,
0.128628750000000,0,0x8518,
0.128644625000000,0,0x8F3F,
0.128652541666667,0,0x8611,
0.128683291666667,0,0x0004,
0.128691000000000,0,0x0315,
0.128707000000000,0,0x0A01,
0.128714875000000,0,0x8315,
0.128730708333333,0,0x0F00,
0.128738625000000,0,0x8415,
0.128754458333333,0,0x0000,
0.128762375000000,0,0x8518,
0.128778250000000,0,0x8F3F,
0.128786166666667,0,0x8615,
0.128816625000000,0,0x0004,
0.128824291666667,0,0x0319,
0.128840583333333,0,0x0A01,
0.128848500000000,0,0x8319,
0.128864333333333,0,0x0F00,
0.128872250000000,0,0x8419,
0.128888083333333,0,0x0000,
0.128896000000000,0,0x8518,
0.128911833333333,0,0x8F3F,
0.128919750000000,0,0x8619,
0.128950291666667,0,0x0004,
0.128957958333333,0,0x031D,
0.128974166666667,0,0x0A01,
0.128982083333333,0,0x831D,
0.128997916666667,0,0x0F00,
0.129005833333333,0,0x841D,
0.129021666666667,0,0x0000,
0.129029583333333,0,0x8518,
0.129045416666667,0,0x873F,
0.129053333333333,0,0x861D,
0.129084125000000,0,0x0001,
0.129091833333333,0,0x1D11,
0.129108250000000,0,0x1551,
0.129116166666667,0,0x9D11,
0.129143916666667,0,0x0003,
0.129151583333333,0,0x2415,
0.129167625000000,0,0x0048,
0.129175541666667,0,0xA418,
0.129191333333333,0,0x0040,
0.129199250000000,0,0xA518,
0.129215125000000,0,0x0000,
0.129223041666667,0,0xA618,
0.129251333333333,0,0x0005,
0.129259041666667,0,0x2D19,
0.129275458333333,0,0x8D7F,
0.129283375000000,0,0xAD18,
0.129299166666667,0,0xFFFE,
0.129307125000000,0,0xAE18,
0.129322916666667,0,0x7C15,
0.129330833333333,0,0xAF18,
0.129346666666667,0,0xFFFF,
0.129354583333333,0,0xB018,
0.129370416666667,0,0x830D,
0.129378333333333,0,0xB118,
0.129408333333333,0,0x0006,
0.129416041666667,0,0x3B1D,
0.129432250000000,0,0xB3DF,
0.129440166666667,0,0xBB18,
0.129456000000000,0,0xB328,
0.129463916666667,0,0xBC18,
0.129479750000000,0,0xB2BA,
0.129487666666667,0,0xBD18,
0.129503500000000,0,0xB1FD,
0.129511416666667,0,0xBE18,
0.129527250000000,0,0xB202,
0.129535166666667,0,0xBF18,
0.129551000000000,0,0xB26F,
0.129558916666667,0,0xC018,
0.129588458333333,0,0x000A,
0.129596125000000,0,0x4111,
0.129612333333333,0,0xC095,
0.129620250000000,0,0xC118,
0.129636041666667,0,0xC0C9,
0.129644000000000,0,0xC218,
0.129659833333333,0,0xC089,
0.129667750000000,0,0xC318,
0.129683541666667,0,0xC0C5,
0.129691500000000,0,0xC418,
0.129707333333333,0,0xC0C6,
0.129715250000000,0,0xC518,
0.129731083333333,0,0xDCFB,
0.129739000000000,0,0xC618,
0.129754833333333,0,0x801D,
0.129762750000000,0,0xC718,
0.129778583333333,0,0xA3D8,
0.129786500000000,0,0xC818,
0.129802333333333,0,0x9E39,
0.129810250000000,0,0xC918,
0.129826083333333,0,0x9E3B,
0.129834000000000,0,0xCA18,
0.129866500000000,0,0x0004,
0.129874208333333,0,0x0325,
0.129890416666667,0,0x0A01,
0.129898250000000,0,0x8325,
0.129913958333333,0,0x0F00,
0.129921791666667,0,0x8425,
0.129937500000000,0,0x0000,
0.129945375000000,0,0x8528,
0.129961083333333,0,0x873F,
0.129968916666667,0,0x8625,
0.129999000000000,0,0x0001,
0.130006708333333,0,0x1D29,
0.130022916666667,0,0x0055,
0.130030791666667,0,0x9D29,
0.130058583333333,0,0x0003,
0.130066250000000,0,0x242D,
0.130082291666667,0,0x004C,
0.130090166666667,0,0xA428,
0.130105875000000,0,0x0040,
0.130113750000000,0,0xA528,
0.130129416666667,0,0x8000,
0.130137291666667,0,0xA628,
0.130167000000000,0,0x0005,
0.130174666666667,0,0x2D21,
0.130190791666667,0,0x8EB3,
0.130198625000000,0,0xAD28,
0.130214333333333,0,0xFFFE,
0.130222208333333,0,0xAE28,
0.130237875000000,0,0xAF74,
0.130245750000000,0,0xAF28,
0.130261458333333,0,0xFFFF,
0.130269291666667,0,0xB028,
0.130285000000000,0,0x830A,
0.130292875000000,0,0xB128,
0.130322708333333,0,0x0006,
0.130330375000000,0,0x3B25,
0.130346375000000,0,0xE519,
0.130354208333333,0,0xBB28,
0.130369916666667,0,0x8001,
0.130377791666667,0,0xBC28,
0.130393500000000,0,0x8000,
0.130401333333333,0,0xBD28,
0.130417041666667,0,0x8000,
0.130424916666667,0,0xBE28,
0.130440583333333,0,0xE5C0,
0.130448458333333,0,0xBF28,
0.130464166666667,0,0xE5D7,
0.130472000000000,0,0xC028,
0.130502375000000,0,0x000A,
0.130510083333333,0,0x4129,
0.130526000000000,0,0xDB4D,
0.130533875000000,0,0xC128,
0.130549541666667,0,0xDC50,
0.130557416666667,0,0xC228,
0.130573125000000,0,0xDF37,
0.130580958333333,0,0xC328,
0.130596666666667,0,0xE11F,
0.130604500000000,0,0xC428,
0.130620208333333,0,0xA97D,
0.130628083333333,0,0xC528,
0.130643791666667,0,0xFF4B,
0.130651625000000,0,0xC628,
0.130667333333333,0,0xC010,
0.130675208333333,0,0xC728,
0.130690916666667,0,0xA3B8,
0.130698750000000,0,0xC828,
0.130714458333333,0,0x9E38,
0.130722333333333,0,0xC928,
0.130738041666667,0,0x9E3E,
0.130745875000000,0,0xCA28,
0.138413708333333,0,0x9C3F,
0.138421375000000,0,0x060F,
0.138448083333333,0,0x0004,
0.138455791666667,0,0x0311,
0.138472000000000,0,0x0A01,
0.138479916666667,0,0x8311,
0.138495750000000,0,0x0F00,
0.138503666666667,0,0x8411,
0.138519500000000,0,0x0000,
0.138527416666667,0,0x8519,
0.138543291666667,0,0x9F3F,
0.138551208333333,0,0x8611,
0.138582458333333,0,0x0004,
0.138590125000000,0,0x0315,
0.138606125000000,0,0x0A01,
0.138614041666667,0,0x8315,
0.138629875000000,0,0x0F00,
0.138637791666667,0,0x8415,
0.138653625000000,0,0x0000,
0.138661541666667,0,0x8519,
0.138677375000000,0,0x9F3F,
0.138685291666667,0,0x8615,
0.138715708333333,0,0x0004,
0.138723375000000,0,0x0319,
0.138739750000000,0,0x0A01,
0.138747666666667,0,0x8319,
0.138763500000000,0,0x0F00,
0.138771416666667,0,0x8419,
0.138787250000000,0,0x0000,
0.138795166666667,0,0x8519,
0.138811000000000,0,0x9F3F,
0.138818958333333,0,0x8619,
0.138849625000000,0,0x0004,
0.138857291666667,0,0x031D,
0.138873375000000,0,0x0A01,
0.138881291666667,0,0x831D,
0.138897125000000,0,0x0F00,
0.138905041666667,0,0x841D,
0.138920875000000,0,0x0000,
0.138928791666667,0,0x8519,
0.138944625000000,0,0x9F3F,
0.138952541666667,0,0x861D,
0.138983041666667,0,0x0004,
0.138990708333333,0,0x0311,
0.139006958333333,0,0x0A01,
0.139014875000000,0,0x8311,
0.139030708333333,0,0x0F00,
0.139038625000000,0,0x8411,
0.139054458333333,0,0x0000,
0.139062375000000,0,0x8519,
0.139078208333333,0,0x973F,
0.139086125000000,0,0x8611,
0.139116916666667,0,0x0001,
0.139124583333333,0,0x1D15,
0.139141041666667,0,0x1551,
0.139148958333333,0,0x9D15,
0.139177083333333,0,0x0003,
0.139184750000000,0,0x2419,
0.139200916666667,0,0x0048,
0.139208833333333,0,0xA419,
0.139224666666667,0,0x0040,
0.139232541666667,0,0xA519,
0.139248375000000,0,0x0000,
0.139256333333333,0,0xA619,
0.139285000000000,0,0x0005,
0.139292708333333,0,0x2D1D,
0.139308750000000,0,0x8E8A,
0.139316666666667,0,0xAD19,
0.139332500000000,0,0xFFFE,
0.139340416666667,0,0xAE19,
0.139356250000000,0,0x79FE,
0.139364166666667,0,0xAF19,
0.139380000000000,0,0xFFFF,
0.139387916666667,0,0xB019,
0.139403750000000,0,0x830E,
0.139411666666667,0,0xB119,
0.139441750000000,0,0x0006,
0.139449458333333,0,0x3B11,
0.139465625000000,0,0xB3E2,
0.139473500000000,0,0xBB19,
0.139489333333333,0,0xB32D,
0.139497250000000,0,0xBC19,
0.139513083333333,0,0xB2BD,
0.139521000000000,0,0xBD19,
0.139536833333333,0,0xB203,
0.139544750000000,0,0xBE19,
0.139560583333333,0,0xB1FC,
0.139568500000000,0,0xBF19,
0.139584333333333,0,0xB272,
0.139592250000000,0,0xC019,
0.139622750000000,0,0x000A,
0.139630416666667,0,0x4115,
0.139646666666667,0,0xC095,
0.139654583333333,0,0xC119,
0.139670416666667,0,0xC0C5,
0.139678333333333,0,0xC219,
0.139694166666667,0,0xC087,
0.139702083333333,0,0xC319,
0.139717916666667,0,0xC0C3,
0.139725833333333,0,0xC419,
0.139741666666667,0,0xC0C4,
0.139749583333333,0,0xC519,
0.139765375000000,0,0xDCF7,
0.139773291666667,0,0xC619,
0.139789125000000,0,0x801C,
0.139797041666667,0,0xC719,
0.139812875000000,0,0xA3D8,
0.139820791666667,0,0xC819,
0.139836625000000,0,0x9E38,
0.139844541666667,0,0xC919,
0.139860375000000,0,0x9E3C,
0.139868291666667,0,0xCA19,
0.139900541666667,0,0x0004,
0.139908208333333,0,0x0329,
0.139924541666667,0,0x0A01,
0.139932375000000,0,0x8329,
0.139948083333333,0,0x0F00,
0.139955916666667,0,0x8429,
0.139971625000000,0,0x0000,
0.139979500000000,0,0x8529,
0.139995208333333,0,0x973F,
0.140003041666667,0,0x8629,
0.140033000000000,0,0x0001,
0.140040666666667,0,0x1D2D,
0.140057041666667,0,0x0055,
0.140064916666667,0,0x9D2D,
0.140092875000000,0,0x0003,
0.140100541666667,0,0x2421,
0.140116916666667,0,0x004C,
0.140124791666667,0,0xA429,
0.140140500000000,0,0x0040,
0.140148333333333,0,0xA529,
0.140164041666667,0,0x8000,
0.140171916666667,0,0xA629,
0.140201541666667,0,0x0005,
0.140209250000000,0,0x2D25,
0.140225416666667,0,0x8FC0,
0.140233250000000,0,0xAD29,
0.140248958333333,0,0xFFFE,
0.140256833333333,0,0xAE29,
0.140272541666667,0,0xAD1F,
0.140280416666667,0,0xAF29,
0.140296083333333,0,0x8000,
0.140303958333333,0,0xB029,
0.140319666666667,0,0x8303,
0.140327500000000,0,0xB129,
0.140357958333333,0,0x0006,
0.140365666666667,0,0x3B29,
0.140382041666667,0,0xE517,
0.140389875000000,0,0xBB29,
0.140405583333333,0,0x8002,
0.140413458333333,0,0xBC29,
0.140429166666667,0,0x8000,
0.140437041666667,0,0xBD29,
0.140452708333333,0,0x8000,
0.140460583333333,0,0xBE29,
0.140476291666667,0,0xE5BE,
0.140484125000000,0,0xBF29,
0.140499833333333,0,0xE5D6,
0.140507708333333,0,0xC029,
0.140538333333333,0,0x000A,
0.140546000000000,0,0x412D,
0.140562166666667,0,0xDB51,
0.140570041666667,0,0xC129,
0.140585708333333,0,0xDC52,
0.140593583333333,0,0xC229,
0.140609291666667,0,0xDF3D,
0.140617166666667,0,0xC329,
0.140632833333333,0,0xE124,
0.140640708333333,0,0xC429,
0.140656416666667,0,0xA97F,
0.140664250000000,0,0xC529,
0.140680000000000,0,0xFF4E,
0.140687833333333,0,0xC629,
0.140703541666667,0,0xC015,
0.140711375000000,0,0xC729,
0.140727083333333,0,0xA3BA,
0.140734958333333,0,0xC829,
0.140750666666667,0,0x9E39,
0.140758500000000,0,0xC929,
0.140774208333333,0,0x9E40,
0.140782041666667,0,0xCA29,
0.148356000000000,0,0xAC3F,
0.148363666666667,0,0x0603,
0.148391250000000,0,0x0004,
0.148398916666667,0,0x0315,
0.148415083333333,0,0x0A01,
0.148423000000000,0,0x8315,
0.148438875000000,0,0x0F00,
0.148446750000000,0,0x8415,
0.148462625000000,0,0x0000,
0.148470541666667,0,0x851A,
0.148486375000000,0,0xAF3F,
0.148494291666667,0,0x8615,
0.148524583333333,0,0x0004,
0.148532250000000,0,0x0319,
0.148548250000000,0,0x0A01,
0.148556166666667,0,0x8319,
0.148572000000000,0,0x0F00,
0.148579916666667,0,0x8419,
0.148595791666667,0,0x0000,
0.148603708333333,0,0x851A,
0.148619541666667,0,0xAF3F,
0.148627458333333,0,0x8619,
0.148657916666667,0,0x0004,
0.148665625000000,0,0x031D,
0.148681916666667,0,0x0A01,
0.148689791666667,0,0x831D,
0.148705625000000,0,0x0F00,
0.148713583333333,0,0x841D,
0.148729375000000,0,0x0000,
0.148737333333333,0,0x851A,
0.148753166666667,0,0xAF3F,
0.148761083333333,0,0x861D,
0.148792458333333,0,0x0004,
0.148800125000000,0,0x0311,
0.148816500000000,0,0x0A01,
0.148824416666667,0,0x8311,
0.148840250000000,0,0x0F00,
0.148848166666667,0,0x8411,
0.148864000000000,0,0x0000,
0.148871916666667,0,0x851A,
0.148887750000000,0,0xAF3F,
0.148895666666667,0,0x8611,
0.148925791666667,0,0x0004,
0.148933500000000,0,0x0315,
0.148949625000000,0,0x0A01,
0.148957541666667,0,0x8315,
0.148973333333333,0,0x0F00,
0.148981250000000,0,0x8415,
0.148997125000000,0,0x0000,
0.149005041666667,0,0x851A,
0.149020833333333,0,0xA73F,
0.149028750000000,0,0x8615,
0.149059166666667,0,0x0001,
0.149066833333333,0,0x1D19,
0.149083166666667,0,0x1551,
0.149091125000000,0,0x9D19,
0.149119291666667,0,0x0003,
0.149126958333333,0,0x241D,
0.149143041666667,0,0x0048,
0.149150958333333,0,0xA41A,
0.149166791666667,0,0x0040,
0.149174708333333,0,0xA51A,
0.149190541666667,0,0x0000,
0.149198458333333,0,0xA61A,
0.149227416666667,0,0x0005,
0.149235125000000,0,0x2D11,
0.149251416666667,0,0x8F92,
0.149259333333333,0,0xAD1A,
0.149275166666667,0,0xFFFE,
0.149283083333333,0,0xAE1A,
0.149298916666667,0,0x776D,
0.149306833333333,0,0xAF1A,
0.149322666666667,0,0xFFFF,
0.149330583333333,0,0xB01A,
0.149346416666667,0,0x830C,
0.149354333333333,0,0xB11A,
0.149384666666667,0,0x0006,
0.149392333333333,0,0x3B15,
0.149408750000000,0,0xB3E3,
0.149416708333333,0,0xBB1A,
0.149432541666667,0,0xB32C,
0.149440458333333,0,0xBC1A,
0.149456250000000,0,0xB2BD,
0.149464166666667,0,0xBD1A,
0.149480041666667,0,0xB202,
0.149487958333333,0,0xBE1A,
0.149503791666667,0,0xB202,
0.149511708333333,0,0xBF1A,
0.149527500000000,0,0xB274,
0.149535416666667,0,0xC01A,
0.149565958333333,0,0x000A,
0.149573625000000,0,0x4119,
0.149589875000000,0,0xC094,
0.149597791666667,0,0xC11A,
0.149613625000000,0,0xC0C3,
0.149621541666667,0,0xC21A,
0.149637375000000,0,0xC086,
0.149645291666667,0,0xC31A,
0.149661125000000,0,0xC0C6,
0.149669041666667,0,0xC41A,
0.149684875000000,0,0xC0C6,
0.149692791666667,0,0xC51A,
0.149708625000000,0,0xDCF7,
0.149716541666667,0,0xC61A,
0.149732416666667,0,0x801D,
0.149740333333333,0,0xC71A,
0.149756166666667,0,0xA3D8,
0.149764083333333,0,0xC81A,
0.149779916666667,0,0x9E37,
0.149787833333333,0,0xC91A,
0.149803666666667,0,0x9E3D,
0.149811583333333,0,0xCA1A,
0.149843416666667,0,0x0004,
0.149851083333333,0,0x032D,
0.149867291666667,0,0x0A01,
0.149875166666667,0,0x832D,
0.149890875000000,0,0x0F00,
0.149898750000000,0,0x842D,
0.149914416666667,0,0x0000,
0.149922291666667,0,0x852A,
0.149938000000000,0,0xA73F,
0.149945833333333,0,0x862D,
0.149976416666667,0,0x0001,
0.149984125000000,0,0x1D21,
0.150000333333333,0,0x0055,
0.150008166666667,0,0x9D21,
0.150036500000000,0,0x0003,
0.150044166666667,0,0x2425,
0.150060208333333,0,0x004C,
0.150068041666667,0,0xA42A,
0.150083750000000,0,0x0040,
0.150091625000000,0,0xA52A,
0.150107291666667,0,0x8000,
0.150115166666667,0,0xA62A,
0.150144208333333,0,0x0005,
0.150151916666667,0,0x2D29,
0.150168166666667,0,0x90CA,
0.150176041666667,0,0xAD2A,
0.150191750000000,0,0xFFFE,
0.150199583333333,0,0xAE2A,
0.150215291666667,0,0xAA78,
0.150223166666667,0,0xAF2A,
0.150238875000000,0,0xFFFF,
0.150246708333333,0,0xB02A,
0.150262416666667,0,0x830F,
0.150270291666667,0,0xB12A,
0.150300625000000,0,0x0006,
0.150308291666667,0,0x3B2D,
0.150324291666667,0,0xE51A,
0.150332125000000,0,0xBB2A,
0.150347833333333,0,0x8000,
0.150355666666667,0,0xBC2A,
0.150371375000000,0,0x8000,
0.150379250000000,0,0xBD2A,
0.150394958333333,0,0x8000,
0.150402791666667,0,0xBE2A,
0.150418500000000,0,0xE5BE,
0.150426375000000,0,0xBF2A,
0.150442041666667,0,0xE5D8,
0.150449916666667,0,0xC02A,
0.150479708333333,0,0x000A,
0.150487416666667,0,0x4121,
0.150503416666667,0,0xDB4F,
0.150511291666667,0,0xC12A,
0.150527000000000,0,0xDC54,
0.150534833333333,0,0xC22A,
0.150550541666667,0,0xDF3E,
0.150558416666667,0,0xC32A,
0.150574125000000,0,0xE123,
0.150581958333333,0,0xC42A,
0.150597666666667,0,0xA97D,
0.150605541666667,0,0xC52A,
0.150621250000000,0,0xFF49,
0.150629083333333,0,0xC62A,
0.150644791666667,0,0xC015,
0.150652625000000,0,0xC72A,
0.150668375000000,0,0xA3BC,
0.150676208333333,0,0xC82A,
0.150691916666667,0,0x9E3A,
0.150699750000000,0,0xC92A,
0.150715500000000,0,0x9E3F,
0.150723333333333,0,0xCA2A,
0.158586416666667,0,0xBC3F,
0.158594083333333,0,0x0607,
0.158621625000000,0,0x0004,
0.158629291666667,0,0x0319,
0.158645541666667,0,0x0A01,
0.158653458333333,0,0x8319,
0.158669333333333,0,0x0F00,
0.158677250000000,0,0x8419,
0.158693083333333,0,0x0000,
0.158701000000000,0,0x851B,
0.158716833333333,0,0xBF3F,
0.158724750000000,0,0x8619,
0.158755041666667,0,0x0004,
0.158762708333333,0,0x031D,
0.158778708333333,0,0x0A01,
0.158786625000000,0,0x831D,
0.158802458333333,0,0x0F00,
0.158810375000000,0,0x841D,
0.158826208333333,0,0x0000,
0.158834125000000,0,0x851B,
0.158849958333333,0,0xBF3F,
0.158857875000000,0,0x861D,
0.158888416666667,0,0x0004,
0.158896083333333,0,0x0311,
0.158912291666667,0,0x0A01,
0.158920250000000,0,0x8311,
0.158936083333333,0,0x0F00,
0.158944000000000,0,0x8411,
0.158959833333333,0,0x0000,
0.158967750000000,0,0x851B,
0.158983583333333,0,0xBF3F,
0.158991500000000,0,0x8611,
0.159021583333333,0,0x0004,
0.159029250000000,0,0x0315,
0.159045416666667,0,0x0A01,
0.159053333333333,0,0x8315,
0.159069208333333,0,0x0F00,
0.159077125000000,0,0x8415,
0.159092958333333,0,0x0000,
0.159100875000000,0,0x851B,
0.159116708333333,0,0xBF3F,
0.159124625000000,0,0x8615,
0.159154833333333,0,0x0004,
0.159162500000000,0,0x0319,
0.159178541666667,0,0x0A01,
0.159186458333333,0,0x8319,
0.159202291666667,0,0x0F00,
0.159210208333333,0,0x8419,
0.159226000000000,0,0x0000,
0.159233958333333,0,0x851B,
0.159249750000000,0,0xB73F,
0.159257708333333,0,0x8619,
0.159288666666667,0,0x0001,
0.159296333333333,0,0x1D1D,
0.159312583333333,0,0x1551,
0.159320500000000,0,0x9D1D,
0.159348666666667,0,0x0003,
0.159356333333333,0,0x2411,
0.159372458333333,0,0x0048,
0.159380375000000,0,0xA41B,
0.159396166666667,0,0x0040,
0.159404125000000,0,0xA51B,
0.159419958333333,0,0x0000,
0.159427833333333,0,0xA61B,
0.159457458333333,0,0x0005,
0.159465125000000,0,0x2D15,
0.159481291666667,0,0x90A3,
0.159489208333333,0,0xAD1B,
0.159505041666667,0,0xFFFE,
0.159512958333333,0,0xAE1B,
0.159528791666667,0,0x74AE,
0.159536708333333,0,0xAF1B,
0.159552541666667,0,0x8000,
0.159560458333333,0,0xB01B,
0.159576291666667,0,0x8302,
0.159584208333333,0,0xB11B,
0.159614041666667,0,0x0006,
0.159621708333333,0,0x3B19,
0.159638125000000,0,0xB3DD,
0.159646041666667,0,0xBB1B,
0.159661875000000,0,0xB329,
0.159669791666667,0,0xBC1B,
0.159685625000000,0,0xB2BC,
0.159693541666667,0,0xBD1B,
0.159709333333333,0,0xB1FF,
0.159717291666667,0,0xBE1B,
0.159733125000000,0,0xB1FC,
0.159741000000000,0,0xBF1B,
0.159756833333333,0,0xB26F,
0.159764750000000,0,0xC01B,
0.159794875000000,0,0x000A,
0.159802541666667,0,0x411D,
0.159818666666667,0,0xC095,
0.159826625000000,0,0xC11B,
0.159842458333333,0,0xC0C3,
0.159850333333333,0,0xC21B,
0.159866166666667,0,0xC085,
0.159874083333333,0,0xC31B,
0.159889916666667,0,0xC0C5,
0.159897875000000,0,0xC41B,
0.159913666666667,0,0xC0C5,
0.159921625000000,0,0xC51B,
0.159937416666667,0,0xDCF9,
0.159945333333333,0,0xC61B,
0.159961208333333,0,0x801D,
0.159969125000000,0,0xC71B,
0.159984916666667,0,0xA3DA,
0.159992833333333,0,0xC81B,
0.160008666666667,0,0x9E39,
0.160016583333333,0,0xC91B,
0.160032416666667,0,0x9E3A,
0.160040333333333,0,0xCA1B,
0.160072625000000,0,0x0004,
0.160080291666667,0,0x0321,
0.160096416666667,0,0x0A01,
0.160104250000000,0,0x8321,
0.160119958333333,0,0x0F00,
0.160127833333333,0,0x8421,
0.160143541666667,0,0x0000,
0.160151375000000,0,0x852B,
0.160167083333333,0,0xB73F,
0.160174958333333,0,0x8621,
0.160204958333333,0,0x0001,
0.160212625000000,0,0x1D25,
0.160228916666667,0,0x0055,
0.160236791666667,0,0x9D25,
0.160264625000000,0,0x0003,
0.160272333333333,0,0x2429,
0.160288333333333,0,0x004C,
0.160296166666667,0,0xA42B,
0.160311875000000,0,0x0040,
0.160319750000000,0,0xA52B,
0.160335458333333,0,0x8000,
0.160343291666667,0,0xA62B,
0.160372708333333,0,0x0005,
0.160380375000000,0,0x2D2D,
0.160396833333333,0,0x91DC,
0.160404666666667,0,0xAD2B,
0.160420375000000,0,0xFFFE,
0.160428250000000,0,0xAE2B,
0.160443958333333,0,0xA755,
0.160451791666667,0,0xAF2B,
0.160467500000000,0,0xFFFF,
0.160475375000000,0,0xB02B,
0.160491083333333,0,0x830B,
0.160498916666667,0,0xB12B,
0.160528500000000,0,0x0006,
0.160536166666667,0,0x3B21,
0.160552416666667,0,0xE51A,
0.160560250000000,0,0xBB2B,
0.160575958333333,0,0x8000,
0.160583833333333,0,0xBC2B,
0.160599541666667,0,0x8000,
0.160607416666667,0,0xBD2B,
0.160623125000000,0,0x8000,
0.160630958333333,0,0xBE2B,
0.160646666666667,0,0xE5BE,
0.160654541666667,0,0xBF2B,
0.160670250000000,0,0xE5D5,
0.160678083333333,0,0xC02B,
0.160707916666667,0,0x000A,
0.160715625000000,0,0x4125,
0.160731625000000,0,0xDB46,
0.160739458333333,0,0xC12B,
0.160755166666667,0,0xDC51,
0.160763041666667,0,0xC22B,
0.160778750000000,0,0xDF38,
0.160786583333333,0,0xC32B,
0.160802291666667,0,0xE11F,
0.160810125000000,0,0xC42B,
0.160825833333333,0,0xA97B,
0.160833708333333,0,0xC52B,
0.160849416666667,0,0xFF48,
0.160857291666667,0,0xC62B,
0.160873000000000,0,0xC013,
0.160880833333333,0,0xC72B,
0.160896541666667,0,0xA3BC,
0.160904375000000,0,0xC82B,
0.160920083333333,0,0x9E35,
0.160927958333333,0,0xC92B,
0.160943666666667,0,0x9E41,
0.160951541666667,0,0xCA2B,
0.168400208333333,0,0xCC3F,
0.168407875000000,0,0x060B,
0.168435208333333,0,0x0004,
0.168442875000000,0,0x031D,
0.168458958333333,0,0x0A01,
0.168466833333333,0,0x831D,
0.168482666666667,0,0x0F00,
0.168490583333333,0,0x841D,
0.168506458333333,0,0x0000,
0.168514375000000,0,0x851C,
0.168530208333333,0,0xCF3F,
0.168538125000000,0,0x861D,
0.168569791666667,0,0x0004,
0.168577458333333,0,0x0311,
0.168593541666667,0,0x0A01,
0.168601458333333,0,0x8311,
0.168617333333333,0,0x0F00,
0.168625208333333,0,0x8411,
0.168641083333333,0,0x0000,
0.168649000000000,0,0x851C,
0.168664833333333,0,0xCF3F,
0.168672750000000,0,0x8611,
0.168703166666667,0,0x0004,
0.168710875000000,0,0x0315,
0.168727208333333,0,0x0A01,
0.168735166666667,0,0x8315,
0.168750958333333,0,0x0F00,
0.168758916666667,0,0x8415,
0.168774750000000,0,0x0000,
0.168782666666667,0,0x851C,
0.168798500000000,0,0xCF3F,
0.168806416666667,0,0x8615,
0.168836500000000,0,0x0004,
0.168844208333333,0,0x0319,
0.168860375000000,0,0x0A01,
0.168868291666667,0,0x8319,
0.168884125000000,0,0x0F00,
0.168892041666667,0,0x8419,
0.168907875000000,0,0x0000,
0.168915791666667,0,0x851C,
0.168931625000000,0,0xCF3F,
0.168939541666667,0,0x8619,
0.168969791666667,0,0x0004,
0.168977500000000,0,0x031D,
0.168993458333333,0,0x0A01,
0.169001416666667,0,0x831D,
0.169017208333333,0,0x0F00,
0.169025166666667,0,0x841D,
0.169040958333333,0,0x0000,
0.169048916666667,0,0x851C,
0.169064750000000,0,0xC73F,
0.169072666666667,0,0x861D,
0.169103083333333,0,0x0001,
0.169110750000000,0,0x1D11,
0.169127083333333,0,0x1551,
0.169135000000000,0,0x9D11,
0.169162875000000,0,0x0003,
0.169170541666667,0,0x2415,
0.169186916666667,0,0x0048,
0.169194875000000,0,0xA41C,
0.169210708333333,0,0x0040,
0.169218583333333,0,0xA51C,
0.169234416666667,0,0x0000,
0.169242333333333,0,0xA61C,
0.169271208333333,0,0x0005,
0.169278916666667,0,0x2D19,
0.169295291666667,0,0x91A8,
0.169303208333333,0,0xAD1C,
0.169319041666667,0,0xFFFE,
0.169326958333333,0,0xAE1C,
0.169342791666667,0,0x71BA,
0.169350708333333,0,0xAF1C,
0.169366541666667,0,0xFFFF,
0.169374458333333,0,0xB01C,
0.169390291666667,0,0x830C,
0.169398208333333,0,0xB11C,
0.169428291666667,0,0x0006,
0.169436000000000,0,0x3B1D,
0.169452083333333,0,0xB3DD,
0.169460000000000,0,0xBB1C,
0.169475833333333,0,0xB32A,
0.169483750000000,0,0xBC1C,
0.169499583333333,0,0xB2BB,
0.169507500000000,0,0xBD1C,
0.169523333333333,0,0xB1FC,
0.169531250000000,0,0xBE1C,
0.169547083333333,0,0xB202,
0.169555000000000,0,0xBF1C,
0.169570833333333,0,0xB272,
0.169578750000000,0,0xC01C,
0.169609166666667,0,0x000A,
0.169616875000000,0,0x4111,
0.169633166666667,0,0xC093,
0.169641083333333,0,0xC11C,
0.169656916666667,0,0xC0C6,
0.169664833333333,0,0xC21C,
0.169680666666667,0,0xC086,
0.169688583333333,0,0xC31C,
0.169704416666667,0,0xC0C3,
0.169712333333333,0,0xC41C,
0.169728166666667,0,0xC0C7,
0.169736083333333,0,0xC51C,
0.169751916666667,0,0xDCFB,
0.169759833333333,0,0xC61C,
0.169775666666667,0,0x801D,
0.169783583333333,0,0xC71C,
0.169799416666667,0,0xA3D9,
0.169807291666667,0,0xC81C,
0.169823166666667,0,0x9E39,
0.169831083333333,0,0xC91C,
0.169846916666667,0,0x9E3A,
0.169854833333333,0,0xCA1C,
0.169887166666667,0,0x0004,
0.169894833333333,0,0x0325,
0.169910916666667,0,0x0A01,
0.169918750000000,0,0x8325,
0.169934458333333,0,0x0F00,
0.169942333333333,0,0x8425,
0.169958041666667,0,0x0000,
0.169965916666667,0,0x852C,
0.169981625000000,0,0xC73F,
0.169989458333333,0,0x8625,
0.170019750000000,0,0x0001,
0.170027416666667,0,0x1D29,
0.170043458333333,0,0x0055,
0.170051333333333,0,0x9D29,
0.170079333333333,0,0x0003,
0.170087000000000,0,0x242D,
0.170103333333333,0,0x004C,
0.170111208333333,0,0xA42C,
0.170126916666667,0,0x0040,
0.170134750000000,0,0xA52C,
0.170150458333333,0,0x8000,
0.170158291666667,0,0xA62C,
0.170187250000000,0,0x0005,
0.170194958333333,0,0x2D21,
0.170211291666667,0,0x92E4,
0.170219166666667,0,0xAD2C,
0.170234875000000,0,0xFFFE,
0.170242750000000,0,0xAE2C,
0.170258458333333,0,0xA552,
0.170266291666667,0,0xAF2C,
0.170282000000000,0,0xFFFF,
0.170289875000000,0,0xB02C,
0.170305541666667,0,0x8309,
0.170313416666667,0,0xB12C,
0.170345125000000,0,0x0006,
0.170352791666667,0,0x3B25,
0.170368833333333,0,0xE51E,
0.170376708333333,0,0xBB2C,
0.170392416666667,0,0x8003,
0.170400291666667,0,0xBC2C,
0.170416000000000,0,0x8000,
0.170423833333333,0,0xBD2C,
0.170439541666667,0,0x8000,
0.170447416666667,0,0xBE2C,
0.170463083333333,0,0xE5B7,
0.170470958333333,0,0xBF2C,
0.170486666666667,0,0xE5D3,
0.170494500000000,0,0xC02C,
0.170525083333333,0,0x000A,
0.170532750000000,0,0x4129,
0.170549000000000,0,0xDB4C,
0.170556833333333,0,0xC12C,
0.170572541666667,0,0xDC4F,
0.170580416666667,0,0xC22C,
0.170596083333333,0,0xDF38,
0.170603958333333,0,0xC32C,
0.170619666666667,0,0xE11C,
0.170627500000000,0,0xC42C,
0.170643208333333,0,0xA977,
0.170651083333333,0,0xC52C,
0.170666791666667,0,0xFF47,
0.170674625000000,0,0xC62C,
0.170690333333333,0,0xC011,
0.170698166666667,0,0xC72C,
0.170713875000000,0,0xA3BA,
0.170721750000000,0,0xC82C,
0.170737416666667,0,0x9E37,
0.170745291666667,0,0xC92C,
0.170761000000000,0,0x9E40,
0.170768833333333,0,0xCA2C,
0.178414250000000,0,0xDC3F,
0.178421958333333,0,0x060F,
0.178449250000000,0,0x0004,
0.178456958333333,0,0x0311,
0.178473416666667,0,0x0A01,
0.178481291666667,0,0x8311,
0.178497166666667,0,0x0F00,
0.178505083333333,0,0x8411,
0.178520916666667,0,0x0000,
0.178528833333333,0,0x851D,
0.178544666666667,0,0xDF3F,
0.178552583333333,0,0x8611,
0.178582916666667,0,0x0004,
0.178590583333333,0,0x0315,
0.178607041666667,0,0x0A01,
0.178614958333333,0,0x8315,
0.178630791666667,0,0x0F00,
0.178638750000000,0,0x8415,
0.178654583333333,0,0x0000,
0.178662500000000,0,0x851D,
0.178678333333333,0,0xDF3F,
0.178686250000000,0,0x8615,
0.178717000000000,0,0x0004,
0.178724666666667,0,0x0319,
0.178740708333333,0,0x0A01,
0.178748666666667,0,0x8319,
0.178764500000000,0,0x0F00,
0.178772416666667,0,0x8419,
0.178788250000000,0,0x0000,
0.178796166666667,0,0x851D,
0.178812000000000,0,0xDF3F,
0.178819916666667,0,0x8619,
0.178851041666667,0,0x0004,
0.178858708333333,0,0x031D,
0.178874875000000,0,0x0A01,
0.178882791666667,0,0x831D,
0.178898625000000,0,0x0F00,
0.178906541666667,0,0x841D,
0.178922375000000,0,0x0000,
0.178930333333333,0,0x851D,
0.178946125000000,0,0xDF3F,
0.178954083333333,0,0x861D,
0.178985041666667,0,0x0004,
0.178992708333333,0,0x0311,
0.179009000000000,0,0x0A01,
0.179016916666667,0,0x8311,
0.179032750000000,0,0x0F00,
0.179040666666667,0,0x8411,
0.179056500000000,0,0x0000,
0.179064416666667,0,0x851D,
0.179080250000000,0,0xD73F,
0.179088208333333,0,0x8611,
0.179119250000000,0,0x0001,
0.179126958333333,0,0x1D15,
0.179143125000000,0,0x1551,
0.179151041666667,0,0x9D15,
0.179179583333333,0,0x0003,
0.179187291666667,0,0x2419,
0.179203500000000,0,0x0048,
0.179211416666667,0,0xA41D,
0.179227208333333,0,0x0040,
0.179235125000000,0,0xA51D,
0.179250958333333,0,0x0000,
0.179258875000000,0,0xA61D,
0.179288166666667,0,0x0005,
0.179295833333333,0,0x2D1D,
0.179311833333333,0,0x92B2,
0.179319750000000,0,0xAD1D,
0.179335583333333,0,0xFFFE,
0.179343500000000,0,0xAE1D,
0.179359333333333,0,0x6ECF,
0.179367250000000,0,0xAF1D,
0.179383083333333,0,0xFFFF,
0.179391000000000,0,0xB01D,
0.179406833333333,0,0x830A,
0.179414708333333,0,0xB11D,
0.179444833333333,0,0x0006,
0.179452500000000,0,0x3B11,
0.179468666666667,0,0xB3E3,
0.179476583333333,0,0xBB1D,
0.179492416666667,0,0xB329,
0.179500333333333,0,0xBC1D,
0.179516166666667,0,0xB2BE,
0.179524083333333,0,0xBD1D,
0.179539916666667,0,0xB200,
0.179547833333333,0,0xBE1D,
0.179563666666667,0,0xB1FE,
0.179571583333333,0,0xBF1D,
0.179587416666667,0,0xB271,
0.179595333333333,0,0xC01D,
0.179625041666667,0,0x000A,
0.179632708333333,0,0x4115,
0.179648750000000,0,0xC094,
0.179656666666667,0,0xC11D,
0.179672500000000,0,0xC0C4,
0.179680416666667,0,0xC21D,
0.179696250000000,0,0xC083,
0.179704166666667,0,0xC31D,
0.179719958333333,0,0xC0C7,
0.179727916666667,0,0xC41D,
0.179743708333333,0,0xC0C7,
0.179751625000000,0,0xC51D,
0.179767458333333,0,0xDCFA,
0.179775416666667,0,0xC61D,
0.179791250000000,0,0x801C,
0.179799125000000,0,0xC71D,
0.179815000000000,0,0xA3D5,
0.179822916666667,0,0xC81D,
0.179838750000000,0,0x9E3B,
0.179846666666667,0,0xC91D,
0.179862500000000,0,0x9E39,
0.179870416666667,0,0xCA1D,
0.179902916666667,0,0x0004,
0.179910583333333,0,0x0329,
0.179926833333333,0,0x0A01,
0.179934708333333,0,0x8329,
0.179950416666667,0,0x0F00,
0.179958250000000,0,0x8429,
0.179973958333333,0,0x0000,
0.179981833333333,0,0x852D,
0.179997500000000,0,0xD73F,
0.180005375000000,0,0x8629,
0.180035458333333,0,0x0001,
0.180043166666667,0,0x1D2D,
0.180059375000000,0,0x0055,
0.180067208333333,0,0x9D2D,
0.180095708333333,0,0x0003,
0.180103375000000,0,0x2421,
0.180119708333333,0,0x004C,
0.180127583333333,0,0xA42D,
0.180143291666667,0,0x0040,
0.180151125000000,0,0xA52D,
0.180166833333333,0,0x8000,
0.180174666666667,0,0xA62D,
0.180204291666667,0,0x0005,
0.180212000000000,0,0x2D25,
0.180228208333333,0,0x93F0,
0.180236041666667,0,0xAD2D,
0.180251750000000,0,0xFFFE,
0.180259583333333,0,0xAE2D,
0.180275291666667,0,0xA2A8,
0.180283166666667,0,0xAF2D,
0.180298833333333,0,0x8000,
0.180306708333333,0,0xB02D,
0.180322416666667,0,0x8302,
0.180330291666667,0,0xB12D,
0.180361666666667,0,0x0006,
0.180369333333333,0,0x3B29,
0.180385708333333,0,0xE518,
0.180393583333333,0,0xBB2D,
0.180409291666667,0,0x8000,
0.180417125000000,0,0xBC2D,
0.180432833333333,0,0x8000,
0.180440708333333,0,0xBD2D,
0.180456416666667,0,0x8000,
0.180464250000000,0,0xBE2D,
0.180479958333333,0,0xE5BA,
0.180487833333333,0,0xBF2D,
0.180503541666667,0,0xE5D4,
0.180511375000000,0,0xC02D,
0.180541916666667,0,0x000A,
0.180549583333333,0,0x412D,
0.180565833333333,0,0xDB4E,
0.180573708333333,0,0xC12D,
0.180589416666667,0,0xDC50,
0.180597250000000,0,0xC22D,
0.180612958333333,0,0xDF3B,
0.180620833333333,0,0xC32D,
0.180636500000000,0,0xE11E,
0.180644375000000,0,0xC42D,
0.180660083333333,0,0xA97C,
0.180667916666667,0,0xC52D,
0.180683625000000,0,0xFF48,
0.180691500000000,0,0xC62D,
0.180707208333333,0,0xC012,
0.180715041666667,0,0xC72D,
0.180730750000000,0,0xA3B9,
0.180738583333333,0,0xC82D,
0.180754291666667,0,0x9E37,
0.180762166666667,0,0xC92D,
0.180777875000000,0,0x9E3D,
0.180785708333333,0,0xCA2D,
0.188408333333333,0,0xEC3F,
0.188416041666667,0,0x0603,
0.188443000000000,0,0x0004,
0.188450708333333,0,0x0315,
0.188466833333333,0,0x0A01,
0.188474750000000,0,0x8315,
0.188490583333333,0,0x0F00,
0.188498500000000,0,0x8415,
0.188514333333333,0,0x0000,
0.188522250000000,0,0x851E,
0.188538125000000,0,0xEF3F,
0.188546041666667,0,0x8615,
0.188576833333333,0,0x0004,
0.188584500000000,0,0x0319,
0.188600916666667,0,0x0A01,
0.188608875000000,0,0x8319,
0.188624708333333,0,0x0F00,
0.188632625000000,0,0x8419,
0.188648458333333,0,0x0000,
0.188656375000000,0,0x851E,
0.188672208333333,0,0xEF3F,
0.188680125000000,0,0x8619,
0.188710625000000,0,0x0004,
0.188718291666667,0,0x031D,
0.188734583333333,0,0x0A01,
0.188742500000000,0,0x831D,
0.188758333333333,0,0x0F00,
0.188766250000000,0,0x841D,
0.188782083333333,0,0x0000,
0.188790000000000,0,0x851E,
0.188805833333333,0,0xEF3F,
0.188813750000000,0,0x861D,
0.188844250000000,0,0x0004,
0.188851916666667,0,0x0311,
0.188868208333333,0,0x0A01,
0.188876125000000,0,0x8311,
0.188891958333333,0,0x0F00,
0.188899875000000,0,0x8411,
0.188915708333333,0,0x0000,
0.188923625000000,0,0x851E,
0.188939458333333,0,0xEF3F,
0.188947375000000,0,0x8611,
0.188977875000000,0,0x0004,
0.188985583333333,0,0x0315,
0.189001791666667,0,0x0A01,
0.189009708333333,0,0x8315,
0.189025541666667,0,0x0F00,
0.189033458333333,0,0x8415,
0.189049291666667,0,0x0000,
0.189057208333333,0,0x851E,
0.189073041666667,0,0xE73F,
0.189080958333333,0,0x8615,
0.189111625000000,0,0x0001,
0.189119333333333,0,0x1D19,
0.189135375000000,0,0x1551,
0.189143291666667,0,0x9D19,
0.189171166666667,0,0x0003,
0.189178833333333,0,0x241D,
0.189195250000000,0,0x0048,
0.189203125000000,0,0xA41E,
0.189219000000000,0,0x0040,
0.189226875000000,0,0xA51E,
0.189242750000000,0,0x0000,
0.189250666666667,0,0xA61E,
0.189279250000000,0,0x0005,
0.189286916666667,0,0x2D11,
0.189303083333333,0,0x93BC,
0.189311000000000,0,0xAD1E,
0.189326833333333,0,0xFFFE,
0.189334750000000,0,0xAE1E,
0.189350583333333,0,0x6C31,
0.189358500000000,0,0xAF1E,
0.189374333333333,0,0x8000,
0.189382250000000,0,0xB01E,
0.189398083333333,0,0x8304,
0.189406000000000,0,0xB11E,
0.189436791666667,0,0x0006,
0.189444458333333,0,0x3B15,
0.189460416666667,0,0xB3DF,
0.189468333333333,0,0xBB1E,
0.189484166666667,0,0xB329,
0.189492083333333,0,0xBC1E,
0.189507916666667,0,0xB2BD,
0.189515833333333,0,0xBD1E,
0.189531666666667,0,0xB202,
0.189539583333333,0,0xBE1E,
0.189555416666667,0,0xB201,
0.189563333333333,0,0xBF1E,
0.189579166666667,0,0xB274,
0.189587083333333,0,0xC01E,
0.189617458333333,0,0x000A,
0.189625166666667,0,0x4119,
0.189641500000000,0,0xC096,
0.189649416666667,0,0xC11E,
0.189665291666667,0,0xC0C8,
0.189673166666667,0,0xC21E,
0.189689041666667,0,0xC087,
0.189696958333333,0,0xC31E,
0.189712791666667,0,0xC0C5,
0.189720666666667,0,0xC41E,
0.189736541666667,0,0xC0C6,
0.189744458333333,0,0xC51E,
0.189760291666667,0,0xDCFE,
0.189768208333333,0,0xC61E,
0.189784041666667,0,0x801E,
0.189791958333333,0,0xC71E,
0.189807791666667,0,0xA3D9,
0.189815708333333,0,0xC81E,
0.189831541666667,0,0x9E3B,
0.189839458333333,0,0xC91E,
0.189855291666667,0,0x9E3A,
0.189863208333333,0,0xCA1E,
0.189895333333333,0,0x0004,
0.189903000000000,0,0x032D,
0.189919333333333,0,0x0A01,
0.189927208333333,0,0x832D,
0.189942916666667,0,0x0F00,
0.189950750000000,0,0x842D,
0.189966458333333,0,0x0000,
0.189974333333333,0,0x852E,
0.189990041666667,0,0xE73F,
0.189997875000000,0,0x862D,
0.190027791666667,0,0x0001,
0.190035500000000,0,0x1D21,
0.190051875000000,0,0x0055,
0.190059750000000,0,0x9D21,
0.190088000000000,0,0x0003,
0.190095666666667,0,0x2425,
0.190111750000000,0,0x004C,
0.190119625000000,0,0xA42E,
0.190135333333333,0,0x0040,
0.190143208333333,0,0xA52E,
0.190158916666667,0,0x8000,
0.190166750000000,0,0xA62E,
0.190195625000000,0,0x0005,
0.190203291666667,0,0x2D29,
0.190219291666667,0,0x94FC,
0.190227125000000,0,0xAD2E,
0.190242833333333,0,0xFFFE,
0.190250708333333,0,0xAE2E,
0.190266416666667,0,0xA05F,
0.190274291666667,0,0xAF2E,
0.190290000000000,0,0x8000,
0.190297833333333,0,0xB02E,
0.190313541666667,0,0x830A,
0.190321416666667,0,0xB12E,
0.190352083333333,0,0x0006,
0.190359750000000,0,0x3B2D,
0.190375916666667,0,0xE519,
0.190383750000000,0,0xBB2E,
0.190399458333333,0,0x8000,
0.190407291666667,0,0xBC2E,
0.190423000000000,0,0x8001,
0.190430875000000,0,0xBD2E,
0.190446583333333,0,0x8001,
0.190454416666667,0,0xBE2E,
0.190470125000000,0,0xE5BA,
0.190478000000000,0,0xBF2E,
0.190493708333333,0,0xE5D3,
0.190501541666667,0,0xC02E,
0.190531416666667,0,0x000A,
0.190539125000000,0,0x4121,
0.190555083333333,0,0xDB4E,
0.190562958333333,0,0xC12E,
0.190578625000000,0,0xDC55,
0.190586500000000,0,0xC22E,
0.190602208333333,0,0xDF3B,
0.190610041666667,0,0xC32E,
0.190625750000000,0,0xE121,
0.190633625000000,0,0xC42E,
0.190649333333333,0,0xA97E,
0.190657208333333,0,0xC52E,
0.190672916666667,0,0xFF4B,
0.190680750000000,0,0xC62E,
0.190696458333333,0,0xC015,
0.190704333333333,0,0xC72E,
0.190720041666667,0,0xA3BA,
0.190727916666667,0,0xC82E,
0.190743625000000,0,0x9E39,
0.190751458333333,0,0xC92E,
0.190767166666667,0,0x9E3E,
0.190775041666667,0,0xCA2E,
0.198419041666667,0,0xFC3F,
0.198426708333333,0,0x0607,
0.198454250000000,0,0x0004,
0.198461916666667,0,0x0319,
0.198477916666667,0,0x0A01,
0.198485833333333,0,0x8319,
0.198501666666667,0,0x0F00,
0.198509583333333,0,0x8419,
0.198525458333333,0,0x0000,
0.198533375000000,0,0x851F,
0.198549208333333,0,0xFF3F,
0.198557125000000,0,0x8619,
0.198587458333333,0,0x0004,
0.198595125000000,0,0x031D,
0.198611583333333,0,0x0A01,
0.198619500000000,0,0x831D,
0.198635333333333,0,0x0F00,
0.198643208333333,0,0x841D,
0.198659083333333,0,0x0000,
0.198667000000000,0,0x851F,
0.198682833333333,0,0xFF3F,
0.198690750000000,0,0x861D,
0.198721333333333,0,0x0004,
0.198729000000000,0,0x0311,
0.198745208333333,0,0x0A01,
0.198753125000000,0,0x8311,
0.198768958333333,0,0x0F00,
0.198776916666667,0,0x8411,
0.198792750000000,0,0x0000,
0.198800666666667,0,0x851F,
0.198816500000000,0,0xFF3F,
0.198824416666667,0,0x8611,
0.198854166666667,0,0x0004,
0.198861833333333,0,0x0315,
0.198877875000000,0,0x0A01,
0.198885791666667,0,0x8315,
0.198901625000000,0,0x0F00,
0.198909541666667,0,0x8415,
0.198925375000000,0,0x0000,
0.198933291666667,0,0x851F,
0.198949166666667,0,0xFF3F,
0.198957041666667,0,0x8615,
0.198987458333333,0,0x0004,
0.198995125000000,0,0x0319,
0.199011458333333,0,0x0A01,
0.199019416666667,0,0x8319,
0.199035250000000,0,0x0F00,
0.199043166666667,0,0x8419,
0.199058958333333,0,0x0000,
0.199066916666667,0,0x851F,
0.199082750000000,0,0xF73F,
0.199090625000000,0,0x8619,
0.199120875000000,0,0x0001,
0.199128541666667,0,0x1D1D,
0.199144541666667,0,0x1551,
0.199152458333333,0,0x9D1D,
0.199180750000000,0,0x0003,
0.199188458333333,0,0x2411,
0.199204416666667,0,0x0048,
0.199212375000000,0,0xA41F,
0.199228208333333,0,0x0040,
0.199236083333333,0,0xA51F,
0.199251916666667,0,0x0000,
0.199259833333333,0,0xA61F,
0.199288625000000,0,0x0005,
0.199296333333333,0,0x2D15,
0.199312291666667,0,0x94C6,
0.199320208333333,0,0xAD1F,
0.199336041666667,0,0xFFFE,
0.199343958333333,0,0xAE1F,
0.199359791666667,0,0x68E3,
0.199367708333333,0,0xAF1F,
0.199383541666667,0,0xFFFF,
0.199391458333333,0,0xB01F,
0.199407291666667,0,0x830E,
0.199415208333333,0,0xB11F,
0.199445750000000,0,0x0006,
0.199453416666667,0,0x3B19,
0.199469666666667,0,0xB3E1,
0.199477583333333,0,0xBB1F,
0.199493416666667,0,0xB32E,
0.199501333333333,0,0xBC1F,
0.199517166666667,0,0xB2B9,
0.199525083333333,0,0xBD1F,
0.199540958333333,0,0xB1FC,
0.199548875000000,0,0xBE1F,
0.199564666666667,0,0xB1FF,
0.199572583333333,0,0xBF1F,
0.199588416666667,0,0xB271,
0.199596375000000,0,0xC01F,
0.199625791666667,0,0x000A,
0.199633500000000,0,0x411D,
0.199649791666667,0,0xC094,
0.199657708333333,0,0xC11F,
0.199673541666667,0,0xC0C9,
0.199681458333333,0,0xC21F,
0.199697291666667,0,0xC087,
0.199705208333333,0,0xC31F,
0.199721000000000,0,0xC0C9,
0.199728958333333,0,0xC41F,
0.199744750000000,0,0xC0C8,
0.199752666666667,0,0xC51F,
0.199768500000000,0,0xDCFA,
0.199776416666667,0,0xC61F,
0.199792250000000,0,0x801F,
0.199800166666667,0,0xC71F,
0.199816000000000,0,0xA3D9,
0.199823916666667,0,0xC81F,
0.199839791666667,0,0x9E3B,
0.199847708333333,0,0xC91F,
0.199863500000000,0,0x9E3A,
0.199871416666667,0,0xCA1F,
0.199904166666667,0,0x0004,
0.199911833333333,0,0x0321,
0.199928250000000,0,0x0A01,
0.199936083333333,0,0x8321,
0.199951791666667,0,0x0F00,
0.199959666666667,0,0x8421,
0.199975375000000,0,0x0000,
0.199983208333333,0,0x852F,
0.199998916666667,0,0xF73F,
0.200006791666667,0,0x8621,
0.200036333333333,0,0x0001,
0.200044000000000,0,0x1D25,
0.200060291666667,0,0x0055,
0.200068166666667,0,0x9D25,
0.200096541666667,0,0x0003,
0.200104208333333,0,0x2429,
0.200120208333333,0,0x004C,
0.200128041666667,0,0xA42F,
0.200143750000000,0,0x0040,
0.200151625000000,0,0xA52F,
0.200167333333333,0,0x8000,
0.200175166666667,0,0xA62F,
0.200204458333333,0,0x0005,
0.200212125000000,0,0x2D2D,
0.200228166666667,0,0x9608,
0.200236041666667,0,0xAD2F,
0.200251750000000,0,0xFFFE,
0.200259583333333,0,0xAE2F,
0.200275333333333,0,0x9E77,
0.200283166666667,0,0xAF2F,
0.200298875000000,0,0xFFFF,
0.200306750000000,0,0xB02F,
0.200322458333333,0,0x830D,
0.200330291666667,0,0xB12F,
0.200361291666667,0,0x0006,
0.200369000000000,0,0x3B21,
0.200385291666667,0,0xE51A,
0.200393125000000,0,0xBB2F,
0.200408875000000,0,0x8000,
0.200416708333333,0,0xBC2F,
0.200432416666667,0,0x8005,
0.200440291666667,0,0xBD2F,
0.200456000000000,0,0x8003,
0.200463875000000,0,0xBE2F,
0.200479541666667,0,0xE5B5,
0.200487416666667,0,0xBF2F,
0.200503125000000,0,0xE5CC,
0.200510958333333,0,0xC02F,
0.200541250000000,0,0x000A,
0.200548958333333,0,0x4125,
0.200565000000000,0,0xDB4B,
0.200572833333333,0,0xC12F,
0.200588541666667,0,0xDC53,
0.200596416666667,0,0xC22F,
0.200612125000000,0,0xDF37,
0.200619958333333,0,0xC32F,
0.200635666666667,0,0xE11B,
0.200643541666667,0,0xC42F,
0.200659250000000,0,0xA97C,
0.200667083333333,0,0xC52F,
0.200682791666667,0,0xFF46,
0.200690625000000,0,0xC62F,
0.200706375000000,0,0xC015,
0.200714208333333,0,0xC72F,
0.200729916666667,0,0xA3BB,
0.200737750000000,0,0xC82F,
0.200753500000000,0,0x9E37,
0.200761333333333,0,0xC92F,
0.200777041666667,0,0x9E40,
0.200784916666667,0,0xCA2F,
0.208409750000000,0,0x0C3F,
0.208417458333333,0,0x060B,
0.208444291666667,0,0x0004,
0.208452000000000,0,0x031D,
0.208468291666667,0,0x0A01,
0.208476208333333,0,0x831D,
0.208492041666667,0,0x0F00,
0.208499958333333,0,0x841D,
0.208515791666667,0,0x0000,
0.208523708333333,0,0x8510,
0.208539583333333,0,0x0F3F,
0.208547458333333,0,0x861D,
0.208579125000000,0,0x0004,
0.208586791666667,0,0x0311,
0.208602916666667,0,0x0A01,
0.208610833333333,0,0x8311,
0.208626666666667,0,0x0F00,
0.208634583333333,0,0x8411,
0.208650416666667,0,0x0000,
0.208658333333333,0,0x8510,
0.208674208333333,0,0x0F3F,
0.208682125000000,0,0x8611,
0.208712000000000,0,0x0004,
0.208719666666667,0,0x0315,
0.208736041666667,0,0x0A01,
0.208744000000000,0,0x8315,
0.208759833333333,0,0x0F00,
0.208767750000000,0,0x8415,
0.208783583333333,0,0x0000,
0.208791500000000,0,0x8510,
0.208807333333333,0,0x0F3F,
0.208815250000000,0,0x8615,
0.208846208333333,0,0x0004,
0.208853916666667,0,0x0319,
0.208870166666667,0,0x0A01,
0.208878083333333,0,0x8319,
0.208893916666667,0,0x0F00,
0.208901833333333,0,0x8419,
0.208917666666667,0,0x0000,
0.208925583333333,0,0x8510,
0.208941416666667,0,0x0F3F,
0.208949333333333,0,0x8619,
0.208981041666667,0,0x0004,
0.208988750000000,0,0x031D,
0.209004750000000,0,0x0A01,
0.209012666666667,0,0x831D,
0.209028500000000,0,0x0F00,
0.209036458333333,0,0x841D,
0.209052291666667,0,0x0000,
0.209060208333333,0,0x8510,
0.209076041666667,0,0x073F,
0.209083958333333,0,0x861D,
0.209115083333333,0,0x0001,
0.209122791666667,0,0x1D11,
0.209138875000000,0,0x1551,
0.209146791666667,0,0x9D11,
0.209174875000000,0,0x0003,
0.209182583333333,0,0x2415,
0.209198750000000,0,0x0048,
0.209206666666667,0,0xA410,
0.209222500000000,0,0x0040,
0.209230458333333,0,0xA510,
0.209246291666667,0,0x0000,
0.209254208333333,0,0xA610,
0.209283375000000,0,0x0005,
0.209291041666667,0,0x2D19,
0.209307125000000,0,0x95D0,
0.209315083333333,0,0xAD10,
0.209330916666667,0,0xFFFE,
0.209338833333333,0,0xAE10,
0.209354666666667,0,0x6668,
0.209362541666667,0,0xAF10,
0.209378416666667,0,0x8000,
0.209386291666667,0,0xB010,
0.209402166666667,0,0x8300,
0.209410083333333,0,0xB110,
0.209440250000000,0,0x0006,
0.209447916666667,0,0x3B1D,
0.209464000000000,0,0xB3DF,
0.209471916666667,0,0xBB10,
0.209487750000000,0,0xB32A,
0.209495666666667,0,0xBC10,
0.209511500000000,0,0xB2BD,
0.209519416666667,0,0xBD10,
0.209535250000000,0,0xB200,
0.209543166666667,0,0xBE10,
0.209559000000000,0,0xB1FE,
0.209566916666667,0,0xBF10,
0.209582750000000,0,0xB270,
0.209590666666667,0,0xC010,
0.209620666666667,0,0x000A,
0.209628333333333,0,0x4111,
0.209644625000000,0,0xC094,
0.209652541666667,0,0xC110,
0.209668375000000,0,0xC0C5,
0.209676291666667,0,0xC210,
0.209692125000000,0,0xC07E,
0.209700041666667,0,0xC310,
0.209715875000000,0,0xC0C3,
0.209723791666667,0,0xC410,
0.209739625000000,0,0xC0C5,
0.209747541666667,0,0xC510,
0.209763375000000,0,0xDCF9,
0.209771250000000,0,0xC610,
0.209787083333333,0,0x801B,
0.209795041666667,0,0xC710,
0.209810875000000,0,0xA3D9,
0.209818791666667,0,0xC810,
0.209834583333333,0,0x9E38,
0.209842541666667,0,0xC910,
0.209858375000000,0,0x9E3B,
0.209866291666667,0,0xCA10,
0.209899291666667,0,0x0004,
0.209906958333333,0,0x0325,
0.209923291666667,0,0x0A01,
0.209931125000000,0,0x8325,
0.209946875000000,0,0x0F00,
0.209954708333333,0,0x8425,
0.209970416666667,0,0x0000,
0.209978250000000,0,0x8520,
0.209994000000000,0,0x073F,
0.210001833333333,0,0x8625,
0.210032000000000,0,0x0001,
0.210039666666667,0,0x1D29,
0.210055833333333,0,0x0055,
0.210063708333333,0,0x9D29,
0.210092208333333,0,0x0003,
0.210099916666667,0,0x242D,
0.210116208333333,0,0x004C,
0.210124083333333,0,0xA420,
0.210139791666667,0,0x0040,
0.210147625000000,0,0xA520,
0.210163375000000,0,0x8000,
0.210171208333333,0,0xA620,
0.210199916666667,0,0x0005,
0.210207625000000,0,0x2D21,
0.210223750000000,0,0x9714,
0.210231583333333,0,0xAD20,
0.210247333333333,0,0xFFFE,
0.210255166666667,0,0xAE20,
0.210270875000000,0,0x9C69,
0.210278708333333,0,0xAF20,
0.210294416666667,0,0x8000,
0.210302291666667,0,0xB020,
0.210318000000000,0,0x8305,
0.210325875000000,0,0xB120,
0.210356750000000,0,0x0006,
0.210364416666667,0,0x3B25,
0.210380875000000,0,0xE515,
0.210388708333333,0,0xBB20,
0.210404416666667,0,0x8000,
0.210412291666667,0,0xBC20,
0.210428000000000,0,0x8000,
0.210435833333333,0,0xBD20,
0.210451541666667,0,0x8000,
0.210459416666667,0,0xBE20,
0.210475125000000,0,0xE5B9,
0.210482958333333,0,0xBF20,
0.210498666666667,0,0xE5D0,
0.210506500000000,0,0xC020,
0.210537625000000,0,0x000A,
0.210545333333333,0,0x4129,
0.210561500000000,0,0xDB4C,
0.210569375000000,0,0xC120,
0.210585083333333,0,0xDC4F,
0.210592916666667,0,0xC220,
0.210608625000000,0,0xDF32,
0.210616500000000,0,0xC320,
0.210632208333333,0,0xE11F,
0.210640041666667,0,0xC420,
0.210655750000000,0,0xA979,
0.210663625000000,0,0xC520,
0.210679333333333,0,0xFF46,
0.210687166666667,0,0xC620,
0.210702875000000,0,0xC011,
0.210710750000000,0,0xC720,
0.210726458333333,0,0xA3BB,
0.210734291666667,0,0xC820,
0.210750041666667,0,0x9E37,
0.210757875000000,0,0xC920,
0.210773625000000,0,0x9E3C,
0.210781458333333,0,0xCA20,
0.218418166666667,0,0x1C3F,
0.218425833333333,0,0x060F,
0.218453291666667,0,0x0004,
0.218461000000000,0,0x0311,
0.218477000000000,0,0x0A01,
0.218484916666667,0,0x8311,
0.218500750000000,0,0x0F00,
0.218508666666667,0,0x8411,
0.218524541666667,0,0x0000,
0.218532458333333,0,0x8511,
0.218548291666667,0,0x1F3F,
0.218556208333333,0,0x8611,
0.218587083333333,0,0x0004,
0.218594750000000,0,0x0315,
0.218611125000000,0,0x0A01,
0.218619041666667,0,0x8315,
0.218634875000000,0,0x0F00,
0.218642791666667,0,0x8415,
0.218658625000000,0,0x0000,
0.218666541666667,0,0x8511,
0.218682375000000,0,0x1F3F,
0.218690291666667,0,0x8615,
0.218720625000000,0,0x0004,
0.218728291666667,0,0x0319,
0.218744750000000,0,0x0A01,
0.218752666666667,0,0x8319,
0.218768500000000,0,0x0F00,
0.218776416666667,0,0x8419,
0.218792250000000,0,0x0000,
0.218800166666667,0,0x8511,
0.218816000000000,0,0x1F3F,
0.218823916666667,0,0x8619,
0.218854416666667,0,0x0004,
0.218862125000000,0,0x031D,
0.218878333333333,0,0x0A01,
0.218886250000000,0,0x831D,
0.218902125000000,0,0x0F00,
0.218910041666667,0,0x841D,
0.218925875000000,0,0x0000,
0.218933791666667,0,0x8511,
0.218949625000000,0,0x1F3F,
0.218957541666667,0,0x861D,
0.218987666666667,0,0x0004,
0.218995333333333,0,0x0311,
0.219011458333333,0,0x0A01,
0.219019375000000,0,0x8311,
0.219035208333333,0,0x0F00,
0.219043125000000,0,0x8411,
0.219058958333333,0,0x0000,
0.219066875000000,0,0x8511,
0.219082708333333,0,0x173F,
0.219090625000000,0,0x8611,
0.219120875000000,0,0x0001,
0.219128583333333,0,0x1D15,
0.219144541666667,0,0x1551,
0.219152458333333,0,0x9D15,
0.219180250000000,0,0x0003,
0.219187916666667,0,0x2419,
0.219203916666667,0,0x0048,
0.219211875000000,0,0xA411,
0.219227708333333,0,0x0040,
0.219235625000000,0,0xA511,
0.219251458333333,0,0x0000,
0.219259333333333,0,0xA611,
0.219288208333333,0,0x0005,
0.219295916666667,0,0x2D1D,
0.219312291666667,0,0x96DA,
0.219320208333333,0,0xAD11,
0.219336041666667,0,0xFFFE,
0.219343958333333,0,0xAE11,
0.219359791666667,0,0x6392,
0.219367708333333,0,0xAF11,
0.219383541666667,0,0xFFFF,
0.219391458333333,0,0xB011,
0.219407291666667,0,0x830D,
0.219415208333333,0,0xB111,
0.219445208333333,0,0x0006,
0.219452916666667,0,0x3B11,
0.219469125000000,0,0xB3DC,
0.219477083333333,0,0xBB11,
0.219492875000000,0,0xB328,
0.219500791666667,0,0xBC11,
0.219516625000000,0,0xB2BC,
0.219524541666667,0,0xBD11,
0.219540416666667,0,0xB1FF,
0.219548333333333,0,0xBE11,
0.219564166666667,0,0xB200,
0.219572083333333,0,0xBF11,
0.219587916666667,0,0xB272,
0.219595833333333,0,0xC011,
0.219625916666667,0,0x000A,
0.219633583333333,0,0x4115,
0.219649750000000,0,0xC095,
0.219657666666667,0,0xC111,
0.219673500000000,0,0xC0C4,
0.219681416666667,0,0xC211,
0.219697291666667,0,0xC083,
0.219705166666667,0,0xC311,
0.219721000000000,0,0xC0C7,
0.219728916666667,0,0xC411,
0.219744750000000,0,0xC0C8,
0.219752666666667,0,0xC511,
0.219768500000000,0,0xDCFA,
0.219776416666667,0,0xC611,
0.219792291666667,0,0x801E,
0.219800166666667,0,0xC711,
0.219816041666667,0,0xA3D9,
0.219823958333333,0,0xC811,
0.219839750000000,0,0x9E3B,
0.219847666666667,0,0xC911,
0.219863541666667,0,0x9E42,
0.219871458333333,0,0xCA11,
0.219903208333333,0,0x0004,
0.219910875000000,0,0x0329,
0.219926875000000,0,0x0A01,
0.219934750000000,0,0x8329,
0.219950458333333,0,0x0F00,
0.219958333333333,0,0x8429,
0.219974041666667,0,0x0000,
0.219981875000000,0,0x8521,
0.219997583333333,0,0x173F,
0.220005416666667,0,0x8629,
0.220035416666667,0,0x0001,
0.220043125000000,0,0x1D2D,
0.220059416666667,0,0x0055,
0.220067291666667,0,0x9D2D,
0.220095958333333,0,0x0003,
0.220103666666667,0,0x2421,
0.220119833333333,0,0x004C,
0.220127666666667,0,0xA421,
0.220143416666667,0,0x0040,
0.220151250000000,0,0xA521,
0.220166958333333,0,0x8000,
0.220174791666667,0,0xA621,
0.220204291666667,0,0x0005,
0.220211958333333,0,0x2D25,
0.220228333333333,0,0x9820,
0.220236166666667,0,0xAD21,
0.220251875000000,0,0xFFFE,
0.220259750000000,0,0xAE21,
0.220275416666667,0,0x9A47,
0.220283291666667,0,0xAF21,
0.220299000000000,0,0xFFFF,
0.220306875000000,0,0xB021,
0.220322583333333,0,0x8309,
0.220330416666667,0,0xB121,
0.220361708333333,0,0x0006,
0.220369375000000,0,0x3B29,
0.220385416666667,0,0xE516,
0.220393291666667,0,0xBB21,
0.220409000000000,0,0x8000,
0.220416875000000,0,0xBC21,
0.220432583333333,0,0x8000,
0.220440416666667,0,0xBD21,
0.220456125000000,0,0x8000,
0.220464000000000,0,0xBE21,
0.220479708333333,0,0xE5B9,
0.220487541666667,0,0xBF21,
0.220503250000000,0,0xE5D1,
0.220511125000000,0,0xC021,
0.220541958333333,0,0x000A,
0.220549666666667,0,0x412D,
0.220565583333333,0,0xDB50,
0.220573458333333,0,0xC121,
0.220589166666667,0,0xDC53,
0.220597000000000,0,0xC221,
0.220612708333333,0,0xDF38,
0.220620583333333,0,0xC321,
0.220636291666667,0,0xE121,
0.220644125000000,0,0xC421,
0.220659833333333,0,0xA97D,
0.220667708333333,0,0xC521,
0.220683416666667,0,0xFF4C,
0.220691250000000,0,0xC621,
0.220706958333333,0,0xC014,
0.220714833333333,0,0xC721,
0.220730541666667,0,0xA3B9,
0.220738375000000,0,0xC821,
0.220754125000000,0,0x9E38,
0.220761958333333,0,0xC921,
0.220777666666667,0,0x9E41,
0.220785500000000,0,0xCA21,
0.228387375000000,0,0x2C3F,
0.228395041666667,0,0x0603,
0.228422666666667,0,0x0004,
0.228430333333333,0,0x0315,
0.228446291666667,0,0x0A01,
0.228454208333333,0,0x8315,
0.228470041666667,0,0x0F00,
0.228477958333333,0,0x8415,
0.228493791666667,0,0x0000,
0.228501750000000,0,0x8512,
0.228517583333333,0,0x2F3F,
0.228525500000000,0,0x8615,
0.228556291666667,0,0x0004,
0.228563958333333,0,0x0319,
0.228580416666667,0,0x0A01,
0.228588333333333,0,0x8319,
0.228604166666667,0,0x0F00,
0.228612083333333,0,0x8419,
0.228627916666667,0,0x0000,
0.228635875000000,0,0x8512,
0.228651708333333,0,0x2F3F,
0.228659625000000,0,0x8619,
0.228690000000000,0,0x0004,
0.228697708333333,0,0x031D,
0.228714041666667,0,0x0A01,
0.228722000000000,0,0x831D,
0.228737833333333,0,0x0F00,
0.228745750000000,0,0x841D,
0.228761583333333,0,0x0000,
0.228769500000000,0,0x8512,
0.228785333333333,0,0x2F3F,
0.228793250000000,0,0x861D,
0.228824708333333,0,0x0004,
0.228832416666667,0,0x0311,
0.228848666666667,0,0x0A01,
0.228856583333333,0,0x8311,
0.228872416666667,0,0x0F00,
0.228880333333333,0,0x8411,
0.228896166666667,0,0x0000,
0.228904083333333,0,0x8512,
0.228919916666667,0,0x2F3F,
0.228927833333333,0,0x8611,
0.228958916666667,0,0x0004,
0.228966625000000,0,0x0315,
0.228982791666667,0,0x0A01,
0.228990708333333,0,0x8315,
0.229006541666667,0,0x0F00,
0.229014458333333,0,0x8415,
0.229030291666667,0,0x0000,
0.229038208333333,0,0x8512,
0.229054041666667,0,0x273F,
0.229061958333333,0,0x8615,
0.229092666666667,0,0x0001,
0.229100333333333,0,0x1D19,
0.229116333333333,0,0x1551,
0.229124291666667,0,0x9D19,
0.229152416666667,0,0x0003,
0.229160083333333,0,0x241D,
0.229176208333333,0,0x0048,
0.229184125000000,0,0xA412,
0.229199958333333,0,0x0040,
0.229207875000000,0,0xA512,
0.229223708333333,0,0x0000,
0.229231625000000,0,0xA612,
0.229260750000000,0,0x0005,
0.229268458333333,0,0x2D11,
0.229284583333333,0,0x97E3,
0.229292458333333,0,0xAD12,
0.229308291666667,0,0xFFFE,
0.229316208333333,0,0xAE12,
0.229332041666667,0,0x6069,
0.229339958333333,0,0xAF12,
0.229355791666667,0,0xFFFF,
0.229363708333333,0,0xB012,
0.229379541666667,0,0x830D,
0.229387458333333,0,0xB112,
0.229417416666667,0,0x0006,
0.229425083333333,0,0x3B15,
0.229441333333333,0,0xB3DD,
0.229449291666667,0,0xBB12,
0.229465125000000,0,0xB32D,
0.229473000000000,0,0xBC12,
0.229488875000000,0,0xB2BE,
0.229496791666667,0,0xBD12,
0.229512625000000,0,0xB200,
0.229520541666667,0,0xBE12,
0.229536375000000,0,0xB1FF,
0.229544291666667,0,0xBF12,
0.229560125000000,0,0xB273,
0.229568041666667,0,0xC012,
0.229598500000000,0,0x000A,
0.229606208333333,0,0x4119,
0.229622458333333,0,0xC092,
0.229630375000000,0,0xC112,
0.229646208333333,0,0xC0C5,
0.229654125000000,0,0xC212,
0.229669958333333,0,0xC082,
0.229677875000000,0,0xC312,
0.229693708333333,0,0xC0C2,
0.229701583333333,0,0xC412,
0.229717458333333,0,0xC0C3,
0.229725333333333,0,0xC512,
0.229741208333333,0,0xDCF9,
0.229749083333333,0,0xC612,
0.229764916666667,0,0x8018,
0.229772875000000,0,0xC712,
0.229788708333333,0,0xA3D7,
0.229796625000000,0,0xC812,
0.229812416666667,0,0x9E36,
0.229820375000000,0,0xC912,
0.229836208333333,0,0x9E40,
0.229844125000000,0,0xCA12,
0.229876875000000,0,0x0004,
0.229884583333333,0,0x032D,
0.229900875000000,0,0x0A01,
0.229908708333333,0,0x832D,
0.229924416666667,0,0x0F00,
0.229932291666667,0,0x842D,
0.229948000000000,0,0x0000,
0.229955875000000,0,0x8522,
0.229971541666667,0,0x273F,
0.229979416666667,0,0x862D,
0.230009791666667,0,0x0001,
0.230017458333333,0,0x1D21,
0.230033875000000,0,0x0055,
0.230041750000000,0,0x9D21,
0.230069791666667,0,0x0003,
0.230077458333333,0,0x2425,
0.230093791666667,0,0x004C,
0.230101666666667,0,0xA422,
0.230117333333333,0,0x0040,
0.230125208333333,0,0xA522,
0.230140916666667,0,0x8000,
0.230148791666667,0,0xA622,
0.230178250000000,0,0x0005,
0.230185916666667,0,0x2D29,
0.230202250000000,0,0x992C,
0.230210125000000,0,0xAD22,
0.230225833333333,0,0xFFFE,
0.230233666666667,0,0xAE22,
0.230249416666667,0,0x9814,
0.230257250000000,0,0xAF22,
0.230272958333333,0,0xFFFF,
0.230280791666667,0,0xB022,
0.230296541666667,0,0x830A,
0.230304375000000,0,0xB122,
0.230334625000000,0,0x0006,
0.230342291666667,0,0x3B2D,
0.230358375000000,0,0xE51A,
0.230366250000000,0,0xBB22,
0.230381958333333,0,0x8001,
0.230389791666667,0,0xBC22,
0.230405500000000,0,0x8003,
0.230413375000000,0,0xBD22,
0.230429083333333,0,0x8002,
0.230436916666667,0,0xBE22,
0.230452625000000,0,0xE5BE,
0.230460500000000,0,0xBF22,
0.230476208333333,0,0xE5D7,
0.230484041666667,0,0xC022,
0.230514666666667,0,0x000A,
0.230522333333333,0,0x4121,
0.230538541666667,0,0xDB4C,
0.230546375000000,0,0xC122,
0.230562083333333,0,0xDC56,
0.230569958333333,0,0xC222,
0.230585666666667,0,0xDF3B,
0.230593500000000,0,0xC322,
0.230609208333333,0,0xE120,
0.230617083333333,0,0xC422,
0.230632750000000,0,0xA97E,
0.230640625000000,0,0xC522,
0.230656333333333,0,0xFF4B,
0.230664166666667,0,0xC622,
0.230679875000000,0,0xC012,
0.230687750000000,0,0xC722,
0.230703458333333,0,0xA3BA,
0.230711333333333,0,0xC822,
0.230727000000000,0,0x9E39,
0.230734875000000,0,0xC922,
0.230750583333333,0,0x9E3B,
0.230758458333333,0,0xCA22,
0.238428166666667,0,0x3C3F,
0.238435875000000,0,0x0607,
0.238463416666667,0,0x0004,
0.238471125000000,0,0x0319,
0.238487250000000,0,0x0A01,
0.238495166666667,0,0x8319,
0.238511000000000,0,0x0F00,
0.238518916666667,0,0x8419,
0.238534791666667,0,0x0000,
0.238542708333333,0,0x8513,
0.238558541666667,0,0x3F3F,
0.238566458333333,0,0x8619,
0.238597333333333,0,0x0004,
0.238605000000000,0,0x031D,
0.238621375000000,0,0x0A01,
0.238629291666667,0,0x831D,
0.238645125000000,0,0x0F00,
0.238653041666667,0,0x841D,
0.238668875000000,0,0x0000,
0.238676791666667,0,0x8513,
0.238692625000000,0,0x3F3F,
0.238700583333333,0,0x861D,
0.238731250000000,0,0x0004,
0.238738958333333,0,0x0311,
0.238755000000000,0,0x0A01,
0.238762958333333,0,0x8311,
0.238778791666667,0,0x0F00,
0.238786708333333,0,0x8411,
0.238802541666667,0,0x0000,
0.238810458333333,0,0x8513,
0.238826291666667,0,0x3F3F,
0.238834208333333,0,0x8611,
0.238864875000000,0,0x0004,
0.238872541666667,0,0x0315,
0.238888666666667,0,0x0A01,
0.238896583333333,0,0x8315,
0.238912416666667,0,0x0F00,
0.238920333333333,0,0x8415,
0.238936166666667,0,0x0000,
0.238944041666667,0,0x8513,
0.238959916666667,0,0x3F3F,
0.238967791666667,0,0x8615,
0.238998250000000,0,0x0004,
0.239005916666667,0,0x0319,
0.239022250000000,0,0x0A01,
0.239030166666667,0,0x8319,
0.239046000000000,0,0x0F00,
0.239053916666667,0,0x8419,
0.239069750000000,0,0x0000,
0.239077666666667,0,0x8513,
0.239093500000000,0,0x373F,
0.239101458333333,0,0x8619,
0.239131750000000,0,0x0001,
0.239139416666667,0,0x1D1D,
0.239155875000000,0,0x1551,
0.239163791666667,0,0x9D1D,
0.239191750000000,0,0x0003,
0.239199416666667,0,0x2411,
0.239215750000000,0,0x0048,
0.239223666666667,0,0xA413,
0.239239500000000,0,0x0040,
0.239247416666667,0,0xA513,
0.239263250000000,0,0x0000,
0.239271166666667,0,0xA613,
0.239299833333333,0,0x0005,
0.239307541666667,0,0x2D15,
0.239323583333333,0,0x98EE,
0.239331500000000,0,0xAD13,
0.239347333333333,0,0xFFFE,
0.239355250000000,0,0xAE13,
0.239371125000000,0,0x5E27,
0.239379041666667,0,0xAF13,
0.239394833333333,0,0x8000,
0.239402791666667,0,0xB013,
0.239418583333333,0,0x8307,
0.239426500000000,0,0xB113,
0.239456250000000,0,0x0006,
0.239463916666667,0,0x3B19,
0.239479958333333,0,0xB3E0,
0.239487875000000,0,0xBB13,
0.239503708333333,0,0xB329,
0.239511625000000,0,0xBC13,
0.239527458333333,0,0xB2BA,
0.239535375000000,0,0xBD13,
0.239551208333333,0,0xB1FD,
0.239559125000000,0,0xBE13,
0.239574958333333,0,0xB1FF,
0.239582833333333,0,0xBF13,
0.239598708333333,0,0xB270,
0.239606583333333,0,0xC013,
0.239636750000000,0,0x000A,
0.239644416666667,0,0x411D,
0.239660500000000,0,0xC095,
0.239668458333333,0,0xC113,
0.239684250000000,0,0xC0C5,
0.239692166666667,0,0xC213,
0.239708041666667,0,0xC087,
0.239715916666667,0,0xC313,
0.239731791666667,0,0xC0C2,
0.239739708333333,0,0xC413,
0.239755500000000,0,0xC0C2,
0.239763416666667,0,0xC513,
0.239779291666667,0,0xDCF4,
0.239787208333333,0,0xC613,
0.239803041666667,0,0x801A,
0.239810958333333,0,0xC713,
0.239826750000000,0,0xA3D6,
0.239834666666667,0,0xC813,
0.239850500000000,0,0x9E39,
0.239858416666667,0,0xC913,
0.239874250000000,0,0x9E3E,
0.239882166666667,0,0xCA13,
0.239914416666667,0,0x0004,
0.239922083333333,0,0x0321,
0.239938458333333,0,0x0A01,
0.239946291666667,0,0x8321,
0.239962000000000,0,0x0F00,
0.239969875000000,0,0x8421,
0.239985583333333,0,0x0000,
0.239993416666667,0,0x8523,
0.240009125000000,0,0x373F,
0.240017000000000,0,0x8621,
0.240047291666667,0,0x0001,
0.240055000000000,0,0x1D25,
0.240071000000000,0,0x0055,
0.240078875000000,0,0x9D25,
0.240106500000000,0,0x0003,
0.240114166666667,0,0x2429,
0.240130375000000,0,0x004C,
0.240138250000000,0,0xA423,
0.240153958333333,0,0x0040,
0.240161833333333,0,0xA523,
0.240177500000000,0,0x8000,
0.240185375000000,0,0xA623,
0.240214208333333,0,0x0005,
0.240221916666667,0,0x2D2D,
0.240237875000000,0,0x9A39,
0.240245750000000,0,0xAD23,
0.240261458333333,0,0xFFFE,
0.240269333333333,0,0xAE23,
0.240285041666667,0,0x9509,
0.240292875000000,0,0xAF23,
0.240308583333333,0,0x8000,
0.240316458333333,0,0xB023,
0.240332166666667,0,0x8304,
0.240340000000000,0,0xB123,
0.240370291666667,0,0x0006,
0.240377958333333,0,0x3B21,
0.240394000000000,0,0xE51B,
0.240401875000000,0,0xBB23,
0.240417583333333,0,0x8003,
0.240425416666667,0,0xBC23,
0.240441125000000,0,0x8003,
0.240449000000000,0,0xBD23,
0.240464708333333,0,0x8000,
0.240472541666667,0,0xBE23,
0.240488250000000,0,0xE5C1,
0.240496125000000,0,0xBF23,
0.240511833333333,0,0xE5D7,
0.240519666666667,0,0xC023,
0.240549166666667,0,0x000A,
0.240556833333333,0,0x4125,
0.240573166666667,0,0xDB52,
0.240581041666667,0,0xC123,
0.240596750000000,0,0xDC53,
0.240604583333333,0,0xC223,
0.240620291666667,0,0xDF38,
0.240628166666667,0,0xC323,
0.240643875000000,0,0xE122,
0.240651708333333,0,0xC423,
0.240667416666667,0,0xA981,
0.240675250000000,0,0xC523,
0.240691000000000,0,0xFF4C,
0.240698833333333,0,0xC623,
0.240714541666667,0,0xC019,
0.240722375000000,0,0xC723,
0.240738083333333,0,0xA3B9,
0.240745958333333,0,0xC823,
0.240761625000000,0,0x9E3C,
0.240769500000000,0,0xC923,
0.240785208333333,0,0x9E3F,
0.240793083333333,0,0xCA23,
0.248363500000000,0,0x4C3F,
0.248371208333333,0,0x060B,
0.248398333333333,0,0x0004,
0.248406000000000,0,0x031D,
0.248422250000000,0,0x0A01,
0.248430166666667,0,0x831D,
0.248446000000000,0,0x0F00,
0.248453916666667,0,0x841D,
0.248469791666667,0,0x0000,
0.248477708333333,0,0x8514,
0.248493541666667,0,0x4F3F,
0.248501458333333,0,0x861D,
0.248532000000000,0,0x0004,
0.248539666666667,0,0x0311,
0.248555875000000,0,0x0A01,
0.248563791666667,0,0x8311,
0.248579625000000,0,0x0F00,
0.248587541666667,0,0x8411,
0.248603375000000,0,0x0000,
0.248611291666667,0,0x8514,
0.248627125000000,0,0x4F3F,
0.248635041666667,0,0x8611,
0.248665750000000,0,0x0004,
0.248673416666667,0,0x0315,
0.248689500000000,0,0x0A01,
0.248697416666667,0,0x8315,
0.248713250000000,0,0x0F00,
0.248721166666667,0,0x8415,
0.248737000000000,0,0x0000,
0.248744958333333,0,0x8514,
0.248760791666667,0,0x4F3F,
0.248768708333333,0,0x8615,
0.248799125000000,0,0x0004,
0.248806791666667,0,0x0319,
0.248823166666667,0,0x0A01,
0.248831083333333,0,0x8319,
0.248846916666667,0,0x0F00,
0.248854833333333,0,0x8419,
0.248870666666667,0,0x0000,
0.248878583333333,0,0x8514,
0.248894416666667,0,0x4F3F,
0.248902333333333,0,0x8619,
0.248932416666667,0,0x0004,
0.248940083333333,0,0x031D,
0.248956250000000,0,0x0A01,
0.248964166666667,0,0x831D,
0.248980000000000,0,0x0F00,
0.248987916666667,0,0x841D,
0.249003750000000,0,0x0000,
0.249011666666667,0,0x8514,
0.249027500000000,0,0x473F,
0.249035416666667,0,0x861D,
0.249065375000000,0,0x0001,
0.249073041666667,0,0x1D11,
0.249089333333333,0,0x1551,
0.249097291666667,0,0x9D11,
0.249125083333333,0,0x0003,
0.249132750000000,0,0x2415,
0.249148708333333,0,0x0048,
0.249156666666667,0,0xA414,
0.249172458333333,0,0x0040,
0.249180416666667,0,0xA514,
0.249196250000000,0,0x0000,
0.249204125000000,0,0xA614,
0.249233500000000,0,0x0005,
0.249241166666667,0,0x2D19,
0.249257583333333,0,0x99F6,
0.249265500000000,0,0xAD14,
0.249281333333333,0,0xFFFE,
0.249289250000000,0,0xAE14,
0.249305083333333,0,0x5C6C,
0.249313000000000,0,0xAF14,
0.249328833333333,0,0xFFFF,
0.249336750000000,0,0xB014,
0.249352583333333,0,0x830B,
0.249360500000000,0,0xB114,
0.249390041666667,0,0x0006,
0.249397708333333,0,0x3B1D,
0.249413958333333,0,0xB3E4,
0.249421875000000,0,0xBB14,
0.249437708333333,0,0xB332,
0.249445625000000,0,0xBC14,
0.249461458333333,0,0xB2B9,
0.249469416666667,0,0xBD14,
0.249485250000000,0,0xB1FE,
0.249493166666667,0,0xBE14,
0.249509000000000,0,0xB204,
0.249516916666667,0,0xBF14,
0.249532750000000,0,0xB273,
0.249540666666667,0,0xC014,
0.249571333333333,0,0x000A,
0.249579000000000,0,0x4111,
0.249595083333333,0,0xC096,
0.249603000000000,0,0xC114,
0.249618833333333,0,0xC0C6,
0.249626791666667,0,0xC214,
0.249642625000000,0,0xC086,
0.249650541666667,0,0xC314,
0.249666375000000,0,0xC0C5,
0.249674291666667,0,0xC414,
0.249690125000000,0,0xC0C6,
0.249698041666667,0,0xC514,
0.249713875000000,0,0xDCF9,
0.249721791666667,0,0xC614,
0.249737625000000,0,0x8020,
0.249745541666667,0,0xC714,
0.249761375000000,0,0xA3D8,
0.249769291666667,0,0xC814,
0.249785166666667,0,0x9E3A,
0.249793083333333,0,0xC914,
0.249808916666667,0,0x9E3B,
0.249816833333333,0,0xCA14,
0.249848208333333,0,0x0004,
0.249855875000000,0,0x0325,
0.249872291666667,0,0x0A01,
0.249880125000000,0,0x8325,
0.249895833333333,0,0x0F00,
0.249903708333333,0,0x8425,
0.249919416666667,0,0x0000,
0.249927250000000,0,0x8524,
0.249943000000000,0,0x473F,
0.249950833333333,0,0x8625,
0.249980916666667,0,0x0001,
0.249988583333333,0,0x1D29,
0.250004833333333,0,0x0055,
0.250012708333333,0,0x9D29,
0.250041416666667,0,0x0003,
0.250049083333333,0,0x242D,
0.250065250000000,0,0x004C,
0.250073083333333,0,0xA424,
0.250088791666667,0,0x0040,
0.250096666666667,0,0xA524,
0.250112375000000,0,0x8000,
0.250120208333333,0,0xA624,
0.250148750000000,0,0x0005,
0.250156458333333,0,0x2D21,
0.250172750000000,0,0x9B43,
0.250180583333333,0,0xAD24,
0.250196291666667,0,0xFFFE,
0.250204166666667,0,0xAE24,
0.250219875000000,0,0x9270,
0.250227750000000,0,0xAF24,
0.250243416666667,0,0xFFFF,
0.250251291666667,0,0xB024,
0.250267000000000,0,0x830A,
0.250274875000000,0,0xB124,
0.250304916666667,0,0x0006,
0.250312583333333,0,0x3B25,
0.250328875000000,0,0xE519,
0.250336708333333,0,0xBB24,
0.250352416666667,0,0x8000,
0.250360291666667,0,0xBC24,
0.250376000000000,0,0x8000,
0.250383833333333,0,0xBD24,
0.250399541666667,0,0x8000,
0.250407416666667,0,0xBE24,
0.250423125000000,0,0xE5BC,
0.250430958333333,0,0xBF24,
0.250446666666667,0,0xE5D6,
0.250454541666667,0,0xC024,
0.250485125000000,0,0x000A,
0.250492791666667,0,0x4129,
0.250509041666667,0,0xDB51,
0.250516875000000,0,0xC124,
0.250532583333333,0,0xDC53,
0.250540458333333,0,0xC224,
0.250556166666667,0,0xDF3A,
0.250564000000000,0,0xC324,
0.250579708333333,0,0xE121,
0.250587583333333,0,0xC424,
0.250603250000000,0,0xA97E,
0.250611125000000,0,0xC524,
0.250626833333333,0,0xFF49,
0.250634708333333,0,0xC624,
0.250650416666667,0,0xC018,
0.250658250000000,0,0xC724,
0.250674000000000,0,0xA3BB,
0.250681833333333,0,0xC824,
0.250697541666667,0,0x9E3B,
0.250705416666667,0,0xC924,
0.250721125000000,0,0x9E3C,
0.250729000000000,0,0xCA24,
0.258552291666667,0,0x5C3F,
0.258560000000000,0,0x060F,
0.258587583333333,0,0x0004,
0.258595291666667,0,0x0311,
0.258611291666667,0,0x0A01,
0.258619208333333,0,0x8311,
0.258635041666667,0,0x0F00,
0.258642958333333,0,0x8411,
0.258658833333333,0,0x0000,
0.258666750000000,0,0x8515,
0.258682583333333,0,0x5F3F,
0.258690500000000,0,0x8611,
0.258721375000000,0,0x0004,
0.258729083333333,0,0x0315,
0.258745416666667,0,0x0A01,
0.258753333333333,0,0x8315,
0.258769166666667,0,0x0F00,
0.258777083333333,0,0x8415,
0.258792916666667,0,0x0000,
0.258800875000000,0,0x8515,
0.258816708333333,0,0x5F3F,
0.258824625000000,0,0x8615,
0.258854916666667,0,0x0004,
0.258862625000000,0,0x0319,
0.258879083333333,0,0x0A01,
0.258887000000000,0,0x8319,
0.258902833333333,0,0x0F00,
0.258910750000000,0,0x8419,
0.258926583333333,0,0x0000,
0.258934541666667,0,0x8515,
0.258950375000000,0,0x5F3F,
0.258958291666667,0,0x8619,
0.258988916666667,0,0x0004,
0.258996625000000,0,0x031D,
0.259012750000000,0,0x0A01,
0.259020666666667,0,0x831D,
0.259036500000000,0,0x0F00,
0.259044416666667,0,0x841D,
0.259060250000000,0,0x0000,
0.259068166666667,0,0x8515,
0.259084000000000,0,0x5F3F,
0.259091916666667,0,0x861D,
0.259122541666667,0,0x0004,
0.259130208333333,0,0x0311,
0.259146333333333,0,0x0A01,
0.259154250000000,0,0x8311,
0.259170083333333,0,0x0F00,
0.259178000000000,0,0x8411,
0.259193833333333,0,0x0000,
0.259201791666667,0,0x8515,
0.259217583333333,0,0x573F,
0.259225500000000,0,0x8611,
0.259256000000000,0,0x0001,
0.259263666666667,0,0x1D15,
0.259279916666667,0,0x1551,
0.259287833333333,0,0x9D15,
0.259316333333333,0,0x0003,
0.259324000000000,0,0x2419,
0.259340291666667,0,0x0048,
0.259348208333333,0,0xA415,
0.259364041666667,0,0x0040,
0.259371958333333,0,0xA515,
0.259387791666667,0,0x0000,
0.259395708333333,0,0xA615,
0.259425333333333,0,0x0005,
0.259433000000000,0,0x2D1D,
0.259449125000000,0,0x9B05,
0.259457041666667,0,0xAD15,
0.259472875000000,0,0xFFFE,
0.259480833333333,0,0xAE15,
0.259496625000000,0,0x59F3,
0.259504541666667,0,0xAF15,
0.259520375000000,0,0xFFFF,
0.259528291666667,0,0xB015,
0.259544125000000,0,0x8308,
0.259552041666667,0,0xB115,
0.259581958333333,0,0x0006,
0.259589625000000,0,0x3B11,
0.259605958333333,0,0xB3E1,
0.259613875000000,0,0xBB15,
0.259629708333333,0,0xB32A,
0.259637625000000,0,0xBC15,
0.259653458333333,0,0xB2BB,
0.259661375000000,0,0xBD15,
0.259677208333333,0,0xB1FE,
0.259685125000000,0,0xBE15,
0.259700958333333,0,0xB1FE,
0.259708875000000,0,0xBF15,
0.259724708333333,0,0xB272,
0.259732625000000,0,0xC015,
0.259763250000000,0,0x000A,
0.259770916666667,0,0x4115,
0.259787041666667,0,0xC092,
0.259794958333333,0,0xC115,
0.259810791666667,0,0xC0C4,
0.259818708333333,0,0xC215,
0.259834541666667,0,0xC082,
0.259842458333333,0,0xC315,
0.259858291666667,0,0xC0C6,
0.259866208333333,0,0xC415,
0.259882041666667,0,0xC0C4,
0.259889958333333,0,0xC515,
0.259905791666667,0,0xDCF9,
0.259913708333333,0,0xC615,
0.259929541666667,0,0x801E,
0.259937458333333,0,0xC715,
0.259953291666667,0,0xA3D7,
0.259961208333333,0,0xC815,
0.259977041666667,0,0x9E37,
0.259984958333333,0,0xC915,
0.260000791666667,0,0x9E39,
0.260008708333333,0,0xCA15,
0.260040375000000,0,0x0004,
0.260048083333333,0,0x0329,
0.260064333333333,0,0x0A01,
0.260072208333333,0,0x8329,
0.260087916666667,0,0x0F00,
0.260095750000000,0,0x8429,
0.260111500000000,0,0x0000,
0.260119333333333,0,0x8525,
0.260135083333333,0,0x573F,
0.260142916666667,0,0x8629,
0.260173208333333,0,0x0001,
0.260180875000000,0,0x1D2D,
0.260196916666667,0,0x0055,
0.260204750000000,0,0x9D2D,
0.260233333333333,0,0x0003,
0.260241041666667,0,0x2421,
0.260257291666667,0,0x004C,
0.260265125000000,0,0xA425,
0.260280875000000,0,0x0040,
0.260288708333333,0,0xA525,
0.260304416666667,0,0x8000,
0.260312250000000,0,0xA625,
0.260340916666667,0,0x0005,
0.260348583333333,0,0x2D25,
0.260364791666667,0,0x9C54,
0.260372666666667,0,0xAD25,
0.260388333333333,0,0xFFFE,
0.260396208333333,0,0xAE25,
0.260411916666667,0,0x8F9A,
0.260419791666667,0,0xAF25,
0.260435500000000,0,0xFFFF,
0.260443333333333,0,0xB025,
0.260459041666667,0,0x830B,
0.260466916666667,0,0xB125,
0.260496208333333,0,0x0006,
0.260503875000000,0,0x3B29,
0.260519916666667,0,0xE51E,
0.260527791666667,0,0xBB25,
0.260543458333333,0,0x8001,
0.260551333333333,0,0xBC25,
0.260567041666667,0,0x8000,
0.260574916666667,0,0xBD25,
0.260590625000000,0,0x8000,
0.260598458333333,0,0xBE25,
0.260614166666667,0,0xE5BE,
0.260622041666667,0,0xBF25,
0.260637750000000,0,0xE5D8,
0.260645583333333,0,0xC025,
0.260675958333333,0,0x000A,
0.260683625000000,0,0x412D,
0.260699583333333,0,0xDB4A,
0.260707416666667,0,0xC125,
0.260723166666667,0,0xDC4F,
0.260731000000000,0,0xC225,
0.260746708333333,0,0xDF37,
0.260754583333333,0,0xC325,
0.260770291666667,0,0xE11E,
0.260778125000000,0,0xC425,
0.260793833333333,0,0xA97B,
0.260801708333333,0,0xC525,
0.260817416666667,0,0xFF47,
0.260825291666667,0,0xC625,
0.260841000000000,0,0xC013,
0.260848833333333,0,0xC725,
0.260864541666667,0,0xA3BB,
0.260872416666667,0,0xC825,
0.260888125000000,0,0x9E33,
0.260895958333333,0,0xC925,
0.260911666666667,0,0x9E40,
0.260919541666667,0,0xCA25,
0.268462125000000,0,0x6C3F,
0.268469833333333,0,0x0603,
0.268497791666667,0,0x0004,
0.268505458333333,0,0x0315,
0.268521458333333,0,0x0A01,
0.268529375000000,0,0x8315,
0.268545208333333,0,0x0F00,
0.268553125000000,0,0x8415,
0.268569000000000,0,0x0000,
0.268576916666667,0,0x8516,
0.268592750000000,0,0x6F3F,
0.268600666666667,0,0x8615,
0.268630708333333,0,0x0004,
0.268638375000000,0,0x0319,
0.268654625000000,0,0x0A01,
0.268662541666667,0,0x8319,
0.268678375000000,0,0x0F00,
0.268686291666667,0,0x8419,
0.268702125000000,0,0x0000,
0.268710041666667,0,0x8516,
0.268725916666667,0,0x6F3F,
0.268733833333333,0,0x8619,
0.268764208333333,0,0x0004,
0.268771875000000,0,0x031D,
0.268788250000000,0,0x0A01,
0.268796208333333,0,0x831D,
0.268812041666667,0,0x0F00,
0.268819958333333,0,0x841D,
0.268835791666667,0,0x0000,
0.268843708333333,0,0x8516,
0.268859541666667,0,0x6F3F,
0.268867500000000,0,0x861D,
0.268898125000000,0,0x0004,
0.268905791666667,0,0x0311,
0.268921958333333,0,0x0A01,
0.268929833333333,0,0x8311,
0.268945708333333,0,0x0F00,
0.268953625000000,0,0x8411,
0.268969458333333,0,0x0000,
0.268977375000000,0,0x8516,
0.268993208333333,0,0x6F3F,
0.269001125000000,0,0x8611,
0.269031291666667,0,0x0004,
0.269038958333333,0,0x0315,
0.269055083333333,0,0x0A01,
0.269062958333333,0,0x8315,
0.269078791666667,0,0x0F00,
0.269086708333333,0,0x8415,
0.269102541666667,0,0x0000,
0.269110458333333,0,0x8516,
0.269126291666667,0,0x673F,
0.269134208333333,0,0x8615,
0.269164250000000,0,0x0001,
0.269171916666667,0,0x1D19,
0.269188125000000,0,0x1551,
0.269196041666667,0,0x9D19,
0.269224708333333,0,0x0003,
0.269232416666667,0,0x241D,
0.269248500000000,0,0x0048,
0.269256416666667,0,0xA416,
0.269272250000000,0,0x0040,
0.269280166666667,0,0xA516,
0.269296000000000,0,0x0000,
0.269303916666667,0,0xA616,
0.269333333333333,0,0x0005,
0.269341000000000,0,0x2D11,
0.269357333333333,0,0x9C0D,
0.269365250000000,0,0xAD16,
0.269381083333333,0,0xFFFE,
0.269389041666667,0,0xAE16,
0.269404875000000,0,0x578D,
0.269412791666667,0,0xAF16,
0.269428625000000,0,0xFFFF,
0.269436541666667,0,0xB016,
0.269452375000000,0,0x830E,
0.269460291666667,0,0xB116,
0.269491041666667,0,0x0006,
0.269498750000000,0,0x3B15,
0.269514708333333,0,0xB3DE,
0.269522666666667,0,0xBB16,
0.269538458333333,0,0xB32B,
0.269546416666667,0,0xBC16,
0.269562208333333,0,0xB2C0,
0.269570125000000,0,0xBD16,
0.269586000000000,0,0xB200,
0.269593916666667,0,0xBE16,
0.269609750000000,0,0xB1FE,
0.269617666666667,0,0xBF16,
0.269633500000000,0,0xB276,
0.269641416666667,0,0xC016,
0.269671916666667,0,0x000A,
0.269679583333333,0,0x4119,
0.269695833333333,0,0xC091,
0.269703750000000,0,0xC116,
0.269719583333333,0,0xC0C2,
0.269727500000000,0,0xC216,
0.269743333333333,0,0xC085,
0.269751250000000,0,0xC316,
0.269767083333333,0,0xC0C4,
0.269775041666667,0,0xC416,
0.269790833333333,0,0xC0C5,
0.269798750000000,0,0xC516,
0.269814583333333,0,0xDCF8,
0.269822500000000,0,0xC616,
0.269838333333333,0,0x801F,
0.269846291666667,0,0xC716,
0.269862125000000,0,0xA3D9,
0.269870041666667,0,0xC816,
0.269885875000000,0,0x9E35,
0.269893791666667,0,0xC916,
0.269909625000000,0,0x9E3C,
0.269917541666667,0,0xCA16,
0.269949125000000,0,0x0004,
0.269956833333333,0,0x032D,
0.269972833333333,0,0x0A01,
0.269980666666667,0,0x832D,
0.269996375000000,0,0x0F00,
0.270004250000000,0,0x842D,
0.270019958333333,0,0x0000,
0.270027791666667,0,0x8526,
0.270043541666667,0,0x673F,
0.270051375000000,0,0x862D,
0.270081916666667,0,0x0001,
0.270089625000000,0,0x1D21,
0.270105875000000,0,0x0055,
0.270113750000000,0,0x9D21,
0.270141666666667,0,0x0003,
0.270149375000000,0,0x2425,
0.270165750000000,0,0x004C,
0.270173625000000,0,0xA426,
0.270189333333333,0,0x0040,
0.270197166666667,0,0xA526,
0.270212875000000,0,0x8000,
0.270220750000000,0,0xA626,
0.270249583333333,0,0x0005,
0.270257291666667,0,0x2D29,
0.270273291666667,0,0x9D5E,
0.270281125000000,0,0xAD26,
0.270296833333333,0,0xFFFE,
0.270304708333333,0,0xAE26,
0.270320416666667,0,0x8D73,
0.270328291666667,0,0xAF26,
0.270343958333333,0,0xFFFF,
0.270351833333333,0,0xB026,
0.270367541666667,0,0x830C,
0.270375416666667,0,0xB126,
0.270404791666667,0,0x0006,
0.270412458333333,0,0x3B2D,
0.270428416666667,0,0xE515,
0.270436291666667,0,0xBB26,
0.270452000000000,0,0x8000,
0.270459833333333,0,0xBC26,
0.270475583333333,0,0x8000,
0.270483416666667,0,0xBD26,
0.270499125000000,0,0x8001,
0.270507000000000,0,0xBE26,
0.270522666666667,0,0xE5B9,
0.270530541666667,0,0xBF26,
0.270546250000000,0,0xE5D6,
0.270554125000000,0,0xC026,
0.270584500000000,0,0x000A,
0.270592166666667,0,0x4121,
0.270608125000000,0,0xDB50,
0.270615958333333,0,0xC126,
0.270631666666667,0,0xDC54,
0.270639541666667,0,0xC226,
0.270655250000000,0,0xDF3B,
0.270663125000000,0,0xC326,
0.270678791666667,0,0xE121,
0.270686666666667,0,0xC426,
0.270702375000000,0,0xA97D,
0.270710208333333,0,0xC526,
0.270725916666667,0,0xFF46,
0.270733791666667,0,0xC626,
0.270749500000000,0,0xC013,
0.270757333333333,0,0xC726,
0.270773083333333,0,0xA3BA,
0.270780916666667,0,0xC826,
0.270796625000000,0,0x9E3B,
0.270804500000000,0,0xC926,
0.270820166666667,0,0x9E3C,
0.270828041666667,0,0xCA26,
0.279371875000000,0,0x7C3F,
0.279379541666667,0,0x0607,
0.279406833333333,0,0x0004,
0.279414500000000,0,0x0319,
0.279430791666667,0,0x0A01,
0.279438708333333,0,0x8319,
0.279454541666667,0,0x0F00,
0.279462500000000,0,0x8419,
0.279478333333333,0,0x0000,
0.279486250000000,0,0x8517,
0.279502083333333,0,0x7F3F,
0.279510000000000,0,0x8619,
0.279540458333333,0,0x0004,
0.279548125000000,0,0x031D,
0.279564458333333,0,0x0A01,
0.279572375000000,0,0x831D,
0.279588208333333,0,0x0F00,
0.279596125000000,0,0x841D,
0.279611958333333,0,0x0000,
0.279619875000000,0,0x8517,
0.279635708333333,0,0x7F3F,
0.279643666666667,0,0x861D,
0.279674750000000,0,0x0004,
0.279682416666667,0,0x0311,
0.279698583333333,0,0x0A01,
0.279706500000000,0,0x8311,
0.279722333333333,0,0x0F00,
0.279730250000000,0,0x8411,
0.279746083333333,0,0x0000,
0.279754041666667,0,0x8517,
0.279769875000000,0,0x7F3F,
0.279777750000000,0,0x8611,
0.279808250000000,0,0x0004,
0.279815916666667,0,0x0315,
0.279832208333333,0,0x0A01,
0.279840125000000,0,0x8315,
0.279856000000000,0,0x0F00,
0.279863916666667,0,0x8415,
0.279879708333333,0,0x0000,
0.279887666666667,0,0x8517,
0.279903500000000,0,0x7F3F,
0.279911416666667,0,0x8615,
0.279941583333333,0,0x0004,
0.279949250000000,0,0x0319,
0.279965375000000,0,0x0A01,
0.279973291666667,0,0x8319,
0.279989125000000,0,0x0F00,
0.279997041666667,0,0x8419,
0.280012875000000,0,0x0000,
0.280020833333333,0,0x8517,
0.280036666666667,0,0x773F,
0.280044541666667,0,0x8619,
0.280075500000000,0,0x0001,
0.280083208333333,0,0x1D1D,
0.280099500000000,0,0x1551,
0.280107416666667,0,0x9D1D,
0.280135625000000,0,0x0003,
0.280143291666667,0,0x2411,
0.280159375000000,0,0x0048,
0.280167291666667,0,0xA417,
0.280183125000000,0,0x0040,
0.280191041666667,0,0xA517,
0.280206875000000,0,0x0000,
0.280214791666667,0,0xA617,
0.280243166666667,0,0x0005,
0.280250833333333,0,0x2D15,
0.280267291666667,0,0x9D2F,
0.280275208333333,0,0xAD17,
0.280291000000000,0,0xFFFE,
0.280298958333333,0,0xAE17,
0.280314791666667,0,0x54BE,
0.280322708333333,0,0xAF17,
0.280338541666667,0,0xFFFF,
0.280346458333333,0,0xB017,
0.280362291666667,0,0x830B,
0.280370208333333,0,0xB117,
0.280400083333333,0,0x0006,
0.280407750000000,0,0x3B19,
0.280424166666667,0,0xB3E6,
0.280432083333333,0,0xBB17,
0.280447916666667,0,0xB32D,
0.280455833333333,0,0xBC17,
0.280471666666667,0,0xB2BF,
0.280479583333333,0,0xBD17,
0.280495416666667,0,0xB203,
0.280503333333333,0,0xBE17,
0.280519208333333,0,0xB206,
0.280527125000000,0,0xBF17,
0.280542958333333,0,0xB279,
0.280550875000000,0,0xC017,
0.280580625000000,0,0x000A,
0.280588291666667,0,0x411D,
0.280604333333333,0,0xC093,
0.280612250000000,0,0xC117,
0.280628083333333,0,0xC0C3,
0.280636000000000,0,0xC217,
0.280651833333333,0,0xC087,
0.280659750000000,0,0xC317,
0.280675583333333,0,0xC0C6,
0.280683500000000,0,0xC417,
0.280699333333333,0,0xC0C5,
0.280707250000000,0,0xC517,
0.280723083333333,0,0xDCFB,
0.280731000000000,0,0xC617,
0.280746833333333,0,0x801C,
0.280754750000000,0,0xC717,
0.280770583333333,0,0xA3D7,
0.280778500000000,0,0xC817,
0.280794333333333,0,0x9E38,
0.280802250000000,0,0xC917,
0.280818083333333,0,0x9E37,
0.280826000000000,0,0xCA17,
0.280857583333333,0,0x0004,
0.280865291666667,0,0x0321,
0.280881500000000,0,0x0A01,
0.280889333333333,0,0x8321,
0.280905083333333,0,0x0F00,
0.280912916666667,0,0x8421,
0.280928625000000,0,0x0000,
0.280936500000000,0,0x8527,
0.280952166666667,0,0x773F,
0.280960041666667,0,0x8621,
0.280990583333333,0,0x0001,
0.280998291666667,0,0x1D25,
0.281014541666667,0,0x0055,
0.281022375000000,0,0x9D25,
0.281050375000000,0,0x0003,
0.281058041666667,0,0x2429,
0.281074416666667,0,0x004C,
0.281082291666667,0,0xA427,
0.281097958333333,0,0x0040,
0.281105833333333,0,0xA527,
0.281121541666667,0,0x8000,
0.281129375000000,0,0xA627,
0.281158458333333,0,0x0005,
0.281166125000000,0,0x2D2D,
0.281182416666667,0,0x9E82,
0.281190250000000,0,0xAD27,
0.281205958333333,0,0xFFFE,
0.281213833333333,0,0xAE27,
0.281229541666667,0,0x8B7E,
0.281237375000000,0,0xAF27,
0.281253083333333,0,0x8000,
0.281260958333333,0,0xB027,
0.281276666666667,0,0x8307,
0.281284500000000,0,0xB127,
0.281314166666667,0,0x0006,
0.281321875000000,0,0x3B21,
0.281338000000000,0,0xE51C,
0.281345875000000,0,0xBB27,
0.281361583333333,0,0x8000,
0.281369416666667,0,0xBC27,
0.281385125000000,0,0x8000,
0.281393000000000,0,0xBD27,
0.281408708333333,0,0x8001,
0.281416541666667,0,0xBE27,
0.281432291666667,0,0xE5BD,
0.281440125000000,0,0xBF27,
0.281455833333333,0,0xE5D9,
0.281463708333333,0,0xC027,
0.281493750000000,0,0x000A,
0.281501416666667,0,0x4125,
0.281517708333333,0,0xDB45,
0.281525541666667,0,0xC127,
0.281541250000000,0,0xDC4E,
0.281549125000000,0,0xC227,
0.281564833333333,0,0xDF38,
0.281572666666667,0,0xC327,
0.281588375000000,0,0xE125,
0.281596208333333,0,0xC427,
0.281611958333333,0,0xA97D,
0.281619791666667,0,0xC527,
0.281635500000000,0,0xFF4A,
0.281643375000000,0,0xC627,
0.281659083333333,0,0xC015,
0.281666916666667,0,0xC727,
0.281682625000000,0,0xA3BB,
0.281690500000000,0,0xC827,
0.281706208333333,0,0x9E37,
0.281714041666667,0,0xC927,
0.281729750000000,0,0x9E3D,
0.281737625000000,0,0xCA27,
0.288474750000000,0,0x8C3F,
0.288482416666667,0,0x060B,
0.288510791666667,0,0x0004,
0.288518458333333,0,0x031D,
0.288534583333333,0,0x0A01,
0.288542500000000,0,0x831D,
0.288558333333333,0,0x0F00,
0.288566250000000,0,0x841D,
0.288582083333333,0,0x0000,
0.288590000000000,0,0x8518,
0.288605875000000,0,0x8F3F,
0.288613750000000,0,0x861D,
0.288644500000000,0,0x0004,
0.288652208333333,0,0x0311,
0.288668208333333,0,0x0A01,
0.288676125000000,0,0x8311,
0.288691958333333,0,0x0F00,
0.288699875000000,0,0x8411,
0.288715708333333,0,0x0000,
0.288723625000000,0,0x8518,
0.288739458333333,0,0x8F3F,
0.288747375000000,0,0x8611,
0.288777958333333,0,0x0004,
0.288785625000000,0,0x0315,
0.288801833333333,0,0x0A01,
0.288809708333333,0,0x8315,
0.288825583333333,0,0x0F00,
0.288833500000000,0,0x8415,
0.288849333333333,0,0x0000,
0.288857250000000,0,0x8518,
0.288873083333333,0,0x8F3F,
0.288881000000000,0,0x8615,
0.288911000000000,0,0x0004,
0.288918708333333,0,0x0319,
0.288934916666667,0,0x0A01,
0.288942875000000,0,0x8319,
0.288958708333333,0,0x0F00,
0.288966625000000,0,0x8419,
0.288982458333333,0,0x0000,
0.288990375000000,0,0x8518,
0.289006208333333,0,0x8F3F,
0.289014125000000,0,0x8619,
0.289045375000000,0,0x0004,
0.289053083333333,0,0x031D,
0.289069500000000,0,0x0A01,
0.289077458333333,0,0x831D,
0.289093291666667,0,0x0F00,
0.289101208333333,0,0x841D,
0.289117041666667,0,0x0000,
0.289124958333333,0,0x8518,
0.289140750000000,0,0x873F,
0.289148708333333,0,0x861D,
0.289178625000000,0,0x0001,
0.289186291666667,0,0x1D11,
0.289202583333333,0,0x1551,
0.289210541666667,0,0x9D11,
0.289239208333333,0,0x0003,
0.289246875000000,0,0x2415,
0.289263000000000,0,0x0048,
0.289270916666667,0,0xA418,
0.289286750000000,0,0x0040,
0.289294625000000,0,0xA518,
0.289310458333333,0,0x0000,
0.289318375000000,0,0xA618,
0.289347458333333,0,0x0005,
0.289355125000000,0,0x2D19,
0.289371333333333,0,0x9E21,
0.289379250000000,0,0xAD18,
0.289395041666667,0,0xFFFE,
0.289403000000000,0,0xAE18,
0.289418791666667,0,0x5228,
0.289426750000000,0,0xAF18,
0.289442583333333,0,0x8000,
0.289450458333333,0,0xB018,
0.289466291666667,0,0x8300,
0.289474208333333,0,0xB118,
0.289504250000000,0,0x0006,
0.289511916666667,0,0x3B1D,
0.289528166666667,0,0xB3DE,
0.289536083333333,0,0xBB18,
0.289551875000000,0,0xB329,
0.289559791666667,0,0xBC18,
0.289575625000000,0,0xB2BB,
0.289583541666667,0,0xBD18,
0.289599375000000,0,0xB1FE,
0.289607291666667,0,0xBE18,
0.289623125000000,0,0xB200,
0.289631041666667,0,0xBF18,
0.289646875000000,0,0xB271,
0.289654791666667,0,0xC018,
0.289685875000000,0,0x000A,
0.289693541666667,0,0x4111,
0.289709708333333,0,0xC095,
0.289717625000000,0,0xC118,
0.289733458333333,0,0xC0C4,
0.289741375000000,0,0xC218,
0.289757208333333,0,0xC082,
0.289765125000000,0,0xC318,
0.289780958333333,0,0xC0C5,
0.289788833333333,0,0xC418,
0.289804708333333,0,0xC0C8,
0.289812625000000,0,0xC518,
0.289828458333333,0,0xDCF8,
0.289836375000000,0,0xC618,
0.289852208333333,0,0x801E,
0.289860125000000,0,0xC718,
0.289875958333333,0,0xA3D5,
0.289883875000000,0,0xC818,
0.289899708333333,0,0x9E38,
0.289907625000000,0,0xC918,
0.289923458333333,0,0x9E3C,
0.289931375000000,0,0xCA18,
0.289963375000000,0,0x0004,
0.289971041666667,0,0x0325,
0.289987291666667,0,0x0A01,
0.289995166666667,0,0x8325,
0.290010833333333,0,0x0F00,
0.290018708333333,0,0x8425,
0.290034416666667,0,0x0000,
0.290042291666667,0,0x8528,
0.290058000000000,0,0x873F,
0.290065833333333,0,0x8625,
0.290096375000000,0,0x0001,
0.290104041666667,0,0x1D29,
0.290120333333333,0,0x0055,
0.290128208333333,0,0x9D29,
0.290156125000000,0,0x0003,
0.290163791666667,0,0x242D,
0.290180208333333,0,0x004C,
0.290188041666667,0,0xA428,
0.290203750000000,0,0x0040,
0.290211625000000,0,0xA528,
0.290227333333333,0,0x8000,
0.290235166666667,0,0xA628,
0.290263833333333,0,0x0005,
0.290271500000000,0,0x2D21,
0.290287708333333,0,0x9F76,
0.290295583333333,0,0xAD28,
0.290311291666667,0,0xFFFE,
0.290319125000000,0,0xAE28,
0.290334833333333,0,0x8974,
0.290342708333333,0,0xAF28,
0.290358375000000,0,0x8000,
0.290366250000000,0,0xB028,
0.290381958333333,0,0x8301,
0.290389833333333,0,0xB128,
0.290419291666667,0,0x0006,
0.290426958333333,0,0x3B25,
0.290443291666667,0,0xE517,
0.290451166666667,0,0xBB28,
0.290466875000000,0,0x8000,
0.290474750000000,0,0xBC28,
0.290490416666667,0,0x8001,
0.290498291666667,0,0xBD28,
0.290514000000000,0,0x8001,
0.290521833333333,0,0xBE28,
0.290537541666667,0,0xE5BB,
0.290545416666667,0,0xBF28,
0.290561125000000,0,0xE5D2,
0.290569000000000,0,0xC028,
0.290598875000000,0,0x000A,
0.290606541666667,0,0x4129,
0.290622458333333,0,0xDB55,
0.290630333333333,0,0xC128,
0.290646041666667,0,0xDC55,
0.290653916666667,0,0xC228,
0.290669625000000,0,0xDF38,
0.290677458333333,0,0xC328,
0.290693166666667,0,0xE11F,
0.290701000000000,0,0xC428,
0.290716750000000,0,0xA980,
0.290724583333333,0,0xC528,
0.290740291666667,0,0xFF4A,
0.290748125000000,0,0xC628,
0.290763833333333,0,0xC014,
0.290771708333333,0,0xC728,
0.290787416666667,0,0xA3B9,
0.290795250000000,0,0xC828,
0.290810958333333,0,0x9E3D,
0.290818833333333,0,0xC928,
0.290834541666667,0,0x9E3B,
0.290842375000000,0,0xCA28,
0.298417083333333,0,0x9C3F,
0.298424750000000,0,0x060F,
0.298451708333333,0,0x0004,
0.298459375000000,0,0x0311,
0.298475333333333,0,0x0A01,
0.298483291666667,0,0x8311,
0.298499083333333,0,0x0F00,
0.298507041666667,0,0x8411,
0.298522875000000,0,0x0000,
0.298530791666667,0,0x8519,
0.298546625000000,0,0x9F3F,
0.298554541666667,0,0x8611,
0.298585291666667,0,0x0004,
0.298592958333333,0,0x0315,
0.298608958333333,0,0x0A01,
0.298616916666667,0,0x8315,
0.298632750000000,0,0x0F00,
0.298640666666667,0,0x8415,
0.298656500000000,0,0x0000,
0.298664416666667,0,0x8519,
0.298680250000000,0,0x9F3F,
0.298688166666667,0,0x8615,
0.298718500000000,0,0x0004,
0.298726166666667,0,0x0319,
0.298742583333333,0,0x0A01,
0.298750500000000,0,0x8319,
0.298766375000000,0,0x0F00,
0.298774291666667,0,0x8419,
0.298790125000000,0,0x0000,
0.298798041666667,0,0x8519,
0.298813875000000,0,0x9F3F,
0.298821791666667,0,0x8619,
0.298852500000000,0,0x0004,
0.298860208333333,0,0x031D,
0.298876208333333,0,0x0A01,
0.298884125000000,0,0x831D,
0.298900000000000,0,0x0F00,
0.298907875000000,0,0x841D,
0.298923708333333,0,0x0000,
0.298931666666667,0,0x8519,
0.298947500000000,0,0x9F3F,
0.298955416666667,0,0x861D,
0.298986375000000,0,0x0004,
0.298994041666667,0,0x0311,
0.299010333333333,0,0x0A01,
0.299018250000000,0,0x8311,
0.299034083333333,0,0x0F00,
0.299042000000000,0,0x8411,
0.299057833333333,0,0x0000,
0.299065750000000,0,0x8519,
0.299081583333333,0,0x973F,
0.299089500000000,0,0x8611,
0.299120250000000,0,0x0001,
0.299127958333333,0,0x1D15,
0.299143958333333,0,0x1551,
0.299151833333333,0,0x9D15,
0.299179791666667,0,0x0003,
0.299187458333333,0,0x2419,
0.299203791666667,0,0x0048,
0.299211750000000,0,0xA419,
0.299227541666667,0,0x0040,
0.299235458333333,0,0xA519,
0.299251291666667,0,0x0000,
0.299259208333333,0,0xA619,
0.299289000000000,0,0x0005,
0.299296666666667,0,0x2D1D,
0.299312666666667,0,0x9F2A,
0.299320583333333,0,0xAD19,
0.299336375000000,0,0xFFFE,
0.299344291666667,0,0xAE19,
0.299360125000000,0,0x4F8F,
0.299368041666667,0,0xAF19,
0.299383875000000,0,0xFFFF,
0.299391791666667,0,0xB019,
0.299407625000000,0,0x830A,
0.299415541666667,0,0xB119,
0.299445750000000,0,0x0006,
0.299453416666667,0,0x3B11,
0.299469458333333,0,0xB3DC,
0.299477375000000,0,0xBB19,
0.299493208333333,0,0xB325,
0.299501125000000,0,0xBC19,
0.299516958333333,0,0xB2B9,
0.299524875000000,0,0xBD19,
0.299540708333333,0,0xB1FE,
0.299548625000000,0,0xBE19,
0.299564458333333,0,0xB1FD,
0.299572375000000,0,0xBF19,
0.299588208333333,0,0xB26E,
0.299596125000000,0,0xC019,
0.299626333333333,0,0x000A,
0.299634041666667,0,0x4115,
0.299650041666667,0,0xC097,
0.299658000000000,0,0xC119,
0.299673833333333,0,0xC0C4,
0.299681750000000,0,0xC219,
0.299697583333333,0,0xC084,
0.299705500000000,0,0xC319,
0.299721333333333,0,0xC0C5,
0.299729250000000,0,0xC419,
0.299745083333333,0,0xC0C2,
0.299753000000000,0,0xC519,
0.299768833333333,0,0xDCF9,
0.299776750000000,0,0xC619,
0.299792583333333,0,0x801B,
0.299800500000000,0,0xC719,
0.299816333333333,0,0xA3D7,
0.299824250000000,0,0xC819,
0.299840083333333,0,0x9E39,
0.299848000000000,0,0xC919,
0.299863875000000,0,0x9E3C,
0.299871791666667,0,0xCA19,
0.299904125000000,0,0x0004,
0.299911791666667,0,0x0329,
0.299927750000000,0,0x0A01,
0.299935583333333,0,0x8329,
0.299951291666667,0,0x0F00,
0.299959125000000,0,0x8429,
0.299974833333333,0,0x0000,
0.299982708333333,0,0x8529,
0.299998416666667,0,0x973F,
0.300006250000000,0,0x8629,
0.300036416666667,0,0x0001,
0.300044083333333,0,0x1D2D,
0.300060250000000,0,0x0055,
0.300068083333333,0,0x9D2D,
0.300096541666667,0,0x0003,
0.300104208333333,0,0x2421,
0.300120125000000,0,0x004C,
0.300128000000000,0,0xA429,
0.300143708333333,0,0x0040,
0.300151583333333,0,0xA529,
0.300167291666667,0,0x8000,
0.300175125000000,0,0xA629,
0.300204708333333,0,0x0005,
0.300212375000000,0,0x2D25,
0.300228625000000,0,0xA081,
0.300236500000000,0,0xAD29,
0.300252208333333,0,0xFFFE,
0.300260041666667,0,0xAE29,
0.300275750000000,0,0x8718,
0.300283625000000,0,0xAF29,
0.300299333333333,0,0x8000,
0.300307166666667,0,0xB029,
0.300322875000000,0,0x8302,
0.300330750000000,0,0xB129,
0.300360958333333,0,0x0006,
0.300368666666667,0,0x3B29,
0.300384750000000,0,0xE512,
0.300392583333333,0,0xBB29,
0.300408291666667,0,0x8001,
0.300416166666667,0,0xBC29,
0.300431875000000,0,0x8003,
0.300439708333333,0,0xBD29,
0.300455416666667,0,0x8000,
0.300463291666667,0,0xBE29,
0.300479000000000,0,0xE5B2,
0.300486875000000,0,0xBF29,
0.300502583333333,0,0xE5CD,
0.300510416666667,0,0xC029,
0.300541125000000,0,0x000A,
0.300548791666667,0,0x412D,
0.300564916666667,0,0xDB50,
0.300572750000000,0,0xC129,
0.300588458333333,0,0xDC4F,
0.300596333333333,0,0xC229,
0.300612041666667,0,0xDF3B,
0.300619875000000,0,0xC329,
0.300635625000000,0,0xE11D,
0.300643458333333,0,0xC429,
0.300659166666667,0,0xA97C,
0.300667000000000,0,0xC529,
0.300682708333333,0,0xFF49,
0.300690583333333,0,0xC629,
0.300706291666667,0,0xC015,
0.300714125000000,0,0xC729,
0.300729833333333,0,0xA3BC,
0.300737708333333,0,0xC829,
0.300753416666667,0,0x9E39,
0.300761291666667,0,0xC929,
0.300776958333333,0,0x9E3E,
0.300784833333333,0,0xCA29,
0.308418083333333,0,0xAC3F,
0.308425750000000,0,0x0603,
0.308453083333333,0,0x0004,
0.308460750000000,0,0x0315,
0.308476875000000,0,0x0A01,
0.308484791666667,0,0x8315,
0.308500625000000,0,0x0F00,
0.308508541666667,0,0x8415,
0.308524375000000,0,0x0000,
0.308532333333333,0,0x851A,
0.308548166666667,0,0xAF3F,
0.308556083333333,0,0x8615,
0.308586833333333,0,0x0004,
0.308594500000000,0,0x0319,
0.308610500000000,0,0x0A01,
0.308618416666667,0,0x8319,
0.308634250000000,0,0x0F00,
0.308642166666667,0,0x8419,
0.308658000000000,0,0x0000,
0.308665916666667,0,0x851A,
0.308681750000000,0,0xAF3F,
0.308689666666667,0,0x8619,
0.308719916666667,0,0x0004,
0.308727583333333,0,0x031D,
0.308743625000000,0,0x0A01,
0.308751541666667,0,0x831D,
0.308767375000000,0,0x0F00,
0.308775291666667,0,0x841D,
0.308791166666667,0,0x0000,
0.308799083333333,0,0x851A,
0.308814916666667,0,0xAF3F,
0.308822833333333,0,0x861D,
0.308854208333333,0,0x0004,
0.308861875000000,0,0x0311,
0.308878291666667,0,0x0A01,
0.308886208333333,0,0x8311,
0.308902041666667,0,0x0F00,
0.308909958333333,0,0x8411,
0.308925791666667,0,0x0000,
0.308933708333333,0,0x851A,
0.308949583333333,0,0xAF3F,
0.308957500000000,0,0x8611,
0.308988333333333,0,0x0004,
0.308996000000000,0,0x0315,
0.309012416666667,0,0x0A01,
0.309020333333333,0,0x8315,
0.309036166666667,0,0x0F00,
0.309044083333333,0,0x8415,
0.309059916666667,0,0x0000,
0.309067833333333,0,0x851A,
0.309083666666667,0,0xA73F,
0.309091625000000,0,0x8615,
0.309121833333333,0,0x0001,
0.309129500000000,0,0x1D19,
0.309145541666667,0,0x1551,
0.309153458333333,0,0x9D19,
0.309181375000000,0,0x0003,
0.309189083333333,0,0x241D,
0.309205416666667,0,0x0048,
0.309213333333333,0,0xA41A,
0.309229166666667,0,0x0040,
0.309237083333333,0,0xA51A,
0.309252958333333,0,0x0000,
0.309260875000000,0,0xA61A,
0.309290000000000,0,0x0005,
0.309297666666667,0,0x2D11,
0.309313791666667,0,0xA034,
0.309321708333333,0,0xAD1A,
0.309337583333333,0,0xFFFE,
0.309345458333333,0,0xAE1A,
0.309361333333333,0,0x4C16,
0.309369250000000,0,0xAF1A,
0.309385083333333,0,0x8000,
0.309393000000000,0,0xB01A,
0.309408833333333,0,0x8307,
0.309416750000000,0,0xB11A,
0.309447125000000,0,0x0006,
0.309454791666667,0,0x3B15,
0.309471166666667,0,0xB3E2,
0.309479083333333,0,0xBB1A,
0.309494916666667,0,0xB32C,
0.309502833333333,0,0xBC1A,
0.309518666666667,0,0xB2BA,
0.309526583333333,0,0xBD1A,
0.309542416666667,0,0xB1FD,
0.309550333333333,0,0xBE1A,
0.309566166666667,0,0xB1FC,
0.309574083333333,0,0xBF1A,
0.309589916666667,0,0xB26F,
0.309597833333333,0,0xC01A,
0.309627958333333,0,0x000A,
0.309635666666667,0,0x4119,
0.309651750000000,0,0xC094,
0.309659666666667,0,0xC11A,
0.309675500000000,0,0xC0C7,
0.309683458333333,0,0xC21A,
0.309699250000000,0,0xC086,
0.309707208333333,0,0xC31A,
0.309723000000000,0,0xC0C7,
0.309730916666667,0,0xC41A,
0.309746791666667,0,0xC0C6,
0.309754708333333,0,0xC51A,
0.309770541666667,0,0xDCFB,
0.309778458333333,0,0xC61A,
0.309794291666667,0,0x801C,
0.309802208333333,0,0xC71A,
0.309818000000000,0,0xA3D7,
0.309825958333333,0,0xC81A,
0.309841791666667,0,0x9E3B,
0.309849708333333,0,0xC91A,
0.309865541666667,0,0x9E41,
0.309873458333333,0,0xCA1A,
0.309905708333333,0,0x0004,
0.309913375000000,0,0x032D,
0.309929541666667,0,0x0A01,
0.309937416666667,0,0x832D,
0.309953125000000,0,0x0F00,
0.309960958333333,0,0x842D,
0.309976666666667,0,0x0000,
0.309984500000000,0,0x852A,
0.310000208333333,0,0xA73F,
0.310008083333333,0,0x862D,
0.310037583333333,0,0x0001,
0.310045250000000,0,0x1D21,
0.310061583333333,0,0x0055,
0.310069458333333,0,0x9D21,
0.310097375000000,0,0x0003,
0.310105041666667,0,0x2425,
0.310121416666667,0,0x004C,
0.310129291666667,0,0xA42A,
0.310145000000000,0,0x0040,
0.310152875000000,0,0xA52A,
0.310168541666667,0,0x8000,
0.310176416666667,0,0xA62A,
0.310205541666667,0,0x0005,
0.310213208333333,0,0x2D29,
0.310229375000000,0,0xA18D,
0.310237250000000,0,0xAD2A,
0.310252958333333,0,0xFFFE,
0.310260833333333,0,0xAE2A,
0.310276500000000,0,0x8507,
0.310284375000000,0,0xAF2A,
0.310300041666667,0,0x8000,
0.310307916666667,0,0xB02A,
0.310323625000000,0,0x8307,
0.310331458333333,0,0xB12A,
0.310362791666667,0,0x0006,
0.310370458333333,0,0x3B2D,
0.310386416666667,0,0xE511,
0.310394291666667,0,0xBB2A,
0.310410000000000,0,0x8000,
0.310417833333333,0,0xBC2A,
0.310433541666667,0,0x8000,
0.310441416666667,0,0xBD2A,
0.310457125000000,0,0x8000,
0.310464958333333,0,0xBE2A,
0.310480666666667,0,0xE5B7,
0.310488500000000,0,0xBF2A,
0.310504208333333,0,0xE5D0,
0.310512083333333,0,0xC02A,
0.310542333333333,0,0x000A,
0.310550041666667,0,0x4121,
0.310566041666667,0,0xDB4C,
0.310573916666667,0,0xC12A,
0.310589625000000,0,0xDC4B,
0.310597458333333,0,0xC22A,
0.310613166666667,0,0xDF31,
0.310621000000000,0,0xC32A,
0.310636708333333,0,0xE11A,
0.310644583333333,0,0xC42A,
0.310660291666667,0,0xA979,
0.310668125000000,0,0xC52A,
0.310683833333333,0,0xFF46,
0.310691708333333,0,0xC62A,
0.310707416666667,0,0xC011,
0.310715250000000,0,0xC72A,
0.310730958333333,0,0xA3BB,
0.310738833333333,0,0xC82A,
0.310754500000000,0,0x9E34,
0.310762375000000,0,0xC92A,
0.310778083333333,0,0x9E3E,
0.310785916666667,0,0xCA2A,
0.318412666666667,0,0xBC3F,
0.318420333333333,0,0x0607,
0.318447458333333,0,0x0004,
0.318455125000000,0,0x0319,
0.318471208333333,0,0x0A01,
0.318479166666667,0,0x8319,
0.318495000000000,0,0x0F00,
0.318502916666667,0,0x8419,
0.318518750000000,0,0x0000,
0.318526666666667,0,0x851B,
0.318542541666667,0,0xBF3F,
0.318550458333333,0,0x8619,
0.318580750000000,0,0x0004,
0.318588416666667,0,0x031D,
0.318604875000000,0,0x0A01,
0.318612791666667,0,0x831D,
0.318628625000000,0,0x0F00,
0.318636541666667,0,0x841D,
0.318652375000000,0,0x0000,
0.318660291666667,0,0x851B,
0.318676125000000,0,0xBF3F,
0.318684041666667,0,0x861D,
0.318714416666667,0,0x0004,
0.318722125000000,0,0x0311,
0.318738500000000,0,0x0A01,
0.318746416666667,0,0x8311,
0.318762250000000,0,0x0F00,
0.318770166666667,0,0x8411,
0.318786000000000,0,0x0000,
0.318793916666667,0,0x851B,
0.318809791666667,0,0xBF3F,
0.318817708333333,0,0x8611,
0.318848666666667,0,0x0004,
0.318856333333333,0,0x0315,
0.318872666666667,0,0x0A01,
0.318880583333333,0,0x8315,
0.318896416666667,0,0x0F00,
0.318904333333333,0,0x8415,
0.318920166666667,0,0x0000,
0.318928083333333,0,0x851B,
0.318943958333333,0,0xBF3F,
0.318951875000000,0,0x8615,
0.318982458333333,0,0x0004,
0.318990125000000,0,0x0319,
0.319006291666667,0,0x0A01,
0.319014208333333,0,0x8319,
0.319030041666667,0,0x0F00,
0.319037958333333,0,0x8419,
0.319053791666667,0,0x0000,
0.319061708333333,0,0x851B,
0.319077541666667,0,0xB73F,
0.319085458333333,0,0x8619,
0.319116458333333,0,0x0001,
0.319124166666667,0,0x1D1D,
0.319140375000000,0,0x1551,
0.319148333333333,0,0x9D1D,
0.319176250000000,0,0x0003,
0.319183916666667,0,0x2411,
0.319200291666667,0,0x0048,
0.319208208333333,0,0xA41B,
0.319224041666667,0,0x0040,
0.319231958333333,0,0xA51B,
0.319247750000000,0,0x0000,
0.319255708333333,0,0xA61B,
0.319284458333333,0,0x0005,
0.319292166666667,0,0x2D15,
0.319308125000000,0,0xA13E,
0.319316083333333,0,0xAD1B,
0.319331875000000,0,0xFFFE,
0.319339791666667,0,0xAE1B,
0.319355625000000,0,0x4956,
0.319363541666667,0,0xAF1B,
0.319379375000000,0,0xFFFF,
0.319387333333333,0,0xB01B,
0.319403166666667,0,0x8308,
0.319411041666667,0,0xB11B,
0.319442166666667,0,0x0006,
0.319449833333333,0,0x3B19,
0.319466000000000,0,0xB3DE,
0.319473916666667,0,0xBB1B,
0.319489708333333,0,0xB32B,
0.319497666666667,0,0xBC1B,
0.319513500000000,0,0xB2BC,
0.319521416666667,0,0xBD1B,
0.319537250000000,0,0xB1FB,
0.319545166666667,0,0xBE1B,
0.319561000000000,0,0xB201,
0.319568916666667,0,0xBF1B,
0.319584750000000,0,0xB270,
0.319592666666667,0,0xC01B,
0.319622541666667,0,0x000A,
0.319630250000000,0,0x411D,
0.319646625000000,0,0xC094,
0.319654541666667,0,0xC11B,
0.319670375000000,0,0xC0C6,
0.319678291666667,0,0xC21B,
0.319694125000000,0,0xC085,
0.319702041666667,0,0xC31B,
0.319717875000000,0,0xC0C6,
0.319725750000000,0,0xC41B,
0.319741625000000,0,0xC0C8,
0.319749541666667,0,0xC51B,
0.319765375000000,0,0xDCF9,
0.319773291666667,0,0xC61B,
0.319789125000000,0,0x801D,
0.319797041666667,0,0xC71B,
0.319812875000000,0,0xA3D8,
0.319820833333333,0,0xC81B,
0.319836666666667,0,0x9E39,
0.319844583333333,0,0xC91B,
0.319860416666667,0,0x9E3C,
0.319868333333333,0,0xCA1B,
0.319900541666667,0,0x0004,
0.319908250000000,0,0x0321,
0.319924666666667,0,0x0A01,
0.319932500000000,0,0x8321,
0.319948208333333,0,0x0F00,
0.319956041666667,0,0x8421,
0.319971750000000,0,0x0000,
0.319979625000000,0,0x852B,
0.319995333333333,0,0xB73F,
0.320003166666667,0,0x8621,
0.320033916666667,0,0x0001,
0.320041583333333,0,0x1D25,
0.320057666666667,0,0x0055,
0.320065500000000,0,0x9D25,
0.320093083333333,0,0x0003,
0.320100750000000,0,0x2429,
0.320117083333333,0,0x004C,
0.320124916666667,0,0xA42B,
0.320140625000000,0,0x0040,
0.320148458333333,0,0xA52B,
0.320164166666667,0,0x8000,
0.320172041666667,0,0xA62B,
0.320201041666667,0,0x0005,
0.320208750000000,0,0x2D2D,
0.320225041666667,0,0xA299,
0.320232875000000,0,0xAD2B,
0.320248625000000,0,0xFFFE,
0.320256458333333,0,0xAE2B,
0.320272166666667,0,0x8294,
0.320280041666667,0,0xAF2B,
0.320295708333333,0,0x8000,
0.320303583333333,0,0xB02B,
0.320319291666667,0,0x8300,
0.320327166666667,0,0xB12B,
0.320358458333333,0,0x0006,
0.320366125000000,0,0x3B21,
0.320382125000000,0,0xE519,
0.320389958333333,0,0xBB2B,
0.320405666666667,0,0x8001,
0.320413541666667,0,0xBC2B,
0.320429250000000,0,0x8000,
0.320437125000000,0,0xBD2B,
0.320452791666667,0,0x8000,
0.320460666666667,0,0xBE2B,
0.320476375000000,0,0xE5BB,
0.320484208333333,0,0xBF2B,
0.320499916666667,0,0xE5D1,
0.320507791666667,0,0xC02B,
0.320538958333333,0,0x000A,
0.320546666666667,0,0x4125,
0.320562708333333,0,0xDB4D,
0.320570583333333,0,0xC12B,
0.320586291666667,0,0xDC52,
0.320594166666667,0,0xC22B,
0.320609833333333,0,0xDF36,
0.320617708333333,0,0xC32B,
0.320633416666667,0,0xE11E,
0.320641291666667,0,0xC42B,
0.320656958333333,0,0xA97E,
0.320664833333333,0,0xC52B,
0.320680541666667,0,0xFF4B,
0.320688416666667,0,0xC62B,
0.320704125000000,0,0xC013,
0.320711958333333,0,0xC72B,
0.320727666666667,0,0xA3BA,
0.320735541666667,0,0xC82B,
0.320751250000000,0,0x9E38,
0.320759083333333,0,0xC92B,
0.320774791666667,0,0x9E3E,
0.320782666666667,0,0xCA2B,
0.328402333333333,0,0xCC3F,
0.328410000000000,0,0x060B,
0.328437291666667,0,0x0004,
0.328445000000000,0,0x031D,
0.328461458333333,0,0x0A01,
0.328469375000000,0,0x831D,
0.328485208333333,0,0x0F00,
0.328493125000000,0,0x841D,
0.328508958333333,0,0x0000,
0.328516875000000,0,0x851C,
0.328532708333333,0,0xCF3F,
0.328540666666667,0,0x861D,
0.328570625000000,0,0x0004,
0.328578333333333,0,0x0311,
0.328594583333333,0,0x0A01,
0.328602500000000,0,0x8311,
0.328618333333333,0,0x0F00,
0.328626250000000,0,0x8411,
0.328642083333333,0,0x0000,
0.328650000000000,0,0x851C,
0.328665875000000,0,0xCF3F,
0.328673791666667,0,0x8611,
0.328704958333333,0,0x0004,
0.328712625000000,0,0x0315,
0.328728708333333,0,0x0A01,
0.328736666666667,0,0x8315,
0.328752500000000,0,0x0F00,
0.328760416666667,0,0x8415,
0.328776250000000,0,0x0000,
0.328784166666667,0,0x851C,
0.328800000000000,0,0xCF3F,
0.328807916666667,0,0x8615,
0.328838458333333,0,0x0004,
0.328846125000000,0,0x0319,
0.328862375000000,0,0x0A01,
0.328870333333333,0,0x8319,
0.328886125000000,0,0x0F00,
0.328894041666667,0,0x8419,
0.328909916666667,0,0x0000,
0.328917833333333,0,0x851C,
0.328933666666667,0,0xCF3F,
0.328941583333333,0,0x8619,
0.328972041666667,0,0x0004,
0.328979708333333,0,0x031D,
0.328996000000000,0,0x0A01,
0.329003916666667,0,0x831D,
0.329019750000000,0,0x0F00,
0.329027666666667,0,0x841D,
0.329043500000000,0,0x0000,
0.329051416666667,0,0x851C,
0.329067250000000,0,0xC73F,
0.329075166666667,0,0x861D,
0.329105958333333,0,0x0001,
0.329113625000000,0,0x1D11,
0.329130083333333,0,0x1551,
0.329138000000000,0,0x9D11,
0.329166000000000,0,0x0003,
0.329173708333333,0,0x2415,
0.329189958333333,0,0x0048,
0.329197875000000,0,0xA41C,
0.329213708333333,0,0x0040,
0.329221625000000,0,0xA51C,
0.329237458333333,0,0x0000,
0.329245375000000,0,0xA61C,
0.329274125000000,0,0x0005,
0.329281833333333,0,0x2D19,
0.329297833333333,0,0xA247,
0.329305750000000,0,0xAD1C,
0.329321583333333,0,0xFFFE,
0.329329500000000,0,0xAE1C,
0.329345333333333,0,0x4699,
0.329353208333333,0,0xAF1C,
0.329369083333333,0,0xFFFF,
0.329377000000000,0,0xB01C,
0.329392833333333,0,0x830E,
0.329400750000000,0,0xB11C,
0.329431500000000,0,0x0006,
0.329439166666667,0,0x3B1D,
0.329455166666667,0,0xB3E2,
0.329463083333333,0,0xBB1C,
0.329478916666667,0,0xB32B,
0.329486833333333,0,0xBC1C,
0.329502708333333,0,0xB2BF,
0.329510625000000,0,0xBD1C,
0.329526458333333,0,0xB1FF,
0.329534375000000,0,0xBE1C,
0.329550208333333,0,0xB200,
0.329558125000000,0,0xBF1C,
0.329573958333333,0,0xB271,
0.329581875000000,0,0xC01C,
0.329612875000000,0,0x000A,
0.329620583333333,0,0x4111,
0.329636791666667,0,0xC097,
0.329644708333333,0,0xC11C,
0.329660541666667,0,0xC0C5,
0.329668458333333,0,0xC21C,
0.329684291666667,0,0xC088,
0.329692208333333,0,0xC31C,
0.329708083333333,0,0xC0C6,
0.329716000000000,0,0xC41C,
0.329731833333333,0,0xC0C5,
0.329739750000000,0,0xC51C,
0.329755583333333,0,0xDCF8,
0.329763500000000,0,0xC61C,
0.329779333333333,0,0x8021,
0.329787250000000,0,0xC71C,
0.329803083333333,0,0xA3D7,
0.329811000000000,0,0xC81C,
0.329826833333333,0,0x9E3A,
0.329834750000000,0,0xC91C,
0.329850583333333,0,0x9E38,
0.329858500000000,0,0xCA1C,
0.329891500000000,0,0x0004,
0.329899166666667,0,0x0325,
0.329915583333333,0,0x0A01,
0.329923416666667,0,0x8325,
0.329939166666667,0,0x0F00,
0.329947000000000,0,0x8425,
0.329962708333333,0,0x0000,
0.329970583333333,0,0x852C,
0.329986250000000,0,0xC73F,
0.329994125000000,0,0x8625,
0.330023875000000,0,0x0001,
0.330031541666667,0,0x1D29,
0.330047625000000,0,0x0055,
0.330055500000000,0,0x9D29,
0.330083208333333,0,0x0003,
0.330090916666667,0,0x242D,
0.330107041666667,0,0x004C,
0.330114875000000,0,0xA42C,
0.330130583333333,0,0x0040,
0.330138458333333,0,0xA52C,
0.330154125000000,0,0x8000,
0.330162000000000,0,0xA62C,
0.330191291666667,0,0x0005,
0.330199000000000,0,0x2D21,
0.330215000000000,0,0xA3A5,
0.330222875000000,0,0xAD2C,
0.330238583333333,0,0xFFFE,
0.330246458333333,0,0xAE2C,
0.330262166666667,0,0x7FF6,
0.330270000000000,0,0xAF2C,
0.330285708333333,0,0x8000,
0.330293541666667,0,0xB02C,
0.330309250000000,0,0x8303,
0.330317125000000,0,0xB12C,
0.330346875000000,0,0x0006,
0.330354541666667,0,0x3B25,
0.330370625000000,0,0xE517,
0.330378458333333,0,0xBB2C,
0.330394166666667,0,0x8001,
0.330402041666667,0,0xBC2C,
0.330417750000000,0,0x8002,
0.330425625000000,0,0xBD2C,
0.330441333333333,0,0x8002,
0.330449166666667,0,0xBE2C,
0.330464875000000,0,0xE5B8,
0.330472708333333,0,0xBF2C,
0.330488416666667,0,0xE5CF,
0.330496291666667,0,0xC02C,
0.330526875000000,0,0x000A,
0.330534541666667,0,0x4129,
0.330550750000000,0,0xDB4F,
0.330558625000000,0,0xC12C,
0.330574333333333,0,0xDC53,
0.330582166666667,0,0xC22C,
0.330597875000000,0,0xDF3D,
0.330605750000000,0,0xC32C,
0.330621458333333,0,0xE11E,
0.330629291666667,0,0xC42C,
0.330645000000000,0,0xA97C,
0.330652875000000,0,0xC52C,
0.330668541666667,0,0xFF49,
0.330676416666667,0,0xC62C,
0.330692125000000,0,0xC013,
0.330700000000000,0,0xC72C,
0.330715708333333,0,0xA3BC,
0.330723541666667,0,0xC82C,
0.330739291666667,0,0x9E3A,
0.330747125000000,0,0xC92C,
0.330762833333333,0,0x9E42,
0.330770708333333,0,0xCA2C,
0.338423500000000,0,0xDC3F,
0.338431166666667,0,0x060F,
0.338458083333333,0,0x0004,
0.338465750000000,0,0x0311,
0.338482250000000,0,0x0A01,
0.338490166666667,0,0x8311,
0.338506000000000,0,0x0F00,
0.338513916666667,0,0x8411,
0.338529750000000,0,0x0000,
0.338537666666667,0,0x851D,
0.338553541666667,0,0xDF3F,
0.338561458333333,0,0x8611,
0.338592708333333,0,0x0004,
0.338600416666667,0,0x0315,
0.338616375000000,0,0x0A01,
0.338624333333333,0,0x8315,
0.338640125000000,0,0x0F00,
0.338648041666667,0,0x8415,
0.338663875000000,0,0x0000,
0.338671833333333,0,0x851D,
0.338687666666667,0,0xDF3F,
0.338695583333333,0,0x8615,
0.338726375000000,0,0x0004,
0.338734041666667,0,0x0319,
0.338750500000000,0,0x0A01,
0.338758458333333,0,0x8319,
0.338774291666667,0,0x0F00,
0.338782208333333,0,0x8419,
0.338798041666667,0,0x0000,
0.338805958333333,0,0x851D,
0.338821791666667,0,0xDF3F,
0.338829708333333,0,0x8619,
0.338860666666667,0,0x0004,
0.338868333333333,0,0x031D,
0.338884666666667,0,0x0A01,
0.338892541666667,0,0x831D,
0.338908375000000,0,0x0F00,
0.338916291666667,0,0x841D,
0.338932125000000,0,0x0000,
0.338940041666667,0,0x851D,
0.338955916666667,0,0xDF3F,
0.338963791666667,0,0x861D,
0.338994291666667,0,0x0004,
0.339001958333333,0,0x0311,
0.339018208333333,0,0x0A01,
0.339026166666667,0,0x8311,
0.339041958333333,0,0x0F00,
0.339049916666667,0,0x8411,
0.339065708333333,0,0x0000,
0.339073625000000,0,0x851D,
0.339089500000000,0,0xD73F,
0.339097375000000,0,0x8611,
0.339128125000000,0,0x0001,
0.339135791666667,0,0x1D15,
0.339151791666667,0,0x1551,
0.339159708333333,0,0x9D15,
0.339187708333333,0,0x0003,
0.339195375000000,0,0x2419,
0.339211666666667,0,0x0048,
0.339219583333333,0,0xA41D,
0.339235416666667,0,0x0040,
0.339243333333333,0,0xA51D,
0.339259166666667,0,0x0000,
0.339267083333333,0,0xA61D,
0.339296041666667,0,0x0005,
0.339303708333333,0,0x2D1D,
0.339320041666667,0,0xA352,
0.339327958333333,0,0xAD1D,
0.339343750000000,0,0xFFFE,
0.339351666666667,0,0xAE1D,
0.339367500000000,0,0x43FB,
0.339375416666667,0,0xAF1D,
0.339391250000000,0,0xFFFF,
0.339399166666667,0,0xB01D,
0.339415000000000,0,0x830A,
0.339422916666667,0,0xB11D,
0.339453666666667,0,0x0006,
0.339461375000000,0,0x3B11,
0.339477333333333,0,0xB3DE,
0.339485250000000,0,0xBB1D,
0.339501083333333,0,0xB32D,
0.339509000000000,0,0xBC1D,
0.339524833333333,0,0xB2BC,
0.339532750000000,0,0xBD1D,
0.339548583333333,0,0xB1FE,
0.339556500000000,0,0xBE1D,
0.339572333333333,0,0xB200,
0.339580250000000,0,0xBF1D,
0.339596083333333,0,0xB273,
0.339604000000000,0,0xC01D,
0.339633625000000,0,0x000A,
0.339641333333333,0,0x4115,
0.339657416666667,0,0xC090,
0.339665333333333,0,0xC11D,
0.339681166666667,0,0xC0BD,
0.339689083333333,0,0xC21D,
0.339704916666667,0,0xC082,
0.339712833333333,0,0xC31D,
0.339728666666667,0,0xC0C1,
0.339736583333333,0,0xC41D,
0.339752416666667,0,0xC0BF,
0.339760333333333,0,0xC51D,
0.339776166666667,0,0xDCF7,
0.339784083333333,0,0xC61D,
0.339799916666667,0,0x801A,
0.339807833333333,0,0xC71D,
0.339823666666667,0,0xA3D5,
0.339831583333333,0,0xC81D,
0.339847416666667,0,0x9E36,
0.339855333333333,0,0xC91D,
0.339871166666667,0,0x9E3A,
0.339879083333333,0,0xCA1D,
0.339911625000000,0,0x0004,
0.339919291666667,0,0x0329,
0.339935458333333,0,0x0A01,
0.339943333333333,0,0x8329,
0.339959041666667,0,0x0F00,
0.339966875000000,0,0x8429,
0.339982583333333,0,0x0000,
0.339990458333333,0,0x852D,
0.340006166666667,0,0xD73F,
0.340014041666667,0,0x8629,
0.340043875000000,0,0x0001,
0.340051541666667,0,0x1D2D,
0.340067541666667,0,0x0055,
0.340075416666667,0,0x9D2D,
0.340103666666667,0,0x0003,
0.340111333333333,0,0x2421,
0.340127416666667,0,0x004C,
0.340135291666667,0,0xA42D,
0.340151000000000,0,0x0040,
0.340158875000000,0,0xA52D,
0.340174583333333,0,0x8000,
0.340182416666667,0,0xA62D,
0.340211916666667,0,0x0005,
0.340219583333333,0,0x2D25,
0.340235916666667,0,0xA4B1,
0.340243791666667,0,0xAD2D,
0.340259500000000,0,0xFFFE,
0.340267333333333,0,0xAE2D,
0.340283041666667,0,0x7E3F,
0.340290916666667,0,0xAF2D,
0.340306625000000,0,0xFFFF,
0.340314500000000,0,0xB02D,
0.340330208333333,0,0x830B,
0.340338041666667,0,0xB12D,
0.340369416666667,0,0x0006,
0.340377083333333,0,0x3B29,
0.340393041666667,0,0xE519,
0.340400875000000,0,0xBB2D,
0.340416583333333,0,0x8000,
0.340424458333333,0,0xBC2D,
0.340440166666667,0,0x8000,
0.340448000000000,0,0xBD2D,
0.340463708333333,0,0x8000,
0.340471583333333,0,0xBE2D,
0.340487291666667,0,0xE5BF,
0.340495125000000,0,0xBF2D,
0.340510833333333,0,0xE5D5,
0.340518708333333,0,0xC02D,
0.340549125000000,0,0x000A,
0.340556791666667,0,0x412D,
0.340573208333333,0,0xDB4B,
0.340581041666667,0,0xC12D,
0.340596750000000,0,0xDC51,
0.340604625000000,0,0xC22D,
0.340620333333333,0,0xDF36,
0.340628208333333,0,0xC32D,
0.340643916666667,0,0xE120,
0.340651750000000,0,0xC42D,
0.340667458333333,0,0xA97C,
0.340675291666667,0,0xC52D,
0.340691041666667,0,0xFF47,
0.340698916666667,0,0xC62D,
0.340714625000000,0,0xC016,
0.340722458333333,0,0xC72D,
0.340738166666667,0,0xA3B8,
0.340746041666667,0,0xC82D,
0.340761750000000,0,0x9E37,
0.340769583333333,0,0xC92D,
0.340785291666667,0,0x9E40,
0.340793166666667,0,0xCA2D,
0.348400208333333,0,0xEC3F,
0.348407875000000,0,0x0603,
0.348435541666667,0,0x0004,
0.348443208333333,0,0x0315,
0.348459250000000,0,0x0A01,
0.348467166666667,0,0x8315,
0.348483000000000,0,0x0F00,
0.348490916666667,0,0x8415,
0.348506750000000,0,0x0000,
0.348514666666667,0,0x851E,
0.348530500000000,0,0xEF3F,
0.348538458333333,0,0x8615,
0.348569125000000,0,0x0004,
0.348576791666667,0,0x0319,
0.348592875000000,0,0x0A01,
0.348600833333333,0,0x8319,
0.348616666666667,0,0x0F00,
0.348624583333333,0,0x8419,
0.348640416666667,0,0x0000,
0.348648333333333,0,0x851E,
0.348664208333333,0,0xEF3F,
0.348672125000000,0,0x8619,
0.348703208333333,0,0x0004,
0.348710875000000,0,0x031D,
0.348727041666667,0,0x0A01,
0.348734958333333,0,0x831D,
0.348750833333333,0,0x0F00,
0.348758750000000,0,0x841D,
0.348774583333333,0,0x0000,
0.348782500000000,0,0x851E,
0.348798333333333,0,0xEF3F,
0.348806250000000,0,0x861D,
0.348836708333333,0,0x0004,
0.348844375000000,0,0x0311,
0.348860708333333,0,0x0A01,
0.348868625000000,0,0x8311,
0.348884458333333,0,0x0F00,
0.348892375000000,0,0x8411,
0.348908208333333,0,0x0000,
0.348916125000000,0,0x851E,
0.348931958333333,0,0xEF3F,
0.348939875000000,0,0x8611,
0.348970833333333,0,0x0004,
0.348978500000000,0,0x0315,
0.348994791666667,0,0x0A01,
0.349002708333333,0,0x8315,
0.349018583333333,0,0x0F00,
0.349026458333333,0,0x8415,
0.349042291666667,0,0x0000,
0.349050250000000,0,0x851E,
0.349066083333333,0,0xE73F,
0.349074000000000,0,0x8615,
0.349104500000000,0,0x0001,
0.349112166666667,0,0x1D19,
0.349128416666667,0,0x1551,
0.349136333333333,0,0x9D19,
0.349163958333333,0,0x0003,
0.349171625000000,0,0x241D,
0.349187791666667,0,0x0048,
0.349195708333333,0,0xA41E,
0.349211541666667,0,0x0040,
0.349219458333333,0,0xA51E,
0.349235291666667,0,0x0000,
0.349243208333333,0,0xA61E,
0.349271916666667,0,0x0005,
0.349279583333333,0,0x2D11,
0.349295666666667,0,0xA45B,
0.349303583333333,0,0xAD1E,
0.349319416666667,0,0xFFFE,
0.349327333333333,0,0xAE1E,
0.349343166666667,0,0x40D7,
0.349351083333333,0,0xAF1E,
0.349366875000000,0,0xFFFF,
0.349374833333333,0,0xB01E,
0.349390666666667,0,0x830C,
0.349398583333333,0,0xB11E,
0.349428625000000,0,0x0006,
0.349436291666667,0,0x3B15,
0.349452500000000,0,0xB3DE,
0.349460416666667,0,0xBB1E,
0.349476250000000,0,0xB32A,
0.349484166666667,0,0xBC1E,
0.349500000000000,0,0xB2BA,
0.349507916666667,0,0xBD1E,
0.349523750000000,0,0xB200,
0.349531666666667,0,0xBE1E,
0.349547500000000,0,0xB1FF,
0.349555416666667,0,0xBF1E,
0.349571250000000,0,0xB272,
0.349579166666667,0,0xC01E,
0.349609375000000,0,0x000A,
0.349617041666667,0,0x4119,
0.349633083333333,0,0xC092,
0.349641000000000,0,0xC11E,
0.349656875000000,0,0xC0C5,
0.349664791666667,0,0xC21E,
0.349680625000000,0,0xC083,
0.349688541666667,0,0xC31E,
0.349704375000000,0,0xC0C5,
0.349712291666667,0,0xC41E,
0.349728125000000,0,0xC0C4,
0.349736041666667,0,0xC51E,
0.349751875000000,0,0xDCF6,
0.349759791666667,0,0xC61E,
0.349775625000000,0,0x8017,
0.349783541666667,0,0xC71E,
0.349799375000000,0,0xA3D7,
0.349807250000000,0,0xC81E,
0.349823083333333,0,0x9E34,
0.349831000000000,0,0xC91E,
0.349846833333333,0,0x9E39,
0.349854750000000,0,0xCA1E,
0.349886791666667,0,0x0004,
0.349894458333333,0,0x032D,
0.349910833333333,0,0x0A01,
0.349918708333333,0,0x832D,
0.349934416666667,0,0x0F00,
0.349942250000000,0,0x842D,
0.349957958333333,0,0x0000,
0.349965833333333,0,0x852E,
0.349981541666667,0,0xE73F,
0.349989375000000,0,0x862D,
0.350019750000000,0,0x0001,
0.350027416666667,0,0x1D21,
0.350043375000000,0,0x0055,
0.350051208333333,0,0x9D21,
0.350079333333333,0,0x0003,
0.350087000000000,0,0x2425,
0.350103250000000,0,0x004C,
0.350111125000000,0,0xA42E,
0.350126833333333,0,0x0040,
0.350134666666667,0,0xA52E,
0.350150416666667,0,0x8000,
0.350158250000000,0,0xA62E,
0.350187625000000,0,0x0005,
0.350195333333333,0,0x2D29,
0.350211250000000,0,0xA5BD,
0.350219125000000,0,0xAD2E,
0.350234833333333,0,0xFFFE,
0.350242666666667,0,0xAE2E,
0.350258375000000,0,0x7BB0,
0.350266250000000,0,0xAF2E,
0.350281958333333,0,0xFFFF,
0.350289791666667,0,0xB02E,
0.350305500000000,0,0x8308,
0.350313333333333,0,0xB12E,
0.350342750000000,0,0x0006,
0.350350416666667,0,0x3B2D,
0.350366375000000,0,0xE518,
0.350374250000000,0,0xBB2E,
0.350389916666667,0,0x8000,
0.350397791666667,0,0xBC2E,
0.350413500000000,0,0x8001,
0.350421333333333,0,0xBD2E,
0.350437041666667,0,0x8000,
0.350444916666667,0,0xBE2E,
0.350460625000000,0,0xE5BB,
0.350468458333333,0,0xBF2E,
0.350484166666667,0,0xE5D3,
0.350492041666667,0,0xC02E,
0.350522416666667,0,0x000A,
0.350530083333333,0,0x4121,
0.350546500000000,0,0xDB4F,
0.350554375000000,0,0xC12E,
0.350570083333333,0,0xDC53,
0.350577916666667,0,0xC22E,
0.350593625000000,0,0xDF37,
0.350601500000000,0,0xC32E,
0.350617208333333,0,0xE11C,
0.350625041666667,0,0xC42E,
0.350640750000000,0,0xA979,
0.350648583333333,0,0xC52E,
0.350664291666667,0,0xFF49,
0.350672166666667,0,0xC62E,
0.350687875000000,0,0xC011,
0.350695750000000,0,0xC72E,
0.350711458333333,0,0xA3BA,
0.350719291666667,0,0xC82E,
0.350735000000000,0,0x9E3A,
0.350742875000000,0,0xC92E,
0.350758583333333,0,0x9E3A,
0.350766416666667,0,0xCA2E,
0.358559375000000,0,0xFC3F,
0.358567041666667,0,0x0607,
0.358595125000000,0,0x0004,
0.358602791666667,0,0x0319,
0.358619166666667,0,0x0A01,
0.358627041666667,0,0x8319,
0.358642916666667,0,0x0F00,
0.358650833333333,0,0x8419,
0.358666666666667,0,0x0000,
0.358674583333333,0,0x851F,
0.358690416666667,0,0xFF3F,
0.358698333333333,0,0x8619,
0.358729416666667,0,0x0004,
0.358737083333333,0,0x031D,
0.358753250000000,0,0x0A01,
0.358761208333333,0,0x831D,
0.358777041666667,0,0x0F00,
0.358784958333333,0,0x841D,
0.358800791666667,0,0x0000,
0.358808708333333,0,0x851F,
0.358824541666667,0,0xFF3F,
0.358832458333333,0,0x861D,
0.358863333333333,0,0x0004,
0.358871000000000,0,0x0311,
0.358887416666667,0,0x0A01,
0.358895333333333,0,0x8311,
0.358911166666667,0,0x0F00,
0.358919083333333,0,0x8411,
0.358934916666667,0,0x0000,
0.358942833333333,0,0x851F,
0.358958666666667,0,0xFF3F,
0.358966625000000,0,0x8611,
0.358997541666667,0,0x0004,
0.359005250000000,0,0x0315,
0.359021541666667,0,0x0A01,
0.359029458333333,0,0x8315,
0.359045291666667,0,0x0F00,
0.359053208333333,0,0x8415,
0.359069083333333,0,0x0000,
0.359077000000000,0,0x851F,
0.359092833333333,0,0xFF3F,
0.359100750000000,0,0x8615,
0.359131000000000,0,0x0004,
0.359138666666667,0,0x0319,
0.359154708333333,0,0x0A01,
0.359162625000000,0,0x8319,
0.359178458333333,0,0x0F00,
0.359186375000000,0,0x8419,
0.359202208333333,0,0x0000,
0.359210125000000,0,0x851F,
0.359225958333333,0,0xF73F,
0.359233875000000,0,0x8619,
0.359265166666667,0,0x0001,
0.359272833333333,0,0x1D1D,
0.359289291666667,0,0x1551,
0.359297208333333,0,0x9D1D,
0.359325625000000,0,0x0003,
0.359333291666667,0,0x2411,
0.359349666666667,0,0x0048,
0.359357541666667,0,0xA41F,
0.359373375000000,0,0x0040,
0.359381291666667,0,0xA51F,
0.359397125000000,0,0x0000,
0.359405083333333,0,0xA61F,
0.359433916666667,0,0x0005,
0.359441625000000,0,0x2D15,
0.359458000000000,0,0xA569,
0.359465916666667,0,0xAD1F,
0.359481750000000,0,0xFFFE,
0.359489666666667,0,0xAE1F,
0.359505500000000,0,0x3DBA,
0.359513416666667,0,0xAF1F,
0.359529250000000,0,0x8000,
0.359537166666667,0,0xB01F,
0.359553000000000,0,0x8303,
0.359560916666667,0,0xB11F,
0.359590791666667,0,0x0006,
0.359598500000000,0,0x3B19,
0.359614875000000,0,0xB3E0,
0.359622791666667,0,0xBB1F,
0.359638583333333,0,0xB32C,
0.359646541666667,0,0xBC1F,
0.359662375000000,0,0xB2BD,
0.359670291666667,0,0xBD1F,
0.359686125000000,0,0xB1FF,
0.359694041666667,0,0xBE1F,
0.359709875000000,0,0xB201,
0.359717791666667,0,0xBF1F,
0.359733625000000,0,0xB274,
0.359741583333333,0,0xC01F,
0.359771666666667,0,0x000A,
0.359779375000000,0,0x411D,
0.359795500000000,0,0xC098,
0.359803416666667,0,0xC11F,
0.359819250000000,0,0xC0C4,
0.359827166666667,0,0xC21F,
0.359843000000000,0,0xC085,
0.359850916666667,0,0xC31F,
0.359866708333333,0,0xC0C6,
0.359874666666667,0,0xC41F,
0.359890500000000,0,0xC0C2,
0.359898416666667,0,0xC51F,
0.359914250000000,0,0xDCF9,
0.359922166666667,0,0xC61F,
0.359938000000000,0,0x801C,
0.359945916666667,0,0xC71F,
0.359961750000000,0,0xA3D5,
0.359969666666667,0,0xC81F,
0.359985500000000,0,0x9E39,
0.359993416666667,0,0xC91F,
0.360009250000000,0,0x9E3C,
0.360017166666667,0,0xCA1F,
0.360048916666667,0,0x0004,
0.360056583333333,0,0x0321,
0.360072958333333,0,0x0A01,
0.360080833333333,0,0x8321,
0.360096541666667,0,0x0F00,
0.360104416666667,0,0x8421,
0.360120125000000,0,0x0000,
0.360127958333333,0,0x852F,
0.360143666666667,0,0xF73F,
0.360151541666667,0,0x8621,
0.360182041666667,0,0x0001,
0.360189750000000,0,0x1D25,
0.360206000000000,0,0x0055,
0.360213875000000,0,0x9D25,
0.360242041666667,0,0x0003,
0.360249708333333,0,0x2429,
0.360265916666667,0,0x004C,
0.360273750000000,0,0xA42F,
0.360289458333333,0,0x0040,
0.360297333333333,0,0xA52F,
0.360313000000000,0,0x8000,
0.360320875000000,0,0xA62F,
0.360349708333333,0,0x0005,
0.360357375000000,0,0x2D2D,
0.360373416666667,0,0xA6CD,
0.360381250000000,0,0xAD2F,
0.360396958333333,0,0xFFFE,
0.360404791666667,0,0xAE2F,
0.360420500000000,0,0x799B,
0.360428375000000,0,0xAF2F,
0.360444083333333,0,0x8000,
0.360451916666667,0,0xB02F,
0.360467625000000,0,0x8301,
0.360475500000000,0,0xB12F,
0.360505291666667,0,0x0006,
0.360512958333333,0,0x3B21,
0.360529000000000,0,0xE51F,
0.360536875000000,0,0xBB2F,
0.360552583333333,0,0x8000,
0.360560458333333,0,0xBC2F,
0.360576166666667,0,0x8000,
0.360584000000000,0,0xBD2F,
0.360599708333333,0,0x8002,
0.360607583333333,0,0xBE2F,
0.360623291666667,0,0xE5BC,
0.360631125000000,0,0xBF2F,
0.360646833333333,0,0xE5D6,
0.360654708333333,0,0xC02F,
0.360685041666667,0,0x000A,
0.360692750000000,0,0x4125,
0.360708708333333,0,0xDB4B,
0.360716583333333,0,0xC12F,
0.360732250000000,0,0xDC56,
0.360740125000000,0,0xC22F,
0.360755833333333,0,0xDF36,
0.360763666666667,0,0xC32F,
0.360779375000000,0,0xE122,
0.360787250000000,0,0xC42F,
0.360802958333333,0,0xA97E,
0.360810791666667,0,0xC52F,
0.360826500000000,0,0xFF4A,
0.360834375000000,0,0xC62F,
0.360850083333333,0,0xC014,
0.360857916666667,0,0xC72F,
0.360873625000000,0,0xA3BB,
0.360881500000000,0,0xC82F,
0.360897208333333,0,0x9E3A,
0.360905041666667,0,0xC92F,
0.360920750000000,0,0x9E3E,
0.360928625000000,0,0xCA2F,
0.368411875000000,0,0x0C3F,
0.368419583333333,0,0x060B,
0.368447291666667,0,0x0004,
0.368454958333333,0,0x031D,
0.368471000000000,0,0x0A01,
0.368478916666667,0,0x831D,
0.368494750000000,0,0x0F00,
0.368502666666667,0,0x841D,
0.368518500000000,0,0x0000,
0.368526416666667,0,0x8510,
0.368542250000000,0,0x0F3F,
0.368550166666667,0,0x861D,
0.368580708333333,0,0x0004,
0.368588375000000,0,0x0311,
0.368604625000000,0,0x0A01,
0.368612541666667,0,0x8311,
0.368628375000000,0,0x0F00,
0.368636291666667,0,0x8411,
0.368652125000000,0,0x0000,
0.368660083333333,0,0x8510,
0.368675916666667,0,0x0F3F,
0.368683833333333,0,0x8611,
0.368715166666667,0,0x0004,
0.368722833333333,0,0x0315,
0.368739250000000,0,0x0A01,
0.368747166666667,0,0x8315,
0.368763000000000,0,0x0F00,
0.368770916666667,0,0x8415,
0.368786750000000,0,0x0000,
0.368794666666667,0,0x8510,
0.368810500000000,0,0x0F3F,
0.368818458333333,0,0x8615,
0.368849916666667,0,0x0004,
0.368857625000000,0,0x0319,
0.368873916666667,0,0x0A01,
0.368881833333333,0,0x8319,
0.368897666666667,0,0x0F00,
0.368905583333333,0,0x8419,
0.368921416666667,0,0x0000,
0.368929333333333,0,0x8510,
0.368945166666667,0,0x0F3F,
0.368953083333333,0,0x8619,
0.368984250000000,0,0x0004,
0.368991958333333,0,0x031D,
0.369008000000000,0,0x0A01,
0.369015916666667,0,0x831D,
0.369031750000000,0,0x0F00,
0.369039666666667,0,0x841D,
0.369055500000000,0,0x0000,
0.369063416666667,0,0x8510,
0.369079250000000,0,0x073F,
0.369087166666667,0,0x861D,
0.369117291666667,0,0x0001,
0.369124958333333,0,0x1D11,
0.369141083333333,0,0x1551,
0.369149000000000,0,0x9D11,
0.369177166666667,0,0x0003,
0.369184875000000,0,0x2415,
0.369200958333333,0,0x0048,
0.369208875000000,0,0xA410,
0.369224708333333,0,0x0040,
0.369232625000000,0,0xA510,
0.369248458333333,0,0x0000,
0.369256375000000,0,0xA610,
0.369285458333333,0,0x0005,
0.369293166666667,0,0x2D19,
0.369309291666667,0,0xA66F,
0.369317250000000,0,0xAD10,
0.369333083333333,0,0xFFFE,
0.369341000000000,0,0xAE10,
0.369356833333333,0,0x3B00,
0.369364750000000,0,0xAF10,
0.369380541666667,0,0xFFFF,
0.369388500000000,0,0xB010,
0.369404333333333,0,0x830B,
0.369412250000000,0,0xB110,
0.369443000000000,0,0x0006,
0.369450708333333,0,0x3B1D,
0.369466666666667,0,0xB3E2,
0.369474583333333,0,0xBB10,
0.369490416666667,0,0xB32E,
0.369498333333333,0,0xBC10,
0.369514166666667,0,0xB2C0,
0.369522083333333,0,0xBD10,
0.369537916666667,0,0xB200,
0.369545833333333,0,0xBE10,
0.369561625000000,0,0xB1FF,
0.369569583333333,0,0xBF10,
0.369585375000000,0,0xB270,
0.369593291666667,0,0xC010,
0.369623958333333,0,0x000A,
0.369631625000000,0,0x4111,
0.369647708333333,0,0xC095,
0.369655625000000,0,0xC110,
0.369671458333333,0,0xC0C2,
0.369679375000000,0,0xC210,
0.369695208333333,0,0xC083,
0.369703125000000,0,0xC310,
0.369719000000000,0,0xC0C3,
0.369726875000000,0,0xC410,
0.369742708333333,0,0xC0C4,
0.369750625000000,0,0xC510,
0.369766458333333,0,0xDCF6,
0.369774375000000,0,0xC610,
0.369790208333333,0,0x8019,
0.369798125000000,0,0xC710,
0.369813958333333,0,0xA3D6,
0.369821875000000,0,0xC810,
0.369837708333333,0,0x9E36,
0.369845625000000,0,0xC910,
0.369861458333333,0,0x9E3C,
0.369869375000000,0,0xCA10,
0.369901708333333,0,0x0004,
0.369909375000000,0,0x0325,
0.369925375000000,0,0x0A01,
0.369933208333333,0,0x8325,
0.369948916666667,0,0x0F00,
0.369956791666667,0,0x8425,
0.369972500000000,0,0x0000,
0.369980333333333,0,0x8520,
0.369996041666667,0,0x073F,
0.370003916666667,0,0x8625,
0.370034333333333,0,0x0001,
0.370042000000000,0,0x1D29,
0.370058416666667,0,0x0055,
0.370066250000000,0,0x9D29,
0.370093916666667,0,0x0003,
0.370101583333333,0,0x242D,
0.370117791666667,0,0x004C,
0.370125666666667,0,0xA420,
0.370141333333333,0,0x0040,
0.370149208333333,0,0xA520,
0.370164916666667,0,0x8000,
0.370172750000000,0,0xA620,
0.370201791666667,0,0x0005,
0.370209458333333,0,0x2D21,
0.370225791666667,0,0xA7D5,
0.370233625000000,0,0xAD20,
0.370249333333333,0,0xFFFE,
0.370257166666667,0,0xAE20,
0.370272875000000,0,0x7708,
0.370280750000000,0,0xAF20,
0.370296458333333,0,0xFFFF,
0.370304291666667,0,0xB020,
0.370320000000000,0,0x830A,
0.370327875000000,0,0xB120,
0.370358916666667,0,0x0006,
0.370366625000000,0,0x3B25,
0.370382875000000,0,0xE51C,
0.370390708333333,0,0xBB20,
0.370406416666667,0,0x8004,
0.370414291666667,0,0xBC20,
0.370429958333333,0,0x8000,
0.370437833333333,0,0xBD20,
0.370453541666667,0,0x8000,
0.370461375000000,0,0xBE20,
0.370477083333333,0,0xE5B9,
0.370484958333333,0,0xBF20,
0.370500666666667,0,0xE5D2,
0.370508500000000,0,0xC020,
0.370538750000000,0,0x000A,
0.370546416666667,0,0x4129,
0.370562500000000,0,0xDB4E,
0.370570375000000,0,0xC120,
0.370586083333333,0,0xDC55,
0.370593916666667,0,0xC220,
0.370609625000000,0,0xDF3B,
0.370617500000000,0,0xC320,
0.370633208333333,0,0xE121,
0.370641041666667,0,0xC420,
0.370656791666667,0,0xA97B,
0.370664625000000,0,0xC520,
0.370680333333333,0,0xFF49,
0.370688166666667,0,0xC620,
0.370703875000000,0,0xC015,
0.370711750000000,0,0xC720,
0.370727458333333,0,0xA3BC,
0.370735333333333,0,0xC820,
0.370751041666667,0,0x9E39,
0.370758875000000,0,0xC920,
0.370774583333333,0,0x9E40,
0.370782458333333,0,0xCA20,
0.378441000000000,0,0x1C3F,
0.378448666666667,0,0x060F,
0.378476375000000,0,0x0004,
0.378484083333333,0,0x0311,
0.378500541666667,0,0x0A01,
0.378508458333333,0,0x8311,
0.378524291666667,0,0x0F00,
0.378532208333333,0,0x8411,
0.378548083333333,0,0x0000,
0.378556000000000,0,0x8511,
0.378571833333333,0,0x1F3F,
0.378579750000000,0,0x8611,
0.378610583333333,0,0x0004,
0.378618250000000,0,0x0315,
0.378634666666667,0,0x0A01,
0.378642583333333,0,0x8315,
0.378658416666667,0,0x0F00,
0.378666333333333,0,0x8415,
0.378682166666667,0,0x0000,
0.378690125000000,0,0x8511,
0.378705916666667,0,0x1F3F,
0.378713833333333,0,0x8615,
0.378744166666667,0,0x0004,
0.378751833333333,0,0x0319,
0.378767791666667,0,0x0A01,
0.378775708333333,0,0x8319,
0.378791541666667,0,0x0F00,
0.378799458333333,0,0x8419,
0.378815291666667,0,0x0000,
0.378823250000000,0,0x8511,
0.378839083333333,0,0x1F3F,
0.378847000000000,0,0x8619,
0.378877916666667,0,0x0004,
0.378885583333333,0,0x031D,
0.378901916666667,0,0x0A01,
0.378909833333333,0,0x831D,
0.378925708333333,0,0x0F00,
0.378933625000000,0,0x841D,
0.378949458333333,0,0x0000,
0.378957375000000,0,0x8511,
0.378973208333333,0,0x1F3F,
0.378981125000000,0,0x861D,
0.379011708333333,0,0x0004,
0.379019416666667,0,0x0311,
0.379035583333333,0,0x0A01,
0.379043500000000,0,0x8311,
0.379059333333333,0,0x0F00,
0.379067250000000,0,0x8411,
0.379083083333333,0,0x0000,
0.379091000000000,0,0x8511,
0.379106833333333,0,0x173F,
0.379114750000000,0,0x8611,
0.379145083333333,0,0x0001,
0.379152750000000,0,0x1D15,
0.379169208333333,0,0x1551,
0.379177125000000,0,0x9D15,
0.379205000000000,0,0x0003,
0.379212708333333,0,0x2419,
0.379229083333333,0,0x0048,
0.379237000000000,0,0xA411,
0.379252833333333,0,0x0040,
0.379260750000000,0,0xA511,
0.379276583333333,0,0x0000,
0.379284500000000,0,0xA611,
0.379313125000000,0,0x0005,
0.379320791666667,0,0x2D1D,
0.379336916666667,0,0xA77A,
0.379344833333333,0,0xAD11,
0.379360666666667,0,0xFFFE,
0.379368583333333,0,0xAE11,
0.379384416666667,0,0x381B,
0.379392333333333,0,0xAF11,
0.379408208333333,0,0x8000,
0.379416083333333,0,0xB011,
0.379431958333333,0,0x8301,
0.379439875000000,0,0xB111,
0.379470250000000,0,0x0006,
0.379477958333333,0,0x3B11,
0.379494291666667,0,0xB3DB,
0.379502208333333,0,0xBB11,
0.379518041666667,0,0xB329,
0.379525958333333,0,0xBC11,
0.379541791666667,0,0xB2BA,
0.379549708333333,0,0xBD11,
0.379565541666667,0,0xB1FE,
0.379573458333333,0,0xBE11,
0.379589291666667,0,0xB202,
0.379597208333333,0,0xBF11,
0.379613041666667,0,0xB26E,
0.379620958333333,0,0xC011,
0.379651666666667,0,0x000A,
0.379659375000000,0,0x4115,
0.379675416666667,0,0xC09A,
0.379683333333333,0,0xC111,
0.379699166666667,0,0xC0C4,
0.379707083333333,0,0xC211,
0.379722916666667,0,0xC085,
0.379730833333333,0,0xC311,
0.379746666666667,0,0xC0C4,
0.379754625000000,0,0xC411,
0.379770416666667,0,0xC0C8,
0.379778375000000,0,0xC511,
0.379794208333333,0,0xDCF8,
0.379802125000000,0,0xC611,
0.379817958333333,0,0x801E,
0.379825875000000,0,0xC711,
0.379841708333333,0,0xA3D7,
0.379849625000000,0,0xC811,
0.379865458333333,0,0x9E3A,
0.379873375000000,0,0xC911,
0.379889208333333,0,0x9E3B,
0.379897125000000,0,0xCA11,
0.379929000000000,0,0x0004,
0.379936666666667,0,0x0329,
0.379952833333333,0,0x0A01,
0.379960708333333,0,0x8329,
0.379976375000000,0,0x0F00,
0.379984250000000,0,0x8429,
0.379999958333333,0,0x0000,
0.380007833333333,0,0x8521,
0.380023541666667,0,0x173F,
0.380031416666667,0,0x8629,
0.380062250000000,0,0x0001,
0.380069916666667,0,0x1D2D,
0.380085875000000,0,0x0055,
0.380093750000000,0,0x9D2D,
0.380122000000000,0,0x0003,
0.380129666666667,0,0x2421,
0.380145791666667,0,0x004C,
0.380153625000000,0,0xA421,
0.380169333333333,0,0x0040,
0.380177208333333,0,0xA521,
0.380192916666667,0,0x8000,
0.380200750000000,0,0xA621,
0.380229500000000,0,0x0005,
0.380237166666667,0,0x2D25,
0.380253291666667,0,0xA8E2,
0.380261125000000,0,0xAD21,
0.380276833333333,0,0xFFFE,
0.380284708333333,0,0xAE21,
0.380300416666667,0,0x7436,
0.380308250000000,0,0xAF21,
0.380324000000000,0,0x8000,
0.380331833333333,0,0xB021,
0.380347541666667,0,0x8300,
0.380355416666667,0,0xB121,
0.380386541666667,0,0x0006,
0.380394208333333,0,0x3B29,
0.380410375000000,0,0xE515,
0.380418250000000,0,0xBB21,
0.380433958333333,0,0x8000,
0.380441791666667,0,0xBC21,
0.380457500000000,0,0x8000,
0.380465333333333,0,0xBD21,
0.380481083333333,0,0x8003,
0.380488916666667,0,0xBE21,
0.380504625000000,0,0xE5C0,
0.380512500000000,0,0xBF21,
0.380528208333333,0,0xE5D5,
0.380536041666667,0,0xC021,
0.380566416666667,0,0x000A,
0.380574083333333,0,0x412D,
0.380590083333333,0,0xDB4D,
0.380597916666667,0,0xC121,
0.380613625000000,0,0xDC52,
0.380621500000000,0,0xC221,
0.380637208333333,0,0xDF3A,
0.380645041666667,0,0xC321,
0.380660750000000,0,0xE121,
0.380668625000000,0,0xC421,
0.380684333333333,0,0xA97E,
0.380692166666667,0,0xC521,
0.380707875000000,0,0xFF4B,
0.380715750000000,0,0xC621,
0.380731458333333,0,0xC014,
0.380739333333333,0,0xC721,
0.380755041666667,0,0xA3BA,
0.380762875000000,0,0xC821,
0.380778583333333,0,0x9E38,
0.380786458333333,0,0xC921,
0.380802166666667,0,0x9E3F,
0.380810000000000,0,0xCA21,
0.388382083333333,0,0x2C3F,
0.388389750000000,0,0x0603,
0.388416750000000,0,0x0004,
0.388424458333333,0,0x0315,
0.388440458333333,0,0x0A01,
0.388448375000000,0,0x8315,
0.388464208333333,0,0x0F00,
0.388472125000000,0,0x8415,
0.388487958333333,0,0x0000,
0.388495875000000,0,0x8512,
0.388511708333333,0,0x2F3F,
0.388519625000000,0,0x8615,
0.388550458333333,0,0x0004,
0.388558125000000,0,0x0319,
0.388574583333333,0,0x0A01,
0.388582500000000,0,0x8319,
0.388598333333333,0,0x0F00,
0.388606250000000,0,0x8419,
0.388622083333333,0,0x0000,
0.388630000000000,0,0x8512,
0.388645833333333,0,0x2F3F,
0.388653750000000,0,0x8619,
0.388684333333333,0,0x0004,
0.388692000000000,0,0x031D,
0.388708208333333,0,0x0A01,
0.388716125000000,0,0x831D,
0.388731958333333,0,0x0F00,
0.388739875000000,0,0x841D,
0.388755708333333,0,0x0000,
0.388763625000000,0,0x8512,
0.388779458333333,0,0x2F3F,
0.388787375000000,0,0x861D,
0.388817875000000,0,0x0004,
0.388825541666667,0,0x0311,
0.388841791666667,0,0x0A01,
0.388849750000000,0,0x8311,
0.388865583333333,0,0x0F00,
0.388873458333333,0,0x8411,
0.388889333333333,0,0x0000,
0.388897250000000,0,0x8512,
0.388913083333333,0,0x2F3F,
0.388921000000000,0,0x8611,
0.388951875000000,0,0x0004,
0.388959541666667,0,0x0315,
0.388975916666667,0,0x0A01,
0.388983833333333,0,0x8315,
0.388999666666667,0,0x0F00,
0.389007583333333,0,0x8415,
0.389023416666667,0,0x0000,
0.389031333333333,0,0x8512,
0.389047166666667,0,0x273F,
0.389055083333333,0,0x8615,
0.389086125000000,0,0x0001,
0.389093791666667,0,0x1D19,
0.389109958333333,0,0x1551,
0.389117916666667,0,0x9D19,
0.389146166666667,0,0x0003,
0.389153833333333,0,0x241D,
0.389169833333333,0,0x0048,
0.389177750000000,0,0xA412,
0.389193625000000,0,0x0040,
0.389201541666667,0,0xA512,
0.389217375000000,0,0x0000,
0.389225291666667,0,0xA612,
0.389254041666667,0,0x0005,
0.389261708333333,0,0x2D11,
0.389277708333333,0,0xA883,
0.389285625000000,0,0xAD12,
0.389301500000000,0,0xFFFE,
0.389309416666667,0,0xAE12,
0.389325208333333,0,0x3560,
0.389333166666667,0,0xAF12,
0.389348958333333,0,0x8000,
0.389356916666667,0,0xB012,
0.389372708333333,0,0x8301,
0.389380625000000,0,0xB112,
0.389411166666667,0,0x0006,
0.389418833333333,0,0x3B15,
0.389435041666667,0,0xB3DD,
0.389443000000000,0,0xBB12,
0.389458833333333,0,0xB326,
0.389466750000000,0,0xBC12,
0.389482541666667,0,0xB2BF,
0.389490500000000,0,0xBD12,
0.389506333333333,0,0xB1FF,
0.389514250000000,0,0xBE12,
0.389530083333333,0,0xB1FF,
0.389538000000000,0,0xBF12,
0.389553833333333,0,0xB26E,
0.389561750000000,0,0xC012,
0.389592125000000,0,0x000A,
0.389599791666667,0,0x4119,
0.389616166666667,0,0xC094,
0.389624083333333,0,0xC112,
0.389639916666667,0,0xC0C5,
0.389647833333333,0,0xC212,
0.389663666666667,0,0xC088,
0.389671583333333,0,0xC312,
0.389687416666667,0,0xC0C6,
0.389695333333333,0,0xC412,
0.389711166666667,0,0xC0C6,
0.389719083333333,0,0xC512,
0.389734916666667,0,0xDCFA,
0.389742833333333,0,0xC612,
0.389758666666667,0,0x801C,
0.389766583333333,0,0xC712,
0.389782416666667,0,0xA3D7,
0.389790333333333,0,0xC812,
0.389806166666667,0,0x9E3A,
0.389814083333333,0,0xC912,
0.389829916666667,0,0x9E3B,
0.389837833333333,0,0xCA12,
0.389869791666667,0,0x0004,
0.389877500000000,0,0x032D,
0.389893458333333,0,0x0A01,
0.389901291666667,0,0x832D,
0.389917000000000,0,0x0F00,
0.389924875000000,0,0x842D,
0.389940583333333,0,0x0000,
0.389948416666667,0,0x8522,
0.389964125000000,0,0x273F,
0.389972000000000,0,0x862D,
0.390002500000000,0,0x0001,
0.390010166666667,0,0x1D21,
0.390026500000000,0,0x0055,
0.390034333333333,0,0x9D21,
0.390062500000000,0,0x0003,
0.390070166666667,0,0x2425,
0.390086375000000,0,0x004C,
0.390094208333333,0,0xA422,
0.390109916666667,0,0x0040,
0.390117791666667,0,0xA522,
0.390133458333333,0,0x8000,
0.390141333333333,0,0xA622,
0.390170083333333,0,0x0005,
0.390177750000000,0,0x2D29,
0.390193875000000,0,0xA9EC,
0.390201708333333,0,0xAD22,
0.390217416666667,0,0xFFFE,
0.390225291666667,0,0xAE22,
0.390240958333333,0,0x71A8,
0.390248833333333,0,0xAF22,
0.390264541666667,0,0xFFFF,
0.390272416666667,0,0xB022,
0.390288083333333,0,0x830B,
0.390295958333333,0,0xB122,
0.390325583333333,0,0x0006,
0.390333250000000,0,0x3B2D,
0.390349458333333,0,0xE51A,
0.390357291666667,0,0xBB22,
0.390373000000000,0,0x8001,
0.390380875000000,0,0xBC22,
0.390396541666667,0,0x8000,
0.390404416666667,0,0xBD22,
0.390420125000000,0,0x8000,
0.390428000000000,0,0xBE22,
0.390443708333333,0,0xE5B9,
0.390451541666667,0,0xBF22,
0.390467250000000,0,0xE5D1,
0.390475125000000,0,0xC022,
0.390505375000000,0,0x000A,
0.390513041666667,0,0x4121,
0.390529125000000,0,0xDB4F,
0.390537000000000,0,0xC122,
0.390552708333333,0,0xDC51,
0.390560541666667,0,0xC222,
0.390576250000000,0,0xDF37,
0.390584125000000,0,0xC322,
0.390599833333333,0,0xE11C,
0.390607666666667,0,0xC422,
0.390623375000000,0,0xA97C,
0.390631208333333,0,0xC522,
0.390646916666667,0,0xFF49,
0.390654791666667,0,0xC622,
0.390670500000000,0,0xC013,
0.390678333333333,0,0xC722,
0.390694041666667,0,0xA3BB,
0.390701916666667,0,0xC822,
0.390717625000000,0,0x9E36,
0.390725458333333,0,0xC922,
0.390741166666667,0,0x9E3B,
0.390749000000000,0,0xCA22,
0.398435916666667,0,0x3C3F,
0.398443625000000,0,0x0607,
0.398471250000000,0,0x0004,
0.398478916666667,0,0x0319,
0.398494916666667,0,0x0A01,
0.398502833333333,0,0x8319,
0.398518666666667,0,0x0F00,
0.398526583333333,0,0x8419,
0.398542416666667,0,0x0000,
0.398550333333333,0,0x8513,
0.398566166666667,0,0x3F3F,
0.398574083333333,0,0x8619,
0.398605666666667,0,0x0004,
0.398613333333333,0,0x031D,
0.398629541666667,0,0x0A01,
0.398637458333333,0,0x831D,
0.398653291666667,0,0x0F00,
0.398661208333333,0,0x841D,
0.398677041666667,0,0x0000,
0.398684958333333,0,0x8513,
0.398700791666667,0,0x3F3F,
0.398708708333333,0,0x861D,
0.398740000000000,0,0x0004,
0.398747666666667,0,0x0311,
0.398764166666667,0,0x0A01,
0.398772083333333,0,0x8311,
0.398787916666667,0,0x0F00,
0.398795833333333,0,0x8411,
0.398811666666667,0,0x0000,
0.398819583333333,0,0x8513,
0.398835416666667,0,0x3F3F,
0.398843333333333,0,0x8611,
0.398874083333333,0,0x0004,
0.398881791666667,0,0x0315,
0.398897791666667,0,0x0A01,
0.398905708333333,0,0x8315,
0.398921541666667,0,0x0F00,
0.398929458333333,0,0x8415,
0.398945291666667,0,0x0000,
0.398953208333333,0,0x8513,
0.398969041666667,0,0x3F3F,
0.398976958333333,0,0x8615,
0.399007750000000,0,0x0004,
0.399015458333333,0,0x0319,
0.399031875000000,0,0x0A01,
0.399039791666667,0,0x8319,
0.399055625000000,0,0x0F00,
0.399063541666667,0,0x8419,
0.399079375000000,0,0x0000,
0.399087291666667,0,0x8513,
0.399103125000000,0,0x373F,
0.399111041666667,0,0x8619,
0.399141583333333,0,0x0001,
0.399149250000000,0,0x1D1D,
0.399165458333333,0,0x1551,
0.399173375000000,0,0x9D1D,
0.399201916666667,0,0x0003,
0.399209583333333,0,0x2411,
0.399225791666667,0,0x0048,
0.399233750000000,0,0xA413,
0.399249583333333,0,0x0040,
0.399257500000000,0,0xA513,
0.399273333333333,0,0x0000,
0.399281250000000,0,0xA613,
0.399309708333333,0,0x0005,
0.399317375000000,0,0x2D15,
0.399333708333333,0,0xA98E,
0.399341625000000,0,0xAD13,
0.399357458333333,0,0xFFFE,
0.399365375000000,0,0xAE13,
0.399381208333333,0,0x3287,
0.399389125000000,0,0xAF13,
0.399404958333333,0,0x8000,
0.399412875000000,0,0xB013,
0.399428708333333,0,0x8300,
0.399436625000000,0,0xB113,
0.399466750000000,0,0x0006,
0.399474416666667,0,0x3B19,
0.399490583333333,0,0xB3DF,
0.399498500000000,0,0xBB13,
0.399514333333333,0,0xB328,
0.399522250000000,0,0xBC13,
0.399538083333333,0,0xB2BB,
0.399546000000000,0,0xBD13,
0.399561833333333,0,0xB1FE,
0.399569750000000,0,0xBE13,
0.399585583333333,0,0xB202,
0.399593500000000,0,0xBF13,
0.399609333333333,0,0xB271,
0.399617250000000,0,0xC013,
0.399647458333333,0,0x000A,
0.399655125000000,0,0x411D,
0.399671208333333,0,0xC093,
0.399679125000000,0,0xC113,
0.399694958333333,0,0xC0C1,
0.399702875000000,0,0xC213,
0.399718708333333,0,0xC086,
0.399726625000000,0,0xC313,
0.399742458333333,0,0xC0C4,
0.399750375000000,0,0xC413,
0.399766208333333,0,0xC0C4,
0.399774166666667,0,0xC513,
0.399790000000000,0,0xDCF4,
0.399797916666667,0,0xC613,
0.399813750000000,0,0x801D,
0.399821666666667,0,0xC713,
0.399837458333333,0,0xA3DA,
0.399845416666667,0,0xC813,
0.399861250000000,0,0x9E38,
0.399869166666667,0,0xC913,
0.399885000000000,0,0x9E3B,
0.399892916666667,0,0xCA13,
0.399925625000000,0,0x0004,
0.399933291666667,0,0x0321,
0.399949625000000,0,0x0A01,
0.399957458333333,0,0x8321,
0.399973166666667,0,0x0F00,
0.399981041666667,0,0x8421,
0.399996750000000,0,0x0000,
0.400004583333333,0,0x8523,
0.400020291666667,0,0x373F,
0.400028125000000,0,0x8621,
0.400058166666667,0,0x0001,
0.400065875000000,0,0x1D25,
0.400082125000000,0,0x0055,
0.400089958333333,0,0x9D25,
0.400118458333333,0,0x0003,
0.400126125000000,0,0x2429,
0.400142500000000,0,0x004C,
0.400150333333333,0,0xA423,
0.400166041666667,0,0x0040,
0.400173916666667,0,0xA523,
0.400189625000000,0,0x8000,
0.400197458333333,0,0xA623,
0.400226875000000,0,0x0005,
0.400234583333333,0,0x2D2D,
0.400250958333333,0,0xAAFA,
0.400258791666667,0,0xAD23,
0.400274500000000,0,0xFFFE,
0.400282375000000,0,0xAE23,
0.400298041666667,0,0x6F60,
0.400305916666667,0,0xAF23,
0.400321625000000,0,0xFFFF,
0.400329458333333,0,0xB023,
0.400345166666667,0,0x830D,
0.400353041666667,0,0xB123,
0.400384166666667,0,0x0006,
0.400391833333333,0,0x3B21,
0.400408000000000,0,0xE517,
0.400415833333333,0,0xBB23,
0.400431541666667,0,0x8000,
0.400439375000000,0,0xBC23,
0.400455083333333,0,0x8000,
0.400462958333333,0,0xBD23,
0.400478666666667,0,0x8002,
0.400486500000000,0,0xBE23,
0.400502208333333,0,0xE5BB,
0.400510083333333,0,0xBF23,
0.400525791666667,0,0xE5D0,
0.400533625000000,0,0xC023,
0.400564083333333,0,0x000A,
0.400571791666667,0,0x4125,
0.400588125000000,0,0xDB52,
0.400595958333333,0,0xC123,
0.400611666666667,0,0xDC55,
0.400619541666667,0,0xC223,
0.400635208333333,0,0xDF3C,
0.400643083333333,0,0xC323,
0.400658791666667,0,0xE123,
0.400666666666667,0,0xC423,
0.400682333333333,0,0xA97D,
0.400690208333333,0,0xC523,
0.400705916666667,0,0xFF4B,
0.400713750000000,0,0xC623,
0.400729458333333,0,0xC017,
0.400737333333333,0,0xC723,
0.400753041666667,0,0xA3BB,
0.400760875000000,0,0xC823,
0.400776583333333,0,0x9E39,
0.400784458333333,0,0xC923,
0.400800125000000,0,0x9E41,
0.400808000000000,0,0xCA23,
0.408419208333333,0,0x4C3F,
0.408426875000000,0,0x060B,
0.408454583333333,0,0x0004,
0.408462291666667,0,0x031D,
0.408478666666667,0,0x0A01,
0.408486583333333,0,0x831D,
0.408502416666667,0,0x0F00,
0.408510333333333,0,0x841D,
0.408526166666667,0,0x0000,
0.408534083333333,0,0x8514,
0.408549916666667,0,0x4F3F,
0.408557833333333,0,0x861D,
0.408589416666667,0,0x0004,
0.408597125000000,0,0x0311,
0.408613291666667,0,0x0A01,
0.408621166666667,0,0x8311,
0.408637041666667,0,0x0F00,
0.408644958333333,0,0x8411,
0.408660791666667,0,0x0000,
0.408668708333333,0,0x8514,
0.408684541666667,0,0x4F3F,
0.408692458333333,0,0x8611,
0.408724166666667,0,0x0004,
0.408731875000000,0,0x0315,
0.408747916666667,0,0x0A01,
0.408755833333333,0,0x8315,
0.408771666666667,0,0x0F00,
0.408779583333333,0,0x8415,
0.408795416666667,0,0x0000,
0.408803333333333,0,0x8514,
0.408819166666667,0,0x4F3F,
0.408827083333333,0,0x8615,
0.408857916666667,0,0x0004,
0.408865625000000,0,0x0319,
0.408882000000000,0,0x0A01,
0.408889916666667,0,0x8319,
0.408905750000000,0,0x0F00,
0.408913666666667,0,0x8419,
0.408929500000000,0,0x0000,
0.408937458333333,0,0x8514,
0.408953291666667,0,0x4F3F,
0.408961208333333,0,0x8619,
0.408991875000000,0,0x0004,
0.408999583333333,0,0x031D,
0.409015625000000,0,0x0A01,
0.409023541666667,0,0x831D,
0.409039375000000,0,0x0F00,
0.409047291666667,0,0x841D,
0.409063125000000,0,0x0000,
0.409071041666667,0,0x8514,
0.409086875000000,0,0x473F,
0.409094750000000,0,0x861D,
0.409125791666667,0,0x0001,
0.409133500000000,0,0x1D11,
0.409149708333333,0,0x1551,
0.409157583333333,0,0x9D11,
0.409185500000000,0,0x0003,
0.409193208333333,0,0x2415,
0.409209541666667,0,0x0048,
0.409217458333333,0,0xA414,
0.409233291666667,0,0x0040,
0.409241208333333,0,0xA514,
0.409257041666667,0,0x0000,
0.409264958333333,0,0xA614,
0.409293375000000,0,0x0005,
0.409301041666667,0,0x2D19,
0.409317416666667,0,0xAA98,
0.409325291666667,0,0xAD14,
0.409341125000000,0,0xFFFE,
0.409349041666667,0,0xAE14,
0.409364875000000,0,0x2FD1,
0.409372791666667,0,0xAF14,
0.409388625000000,0,0xFFFF,
0.409396541666667,0,0xB014,
0.409412375000000,0,0x830E,
0.409420291666667,0,0xB114,
0.409450125000000,0,0x0006,
0.409457791666667,0,0x3B1D,
0.409474208333333,0,0xB3E3,
0.409482125000000,0,0xBB14,
0.409497958333333,0,0xB32E,
0.409505875000000,0,0xBC14,
0.409521708333333,0,0xB2C0,
0.409529625000000,0,0xBD14,
0.409545458333333,0,0xB200,
0.409553375000000,0,0xBE14,
0.409569208333333,0,0xB201,
0.409577125000000,0,0xBF14,
0.409592958333333,0,0xB273,
0.409600875000000,0,0xC014,
0.409630708333333,0,0x000A,
0.409638375000000,0,0x4111,
0.409654791666667,0,0xC091,
0.409662708333333,0,0xC114,
0.409678541666667,0,0xC0C7,
0.409686458333333,0,0xC214,
0.409702291666667,0,0xC084,
0.409710208333333,0,0xC314,
0.409726041666667,0,0xC0C3,
0.409733958333333,0,0xC414,
0.409749750000000,0,0xC0C4,
0.409757666666667,0,0xC514,
0.409773541666667,0,0xDCF9,
0.409781416666667,0,0xC614,
0.409797250000000,0,0x801D,
0.409805166666667,0,0xC714,
0.409821000000000,0,0xA3D8,
0.409828916666667,0,0xC814,
0.409844750000000,0,0x9E37,
0.409852666666667,0,0xC914,
0.409868500000000,0,0x9E3C,
0.409876416666667,0,0xCA14,
0.409908625000000,0,0x0004,
0.409916333333333,0,0x0325,
0.409932375000000,0,0x0A01,
0.409940250000000,0,0x8325,
0.409955958333333,0,0x0F00,
0.409963791666667,0,0x8425,
0.409979500000000,0,0x0000,
0.409987333333333,0,0x8524,
0.410003041666667,0,0x473F,
0.410010916666667,0,0x8625,
0.410041125000000,0,0x0001,
0.410048791666667,0,0x1D29,
0.410064875000000,0,0x0055,
0.410072708333333,0,0x9D29,
0.410100541666667,0,0x0003,
0.410108208333333,0,0x242D,
0.410124250000000,0,0x004C,
0.410132083333333,0,0xA424,
0.410147791666667,0,0x0040,
0.410155666666667,0,0xA524,
0.410171375000000,0,0x8000,
0.410179208333333,0,0xA624,
0.410209000000000,0,0x0005,
0.410216666666667,0,0x2D21,
0.410232708333333,0,0xAC06,
0.410240541666667,0,0xAD24,
0.410256291666667,0,0xFFFE,
0.410264125000000,0,0xAE24,
0.410279833333333,0,0x6D31,
0.410287666666667,0,0xAF24,
0.410303375000000,0,0xFFFF,
0.410311208333333,0,0xB024,
0.410326916666667,0,0x830C,
0.410334791666667,0,0xB124,
0.410364708333333,0,0x0006,
0.410372416666667,0,0x3B25,
0.410388750000000,0,0xE517,
0.410396625000000,0,0xBB24,
0.410412291666667,0,0x8001,
0.410420166666667,0,0xBC24,
0.410435875000000,0,0x8001,
0.410443708333333,0,0xBD24,
0.410459416666667,0,0x8001,
0.410467250000000,0,0xBE24,
0.410482958333333,0,0xE5BE,
0.410490833333333,0,0xBF24,
0.410506541666667,0,0xE5D3,
0.410514375000000,0,0xC024,
0.410544750000000,0,0x000A,
0.410552416666667,0,0x4129,
0.410568875000000,0,0xDB4E,
0.410576708333333,0,0xC124,
0.410592416666667,0,0xDC59,
0.410600291666667,0,0xC224,
0.410616000000000,0,0xDF3E,
0.410623833333333,0,0xC324,
0.410639541666667,0,0xE125,
0.410647375000000,0,0xC424,
0.410663083333333,0,0xA981,
0.410670958333333,0,0xC524,
0.410686666666667,0,0xFF4F,
0.410694500000000,0,0xC624,
0.410710250000000,0,0xC016,
0.410718083333333,0,0xC724,
0.410733791666667,0,0xA3BA,
0.410741625000000,0,0xC824,
0.410757333333333,0,0x9E3A,
0.410765166666667,0,0xC924,
0.410780875000000,0,0x9E40,
0.410788750000000,0,0xCA24,
0.418436500000000,0,0x5C3F,
0.418444208333333,0,0x060F,
0.418471541666667,0,0x0004,
0.418479250000000,0,0x0311,
0.418495291666667,0,0x0A01,
0.418503208333333,0,0x8311,
0.418519083333333,0,0x0F00,
0.418527000000000,0,0x8411,
0.418542833333333,0,0x0000,
0.418550750000000,0,0x8515,
0.418566583333333,0,0x5F3F,
0.418574500000000,0,0x8611,
0.418605166666667,0,0x0004,
0.418612833333333,0,0x0315,
0.418628958333333,0,0x0A01,
0.418636875000000,0,0x8315,
0.418652708333333,0,0x0F00,
0.418660625000000,0,0x8415,
0.418676458333333,0,0x0000,
0.418684375000000,0,0x8515,
0.418700208333333,0,0x5F3F,
0.418708125000000,0,0x8615,
0.418738250000000,0,0x0004,
0.418745916666667,0,0x0319,
0.418762083333333,0,0x0A01,
0.418770000000000,0,0x8319,
0.418785833333333,0,0x0F00,
0.418793750000000,0,0x8419,
0.418809583333333,0,0x0000,
0.418817500000000,0,0x8515,
0.418833333333333,0,0x5F3F,
0.418841250000000,0,0x8619,
0.418871791666667,0,0x0004,
0.418879458333333,0,0x031D,
0.418895708333333,0,0x0A01,
0.418903625000000,0,0x831D,
0.418919458333333,0,0x0F00,
0.418927375000000,0,0x841D,
0.418943208333333,0,0x0000,
0.418951125000000,0,0x8515,
0.418966958333333,0,0x5F3F,
0.418974875000000,0,0x861D,
0.419005458333333,0,0x0004,
0.419013125000000,0,0x0311,
0.419029291666667,0,0x0A01,
0.419037208333333,0,0x8311,
0.419053083333333,0,0x0F00,
0.419061000000000,0,0x8411,
0.419076833333333,0,0x0000,
0.419084750000000,0,0x8515,
0.419100583333333,0,0x573F,
0.419108500000000,0,0x8611,
0.419139083333333,0,0x0001,
0.419146750000000,0,0x1D15,
0.419162916666667,0,0x1551,
0.419170833333333,0,0x9D15,
0.419198875000000,0,0x0003,
0.419206541666667,0,0x2419,
0.419222791666667,0,0x0048,
0.419230750000000,0,0xA415,
0.419246583333333,0,0x0040,
0.419254500000000,0,0xA515,
0.419270333333333,0,0x0000,
0.419278250000000,0,0xA615,
0.419307833333333,0,0x0005,
0.419315500000000,0,0x2D1D,
0.419331666666667,0,0xABA2,
0.419339583333333,0,0xAD15,
0.419355416666667,0,0xFFFE,
0.419363333333333,0,0xAE15,
0.419379166666667,0,0x2D02,
0.419387083333333,0,0xAF15,
0.419402916666667,0,0xFFFF,
0.419410833333333,0,0xB015,
0.419426666666667,0,0x8309,
0.419434583333333,0,0xB115,
0.419464833333333,0,0x0006,
0.419472541666667,0,0x3B11,
0.419489000000000,0,0xB3E0,
0.419496916666667,0,0xBB15,
0.419512750000000,0,0xB32A,
0.419520666666667,0,0xBC15,
0.419536500000000,0,0xB2BF,
0.419544416666667,0,0xBD15,
0.419560250000000,0,0xB200,
0.419568166666667,0,0xBE15,
0.419584000000000,0,0xB200,
0.419591916666667,0,0xBF15,
0.419607750000000,0,0xB270,
0.419615666666667,0,0xC015,
0.419646333333333,0,0x000A,
0.419654041666667,0,0x4115,
0.419670083333333,0,0xC094,
0.419678000000000,0,0xC115,
0.419693833333333,0,0xC0C4,
0.419701750000000,0,0xC215,
0.419717583333333,0,0xC085,
0.419725500000000,0,0xC315,
0.419741333333333,0,0xC0C7,
0.419749250000000,0,0xC415,
0.419765083333333,0,0xC0C5,
0.419773000000000,0,0xC515,
0.419788833333333,0,0xDCFB,
0.419796750000000,0,0xC615,
0.419812583333333,0,0x801D,
0.419820500000000,0,0xC715,
0.419836333333333,0,0xA3D8,
0.419844250000000,0,0xC815,
0.419860083333333,0,0x9E38,
0.419868041666667,0,0xC915,
0.419883833333333,0,0x9E3B,
0.419891750000000,0,0xCA15,
0.419923333333333,0,0x0004,
0.419931000000000,0,0x0329,
0.419947166666667,0,0x0A01,
0.419955000000000,0,0x8329,
0.419970708333333,0,0x0F00,
0.419978583333333,0,0x8429,
0.419994291666667,0,0x0000,
0.420002125000000,0,0x8525,
0.420017833333333,0,0x573F,
0.420025666666667,0,0x8629,
0.420056125000000,0,0x0001,
0.420063833333333,0,0x1D2D,
0.420080166666667,0,0x0055,
0.420088000000000,0,0x9D2D,
0.420116375000000,0,0x0003,
0.420124083333333,0,0x2421,
0.420140041666667,0,0x004C,
0.420147875000000,0,0xA425,
0.420163583333333,0,0x0040,
0.420171458333333,0,0xA525,
0.420187166666667,0,0x8000,
0.420195000000000,0,0xA625,
0.420224041666667,0,0x0005,
0.420231708333333,0,0x2D25,
0.420248041666667,0,0xAD12,
0.420255875000000,0,0xAD25,
0.420271583333333,0,0xFFFE,
0.420279458333333,0,0xAE25,
0.420295125000000,0,0x6B4F,
0.420303000000000,0,0xAF25,
0.420318708333333,0,0xFFFF,
0.420326541666667,0,0xB025,
0.420342250000000,0,0x8305,
0.420350125000000,0,0xB125,
0.420380875000000,0,0x0006,
0.420388541666667,0,0x3B29,
0.420404583333333,0,0xE518,
0.420412458333333,0,0xBB25,
0.420428166666667,0,0x8001,
0.420436041666667,0,0xBC25,
0.420451708333333,0,0x8000,
0.420459583333333,0,0xBD25,
0.420475291666667,0,0x8000,
0.420483125000000,0,0xBE25,
0.420498875000000,0,0xE5BB,
0.420506708333333,0,0xBF25,
0.420522416666667,0,0xE5D7,
0.420530250000000,0,0xC025,
0.420560791666667,0,0x000A,
0.420568458333333,0,0x412D,
0.420584750000000,0,0xDB50,
0.420592625000000,0,0xC125,
0.420608333333333,0,0xDC54,
0.420616166666667,0,0xC225,
0.420631875000000,0,0xDF3A,
0.420639708333333,0,0xC325,
0.420655416666667,0,0xE120,
0.420663291666667,0,0xC425,
0.420679000000000,0,0xA97C,
0.420686875000000,0,0xC525,
0.420702583333333,0,0xFF4B,
0.420710416666667,0,0xC625,
0.420726125000000,0,0xC016,
0.420734000000000,0,0xC725,
0.420749708333333,0,0xA3BA,
0.420757541666667,0,0xC825,
0.420773250000000,0,0x9E38,
0.420781125000000,0,0xC925,
0.420796833333333,0,0x9E3C,
0.420804666666667,0,0xCA25,
0.428420708333333,0,0x6C3F,
0.428428375000000,0,0x0603,
0.428455583333333,0,0x0004,
0.428463250000000,0,0x0315,
0.428479666666667,0,0x0A01,
0.428487625000000,0,0x8315,
0.428503458333333,0,0x0F00,
0.428511375000000,0,0x8415,
0.428527208333333,0,0x0000,
0.428535125000000,0,0x8516,
0.428550958333333,0,0x6F3F,
0.428558875000000,0,0x8615,
0.428589833333333,0,0x0004,
0.428597541666667,0,0x0319,
0.428613791666667,0,0x0A01,
0.428621750000000,0,0x8319,
0.428637583333333,0,0x0F00,
0.428645500000000,0,0x8419,
0.428661333333333,0,0x0000,
0.428669250000000,0,0x8516,
0.428685083333333,0,0x6F3F,
0.428693000000000,0,0x8619,
0.428723291666667,0,0x0004,
0.428731000000000,0,0x031D,
0.428747458333333,0,0x0A01,
0.428755375000000,0,0x831D,
0.428771208333333,0,0x0F00,
0.428779125000000,0,0x841D,
0.428795000000000,0,0x0000,
0.428802875000000,0,0x8516,
0.428818708333333,0,0x6F3F,
0.428826666666667,0,0x861D,
0.428857583333333,0,0x0004,
0.428865291666667,0,0x0311,
0.428881583333333,0,0x0A01,
0.428889500000000,0,0x8311,
0.428905333333333,0,0x0F00,
0.428913250000000,0,0x8411,
0.428929083333333,0,0x0000,
0.428937000000000,0,0x8516,
0.428952833333333,0,0x6F3F,
0.428960750000000,0,0x8611,
0.428991958333333,0,0x0004,
0.428999625000000,0,0x0315,
0.429015625000000,0,0x0A01,
0.429023541666667,0,0x8315,
0.429039416666667,0,0x0F00,
0.429047333333333,0,0x8415,
0.429063125000000,0,0x0000,
0.429071041666667,0,0x8516,
0.429086916666667,0,0x673F,
0.429094833333333,0,0x8615,
0.429125416666667,0,0x0001,
0.429133083333333,0,0x1D19,
0.429149208333333,0,0x1551,
0.429157125000000,0,0x9D19,
0.429184875000000,0,0x0003,
0.429192541666667,0,0x241D,
0.429208583333333,0,0x0048,
0.429216500000000,0,0xA416,
0.429232333333333,0,0x0040,
0.429240250000000,0,0xA516,
0.429256083333333,0,0x0000,
0.429264000000000,0,0xA616,
0.429292791666667,0,0x0005,
0.429300458333333,0,0x2D11,
0.429316958333333,0,0xACAC,
0.429324833333333,0,0xAD16,
0.429340666666667,0,0xFFFE,
0.429348583333333,0,0xAE16,
0.429364416666667,0,0x2A84,
0.429372375000000,0,0xAF16,
0.429388208333333,0,0xFFFF,
0.429396083333333,0,0xB016,
0.429411916666667,0,0x830C,
0.429419833333333,0,0xB116,
0.429450416666667,0,0x0006,
0.429458083333333,0,0x3B15,
0.429474250000000,0,0xB3E0,
0.429482208333333,0,0xBB16,
0.429498041666667,0,0xB32D,
0.429505958333333,0,0xBC16,
0.429521791666667,0,0xB2C0,
0.429529708333333,0,0xBD16,
0.429545541666667,0,0xB1FF,
0.429553416666667,0,0xBE16,
0.429569250000000,0,0xB1FE,
0.429577208333333,0,0xBF16,
0.429593041666667,0,0xB271,
0.429600958333333,0,0xC016,
0.429631125000000,0,0x000A,
0.429638791666667,0,0x4119,
0.429654875000000,0,0xC096,
0.429662791666667,0,0xC116,
0.429678625000000,0,0xC0C7,
0.429686541666667,0,0xC216,
0.429702375000000,0,0xC087,
0.429710291666667,0,0xC316,
0.429726125000000,0,0xC0C5,
0.429734041666667,0,0xC416,
0.429749875000000,0,0xC0C8,
0.429757791666667,0,0xC516,
0.429773583333333,0,0xDCF9,
0.429781500000000,0,0xC616,
0.429797333333333,0,0x8023,
0.429805250000000,0,0xC716,
0.429821083333333,0,0xA3D7,
0.429829000000000,0,0xC816,
0.429844833333333,0,0x9E3A,
0.429852750000000,0,0xC916,
0.429868583333333,0,0x9E3B,
0.429876500000000,0,0xCA16,
0.429908791666667,0,0x0004,
0.429916458333333,0,0x032D,
0.429932916666667,0,0x0A01,
0.429940750000000,0,0x832D,
0.429956458333333,0,0x0F00,
0.429964333333333,0,0x842D,
0.429980041666667,0,0x0000,
0.429987875000000,0,0x8526,
0.430003583333333,0,0x673F,
0.430011458333333,0,0x862D,
0.430041083333333,0,0x0001,
0.430048750000000,0,0x1D21,
0.430064958333333,0,0x0055,
0.430072791666667,0,0x9D21,
0.430101416666667,0,0x0003,
0.430109083333333,0,0x2425,
0.430125333333333,0,0x004C,
0.430133208333333,0,0xA426,
0.430148916666667,0,0x0040,
0.430156750000000,0,0xA526,
0.430172458333333,0,0x8000,
0.430180333333333,0,0xA626,
0.430210125000000,0,0x0005,
0.430217791666667,0,0x2D29,
0.430233833333333,0,0xAE1E,
0.430241666666667,0,0xAD26,
0.430257375000000,0,0xFFFE,
0.430265250000000,0,0xAE26,
0.430280958333333,0,0x699B,
0.430288791666667,0,0xAF26,
0.430304541666667,0,0x8000,
0.430312375000000,0,0xB026,
0.430328083333333,0,0x8300,
0.430335958333333,0,0xB126,
0.430367000000000,0,0x0006,
0.430374708333333,0,0x3B2D,
0.430390916666667,0,0xE519,
0.430398750000000,0,0xBB26,
0.430414458333333,0,0x8000,
0.430422333333333,0,0xBC26,
0.430438041666667,0,0x8001,
0.430445875000000,0,0xBD26,
0.430461583333333,0,0x8004,
0.430469458333333,0,0xBE26,
0.430485166666667,0,0xE5C0,
0.430493000000000,0,0xBF26,
0.430508708333333,0,0xE5D7,
0.430516583333333,0,0xC026,
0.430547333333333,0,0x000A,
0.430555000000000,0,0x4121,
0.430571083333333,0,0xDB51,
0.430578916666667,0,0xC126,
0.430594666666667,0,0xDC55,
0.430602500000000,0,0xC226,
0.430618208333333,0,0xDF3E,
0.430626083333333,0,0xC326,
0.430641750000000,0,0xE126,
0.430649625000000,0,0xC426,
0.430665333333333,0,0xA97E,
0.430673208333333,0,0xC526,
0.430688875000000,0,0xFF51,
0.430696750000000,0,0xC626,
0.430712458333333,0,0xC01A,
0.430720333333333,0,0xC726,
0.430736041666667,0,0xA3BB,
0.430743875000000,0,0xC826,
0.430759583333333,0,0x9E3D,
0.430767458333333,0,0xC926,
0.430783166666667,0,0x9E3C,
0.430791000000000,0,0xCA26,
0.438436125000000,0,0x7C3F,
0.438443791666667,0,0x0607,
0.438471208333333,0,0x0004,
0.438478875000000,0,0x0319,
0.438495000000000,0,0x0A01,
0.438502916666667,0,0x8319,
0.438518750000000,0,0x0F00,
0.438526666666667,0,0x8419,
0.438542500000000,0,0x0000,
0.438550416666667,0,0x8517,
0.438566250000000,0,0x7F3F,
0.438574208333333,0,0x8619,
0.438605291666667,0,0x0004,
0.438612958333333,0,0x031D,
0.438629125000000,0,0x0A01,
0.438637041666667,0,0x831D,
0.438652875000000,0,0x0F00,
0.438660791666667,0,0x841D,
0.438676625000000,0,0x0000,
0.438684583333333,0,0x8517,
0.438700416666667,0,0x7F3F,
0.438708333333333,0,0x861D,
0.438738375000000,0,0x0004,
0.438746083333333,0,0x0311,
0.438762291666667,0,0x0A01,
0.438770208333333,0,0x8311,
0.438786041666667,0,0x0F00,
0.438793958333333,0,0x8411,
0.438809791666667,0,0x0000,
0.438817708333333,0,0x8517,
0.438833541666667,0,0x7F3F,
0.438841458333333,0,0x8611,
0.438872125000000,0,0x0004,
0.438879791666667,0,0x0315,
0.438895875000000,0,0x0A01,
0.438903833333333,0,0x8315,
0.438919625000000,0,0x0F00,
0.438927583333333,0,0x8415,
0.438943416666667,0,0x0000,
0.438951333333333,0,0x8517,
0.438967166666667,0,0x7F3F,
0.438975083333333,0,0x8615,
0.439006166666667,0,0x0004,
0.439013833333333,0,0x0319,
0.439030000000000,0,0x0A01,
0.439037916666667,0,0x8319,
0.439053750000000,0,0x0F00,
0.439061666666667,0,0x8419,
0.439077500000000,0,0x0000,
0.439085416666667,0,0x8517,
0.439101250000000,0,0x773F,
0.439109166666667,0,0x8619,
0.439139625000000,0,0x0001,
0.439147291666667,0,0x1D1D,
0.439163583333333,0,0x1551,
0.439171500000000,0,0x9D1D,
0.439199250000000,0,0x0003,
0.439206916666667,0,0x2411,
0.439222958333333,0,0x0048,
0.439230875000000,0,0xA417,
0.439246708333333,0,0x0040,
0.439254625000000,0,0xA517,
0.439270458333333,0,0x0000,
0.439278333333333,0,0xA617,
0.439307291666667,0,0x0005,
0.439314958333333,0,0x2D15,
0.439331291666667,0,0xADB6,
0.439339208333333,0,0xAD17,
0.439355041666667,0,0xFFFE,
0.439362958333333,0,0xAE17,
0.439378791666667,0,0x27F5,
0.439386708333333,0,0xAF17,
0.439402541666667,0,0xFFFF,
0.439410458333333,0,0xB017,
0.439426291666667,0,0x830A,
0.439434208333333,0,0xB117,
0.439464500000000,0,0x0006,
0.439472208333333,0,0x3B19,
0.439488625000000,0,0xB3DE,
0.439496541666667,0,0xBB17,
0.439512375000000,0,0xB329,
0.439520291666667,0,0xBC17,
0.439536125000000,0,0xB2C0,
0.439544041666667,0,0xBD17,
0.439559875000000,0,0xB205,
0.439567791666667,0,0xBE17,
0.439583625000000,0,0xB203,
0.439591541666667,0,0xBF17,
0.439607375000000,0,0xB273,
0.439615291666667,0,0xC017,
0.439645333333333,0,0x000A,
0.439653041666667,0,0x411D,
0.439669208333333,0,0xC093,
0.439677125000000,0,0xC117,
0.439692958333333,0,0xC0C6,
0.439700875000000,0,0xC217,
0.439716708333333,0,0xC084,
0.439724625000000,0,0xC317,
0.439740458333333,0,0xC0C4,
0.439748375000000,0,0xC417,
0.439764208333333,0,0xC0C5,
0.439772125000000,0,0xC517,
0.439787958333333,0,0xDCF8,
0.439795875000000,0,0xC617,
0.439811708333333,0,0x8020,
0.439819625000000,0,0xC717,
0.439835458333333,0,0xA3D7,
0.439843375000000,0,0xC817,
0.439859250000000,0,0x9E38,
0.439867125000000,0,0xC917,
0.439883000000000,0,0x9E3B,
0.439890875000000,0,0xCA17,
0.439922916666667,0,0x0004,
0.439930625000000,0,0x0321,
0.439947041666667,0,0x0A01,
0.439954916666667,0,0x8321,
0.439970625000000,0,0x0F00,
0.439978458333333,0,0x8421,
0.439994166666667,0,0x0000,
0.440002000000000,0,0x8527,
0.440017708333333,0,0x773F,
0.440025583333333,0,0x8621,
0.440055958333333,0,0x0001,
0.440063666666667,0,0x1D25,
0.440080083333333,0,0x0055,
0.440087916666667,0,0x9D25,
0.440117000000000,0,0x0003,
0.440124708333333,0,0x2429,
0.440140958333333,0,0x004C,
0.440148791666667,0,0xA427,
0.440164500000000,0,0x0040,
0.440172375000000,0,0xA527,
0.440188083333333,0,0x8000,
0.440195916666667,0,0xA627,
0.440225708333333,0,0x0005,
0.440233375000000,0,0x2D2D,
0.440249416666667,0,0xAF2A,
0.440257291666667,0,0xAD27,
0.440273000000000,0,0xFFFE,
0.440280833333333,0,0xAE27,
0.440296541666667,0,0x6746,
0.440304416666667,0,0xAF27,
0.440320125000000,0,0xFFFF,
0.440327958333333,0,0xB027,
0.440343666666667,0,0x830C,
0.440351541666667,0,0xB127,
0.440382916666667,0,0x0006,
0.440390625000000,0,0x3B21,
0.440407000000000,0,0xE51C,
0.440414875000000,0,0xBB27,
0.440430583333333,0,0x8000,
0.440438416666667,0,0xBC27,
0.440454125000000,0,0x8000,
0.440462000000000,0,0xBD27,
0.440477708333333,0,0x8001,
0.440485541666667,0,0xBE27,
0.440501250000000,0,0xE5BA,
0.440509125000000,0,0xBF27,
0.440524833333333,0,0xE5D5,
0.440532666666667,0,0xC027,
0.440563375000000,0,0x000A,
0.440571083333333,0,0x4125,
0.440587166666667,0,0xDB52,
0.440595000000000,0,0xC127,
0.440610708333333,0,0xDC55,
0.440618583333333,0,0xC227,
0.440634291666667,0,0xDF38,
0.440642125000000,0,0xC327,
0.440657833333333,0,0xE123,
0.440665708333333,0,0xC427,
0.440681416666667,0,0xA980,
0.440689250000000,0,0xC527,
0.440704958333333,0,0xFF4F,
0.440712833333333,0,0xC627,
0.440728541666667,0,0xC017,
0.440736375000000,0,0xC727,
0.440752083333333,0,0xA3B9,
0.440759958333333,0,0xC827,
0.440775666666667,0,0x9E3E,
0.440783500000000,0,0xC927,
0.440799208333333,0,0x9E3C,
0.440807083333333,0,0xCA27,
0.448414333333333,0,0x8C3F,
0.448422000000000,0,0x060B,
0.448449625000000,0,0x0004,
0.448457291666667,0,0x031D,
0.448473458333333,0,0x0A01,
0.448481375000000,0,0x831D,
0.448497166666667,0,0x0F00,
0.448505125000000,0,0x841D,
0.448520916666667,0,0x0000,
0.448528875000000,0,0x8518,
0.448544708333333,0,0x8F3F,
0.448552625000000,0,0x861D,
0.448583333333333,0,0x0004,
0.448591041666667,0,0x0311,
0.448607041666667,0,0x0A01,
0.448614958333333,0,0x8311,
0.448630791666667,0,0x0F00,
0.448638708333333,0,0x8411,
0.448654541666667,0,0x0000,
0.448662500000000,0,0x8518,
0.448678333333333,0,0x8F3F,
0.448686250000000,0,0x8611,
0.448717375000000,0,0x0004,
0.448725041666667,0,0x0315,
0.448741166666667,0,0x0A01,
0.448749125000000,0,0x8315,
0.448764958333333,0,0x0F00,
0.448772875000000,0,0x8415,
0.448788708333333,0,0x0000,
0.448796666666667,0,0x8518,
0.448812500000000,0,0x8F3F,
0.448820416666667,0,0x8615,
0.448851166666667,0,0x0004,
0.448858833333333,0,0x0319,
0.448874833333333,0,0x0A01,
0.448882750000000,0,0x8319,
0.448898583333333,0,0x0F00,
0.448906500000000,0,0x8419,
0.448922375000000,0,0x0000,
0.448930291666667,0,0x8518,
0.448946125000000,0,0x8F3F,
0.448954041666667,0,0x8619,
0.448985375000000,0,0x0004,
0.448993041666667,0,0x031D,
0.449009458333333,0,0x0A01,
0.449017375000000,0,0x831D,
0.449033208333333,0,0x0F00,
0.449041125000000,0,0x841D,
0.449056958333333,0,0x0000,
0.449064875000000,0,0x8518,
0.449080708333333,0,0x873F,
0.449088666666667,0,0x861D,
0.449120166666667,0,0x0001,
0.449127833333333,0,0x1D11,
0.449144083333333,0,0x1551,
0.449151958333333,0,0x9D11,
0.449179916666667,0,0x0003,
0.449187625000000,0,0x2415,
0.449203916666667,0,0x0048,
0.449211875000000,0,0xA418,
0.449227708333333,0,0x0040,
0.449235625000000,0,0xA518,
0.449251416666667,0,0x0000,
0.449259333333333,0,0xA618,
0.449287708333333,0,0x0005,
0.449295375000000,0,0x2D19,
0.449311791666667,0,0xAEBF,
0.449319708333333,0,0xAD18,
0.449335541666667,0,0xFFFE,
0.449343458333333,0,0xAE18,
0.449359291666667,0,0x250C,
0.449367208333333,0,0xAF18,
0.449383041666667,0,0x8000,
0.449390958333333,0,0xB018,
0.449406791666667,0,0x8302,
0.449414708333333,0,0xB118,
0.449444583333333,0,0x0006,
0.449452250000000,0,0x3B1D,
0.449468625000000,0,0xB3E5,
0.449476583333333,0,0xBB18,
0.449492375000000,0,0xB32B,
0.449500333333333,0,0xBC18,
0.449516166666667,0,0xB2BC,
0.449524041666667,0,0xBD18,
0.449539875000000,0,0xB1FF,
0.449547833333333,0,0xBE18,
0.449563625000000,0,0xB1FF,
0.449571541666667,0,0xBF18,
0.449587416666667,0,0xB272,
0.449595333333333,0,0xC018,
0.449625625000000,0,0x000A,
0.449633333333333,0,0x4111,
0.449649750000000,0,0xC094,
0.449657666666667,0,0xC118,
0.449673500000000,0,0xC0C6,
0.449681416666667,0,0xC218,
0.449697250000000,0,0xC085,
0.449705166666667,0,0xC318,
0.449720958333333,0,0xC0C7,
0.449728875000000,0,0xC418,
0.449744708333333,0,0xC0CB,
0.449752666666667,0,0xC518,
0.449768500000000,0,0xDCF9,
0.449776375000000,0,0xC618,
0.449792250000000,0,0x801D,
0.449800166666667,0,0xC718,
0.449815958333333,0,0xA3D9,
0.449823916666667,0,0xC818,
0.449839750000000,0,0x9E36,
0.449847666666667,0,0xC918,
0.449863500000000,0,0x9E3C,
0.449871416666667,0,0xCA18,
0.449903666666667,0,0x0004,
0.449911333333333,0,0x0325,
0.449927291666667,0,0x0A01,
0.449935125000000,0,0x8325,
0.449950833333333,0,0x0F00,
0.449958708333333,0,0x8425,
0.449974416666667,0,0x0000,
0.449982291666667,0,0x8528,
0.449998000000000,0,0x873F,
0.450005833333333,0,0x8625,
0.450035833333333,0,0x0001,
0.450043500000000,0,0x1D29,
0.450059833333333,0,0x0055,
0.450067666666667,0,0x9D29,
0.450095583333333,0,0x0003,
0.450103291666667,0,0x242D,
0.450119250000000,0,0x004C,
0.450127083333333,0,0xA428,
0.450142791666667,0,0x0040,
0.450150625000000,0,0xA528,
0.450166375000000,0,0x8000,
0.450174208333333,0,0xA628,
0.450203791666667,0,0x0005,
0.450211458333333,0,0x2D21,
0.450227750000000,0,0xB036,
0.450235583333333,0,0xAD28,
0.450251291666667,0,0xFFFE,
0.450259166666667,0,0xAE28,
0.450274875000000,0,0x64B1,
0.450282708333333,0,0xAF28,
0.450298416666667,0,0x8000,
0.450306291666667,0,0xB028,
0.450322000000000,0,0x8300,
0.450329833333333,0,0xB128,
0.450359375000000,0,0x0006,
0.450367041666667,0,0x3B25,
0.450383375000000,0,0xE51A,
0.450391208333333,0,0xBB28,
0.450406916666667,0,0x8001,
0.450414791666667,0,0xBC28,
0.450430500000000,0,0x8000,
0.450438333333333,0,0xBD28,
0.450454041666667,0,0x8000,
0.450461916666667,0,0xBE28,
0.450477625000000,0,0xE5BD,
0.450485458333333,0,0xBF28,
0.450501166666667,0,0xE5D3,
0.450509000000000,0,0xC028,
0.450538791666667,0,0x000A,
0.450546458333333,0,0x4129,
0.450562500000000,0,0xDB50,
0.450570375000000,0,0xC128,
0.450586083333333,0,0xDC57,
0.450593958333333,0,0xC228,
0.450609666666667,0,0xDF3A,
0.450617541666667,0,0xC328,
0.450633250000000,0,0xE121,
0.450641083333333,0,0xC428,
0.450656791666667,0,0xA980,
0.450664666666667,0,0xC528,
0.450680375000000,0,0xFF4B,
0.450688208333333,0,0xC628,
0.450703916666667,0,0xC016,
0.450711791666667,0,0xC728,
0.450727500000000,0,0xA3BA,
0.450735375000000,0,0xC828,
0.450751083333333,0,0x9E38,
0.450758916666667,0,0xC928,
0.450774625000000,0,0x9E41,
0.450782458333333,0,0xCA28,
0.458555250000000,0,0x9C3F,
0.458562916666667,0,0x060F,
0.458590041666667,0,0x0004,
0.458597750000000,0,0x0311,
0.458613958333333,0,0x0A01,
0.458621875000000,0,0x8311,
0.458637708333333,0,0x0F00,
0.458645625000000,0,0x8411,
0.458661458333333,0,0x0000,
0.458669375000000,0,0x8519,
0.458685208333333,0,0x9F3F,
0.458693125000000,0,0x8611,
0.458724416666667,0,0x0004,
0.458732083333333,0,0x0315,
0.458748083333333,0,0x0A01,
0.458755958333333,0,0x8315,
0.458771791666667,0,0x0F00,
0.458779708333333,0,0x8415,
0.458795541666667,0,0x0000,
0.458803500000000,0,0x8519,
0.458819333333333,0,0x9F3F,
0.458827250000000,0,0x8615,
0.458857500000000,0,0x0004,
0.458865208333333,0,0x0319,
0.458881666666667,0,0x0A01,
0.458889625000000,0,0x8319,
0.458905416666667,0,0x0F00,
0.458913333333333,0,0x8419,
0.458929166666667,0,0x0000,
0.458937125000000,0,0x8519,
0.458952916666667,0,0x9F3F,
0.458960833333333,0,0x8619,
0.458991416666667,0,0x0004,
0.458999125000000,0,0x031D,
0.459015291666667,0,0x0A01,
0.459023208333333,0,0x831D,
0.459039041666667,0,0x0F00,
0.459046958333333,0,0x841D,
0.459062791666667,0,0x0000,
0.459070708333333,0,0x8519,
0.459086541666667,0,0x9F3F,
0.459094458333333,0,0x861D,
0.459125208333333,0,0x0004,
0.459132875000000,0,0x0311,
0.459149375000000,0,0x0A01,
0.459157291666667,0,0x8311,
0.459173125000000,0,0x0F00,
0.459181041666667,0,0x8411,
0.459196875000000,0,0x0000,
0.459204791666667,0,0x8519,
0.459220625000000,0,0x973F,
0.459228541666667,0,0x8611,
0.459258875000000,0,0x0001,
0.459266541666667,0,0x1D15,
0.459282958333333,0,0x1551,
0.459290875000000,0,0x9D15,
0.459319000000000,0,0x0003,
0.459326708333333,0,0x2419,
0.459342791666667,0,0x0048,
0.459350750000000,0,0xA419,
0.459366541666667,0,0x0040,
0.459374458333333,0,0xA519,
0.459390291666667,0,0x0000,
0.459398208333333,0,0xA619,
0.459426750000000,0,0x0005,
0.459434416666667,0,0x2D1D,
0.459450666666667,0,0xAFCD,
0.459458541666667,0,0xAD19,
0.459474416666667,0,0xFFFE,
0.459482333333333,0,0xAE19,
0.459498166666667,0,0x21A3,
0.459506083333333,0,0xAF19,
0.459521916666667,0,0xFFFF,
0.459529833333333,0,0xB019,
0.459545625000000,0,0x830D,
0.459553541666667,0,0xB119,
0.459583000000000,0,0x0006,
0.459590666666667,0,0x3B11,
0.459607000000000,0,0xB3DF,
0.459614916666667,0,0xBB19,
0.459630750000000,0,0xB32C,
0.459638666666667,0,0xBC19,
0.459654500000000,0,0xB2C1,
0.459662416666667,0,0xBD19,
0.459678208333333,0,0xB202,
0.459686125000000,0,0xBE19,
0.459701958333333,0,0xB200,
0.459709875000000,0,0xBF19,
0.459725708333333,0,0xB270,
0.459733625000000,0,0xC019,
0.459764125000000,0,0x000A,
0.459771791666667,0,0x4115,
0.459788083333333,0,0xC092,
0.459795958333333,0,0xC119,
0.459811833333333,0,0xC0C4,
0.459819750000000,0,0xC219,
0.459835541666667,0,0xC084,
0.459843500000000,0,0xC319,
0.459859333333333,0,0xC0C6,
0.459867250000000,0,0xC419,
0.459883083333333,0,0xC0C7,
0.459891000000000,0,0xC519,
0.459906833333333,0,0xDCF8,
0.459914750000000,0,0xC619,
0.459930583333333,0,0x8020,
0.459938500000000,0,0xC719,
0.459954333333333,0,0xA3D9,
0.459962250000000,0,0xC819,
0.459978083333333,0,0x9E38,
0.459986041666667,0,0xC919,
0.460001833333333,0,0x9E39,
0.460009750000000,0,0xCA19,
0.460041625000000,0,0x0004,
0.460049291666667,0,0x0329,
0.460065375000000,0,0x0A01,
0.460073208333333,0,0x8329,
0.460088916666667,0,0x0F00,
0.460096791666667,0,0x8429,
0.460112500000000,0,0x0000,
0.460120333333333,0,0x8529,
0.460136041666667,0,0x973F,
0.460143916666667,0,0x8629,
0.460173750000000,0,0x0001,
0.460181458333333,0,0x1D2D,
0.460197916666667,0,0x0055,
0.460205750000000,0,0x9D2D,
0.460234791666667,0,0x0003,
0.460242458333333,0,0x2421,
0.460258750000000,0,0x004C,
0.460266625000000,0,0xA429,
0.460282333333333,0,0x0040,
0.460290166666667,0,0xA529,
0.460305875000000,0,0x8000,
0.460313750000000,0,0xA629,
0.460342416666667,0,0x0005,
0.460350083333333,0,0x2D25,
0.460366250000000,0,0xB146,
0.460374083333333,0,0xAD29,
0.460389791666667,0,0xFFFE,
0.460397666666667,0,0xAE29,
0.460413375000000,0,0x61D4,
0.460421250000000,0,0xAF29,
0.460436958333333,0,0xFFFF,
0.460444833333333,0,0xB029,
0.460460500000000,0,0x830F,
0.460468375000000,0,0xB129,
0.460498375000000,0,0x0006,
0.460506041666667,0,0x3B29,
0.460522375000000,0,0xE51B,
0.460530208333333,0,0xBB29,
0.460545958333333,0,0x8000,
0.460553791666667,0,0xBC29,
0.460569500000000,0,0x8000,
0.460577375000000,0,0xBD29,
0.460593083333333,0,0x8001,
0.460600916666667,0,0xBE29,
0.460616625000000,0,0xE5C1,
0.460624500000000,0,0xBF29,
0.460640208333333,0,0xE5D6,
0.460648041666667,0,0xC029,
0.460678250000000,0,0x000A,
0.460685916666667,0,0x412D,
0.460702041666667,0,0xDB53,
0.460709875000000,0,0xC129,
0.460725625000000,0,0xDC56,
0.460733458333333,0,0xC229,
0.460749166666667,0,0xDF3C,
0.460757041666667,0,0xC329,
0.460772750000000,0,0xE127,
0.460780583333333,0,0xC429,
0.460796291666667,0,0xA983,
0.460804166666667,0,0xC529,
0.460819875000000,0,0xFF4E,
0.460827708333333,0,0xC629,
0.460843458333333,0,0xC01C,
0.460851291666667,0,0xC729,
0.460867000000000,0,0xA3BE,
0.460874875000000,0,0xC829,
0.460890583333333,0,0x9E41,
0.460898416666667,0,0xC929,
0.460914125000000,0,0x9E3F,
0.460921958333333,0,0xCA29,
0.468435458333333,0,0xAC3F,
0.468443125000000,0,0x0603,
0.468470416666667,0,0x0004,
0.468478083333333,0,0x0315,
0.468494250000000,0,0x0A01,
0.468502166666667,0,0x8315,
0.468518000000000,0,0x0F00,
0.468525916666667,0,0x8415,
0.468541750000000,0,0x0000,
0.468549666666667,0,0x851A,
0.468565500000000,0,0xAF3F,
0.468573416666667,0,0x8615,
0.468603833333333,0,0x0004,
0.468611500000000,0,0x0319,
0.468627875000000,0,0x0A01,
0.468635750000000,0,0x8319,
0.468651583333333,0,0x0F00,
0.468659541666667,0,0x8419,
0.468675333333333,0,0x0000,
0.468683291666667,0,0x851A,
0.468699125000000,0,0xAF3F,
0.468707041666667,0,0x8619,
0.468737500000000,0,0x0004,
0.468745166666667,0,0x031D,
0.468761500000000,0,0x0A01,
0.468769416666667,0,0x831D,
0.468785250000000,0,0x0F00,
0.468793166666667,0,0x841D,
0.468809000000000,0,0x0000,
0.468816916666667,0,0x851A,
0.468832750000000,0,0xAF3F,
0.468840666666667,0,0x861D,
0.468871125000000,0,0x0004,
0.468878833333333,0,0x0311,
0.468895083333333,0,0x0A01,
0.468903041666667,0,0x8311,
0.468918875000000,0,0x0F00,
0.468926791666667,0,0x8411,
0.468942625000000,0,0x0000,
0.468950541666667,0,0x851A,
0.468966375000000,0,0xAF3F,
0.468974291666667,0,0x8611,
0.469005000000000,0,0x0004,
0.469012708333333,0,0x0315,
0.469028708333333,0,0x0A01,
0.469036625000000,0,0x8315,
0.469052416666667,0,0x0F00,
0.469060333333333,0,0x8415,
0.469076166666667,0,0x0000,
0.469084125000000,0,0x851A,
0.469099916666667,0,0xA73F,
0.469107833333333,0,0x8615,
0.469138291666667,0,0x0001,
0.469145958333333,0,0x1D19,
0.469162250000000,0,0x1551,
0.469170166666667,0,0x9D19,
0.469198166666667,0,0x0003,
0.469205833333333,0,0x241D,
0.469222083333333,0,0x0048,
0.469230000000000,0,0xA41A,
0.469245833333333,0,0x0040,
0.469253750000000,0,0xA51A,
0.469269625000000,0,0x0000,
0.469277500000000,0,0xA61A,
0.469306458333333,0,0x0005,
0.469314125000000,0,0x2D11,
0.469330458333333,0,0xB0D4,
0.469338375000000,0,0xAD1A,
0.469354208333333,0,0xFFFE,
0.469362125000000,0,0xAE1A,
0.469377958333333,0,0x1E3C,
0.469385833333333,0,0xAF1A,
0.469401666666667,0,0xFFFF,
0.469409583333333,0,0xB01A,
0.469425416666667,0,0x830A,
0.469433333333333,0,0xB11A,
0.469463625000000,0,0x0006,
0.469471333333333,0,0x3B15,
0.469487750000000,0,0xB3E0,
0.469495666666667,0,0xBB1A,
0.469511500000000,0,0xB32A,
0.469519416666667,0,0xBC1A,
0.469535250000000,0,0xB2BD,
0.469543166666667,0,0xBD1A,
0.469559000000000,0,0xB200,
0.469566875000000,0,0xBE1A,
0.469582708333333,0,0xB203,
0.469590666666667,0,0xBF1A,
0.469606458333333,0,0xB26F,
0.469614416666667,0,0xC01A,
0.469644000000000,0,0x000A,
0.469651708333333,0,0x4119,
0.469667833333333,0,0xC094,
0.469675750000000,0,0xC11A,
0.469691583333333,0,0xC0C6,
0.469699500000000,0,0xC21A,
0.469715333333333,0,0xC084,
0.469723250000000,0,0xC31A,
0.469739083333333,0,0xC0C4,
0.469747000000000,0,0xC41A,
0.469762833333333,0,0xC0C3,
0.469770750000000,0,0xC51A,
0.469786583333333,0,0xDCFA,
0.469794500000000,0,0xC61A,
0.469810333333333,0,0x801B,
0.469818250000000,0,0xC71A,
0.469834083333333,0,0xA3D7,
0.469842000000000,0,0xC81A,
0.469857833333333,0,0x9E39,
0.469865750000000,0,0xC91A,
0.469881541666667,0,0x9E38,
0.469889500000000,0,0xCA1A,
0.469921125000000,0,0x0004,
0.469928833333333,0,0x032D,
0.469944916666667,0,0x0A01,
0.469952791666667,0,0x832D,
0.469968500000000,0,0x0F00,
0.469976375000000,0,0x842D,
0.469992083333333,0,0x0000,
0.469999916666667,0,0x852A,
0.470015625000000,0,0xA73F,
0.470023500000000,0,0x862D,
0.470053666666667,0,0x0001,
0.470061333333333,0,0x1D21,
0.470077500000000,0,0x0055,
0.470085333333333,0,0x9D21,
0.470113791666667,0,0x0003,
0.470121458333333,0,0x2425,
0.470137875000000,0,0x004C,
0.470145708333333,0,0xA42A,
0.470161458333333,0,0x0040,
0.470169291666667,0,0xA52A,
0.470185000000000,0,0x8000,
0.470192833333333,0,0xA62A,
0.470222250000000,0,0x0005,
0.470229958333333,0,0x2D29,
0.470246375000000,0,0xB24E,
0.470254208333333,0,0xAD2A,
0.470269916666667,0,0xFFFE,
0.470277750000000,0,0xAE2A,
0.470293458333333,0,0x5F54,
0.470301333333333,0,0xAF2A,
0.470317041666667,0,0xFFFF,
0.470324916666667,0,0xB02A,
0.470340583333333,0,0x830D,
0.470348458333333,0,0xB12A,
0.470380083333333,0,0x0006,
0.470387750000000,0,0x3B2D,
0.470403916666667,0,0xE516,
0.470411750000000,0,0xBB2A,
0.470427458333333,0,0x8000,
0.470435333333333,0,0xBC2A,
0.470451041666667,0,0x8001,
0.470458875000000,0,0xBD2A,
0.470474583333333,0,0x8003,
0.470482458333333,0,0xBE2A,
0.470498166666667,0,0xE5BC,
0.470506000000000,0,0xBF2A,
0.470521708333333,0,0xE5D3,
0.470529583333333,0,0xC02A,
0.470560083333333,0,0x000A,
0.470567791666667,0,0x4121,
0.470584083333333,0,0xDB4A,
0.470591916666667,0,0xC12A,
0.470607625000000,0,0xDC4F,
0.470615458333333,0,0xC22A,
0.470631166666667,0,0xDF35,
0.470639041666667,0,0xC32A,
0.470654750000000,0,0xE120,
0.470662583333333,0,0xC42A,
0.470678291666667,0,0xA97F,
0.470686166666667,0,0xC52A,
0.470701875000000,0,0xFF46,
0.470709708333333,0,0xC62A,
0.470725416666667,0,0xC013,
0.470733291666667,0,0xC72A,
0.470748958333333,0,0xA3BA,
0.470756833333333,0,0xC82A,
0.470772541666667,0,0x9E36,
0.470780375000000,0,0xC92A,
0.470796083333333,0,0x9E3C,
0.470803958333333,0,0xCA2A,
0.478477916666667,0,0xBC3F,
0.478485583333333,0,0x0607,
0.478513166666667,0,0x0004,
0.478520875000000,0,0x0319,
0.478537250000000,0,0x0A01,
0.478545208333333,0,0x8319,
0.478561041666667,0,0x0F00,
0.478568958333333,0,0x8419,
0.478584791666667,0,0x0000,
0.478592708333333,0,0x851B,
0.478608541666667,0,0xBF3F,
0.478616458333333,0,0x8619,
0.478647208333333,0,0x0004,
0.478654875000000,0,0x031D,
0.478670916666667,0,0x0A01,
0.478678833333333,0,0x831D,
0.478694666666667,0,0x0F00,
0.478702583333333,0,0x841D,
0.478718416666667,0,0x0000,
0.478726333333333,0,0x851B,
0.478742166666667,0,0xBF3F,
0.478750083333333,0,0x861D,
0.478781000000000,0,0x0004,
0.478788666666667,0,0x0311,
0.478805041666667,0,0x0A01,
0.478812958333333,0,0x8311,
0.478828791666667,0,0x0F00,
0.478836750000000,0,0x8411,
0.478852583333333,0,0x0000,
0.478860500000000,0,0x851B,
0.478876333333333,0,0xBF3F,
0.478884250000000,0,0x8611,
0.478914666666667,0,0x0004,
0.478922333333333,0,0x0315,
0.478938666666667,0,0x0A01,
0.478946583333333,0,0x8315,
0.478962416666667,0,0x0F00,
0.478970333333333,0,0x8415,
0.478986166666667,0,0x0000,
0.478994083333333,0,0x851B,
0.479009958333333,0,0xBF3F,
0.479017833333333,0,0x8615,
0.479048500000000,0,0x0004,
0.479056208333333,0,0x0319,
0.479072291666667,0,0x0A01,
0.479080166666667,0,0x8319,
0.479096000000000,0,0x0F00,
0.479103958333333,0,0x8419,
0.479119791666667,0,0x0000,
0.479127708333333,0,0x851B,
0.479143500000000,0,0xB73F,
0.479151416666667,0,0x8619,
0.479182500000000,0,0x0001,
0.479190166666667,0,0x1D1D,
0.479206375000000,0,0x1551,
0.479214291666667,0,0x9D1D,
0.479242458333333,0,0x0003,
0.479250166666667,0,0x2411,
0.479266208333333,0,0x0048,
0.479274125000000,0,0xA41B,
0.479289958333333,0,0x0040,
0.479297875000000,0,0xA51B,
0.479313708333333,0,0x0000,
0.479321625000000,0,0xA61B,
0.479349916666667,0,0x0005,
0.479357583333333,0,0x2D15,
0.479373583333333,0,0xB1DF,
0.479381500000000,0,0xAD1B,
0.479397333333333,0,0xFFFE,
0.479405250000000,0,0xAE1B,
0.479421083333333,0,0x1B7A,
0.479429000000000,0,0xAF1B,
0.479444833333333,0,0xFFFF,
0.479452750000000,0,0xB01B,
0.479468583333333,0,0x830F,
0.479476458333333,0,0xB11B,
0.479507166666667,0,0x0006,
0.479514833333333,0,0x3B19,
0.479530875000000,0,0xB3DD,
0.479538791666667,0,0xBB1B,
0.479554625000000,0,0xB32B,
0.479562583333333,0,0xBC1B,
0.479578375000000,0,0xB2BD,
0.479586291666667,0,0xBD1B,
0.479602125000000,0,0xB202,
0.479610041666667,0,0xBE1B,
0.479625875000000,0,0xB1FE,
0.479633791666667,0,0xBF1B,
0.479649625000000,0,0xB272,
0.479657583333333,0,0xC01B,
0.479687500000000,0,0x000A,
0.479695166666667,0,0x411D,
0.479711500000000,0,0xC096,
0.479719416666667,0,0xC11B,
0.479735250000000,0,0xC0C7,
0.479743166666667,0,0xC21B,
0.479759000000000,0,0xC087,
0.479766916666667,0,0xC31B,
0.479782750000000,0,0xC0C8,
0.479790666666667,0,0xC41B,
0.479806500000000,0,0xC0C9,
0.479814416666667,0,0xC51B,
0.479830250000000,0,0xDCF9,
0.479838166666667,0,0xC61B,
0.479853958333333,0,0x8020,
0.479861916666667,0,0xC71B,
0.479877750000000,0,0xA3D9,
0.479885666666667,0,0xC81B,
0.479901458333333,0,0x9E3D,
0.479909375000000,0,0xC91B,
0.479925208333333,0,0x9E39,
0.479933125000000,0,0xCA1B,
0.479964750000000,0,0x0004,
0.479972416666667,0,0x0321,
0.479988541666667,0,0x0A01,
0.479996375000000,0,0x8321,
0.480012083333333,0,0x0F00,
0.480019958333333,0,0x8421,
0.480035666666667,0,0x0000,
0.480043500000000,0,0x852B,
0.480059250000000,0,0xB73F,
0.480067083333333,0,0x8621,
0.480097458333333,0,0x0001,
0.480105125000000,0,0x1D25,
0.480121583333333,0,0x0055,
0.480129416666667,0,0x9D25,
0.480157041666667,0,0x0003,
0.480164750000000,0,0x2429,
0.480180958333333,0,0x004C,
0.480188833333333,0,0xA42B,
0.480204541666667,0,0x0040,
0.480212375000000,0,0xA52B,
0.480228083333333,0,0x8000,
0.480235958333333,0,0xA62B,
0.480265333333333,0,0x0005,
0.480273000000000,0,0x2D2D,
0.480288958333333,0,0xB35C,
0.480296833333333,0,0xAD2B,
0.480312541666667,0,0xFFFE,
0.480320416666667,0,0xAE2B,
0.480336125000000,0,0x5D4B,
0.480343958333333,0,0xAF2B,
0.480359666666667,0,0xFFFF,
0.480367541666667,0,0xB02B,
0.480383250000000,0,0x830D,
0.480391083333333,0,0xB12B,
0.480420666666667,0,0x0006,
0.480428333333333,0,0x3B21,
0.480444625000000,0,0xE519,
0.480452458333333,0,0xBB2B,
0.480468208333333,0,0x8002,
0.480476041666667,0,0xBC2B,
0.480491750000000,0,0x8000,
0.480499583333333,0,0xBD2B,
0.480515291666667,0,0x8002,
0.480523166666667,0,0xBE2B,
0.480538875000000,0,0xE5B6,
0.480546750000000,0,0xBF2B,
0.480562416666667,0,0xE5D0,
0.480570291666667,0,0xC02B,
0.480600833333333,0,0x000A,
0.480608500000000,0,0x4125,
0.480624750000000,0,0xDB4A,
0.480632625000000,0,0xC12B,
0.480648291666667,0,0xDC51,
0.480656166666667,0,0xC22B,
0.480671875000000,0,0xDF39,
0.480679708333333,0,0xC32B,
0.480695416666667,0,0xE123,
0.480703291666667,0,0xC42B,
0.480719000000000,0,0xA97C,
0.480726833333333,0,0xC52B,
0.480742541666667,0,0xFF4B,
0.480750416666667,0,0xC62B,
0.480766125000000,0,0xC016,
0.480774000000000,0,0xC72B,
0.480789666666667,0,0xA3B7,
0.480797541666667,0,0xC82B,
0.480813250000000,0,0x9E37,
0.480821083333333,0,0xC92B,
0.480836791666667,0,0x9E41,
0.480844666666667,0,0xCA2B,
0.488423375000000,0,0xCC3F,
0.488431041666667,0,0x060B,
0.488458791666667,0,0x0004,
0.488466458333333,0,0x031D,
0.488482541666667,0,0x0A01,
0.488490458333333,0,0x831D,
0.488506291666667,0,0x0F00,
0.488514208333333,0,0x841D,
0.488530041666667,0,0x0000,
0.488537958333333,0,0x851C,
0.488553791666667,0,0xCF3F,
0.488561708333333,0,0x861D,
0.488592083333333,0,0x0004,
0.488599750000000,0,0x0311,
0.488616166666667,0,0x0A01,
0.488624083333333,0,0x8311,
0.488639916666667,0,0x0F00,
0.488647833333333,0,0x8411,
0.488663666666667,0,0x0000,
0.488671583333333,0,0x851C,
0.488687458333333,0,0xCF3F,
0.488695375000000,0,0x8611,
0.488726333333333,0,0x0004,
0.488734000000000,0,0x0315,
0.488750333333333,0,0x0A01,
0.488758250000000,0,0x8315,
0.488774083333333,0,0x0F00,
0.488782000000000,0,0x8415,
0.488797833333333,0,0x0000,
0.488805791666667,0,0x851C,
0.488821583333333,0,0xCF3F,
0.488829500000000,0,0x8615,
0.488860541666667,0,0x0004,
0.488868208333333,0,0x0319,
0.488884458333333,0,0x0A01,
0.488892375000000,0,0x8319,
0.488908208333333,0,0x0F00,
0.488916125000000,0,0x8419,
0.488931958333333,0,0x0000,
0.488939875000000,0,0x851C,
0.488955708333333,0,0xCF3F,
0.488963666666667,0,0x8619,
0.488994666666667,0,0x0004,
0.489002375000000,0,0x031D,
0.489018583333333,0,0x0A01,
0.489026500000000,0,0x831D,
0.489042291666667,0,0x0F00,
0.489050208333333,0,0x841D,
0.489066083333333,0,0x0000,
0.489074000000000,0,0x851C,
0.489089833333333,0,0xC73F,
0.489097750000000,0,0x861D,
0.489128458333333,0,0x0001,
0.489136166666667,0,0x1D11,
0.489152166666667,0,0x1551,
0.489160083333333,0,0x9D11,
0.489188500000000,0,0x0003,
0.489196166666667,0,0x2415,
0.489212541666667,0,0x0048,
0.489220458333333,0,0xA41C,
0.489236291666667,0,0x0040,
0.489244208333333,0,0xA51C,
0.489260041666667,0,0x0000,
0.489267958333333,0,0xA61C,
0.489296666666667,0,0x0005,
0.489304333333333,0,0x2D19,
0.489320375000000,0,0xB2E7,
0.489328291666667,0,0xAD1C,
0.489344125000000,0,0xFFFE,
0.489352083333333,0,0xAE1C,
0.489367916666667,0,0x18B1,
0.489375791666667,0,0xAF1C,
0.489391666666667,0,0xFFFF,
0.489399541666667,0,0xB01C,
0.489415375000000,0,0x8309,
0.489423291666667,0,0xB11C,
0.489453583333333,0,0x0006,
0.489461250000000,0,0x3B1D,
0.489477750000000,0,0xB3E2,
0.489485666666667,0,0xBB1C,
0.489501500000000,0,0xB32B,
0.489509416666667,0,0xBC1C,
0.489525250000000,0,0xB2BA,
0.489533166666667,0,0xBD1C,
0.489549000000000,0,0xB1FE,
0.489556916666667,0,0xBE1C,
0.489572750000000,0,0xB1FD,
0.489580666666667,0,0xBF1C,
0.489596500000000,0,0xB26D,
0.489604416666667,0,0xC01C,
0.489634375000000,0,0x000A,
0.489642083333333,0,0x4111,
0.489658375000000,0,0xC093,
0.489666291666667,0,0xC11C,
0.489682125000000,0,0xC0C5,
0.489690041666667,0,0xC21C,
0.489705875000000,0,0xC086,
0.489713791666667,0,0xC31C,
0.489729625000000,0,0xC0C5,
0.489737541666667,0,0xC41C,
0.489753375000000,0,0xC0C7,
0.489761291666667,0,0xC51C,
0.489777125000000,0,0xDCF5,
0.489785041666667,0,0xC61C,
0.489800875000000,0,0x801C,
0.489808791666667,0,0xC71C,
0.489824625000000,0,0xA3D8,
0.489832541666667,0,0xC81C,
0.489848375000000,0,0x9E36,
0.489856291666667,0,0xC91C,
0.489872125000000,0,0x9E3B,
0.489880041666667,0,0xCA1C,
0.489912333333333,0,0x0004,
0.489920000000000,0,0x0325,
0.489936333333333,0,0x0A01,
0.489944166666667,0,0x8325,
0.489959875000000,0,0x0F00,
0.489967750000000,0,0x8425,
0.489983416666667,0,0x0000,
0.489991291666667,0,0x852C,
0.490007000000000,0,0xC73F,
0.490014833333333,0,0x8625,
0.490045291666667,0,0x0001,
0.490052958333333,0,0x1D29,
0.490069333333333,0,0x0055,
0.490077166666667,0,0x9D29,
0.490104458333333,0,0x0003,
0.490112125000000,0,0x242D,
0.490128250000000,0,0x004C,
0.490136125000000,0,0xA42C,
0.490151791666667,0,0x0040,
0.490159666666667,0,0xA52C,
0.490175375000000,0,0x8000,
0.490183250000000,0,0xA62C,
0.490211833333333,0,0x0005,
0.490219500000000,0,0x2D21,
0.490235750000000,0,0xB466,
0.490243625000000,0,0xAD2C,
0.490259333333333,0,0xFFFE,
0.490267166666667,0,0xAE2C,
0.490282875000000,0,0x5B0F,
0.490290750000000,0,0xAF2C,
0.490306458333333,0,0xFFFF,
0.490314333333333,0,0xB02C,
0.490330000000000,0,0x830E,
0.490337875000000,0,0xB12C,
0.490368083333333,0,0x0006,
0.490375750000000,0,0x3B25,
0.490391875000000,0,0xE517,
0.490399750000000,0,0xBB2C,
0.490415458333333,0,0x8000,
0.490423291666667,0,0xBC2C,
0.490439000000000,0,0x8000,
0.490446875000000,0,0xBD2C,
0.490462541666667,0,0x8000,
0.490470416666667,0,0xBE2C,
0.490486125000000,0,0xE5BC,
0.490494000000000,0,0xBF2C,
0.490509708333333,0,0xE5D3,
0.490517541666667,0,0xC02C,
0.490547750000000,0,0x000A,
0.490555416666667,0,0x4129,
0.490571541666667,0,0xDB4F,
0.490579416666667,0,0xC12C,
0.490595125000000,0,0xDC56,
0.490602958333333,0,0xC22C,
0.490618666666667,0,0xDF3A,
0.490626541666667,0,0xC32C,
0.490642250000000,0,0xE124,
0.490650083333333,0,0xC42C,
0.490665833333333,0,0xA981,
0.490673666666667,0,0xC52C,
0.490689375000000,0,0xFF4B,
0.490697250000000,0,0xC62C,
0.490712958333333,0,0xC015,
0.490720791666667,0,0xC72C,
0.490736500000000,0,0xA3BC,
0.490744333333333,0,0xC82C,
0.490760041666667,0,0x9E3C,
0.490767916666667,0,0xC92C,
0.490783625000000,0,0x9E3B,
0.490791458333333,0,0xCA2C,
0.498452000000000,0,0xDC3F,
0.498459666666667,0,0x060F,
0.498487041666667,0,0x0004,
0.498494750000000,0,0x0311,
0.498510875000000,0,0x0A01,
0.498518791666667,0,0x8311,
0.498534625000000,0,0x0F00,
0.498542541666667,0,0x8411,
0.498558375000000,0,0x0000,
0.498566291666667,0,0x851D,
0.498582125000000,0,0xDF3F,
0.498590041666667,0,0x8611,
0.498620416666667,0,0x0004,
0.498628083333333,0,0x0315,
0.498644458333333,0,0x0A01,
0.498652375000000,0,0x8315,
0.498668250000000,0,0x0F00,
0.498676166666667,0,0x8415,
0.498692000000000,0,0x0000,
0.498699916666667,0,0x851D,
0.498715750000000,0,0xDF3F,
0.498723666666667,0,0x8615,
0.498754125000000,0,0x0004,
0.498761791666667,0,0x0319,
0.498778125000000,0,0x0A01,
0.498786041666667,0,0x8319,
0.498801833333333,0,0x0F00,
0.498809750000000,0,0x8419,
0.498825583333333,0,0x0000,
0.498833500000000,0,0x851D,
0.498849333333333,0,0xDF3F,
0.498857250000000,0,0x8619,
0.498887625000000,0,0x0004,
0.498895291666667,0,0x031D,
0.498911666666667,0,0x0A01,
0.498919583333333,0,0x831D,
0.498935416666667,0,0x0F00,
0.498943333333333,0,0x841D,
0.498959166666667,0,0x0000,
0.498967083333333,0,0x851D,
0.498982958333333,0,0xDF3F,
0.498990833333333,0,0x861D,
0.499021583333333,0,0x0004,
0.499029250000000,0,0x0311,
0.499045291666667,0,0x0A01,
0.499053208333333,0,0x8311,
0.499069041666667,0,0x0F00,
0.499076958333333,0,0x8411,
0.499092791666667,0,0x0000,
0.499100708333333,0,0x851D,
0.499116541666667,0,0xD73F,
0.499124458333333,0,0x8611,
0.499154875000000,0,0x0001,
0.499162541666667,0,0x1D15,
0.499178916666667,0,0x1551,
0.499186833333333,0,0x9D15,
0.499214958333333,0,0x0003,
0.499222666666667,0,0x2419,
0.499238791666667,0,0x0048,
0.499246708333333,0,0xA41D,
0.499262541666667,0,0x0040,
0.499270458333333,0,0xA51D,
0.499286291666667,0,0x0000,
0.499294208333333,0,0xA61D,
0.499322416666667,0,0x0005,
0.499330083333333,0,0x2D1D,
0.499346166666667,0,0xB3F2,
0.499354083333333,0,0xAD1D,
0.499369916666667,0,0xFFFE,
0.499377833333333,0,0xAE1D,
0.499393666666667,0,0x155A,
0.499401583333333,0,0xAF1D,
0.499417416666667,0,0xFFFF,
0.499425333333333,0,0xB01D,
0.499441166666667,0,0x830E,
0.499449083333333,0,0xB11D,
0.499479916666667,0,0x0006,
0.499487625000000,0,0x3B11,
0.499504000000000,0,0xB3E2,
0.499511916666667,0,0xBB1D,
0.499527750000000,0,0xB32D,
0.499535666666667,0,0xBC1D,
0.499551500000000,0,0xB2BD,
0.499559416666667,0,0xBD1D,
0.499575250000000,0,0xB1FD,
0.499583166666667,0,0xBE1D,
0.499599000000000,0,0xB200,
0.499606916666667,0,0xBF1D,
0.499622750000000,0,0xB273,
0.499630666666667,0,0xC01D,
0.499660500000000,0,0x000A,
0.499668166666667,0,0x4115,
0.499684625000000,0,0xC08C,
0.499692541666667,0,0xC11D,
0.499708375000000,0,0xC0C2,
0.499716291666667,0,0xC21D,
0.499732125000000,0,0xC081,
0.499740041666667,0,0xC31D,
0.499755875000000,0,0xC0C4,
0.499763791666667,0,0xC41D,
0.499779625000000,0,0xC0C4,
0.499787541666667,0,0xC51D,
0.499803375000000,0,0xDCF8,
0.499811291666667,0,0xC61D,
0.499827125000000,0,0x8018,
0.499835041666667,0,0xC71D,
0.499850833333333,0,0xA3D7,
0.499858791666667,0,0xC81D,
0.499874583333333,0,0x9E39,
0.499882500000000,0,0xC91D,
0.499898333333333,0,0x9E3A,
0.499906250000000,0,0xCA1D,
0.499937875000000,0,0x0004,
0.499945541666667,0,0x0329,
0.499961541666667,0,0x0A01,
0.499969375000000,0,0x8329,
0.499985083333333,0,0x0F00,
0.499992958333333,0,0x8429,
0.500008666666667,0,0x0000,
0.500016500000000,0,0x852D,
0.500032208333333,0,0xD73F,
0.500040083333333,0,0x8629,
0.500070541666667,0,0x0001,
0.500078250000000,0,0x1D2D,
0.500094541666667,0,0x0055,
0.500102416666667,0,0x9D2D,
0.500130875000000,0,0x0003,
0.500138541666667,0,0x2421,
0.500154916666667,0,0x004C,
0.500162791666667,0,0xA42D,
0.500178500000000,0,0x0040,
0.500186333333333,0,0xA52D,
0.500202041666667,0,0x8000,
0.500209875000000,0,0xA62D,
0.500239625000000,0,0x0005,
0.500247291666667,0,0x2D25,
0.500263416666667,0,0xB573,
0.500271250000000,0,0xAD2D,
0.500287000000000,0,0xFFFE,
0.500294833333333,0,0xAE2D,
0.500310541666667,0,0x588E,
0.500318416666667,0,0xAF2D,
0.500334125000000,0,0x8000,
0.500341958333333,0,0xB02D,
0.500357666666667,0,0x8300,
0.500365500000000,0,0xB12D,
0.500396708333333,0,0x0006,
0.500404375000000,0,0x3B29,
0.500420458333333,0,0xE516,
0.500428333333333,0,0xBB2D,
0.500444041666667,0,0x8000,
0.500451875000000,0,0xBC2D,
0.500467583333333,0,0x8004,
0.500475458333333,0,0xBD2D,
0.500491166666667,0,0x8000,
0.500499041666667,0,0xBE2D,
0.500514750000000,0,0xE5BD,
0.500522583333333,0,0xBF2D,
0.500538291666667,0,0xE5D1,
0.500546166666667,0,0xC02D,
0.500575958333333,0,0x000A,
0.500583625000000,0,0x412D,
0.500599666666667,0,0xDB4E,
0.500607500000000,0,0xC12D,
0.500623208333333,0,0xDC52,
0.500631083333333,0,0xC22D,
0.500646791666667,0,0xDF3A,
0.500654625000000,0,0xC32D,
0.500670333333333,0,0xE123,
0.500678166666667,0,0xC42D,
0.500693875000000,0,0xA97D,
0.500701750000000,0,0xC52D,
0.500717458333333,0,0xFF4A,
0.500725291666667,0,0xC62D,
0.500741000000000,0,0xC014,
0.500748875000000,0,0xC72D,
0.500764583333333,0,0xA3BA,
0.500772458333333,0,0xC82D,
0.500788125000000,0,0x9E3B,
0.500796000000000,0,0xC92D,
0.500811666666667,0,0x9E3D,
0.500819541666667,0,0xCA2D,
0.508427041666667,0,0xEC3F,
0.508434708333333,0,0x0603,
0.508462375000000,0,0x0004,
0.508470083333333,0,0x0315,
0.508486333333333,0,0x0A01,
0.508494250000000,0,0x8315,
0.508510083333333,0,0x0F00,
0.508518000000000,0,0x8415,
0.508533833333333,0,0x0000,
0.508541791666667,0,0x851E,
0.508557625000000,0,0xEF3F,
0.508565541666667,0,0x8615,
0.508596625000000,0,0x0004,
0.508604291666667,0,0x0319,
0.508620500000000,0,0x0A01,
0.508628416666667,0,0x8319,
0.508644250000000,0,0x0F00,
0.508652166666667,0,0x8419,
0.508668000000000,0,0x0000,
0.508675958333333,0,0x851E,
0.508691791666667,0,0xEF3F,
0.508699708333333,0,0x8619,
0.508730250000000,0,0x0004,
0.508737916666667,0,0x031D,
0.508754125000000,0,0x0A01,
0.508762041666667,0,0x831D,
0.508777875000000,0,0x0F00,
0.508785791666667,0,0x841D,
0.508801625000000,0,0x0000,
0.508809583333333,0,0x851E,
0.508825375000000,0,0xEF3F,
0.508833291666667,0,0x861D,
0.508864416666667,0,0x0004,
0.508872083333333,0,0x0311,
0.508888250000000,0,0x0A01,
0.508896166666667,0,0x8311,
0.508912000000000,0,0x0F00,
0.508919916666667,0,0x8411,
0.508935750000000,0,0x0000,
0.508943708333333,0,0x851E,
0.508959541666667,0,0xEF3F,
0.508967458333333,0,0x8611,
0.508998250000000,0,0x0004,
0.509005958333333,0,0x0315,
0.509022333333333,0,0x0A01,
0.509030250000000,0,0x8315,
0.509046083333333,0,0x0F00,
0.509054000000000,0,0x8415,
0.509069833333333,0,0x0000,
0.509077750000000,0,0x851E,
0.509093625000000,0,0xE73F,
0.509101541666667,0,0x8615,
0.509131958333333,0,0x0001,
0.509139666666667,0,0x1D19,
0.509155958333333,0,0x1551,
0.509163833333333,0,0x9D19,
0.509191541666667,0,0x0003,
0.509199208333333,0,0x241D,
0.509215333333333,0,0x0048,
0.509223250000000,0,0xA41E,
0.509239083333333,0,0x0040,
0.509247000000000,0,0xA51E,
0.509262833333333,0,0x0000,
0.509270750000000,0,0xA61E,
0.509299750000000,0,0x0005,
0.509307416666667,0,0x2D11,
0.509323666666667,0,0xB4FB,
0.509331625000000,0,0xAD1E,
0.509347458333333,0,0xFFFE,
0.509355333333333,0,0xAE1E,
0.509371166666667,0,0x131F,
0.509379083333333,0,0xAF1E,
0.509394916666667,0,0x8000,
0.509402833333333,0,0xB01E,
0.509418666666667,0,0x8303,
0.509426583333333,0,0xB11E,
0.509456583333333,0,0x0006,
0.509464291666667,0,0x3B15,
0.509480541666667,0,0xB3E0,
0.509488458333333,0,0xBB1E,
0.509504291666667,0,0xB32B,
0.509512208333333,0,0xBC1E,
0.509528041666667,0,0xB2BB,
0.509535958333333,0,0xBD1E,
0.509551791666667,0,0xB1FD,
0.509559708333333,0,0xBE1E,
0.509575541666667,0,0xB1FE,
0.509583458333333,0,0xBF1E,
0.509599333333333,0,0xB26E,
0.509607208333333,0,0xC01E,
0.509637500000000,0,0x000A,
0.509645166666667,0,0x4119,
0.509661166666667,0,0xC097,
0.509669083333333,0,0xC11E,
0.509684916666667,0,0xC0C7,
0.509692833333333,0,0xC21E,
0.509708666666667,0,0xC086,
0.509716583333333,0,0xC31E,
0.509732416666667,0,0xC0C7,
0.509740333333333,0,0xC41E,
0.509756166666667,0,0xC0C9,
0.509764083333333,0,0xC51E,
0.509779875000000,0,0xDCFF,
0.509787833333333,0,0xC61E,
0.509803666666667,0,0x8021,
0.509811541666667,0,0xC71E,
0.509827416666667,0,0xA3D8,
0.509835333333333,0,0xC81E,
0.509851166666667,0,0x9E3B,
0.509859041666667,0,0xC91E,
0.509874916666667,0,0x9E38,
0.509882833333333,0,0xCA1E,
0.509914541666667,0,0x0004,
0.509922250000000,0,0x032D,
0.509938333333333,0,0x0A01,
0.509946208333333,0,0x832D,
0.509961916666667,0,0x0F00,
0.509969750000000,0,0x842D,
0.509985458333333,0,0x0000,
0.509993291666667,0,0x852E,
0.510009000000000,0,0xE73F,
0.510016875000000,0,0x862D,
0.510047666666667,0,0x0001,
0.510055333333333,0,0x1D21,
0.510071375000000,0,0x0055,
0.510079208333333,0,0x9D21,
0.510107541666667,0,0x0003,
0.510115208333333,0,0x2425,
0.510131291666667,0,0x004C,
0.510139125000000,0,0xA42E,
0.510154833333333,0,0x0040,
0.510162666666667,0,0xA52E,
0.510178375000000,0,0x8000,
0.510186250000000,0,0xA62E,
0.510215875000000,0,0x0005,
0.510223541666667,0,0x2D29,
0.510239750000000,0,0xB67E,
0.510247625000000,0,0xAD2E,
0.510263333333333,0,0xFFFE,
0.510271166666667,0,0xAE2E,
0.510286875000000,0,0x5577,
0.510294750000000,0,0xAF2E,
0.510310458333333,0,0xFFFF,
0.510318291666667,0,0xB02E,
0.510334000000000,0,0x830A,
0.510341833333333,0,0xB12E,
0.510371208333333,0,0x0006,
0.510378875000000,0,0x3B2D,
0.510394875000000,0,0xE51A,
0.510402750000000,0,0xBB2E,
0.510418458333333,0,0x8000,
0.510426291666667,0,0xBC2E,
0.510442000000000,0,0x8000,
0.510449875000000,0,0xBD2E,
0.510465583333333,0,0x8000,
0.510473416666667,0,0xBE2E,
0.510489125000000,0,0xE5BB,
0.510497000000000,0,0xBF2E,
0.510512708333333,0,0xE5D1,
0.510520583333333,0,0xC02E,
0.510550583333333,0,0x000A,
0.510558291666667,0,0x4121,
0.510574541666667,0,0xDB4E,
0.510582416666667,0,0xC12E,
0.510598125000000,0,0xDC50,
0.510606000000000,0,0xC22E,
0.510621708333333,0,0xDF39,
0.510629541666667,0,0xC32E,
0.510645250000000,0,0xE121,
0.510653083333333,0,0xC42E,
0.510668791666667,0,0xA97B,
0.510676666666667,0,0xC52E,
0.510692375000000,0,0xFF45,
0.510700208333333,0,0xC62E,
0.510715958333333,0,0xC014,
0.510723791666667,0,0xC72E,
0.510739500000000,0,0xA3BB,
0.510747375000000,0,0xC82E,
0.510763083333333,0,0x9E36,
0.510770958333333,0,0xC92E,
0.510786625000000,0,0x9E3E,
0.510794500000000,0,0xCA2E,
0.518448166666667,0,0xFC3F,
0.518455875000000,0,0x0607,
0.518482875000000,0,0x0004,
0.518490583333333,0,0x0319,
0.518506875000000,0,0x0A01,
0.518514791666667,0,0x8319,
0.518530625000000,0,0x0F00,
0.518538541666667,0,0x8419,
0.518554375000000,0,0x0000,
0.518562291666667,0,0x851F,
0.518578125000000,0,0xFF3F,
0.518586041666667,0,0x8619,
0.518617125000000,0,0x0004,
0.518624833333333,0,0x031D,
0.518641000000000,0,0x0A01,
0.518648916666667,0,0x831D,
0.518664750000000,0,0x0F00,
0.518672666666667,0,0x841D,
0.518688500000000,0,0x0000,
0.518696416666667,0,0x851F,
0.518712250000000,0,0xFF3F,
0.518720166666667,0,0x861D,
0.518750916666667,0,0x0004,
0.518758625000000,0,0x0311,
0.518774583333333,0,0x0A01,
0.518782541666667,0,0x8311,
0.518798333333333,0,0x0F00,
0.518806291666667,0,0x8411,
0.518822083333333,0,0x0000,
0.518830041666667,0,0x851F,
0.518845875000000,0,0xFF3F,
0.518853791666667,0,0x8611,
0.518884958333333,0,0x0004,
0.518892625000000,0,0x0315,
0.518908708333333,0,0x0A01,
0.518916625000000,0,0x8315,
0.518932458333333,0,0x0F00,
0.518940375000000,0,0x8415,
0.518956208333333,0,0x0000,
0.518964166666667,0,0x851F,
0.518979958333333,0,0xFF3F,
0.518987875000000,0,0x8615,
0.519018208333333,0,0x0004,
0.519025916666667,0,0x0319,
0.519042333333333,0,0x0A01,
0.519050250000000,0,0x8319,
0.519066083333333,0,0x0F00,
0.519074000000000,0,0x8419,
0.519089833333333,0,0x0000,
0.519097750000000,0,0x851F,
0.519113583333333,0,0xF73F,
0.519121500000000,0,0x8619,
0.519152958333333,0,0x0001,
0.519160625000000,0,0x1D1D,
0.519176916666667,0,0x1551,
0.519184833333333,0,0x9D1D,
0.519213041666667,0,0x0003,
0.519220708333333,0,0x2411,
0.519236791666667,0,0x0048,
0.519244708333333,0,0xA41F,
0.519260541666667,0,0x0040,
0.519268458333333,0,0xA51F,
0.519284291666667,0,0x0000,
0.519292208333333,0,0xA61F,
0.519321333333333,0,0x0005,
0.519329041666667,0,0x2D15,
0.519345125000000,0,0xB606,
0.519353041666667,0,0xAD1F,
0.519368875000000,0,0xFFFE,
0.519376791666667,0,0xAE1F,
0.519392625000000,0,0x1025,
0.519400541666667,0,0xAF1F,
0.519416375000000,0,0xFFFF,
0.519424291666667,0,0xB01F,
0.519440125000000,0,0x8308,
0.519448041666667,0,0xB11F,
0.519478125000000,0,0x0006,
0.519485791666667,0,0x3B19,
0.519501958333333,0,0xB3DC,
0.519509875000000,0,0xBB1F,
0.519525708333333,0,0xB328,
0.519533625000000,0,0xBC1F,
0.519549500000000,0,0xB2B9,
0.519557416666667,0,0xBD1F,
0.519573208333333,0,0xB1FD,
0.519581166666667,0,0xBE1F,
0.519596958333333,0,0xB201,
0.519604875000000,0,0xBF1F,
0.519620708333333,0,0xB270,
0.519628625000000,0,0xC01F,
0.519658500000000,0,0x000A,
0.519666166666667,0,0x411D,
0.519682541666667,0,0xC097,
0.519690458333333,0,0xC11F,
0.519706291666667,0,0xC0C5,
0.519714208333333,0,0xC21F,
0.519730041666667,0,0xC086,
0.519737958333333,0,0xC31F,
0.519753791666667,0,0xC0C4,
0.519761708333333,0,0xC41F,
0.519777541666667,0,0xC0C7,
0.519785500000000,0,0xC51F,
0.519801333333333,0,0xDCF7,
0.519809250000000,0,0xC61F,
0.519825083333333,0,0x801E,
0.519833000000000,0,0xC71F,
0.519848833333333,0,0xA3D8,
0.519856750000000,0,0xC81F,
0.519872583333333,0,0x9E39,
0.519880500000000,0,0xC91F,
0.519896333333333,0,0x9E38,
0.519904250000000,0,0xCA1F,
0.519935916666667,0,0x0004,
0.519943625000000,0,0x0321,
0.519959666666667,0,0x0A01,
0.519967500000000,0,0x8321,
0.519983208333333,0,0x0F00,
0.519991041666667,0,0x8421,
0.520006791666667,0,0x0000,
0.520014625000000,0,0x852F,
0.520030333333333,0,0xF73F,
0.520038208333333,0,0x8621,
0.520068916666667,0,0x0001,
0.520076583333333,0,0x1D25,
0.520092666666667,0,0x0055,
0.520100541666667,0,0x9D25,
0.520128583333333,0,0x0003,
0.520136250000000,0,0x2429,
0.520152583333333,0,0x004C,
0.520160416666667,0,0xA42F,
0.520176125000000,0,0x0040,
0.520183958333333,0,0xA52F,
0.520199708333333,0,0x8000,
0.520207541666667,0,0xA62F,
0.520236666666667,0,0x0005,
0.520244333333333,0,0x2D2D,
0.520260583333333,0,0xB78B,
0.520268416666667,0,0xAD2F,
0.520284125000000,0,0xFFFE,
0.520291958333333,0,0xAE2F,
0.520307666666667,0,0x52EA,
0.520315541666667,0,0xAF2F,
0.520331250000000,0,0xFFFF,
0.520339083333333,0,0xB02F,
0.520354791666667,0,0x830B,
0.520362666666667,0,0xB12F,
0.520393500000000,0,0x0006,
0.520401208333333,0,0x3B21,
0.520417166666667,0,0xE51B,
0.520425000000000,0,0xBB2F,
0.520440708333333,0,0x8000,
0.520448583333333,0,0xBC2F,
0.520464291666667,0,0x8000,
0.520472125000000,0,0xBD2F,
0.520487833333333,0,0x8000,
0.520495708333333,0,0xBE2F,
0.520511416666667,0,0xE5BB,
0.520519291666667,0,0xBF2F,
0.520534958333333,0,0xE5D3,
0.520542833333333,0,0xC02F,
0.520573625000000,0,0x000A,
0.520581291666667,0,0x4125,
0.520597333333333,0,0xDB4E,
0.520605166666667,0,0xC12F,
0.520620875000000,0,0xDC51,
0.520628750000000,0,0xC22F,
0.520644416666667,0,0xDF39,
0.520652291666667,0,0xC32F,
0.520668000000000,0,0xE120,
0.520675875000000,0,0xC42F,
0.520691541666667,0,0xA97A,
0.520699416666667,0,0xC52F,
0.520715125000000,0,0xFF48,
0.520722958333333,0,0xC62F,
0.520738666666667,0,0xC015,
0.520746541666667,0,0xC72F,
0.520762250000000,0,0xA3BC,
0.520770083333333,0,0xC82F,
0.520785791666667,0,0x9E36,
0.520793666666667,0,0xC92F,
0.520809375000000,0,0x9E3E,
0.520817250000000,0,0xCA2F,
0.528422708333333,0,0x0C3F,
0.528430375000000,0,0x060B,
0.528458125000000,0,0x0004,
0.528465791666667,0,0x031D,
0.528481833333333,0,0x0A01,
0.528489750000000,0,0x831D,
0.528505583333333,0,0x0F00,
0.528513500000000,0,0x841D,
0.528529375000000,0,0x0000,
0.528537291666667,0,0x8510,
0.528553125000000,0,0x0F3F,
0.528561041666667,0,0x861D,
0.528591291666667,0,0x0004,
0.528599000000000,0,0x0311,
0.528614958333333,0,0x0A01,
0.528622875000000,0,0x8311,
0.528638708333333,0,0x0F00,
0.528646625000000,0,0x8411,
0.528662458333333,0,0x0000,
0.528670375000000,0,0x8510,
0.528686250000000,0,0x0F3F,
0.528694166666667,0,0x8611,
0.528725166666667,0,0x0004,
0.528732833333333,0,0x0315,
0.528749083333333,0,0x0A01,
0.528757000000000,0,0x8315,
0.528772833333333,0,0x0F00,
0.528780750000000,0,0x8415,
0.528796583333333,0,0x0000,
0.528804500000000,0,0x8510,
0.528820333333333,0,0x0F3F,
0.528828250000000,0,0x8615,
0.528859750000000,0,0x0004,
0.528867416666667,0,0x0319,
0.528883708333333,0,0x0A01,
0.528891625000000,0,0x8319,
0.528907458333333,0,0x0F00,
0.528915375000000,0,0x8419,
0.528931208333333,0,0x0000,
0.528939125000000,0,0x8510,
0.528954958333333,0,0x0F3F,
0.528962875000000,0,0x8619,
0.528993666666667,0,0x0004,
0.529001375000000,0,0x031D,
0.529017791666667,0,0x0A01,
0.529025708333333,0,0x831D,
0.529041541666667,0,0x0F00,
0.529049458333333,0,0x841D,
0.529065291666667,0,0x0000,
0.529073208333333,0,0x8510,
0.529089041666667,0,0x073F,
0.529096958333333,0,0x861D,
0.529127208333333,0,0x0001,
0.529134875000000,0,0x1D11,
0.529151375000000,0,0x1551,
0.529159291666667,0,0x9D11,
0.529187708333333,0,0x0003,
0.529195375000000,0,0x2415,
0.529211750000000,0,0x0048,
0.529219666666667,0,0xA410,
0.529235500000000,0,0x0040,
0.529243416666667,0,0xA510,
0.529259250000000,0,0x0000,
0.529267166666667,0,0xA610,
0.529296500000000,0,0x0005,
0.529304208333333,0,0x2D19,
0.529320625000000,0,0xB70F,
0.529328541666667,0,0xAD10,
0.529344375000000,0,0xFFFE,
0.529352291666667,0,0xAE10,
0.529368125000000,0,0x0D20,
0.529376041666667,0,0xAF10,
0.529391875000000,0,0xFFFF,
0.529399791666667,0,0xB010,
0.529415666666667,0,0x8304,
0.529423583333333,0,0xB110,
0.529453916666667,0,0x0006,
0.529461583333333,0,0x3B1D,
0.529478000000000,0,0xB3E1,
0.529485916666667,0,0xBB10,
0.529501750000000,0,0xB32C,
0.529509666666667,0,0xBC10,
0.529525500000000,0,0xB2B9,
0.529533416666667,0,0xBD10,
0.529549208333333,0,0xB1FE,
0.529557125000000,0,0xBE10,
0.529572958333333,0,0xB200,
0.529580875000000,0,0xBF10,
0.529596708333333,0,0xB270,
0.529604625000000,0,0xC010,
0.529635333333333,0,0x000A,
0.529643000000000,0,0x4111,
0.529659041666667,0,0xC098,
0.529666958333333,0,0xC110,
0.529682791666667,0,0xC0C5,
0.529690708333333,0,0xC210,
0.529706583333333,0,0xC085,
0.529714500000000,0,0xC310,
0.529730333333333,0,0xC0C7,
0.529738250000000,0,0xC410,
0.529754083333333,0,0xC0C7,
0.529762000000000,0,0xC510,
0.529777833333333,0,0xDCFB,
0.529785750000000,0,0xC610,
0.529801583333333,0,0x801E,
0.529809458333333,0,0xC710,
0.529825291666667,0,0xA3D8,
0.529833208333333,0,0xC810,
0.529849041666667,0,0x9E39,
0.529856958333333,0,0xC910,
0.529872791666667,0,0x9E3E,
0.529880708333333,0,0xCA10,
0.529913416666667,0,0x0004,
0.529921083333333,0,0x0325,
0.529937250000000,0,0x0A01,
0.529945083333333,0,0x8325,
0.529960791666667,0,0x0F00,
0.529968666666667,0,0x8425,
0.529984375000000,0,0x0000,
0.529992208333333,0,0x8520,
0.530007916666667,0,0x073F,
0.530015791666667,0,0x8625,
0.530046333333333,0,0x0001,
0.530054041666667,0,0x1D29,
0.530070291666667,0,0x0055,
0.530078125000000,0,0x9D29,
0.530105958333333,0,0x0003,
0.530113625000000,0,0x242D,
0.530129666666667,0,0x004C,
0.530137500000000,0,0xA420,
0.530153208333333,0,0x0040,
0.530161083333333,0,0xA520,
0.530176791666667,0,0x8000,
0.530184625000000,0,0xA620,
0.530213333333333,0,0x0005,
0.530221041666667,0,0x2D21,
0.530237166666667,0,0xB896,
0.530245000000000,0,0xAD20,
0.530260708333333,0,0xFFFE,
0.530268583333333,0,0xAE20,
0.530284291666667,0,0x50D4,
0.530292125000000,0,0xAF20,
0.530307833333333,0,0x8000,
0.530315708333333,0,0xB020,
0.530331416666667,0,0x8303,
0.530339250000000,0,0xB120,
0.530369708333333,0,0x0006,
0.530377375000000,0,0x3B25,
0.530393750000000,0,0xE51C,
0.530401625000000,0,0xBB20,
0.530417333333333,0,0x8000,
0.530425166666667,0,0xBC20,
0.530440875000000,0,0x8000,
0.530448708333333,0,0xBD20,
0.530464416666667,0,0x8000,
0.530472291666667,0,0xBE20,
0.530488000000000,0,0xE5BD,
0.530495833333333,0,0xBF20,
0.530511541666667,0,0xE5D7,
0.530519416666667,0,0xC020,
0.530549000000000,0,0x000A,
0.530556666666667,0,0x4129,
0.530572916666667,0,0xDB4B,
0.530580750000000,0,0xC120,
0.530596458333333,0,0xDC54,
0.530604291666667,0,0xC220,
0.530620000000000,0,0xDF3B,
0.530627875000000,0,0xC320,
0.530643583333333,0,0xE121,
0.530651458333333,0,0xC420,
0.530667125000000,0,0xA97C,
0.530675000000000,0,0xC520,
0.530690708333333,0,0xFF49,
0.530698541666667,0,0xC620,
0.530714291666667,0,0xC017,
0.530722125000000,0,0xC720,
0.530737833333333,0,0xA3B8,
0.530745708333333,0,0xC820,
0.530761416666667,0,0x9E3A,
0.530769250000000,0,0xC920,
0.530784958333333,0,0x9E40,
0.530792833333333,0,0xCA20,
0.538440583333333,0,0x1C3F,
0.538448291666667,0,0x060F,
0.538475458333333,0,0x0004,
0.538483166666667,0,0x0311,
0.538499208333333,0,0x0A01,
0.538507125000000,0,0x8311,
0.538522958333333,0,0x0F00,
0.538530875000000,0,0x8411,
0.538546708333333,0,0x0000,
0.538554625000000,0,0x8511,
0.538570458333333,0,0x1F3F,
0.538578416666667,0,0x8611,
0.538609375000000,0,0x0004,
0.538617083333333,0,0x0315,
0.538633333333333,0,0x0A01,
0.538641250000000,0,0x8315,
0.538657125000000,0,0x0F00,
0.538665041666667,0,0x8415,
0.538680875000000,0,0x0000,
0.538688791666667,0,0x8511,
0.538704625000000,0,0x1F3F,
0.538712583333333,0,0x8615,
0.538742750000000,0,0x0004,
0.538750416666667,0,0x0319,
0.538766500000000,0,0x0A01,
0.538774458333333,0,0x8319,
0.538790291666667,0,0x0F00,
0.538798208333333,0,0x8419,
0.538814041666667,0,0x0000,
0.538821958333333,0,0x8511,
0.538837791666667,0,0x1F3F,
0.538845708333333,0,0x8619,
0.538876375000000,0,0x0004,
0.538884041666667,0,0x031D,
0.538900166666667,0,0x0A01,
0.538908083333333,0,0x831D,
0.538923916666667,0,0x0F00,
0.538931833333333,0,0x841D,
0.538947666666667,0,0x0000,
0.538955583333333,0,0x8511,
0.538971416666667,0,0x1F3F,
0.538979333333333,0,0x861D,
0.539010333333333,0,0x0004,
0.539018000000000,0,0x0311,
0.539034250000000,0,0x0A01,
0.539042166666667,0,0x8311,
0.539058000000000,0,0x0F00,
0.539065916666667,0,0x8411,
0.539081750000000,0,0x0000,
0.539089666666667,0,0x8511,
0.539105541666667,0,0x173F,
0.539113416666667,0,0x8611,
0.539143708333333,0,0x0001,
0.539151416666667,0,0x1D15,
0.539167833333333,0,0x1551,
0.539175750000000,0,0x9D15,
0.539204250000000,0,0x0003,
0.539211958333333,0,0x2419,
0.539228208333333,0,0x0048,
0.539236125000000,0,0xA411,
0.539251958333333,0,0x0040,
0.539259875000000,0,0xA511,
0.539275708333333,0,0x0000,
0.539283625000000,0,0xA611,
0.539312750000000,0,0x0005,
0.539320416666667,0,0x2D1D,
0.539336541666667,0,0xB81A,
0.539344458333333,0,0xAD11,
0.539360333333333,0,0xFFFE,
0.539368250000000,0,0xAE11,
0.539384041666667,0,0x0A8F,
0.539391958333333,0,0xAF11,
0.539407791666667,0,0xFFFF,
0.539415708333333,0,0xB011,
0.539431541666667,0,0x830F,
0.539439458333333,0,0xB111,
0.539469541666667,0,0x0006,
0.539477208333333,0,0x3B11,
0.539493375000000,0,0xB3E5,
0.539501291666667,0,0xBB11,
0.539517125000000,0,0xB32C,
0.539525041666667,0,0xBC11,
0.539540875000000,0,0xB2BD,
0.539548791666667,0,0xBD11,
0.539564625000000,0,0xB201,
0.539572541666667,0,0xBE11,
0.539588375000000,0,0xB1FD,
0.539596333333333,0,0xBF11,
0.539612125000000,0,0xB271,
0.539620041666667,0,0xC011,
0.539650500000000,0,0x000A,
0.539658166666667,0,0x4115,
0.539674500000000,0,0xC097,
0.539682416666667,0,0xC111,
0.539698250000000,0,0xC0C8,
0.539706166666667,0,0xC211,
0.539722000000000,0,0xC088,
0.539729916666667,0,0xC311,
0.539745750000000,0,0xC0C9,
0.539753666666667,0,0xC411,
0.539769500000000,0,0xC0C5,
0.539777416666667,0,0xC511,
0.539793250000000,0,0xDCF9,
0.539801208333333,0,0xC611,
0.539817000000000,0,0x8023,
0.539824916666667,0,0xC711,
0.539840750000000,0,0xA3D7,
0.539848666666667,0,0xC811,
0.539864500000000,0,0x9E39,
0.539872416666667,0,0xC911,
0.539888250000000,0,0x9E3C,
0.539896166666667,0,0xCA11,
0.539928791666667,0,0x0004,
0.539936458333333,0,0x0329,
0.539952791666667,0,0x0A01,
0.539960666666667,0,0x8329,
0.539976375000000,0,0x0F00,
0.539984208333333,0,0x8429,
0.539999916666667,0,0x0000,
0.540007750000000,0,0x8521,
0.540023458333333,0,0x173F,
0.540031333333333,0,0x8629,
0.540061458333333,0,0x0001,
0.540069125000000,0,0x1D2D,
0.540085333333333,0,0x0055,
0.540093166666667,0,0x9D2D,
0.540121541666667,0,0x0003,
0.540129208333333,0,0x2421,
0.540145208333333,0,0x004C,
0.540153041666667,0,0xA421,
0.540168750000000,0,0x0040,
0.540176625000000,0,0xA521,
0.540192333333333,0,0x8000,
0.540200166666667,0,0xA621,
0.540229250000000,0,0x0005,
0.540236916666667,0,0x2D25,
0.540253166666667,0,0xB9A3,
0.540261041666667,0,0xAD21,
0.540276708333333,0,0xFFFE,
0.540284583333333,0,0xAE21,
0.540300291666667,0,0x4EA1,
0.540308125000000,0,0xAF21,
0.540323833333333,0,0x8000,
0.540331666666667,0,0xB021,
0.540347375000000,0,0x8300,
0.540355250000000,0,0xB121,
0.540387083333333,0,0x0006,
0.540394750000000,0,0x3B29,
0.540411208333333,0,0xE516,
0.540419041666667,0,0xBB21,
0.540434750000000,0,0x8000,
0.540442625000000,0,0xBC21,
0.540458291666667,0,0x8000,
0.540466166666667,0,0xBD21,
0.540481875000000,0,0x8000,
0.540489708333333,0,0xBE21,
0.540505416666667,0,0xE5BB,
0.540513250000000,0,0xBF21,
0.540528958333333,0,0xE5D1,
0.540536833333333,0,0xC021,
0.540567416666667,0,0x000A,
0.540575083333333,0,0x412D,
0.540591291666667,0,0xDB4D,
0.540599166666667,0,0xC121,
0.540614833333333,0,0xDC50,
0.540622708333333,0,0xC221,
0.540638416666667,0,0xDF36,
0.540646291666667,0,0xC321,
0.540662000000000,0,0xE120,
0.540669833333333,0,0xC421,
0.540685541666667,0,0xA97A,
0.540693375000000,0,0xC521,
0.540709083333333,0,0xFF48,
0.540716958333333,0,0xC621,
0.540732625000000,0,0xC014,
0.540740500000000,0,0xC721,
0.540756208333333,0,0xA3BA,
0.540764041666667,0,0xC821,
0.540779750000000,0,0x9E36,
0.540787625000000,0,0xC921,
0.540803333333333,0,0x9E3D,
0.540811166666667,0,0xCA21,
0.548381416666667,0,0x2C3F,
0.548389083333333,0,0x0603,
0.548415666666667,0,0x0004,
0.548423375000000,0,0x0315,
0.548439500000000,0,0x0A01,
0.548447416666667,0,0x8315,
0.548463250000000,0,0x0F00,
0.548471166666667,0,0x8415,
0.548487041666667,0,0x0000,
0.548494958333333,0,0x8512,
0.548510791666667,0,0x2F3F,
0.548518708333333,0,0x8615,
0.548549791666667,0,0x0004,
0.548557458333333,0,0x0319,
0.548573666666667,0,0x0A01,
0.548581583333333,0,0x8319,
0.548597416666667,0,0x0F00,
0.548605333333333,0,0x8419,
0.548621166666667,0,0x0000,
0.548629125000000,0,0x8512,
0.548644958333333,0,0x2F3F,
0.548652875000000,0,0x8619,
0.548683375000000,0,0x0004,
0.548691041666667,0,0x031D,
0.548707333333333,0,0x0A01,
0.548715250000000,0,0x831D,
0.548731083333333,0,0x0F00,
0.548739000000000,0,0x841D,
0.548754875000000,0,0x0000,
0.548762791666667,0,0x8512,
0.548778625000000,0,0x2F3F,
0.548786541666667,0,0x861D,
0.548816333333333,0,0x0004,
0.548824041666667,0,0x0311,
0.548840000000000,0,0x0A01,
0.548847958333333,0,0x8311,
0.548863791666667,0,0x0F00,
0.548871708333333,0,0x8411,
0.548887541666667,0,0x0000,
0.548895458333333,0,0x8512,
0.548911333333333,0,0x2F3F,
0.548919250000000,0,0x8611,
0.548949916666667,0,0x0004,
0.548957583333333,0,0x0315,
0.548973666666667,0,0x0A01,
0.548981583333333,0,0x8315,
0.548997416666667,0,0x0F00,
0.549005333333333,0,0x8415,
0.549021166666667,0,0x0000,
0.549029083333333,0,0x8512,
0.549044916666667,0,0x273F,
0.549052833333333,0,0x8615,
0.549083291666667,0,0x0001,
0.549091000000000,0,0x1D19,
0.549107208333333,0,0x1551,
0.549115166666667,0,0x9D19,
0.549143291666667,0,0x0003,
0.549150958333333,0,0x241D,
0.549167083333333,0,0x0048,
0.549175041666667,0,0xA412,
0.549190875000000,0,0x0040,
0.549198791666667,0,0xA512,
0.549214625000000,0,0x0000,
0.549222500000000,0,0xA612,
0.549251875000000,0,0x0005,
0.549259541666667,0,0x2D11,
0.549275958333333,0,0xB922,
0.549283916666667,0,0xAD12,
0.549299750000000,0,0xFFFE,
0.549307666666667,0,0xAE12,
0.549323500000000,0,0x0859,
0.549331416666667,0,0xAF12,
0.549347250000000,0,0x8000,
0.549355166666667,0,0xB012,
0.549371000000000,0,0x8300,
0.549378916666667,0,0xB112,
0.549408916666667,0,0x0006,
0.549416583333333,0,0x3B15,
0.549432875000000,0,0xB3E0,
0.549440791666667,0,0xBB12,
0.549456625000000,0,0xB32A,
0.549464541666667,0,0xBC12,
0.549480375000000,0,0xB2B8,
0.549488291666667,0,0xBD12,
0.549504166666667,0,0xB1FB,
0.549512083333333,0,0xBE12,
0.549527875000000,0,0xB201,
0.549535833333333,0,0xBF12,
0.549551625000000,0,0xB275,
0.549559541666667,0,0xC012,
0.549589583333333,0,0x000A,
0.549597250000000,0,0x4119,
0.549613458333333,0,0xC099,
0.549621375000000,0,0xC112,
0.549637208333333,0,0xC0C7,
0.549645125000000,0,0xC212,
0.549660958333333,0,0xC089,
0.549668875000000,0,0xC312,
0.549684750000000,0,0xC0C8,
0.549692625000000,0,0xC412,
0.549708500000000,0,0xC0C9,
0.549716375000000,0,0xC512,
0.549732250000000,0,0xDCFB,
0.549740166666667,0,0xC612,
0.549756000000000,0,0x801D,
0.549763875000000,0,0xC712,
0.549779708333333,0,0xA3D8,
0.549787666666667,0,0xC812,
0.549803500000000,0,0x9E38,
0.549811416666667,0,0xC912,
0.549827250000000,0,0x9E3E,
0.549835166666667,0,0xCA12,
0.549866416666667,0,0x0004,
0.549874125000000,0,0x032D,
0.549890291666667,0,0x0A01,
0.549898125000000,0,0x832D,
0.549913833333333,0,0x0F00,
0.549921666666667,0,0x842D,
0.549937416666667,0,0x0000,
0.549945250000000,0,0x8522,
0.549960958333333,0,0x273F,
0.549968791666667,0,0x862D,
0.549998750000000,0,0x0001,
0.550006458333333,0,0x1D21,
0.550022791666667,0,0x0055,
0.550030666666667,0,0x9D21,
0.550058750000000,0,0x0003,
0.550066458333333,0,0x2425,
0.550082666666667,0,0x004C,
0.550090541666667,0,0xA422,
0.550106250000000,0,0x0040,
0.550114083333333,0,0xA522,
0.550129791666667,0,0x8000,
0.550137666666667,0,0xA622,
0.550166208333333,0,0x0005,
0.550173875000000,0,0x2D29,
0.550190166666667,0,0xBAAD,
0.550198041666667,0,0xAD22,
0.550213750000000,0,0xFFFE,
0.550221583333333,0,0xAE22,
0.550237291666667,0,0x4C99,
0.550245125000000,0,0xAF22,
0.550260875000000,0,0xFFFF,
0.550268708333333,0,0xB022,
0.550284416666667,0,0x8307,
0.550292250000000,0,0xB122,
0.550322708333333,0,0x0006,
0.550330375000000,0,0x3B2D,
0.550346708333333,0,0xE51D,
0.550354583333333,0,0xBB22,
0.550370291666667,0,0x8003,
0.550378166666667,0,0xBC22,
0.550393875000000,0,0x8000,
0.550401708333333,0,0xBD22,
0.550417416666667,0,0x8000,
0.550425291666667,0,0xBE22,
0.550441000000000,0,0xE5B9,
0.550448833333333,0,0xBF22,
0.550464541666667,0,0xE5CE,
0.550472375000000,0,0xC022,
0.550503625000000,0,0x000A,
0.550511291666667,0,0x4121,
0.550527375000000,0,0xDB50,
0.550535208333333,0,0xC122,
0.550550916666667,0,0xDC54,
0.550558750000000,0,0xC222,
0.550574458333333,0,0xDF39,
0.550582333333333,0,0xC322,
0.550598041666667,0,0xE122,
0.550605875000000,0,0xC422,
0.550621583333333,0,0xA97E,
0.550629416666667,0,0xC522,
0.550645125000000,0,0xFF4A,
0.550653000000000,0,0xC622,
0.550668666666667,0,0xC016,
0.550676541666667,0,0xC722,
0.550692250000000,0,0xA3B8,
0.550700083333333,0,0xC822,
0.550715791666667,0,0x9E3A,
0.550723666666667,0,0xC922,
0.550739375000000,0,0x9E3B,
0.550747208333333,0,0xCA22,
0.558576583333333,0,0x3C3F,
0.558584250000000,0,0x0607,
0.558611541666667,0,0x0004,
0.558619208333333,0,0x0319,
0.558635458333333,0,0x0A01,
0.558643333333333,0,0x8319,
0.558659208333333,0,0x0F00,
0.558667083333333,0,0x8419,
0.558682958333333,0,0x0000,
0.558690875000000,0,0x8513,
0.558706708333333,0,0x3F3F,
0.558714625000000,0,0x8619,
0.558745125000000,0,0x0004,
0.558752833333333,0,0x031D,
0.558769083333333,0,0x0A01,
0.558777000000000,0,0x831D,
0.558792833333333,0,0x0F00,
0.558800750000000,0,0x841D,
0.558816583333333,0,0x0000,
0.558824500000000,0,0x8513,
0.558840333333333,0,0x3F3F,
0.558848250000000,0,0x861D,
0.558878625000000,0,0x0004,
0.558886291666667,0,0x0311,
0.558902708333333,0,0x0A01,
0.558910625000000,0,0x8311,
0.558926458333333,0,0x0F00,
0.558934375000000,0,0x8411,
0.558950208333333,0,0x0000,
0.558958125000000,0,0x8513,
0.558973958333333,0,0x3F3F,
0.558981875000000,0,0x8611,
0.559012375000000,0,0x0004,
0.559020041666667,0,0x0315,
0.559036333333333,0,0x0A01,
0.559044250000000,0,0x8315,
0.559060083333333,0,0x0F00,
0.559068000000000,0,0x8415,
0.559083833333333,0,0x0000,
0.559091750000000,0,0x8513,
0.559107583333333,0,0x3F3F,
0.559115500000000,0,0x8615,
0.559145583333333,0,0x0004,
0.559153250000000,0,0x0319,
0.559169458333333,0,0x0A01,
0.559177375000000,0,0x8319,
0.559193250000000,0,0x0F00,
0.559201166666667,0,0x8419,
0.559217000000000,0,0x0000,
0.559224916666667,0,0x8513,
0.559240750000000,0,0x373F,
0.559248625000000,0,0x8619,
0.559278666666667,0,0x0001,
0.559286333333333,0,0x1D1D,
0.559302583333333,0,0x1551,
0.559310500000000,0,0x9D1D,
0.559338791666667,0,0x0003,
0.559346500000000,0,0x2411,
0.559362458333333,0,0x0048,
0.559370375000000,0,0xA413,
0.559386208333333,0,0x0040,
0.559394166666667,0,0xA513,
0.559410000000000,0,0x0000,
0.559417916666667,0,0xA613,
0.559447250000000,0,0x0005,
0.559454916666667,0,0x2D15,
0.559471333333333,0,0xBA31,
0.559479250000000,0,0xAD13,
0.559495125000000,0,0xFFFE,
0.559503041666667,0,0xAE13,
0.559518875000000,0,0x05E6,
0.559526791666667,0,0xAF13,
0.559542625000000,0,0xFFFF,
0.559550541666667,0,0xB013,
0.559566375000000,0,0x830B,
0.559574291666667,0,0xB113,
0.559604583333333,0,0x0006,
0.559612250000000,0,0x3B19,
0.559628708333333,0,0xB3DD,
0.559636625000000,0,0xBB13,
0.559652458333333,0,0xB32C,
0.559660375000000,0,0xBC13,
0.559676208333333,0,0xB2BD,
0.559684125000000,0,0xBD13,
0.559699958333333,0,0xB202,
0.559707875000000,0,0xBE13,
0.559723708333333,0,0xB1FE,
0.559731625000000,0,0xBF13,
0.559747458333333,0,0xB270,
0.559755375000000,0,0xC013,
0.559785333333333,0,0x000A,
0.559793000000000,0,0x411D,
0.559809291666667,0,0xC095,
0.559817208333333,0,0xC113,
0.559833041666667,0,0xC0C3,
0.559840958333333,0,0xC213,
0.559856791666667,0,0xC087,
0.559864708333333,0,0xC313,
0.559880541666667,0,0xC0C3,
0.559888458333333,0,0xC413,
0.559904250000000,0,0xC0C3,
0.559912208333333,0,0xC513,
0.559928041666667,0,0xDCF9,
0.559935958333333,0,0xC613,
0.559951791666667,0,0x801B,
0.559959708333333,0,0xC713,
0.559975541666667,0,0xA3D7,
0.559983458333333,0,0xC813,
0.559999291666667,0,0x9E37,
0.560007208333333,0,0xC913,
0.560023041666667,0,0x9E3D,
0.560030958333333,0,0xCA13,
0.560062958333333,0,0x0004,
0.560070625000000,0,0x0321,
0.560087000000000,0,0x0A01,
0.560094875000000,0,0x8321,
0.560110583333333,0,0x0F00,
0.560118416666667,0,0x8421,
0.560134125000000,0,0x0000,
0.560142000000000,0,0x8523,
0.560157708333333,0,0x373F,
0.560165541666667,0,0x8621,
0.560196541666667,0,0x0001,
0.560204208333333,0,0x1D25,
0.560220541666667,0,0x0055,
0.560228416666667,0,0x9D25,
0.560256583333333,0,0x0003,
0.560264250000000,0,0x2429,
0.560280458333333,0,0x004C,
0.560288291666667,0,0xA423,
0.560304000000000,0,0x0040,
0.560311875000000,0,0xA523,
0.560327541666667,0,0x8000,
0.560335416666667,0,0xA623,
0.560364083333333,0,0x0005,
0.560371791666667,0,0x2D2D,
0.560387958333333,0,0xBBBF,
0.560395791666667,0,0xAD23,
0.560411500000000,0,0xFFFE,
0.560419375000000,0,0xAE23,
0.560435083333333,0,0x49EC,
0.560442916666667,0,0xAF23,
0.560458666666667,0,0xFFFF,
0.560466500000000,0,0xB023,
0.560482208333333,0,0x830B,
0.560490083333333,0,0xB123,
0.560519541666667,0,0x0006,
0.560527250000000,0,0x3B21,
0.560543583333333,0,0xE517,
0.560551416666667,0,0xBB23,
0.560567125000000,0,0x8000,
0.560575000000000,0,0xBC23,
0.560590708333333,0,0x8003,
0.560598541666667,0,0xBD23,
0.560614250000000,0,0x8003,
0.560622125000000,0,0xBE23,
0.560637833333333,0,0xE5BC,
0.560645666666667,0,0xBF23,
0.560661375000000,0,0xE5D4,
0.560669208333333,0,0xC023,
0.560699833333333,0,0x000A,
0.560707500000000,0,0x4125,
0.560723708333333,0,0xDB50,
0.560731583333333,0,0xC123,
0.560747291666667,0,0xDC58,
0.560755166666667,0,0xC223,
0.560770875000000,0,0xDF3B,
0.560778708333333,0,0xC323,
0.560794416666667,0,0xE125,
0.560802291666667,0,0xC423,
0.560818000000000,0,0xA981,
0.560825833333333,0,0xC523,
0.560841541666667,0,0xFF4E,
0.560849375000000,0,0xC623,
0.560865083333333,0,0xC017,
0.560872958333333,0,0xC723,
0.560888666666667,0,0xA3BB,
0.560896500000000,0,0xC823,
0.560912208333333,0,0x9E3D,
0.560920083333333,0,0xC923,
0.560935791666667,0,0x9E3C,
0.560943625000000,0,0xCA23,
0.568456125000000,0,0x4C3F,
0.568463791666667,0,0x060B,
0.568491166666667,0,0x0004,
0.568498833333333,0,0x031D,
0.568514916666667,0,0x0A01,
0.568522833333333,0,0x831D,
0.568538666666667,0,0x0F00,
0.568546583333333,0,0x841D,
0.568562416666667,0,0x0000,
0.568570333333333,0,0x8514,
0.568586166666667,0,0x4F3F,
0.568594083333333,0,0x861D,
0.568625250000000,0,0x0004,
0.568632916666667,0,0x0311,
0.568649041666667,0,0x0A01,
0.568656958333333,0,0x8311,
0.568672791666667,0,0x0F00,
0.568680708333333,0,0x8411,
0.568696583333333,0,0x0000,
0.568704500000000,0,0x8514,
0.568720333333333,0,0x4F3F,
0.568728250000000,0,0x8611,
0.568758250000000,0,0x0004,
0.568765916666667,0,0x0315,
0.568782208333333,0,0x0A01,
0.568790125000000,0,0x8315,
0.568805958333333,0,0x0F00,
0.568813875000000,0,0x8415,
0.568829708333333,0,0x0000,
0.568837583333333,0,0x8514,
0.568853458333333,0,0x4F3F,
0.568861375000000,0,0x8615,
0.568892375000000,0,0x0004,
0.568900041666667,0,0x0319,
0.568916291666667,0,0x0A01,
0.568924208333333,0,0x8319,
0.568940041666667,0,0x0F00,
0.568947958333333,0,0x8419,
0.568963791666667,0,0x0000,
0.568971708333333,0,0x8514,
0.568987583333333,0,0x4F3F,
0.568995458333333,0,0x8619,
0.569026625000000,0,0x0004,
0.569034291666667,0,0x031D,
0.569050375000000,0,0x0A01,
0.569058291666667,0,0x831D,
0.569074166666667,0,0x0F00,
0.569082083333333,0,0x841D,
0.569097916666667,0,0x0000,
0.569105833333333,0,0x8514,
0.569121666666667,0,0x473F,
0.569129583333333,0,0x861D,
0.569160041666667,0,0x0001,
0.569167708333333,0,0x1D11,
0.569184000000000,0,0x1551,
0.569191916666667,0,0x9D11,
0.569220041666667,0,0x0003,
0.569227750000000,0,0x2415,
0.569243875000000,0,0x0048,
0.569251791666667,0,0xA414,
0.569267625000000,0,0x0040,
0.569275541666667,0,0xA514,
0.569291375000000,0,0x0000,
0.569299291666667,0,0xA614,
0.569328750000000,0,0x0005,
0.569336458333333,0,0x2D19,
0.569352708333333,0,0xBB38,
0.569360625000000,0,0xAD14,
0.569376458333333,0,0xFFFE,
0.569384375000000,0,0xAE14,
0.569400208333333,0,0x0351,
0.569408125000000,0,0xAF14,
0.569423958333333,0,0xFFFF,
0.569431875000000,0,0xB014,
0.569447708333333,0,0x830B,
0.569455625000000,0,0xB114,
0.569486416666667,0,0x0006,
0.569494083333333,0,0x3B1D,
0.569510541666667,0,0xB3E0,
0.569518458333333,0,0xBB14,
0.569534291666667,0,0xB329,
0.569542208333333,0,0xBC14,
0.569558083333333,0,0xB2BD,
0.569566000000000,0,0xBD14,
0.569581833333333,0,0xB201,
0.569589750000000,0,0xBE14,
0.569605583333333,0,0xB201,
0.569613500000000,0,0xBF14,
0.569629375000000,0,0xB272,
0.569637291666667,0,0xC014,
0.569667625000000,0,0x000A,
0.569675291666667,0,0x4111,
0.569691708333333,0,0xC091,
0.569699625000000,0,0xC114,
0.569715458333333,0,0xC0C8,
0.569723375000000,0,0xC214,
0.569739208333333,0,0xC087,
0.569747125000000,0,0xC314,
0.569762958333333,0,0xC0C8,
0.569770875000000,0,0xC414,
0.569786708333333,0,0xC0C8,
0.569794625000000,0,0xC514,
0.569810458333333,0,0xDCF8,
0.569818375000000,0,0xC614,
0.569834250000000,0,0x801E,
0.569842166666667,0,0xC714,
0.569857958333333,0,0xA3D9,
0.569865875000000,0,0xC814,
0.569881750000000,0,0x9E3A,
0.569889666666667,0,0xC914,
0.569905500000000,0,0x9E3B,
0.569913416666667,0,0xCA14,
0.569945291666667,0,0x0004,
0.569952958333333,0,0x0325,
0.569969333333333,0,0x0A01,
0.569977166666667,0,0x8325,
0.569992875000000,0,0x0F00,
0.570000750000000,0,0x8425,
0.570016416666667,0,0x0000,
0.570024291666667,0,0x8524,
0.570040000000000,0,0x473F,
0.570047875000000,0,0x8625,
0.570078458333333,0,0x0001,
0.570086166666667,0,0x1D29,
0.570102333333333,0,0x0055,
0.570110208333333,0,0x9D29,
0.570138291666667,0,0x0003,
0.570146000000000,0,0x242D,
0.570162250000000,0,0x004C,
0.570170125000000,0,0xA424,
0.570185833333333,0,0x0040,
0.570193666666667,0,0xA524,
0.570209375000000,0,0x8000,
0.570217250000000,0,0xA624,
0.570247458333333,0,0x0005,
0.570255166666667,0,0x2D21,
0.570271208333333,0,0xBCC8,
0.570279083333333,0,0xAD24,
0.570294791666667,0,0xFFFE,
0.570302625000000,0,0xAE24,
0.570318333333333,0,0x47EC,
0.570326208333333,0,0xAF24,
0.570341916666667,0,0xFFFF,
0.570349750000000,0,0xB024,
0.570365458333333,0,0x830C,
0.570373333333333,0,0xB124,
0.570404583333333,0,0x0006,
0.570412250000000,0,0x3B25,
0.570428291666667,0,0xE519,
0.570436166666667,0,0xBB24,
0.570451875000000,0,0x8001,
0.570459708333333,0,0xBC24,
0.570475416666667,0,0x8000,
0.570483291666667,0,0xBD24,
0.570499000000000,0,0x8000,
0.570506833333333,0,0xBE24,
0.570522541666667,0,0xE5BA,
0.570530375000000,0,0xBF24,
0.570546125000000,0,0xE5CE,
0.570553958333333,0,0xC024,
0.570583708333333,0,0x000A,
0.570591416666667,0,0x4129,
0.570607458333333,0,0xDB4F,
0.570615333333333,0,0xC124,
0.570631041666667,0,0xDC55,
0.570638875000000,0,0xC224,
0.570654583333333,0,0xDF38,
0.570662458333333,0,0xC324,
0.570678166666667,0,0xE121,
0.570686000000000,0,0xC424,
0.570701708333333,0,0xA97D,
0.570709583333333,0,0xC524,
0.570725291666667,0,0xFF4F,
0.570733125000000,0,0xC624,
0.570748875000000,0,0xC016,
0.570756708333333,0,0xC724,
0.570772416666667,0,0xA3B9,
0.570780250000000,0,0xC824,
0.570795958333333,0,0x9E39,
0.570803833333333,0,0xC924,
0.570819541666667,0,0x9E41,
0.570827375000000,0,0xCA24,
0.578459166666667,0,0x5C3F,
0.578466833333333,0,0x060F,
0.578494041666667,0,0x0004,
0.578501708333333,0,0x0311,
0.578517958333333,0,0x0A01,
0.578525875000000,0,0x8311,
0.578541708333333,0,0x0F00,
0.578549625000000,0,0x8411,
0.578565458333333,0,0x0000,
0.578573375000000,0,0x8515,
0.578589250000000,0,0x5F3F,
0.578597125000000,0,0x8611,
0.578627458333333,0,0x0004,
0.578635125000000,0,0x0315,
0.578651125000000,0,0x0A01,
0.578659041666667,0,0x8315,
0.578674875000000,0,0x0F00,
0.578682791666667,0,0x8415,
0.578698625000000,0,0x0000,
0.578706541666667,0,0x8515,
0.578722375000000,0,0x5F3F,
0.578730333333333,0,0x8615,
0.578760625000000,0,0x0004,
0.578768291666667,0,0x0319,
0.578784291666667,0,0x0A01,
0.578792208333333,0,0x8319,
0.578808041666667,0,0x0F00,
0.578815958333333,0,0x8419,
0.578831833333333,0,0x0000,
0.578839750000000,0,0x8515,
0.578855583333333,0,0x5F3F,
0.578863500000000,0,0x8619,
0.578894166666667,0,0x0004,
0.578901833333333,0,0x031D,
0.578917958333333,0,0x0A01,
0.578925875000000,0,0x831D,
0.578941708333333,0,0x0F00,
0.578949625000000,0,0x841D,
0.578965458333333,0,0x0000,
0.578973375000000,0,0x8515,
0.578989250000000,0,0x5F3F,
0.578997125000000,0,0x861D,
0.579027916666667,0,0x0004,
0.579035625000000,0,0x0311,
0.579051583333333,0,0x0A01,
0.579059500000000,0,0x8311,
0.579075333333333,0,0x0F00,
0.579083250000000,0,0x8411,
0.579099083333333,0,0x0000,
0.579107000000000,0,0x8515,
0.579122833333333,0,0x573F,
0.579130750000000,0,0x8611,
0.579161375000000,0,0x0001,
0.579169083333333,0,0x1D15,
0.579185166666667,0,0x1551,
0.579193083333333,0,0x9D15,
0.579220958333333,0,0x0003,
0.579228625000000,0,0x2419,
0.579245041666667,0,0x0048,
0.579252916666667,0,0xA415,
0.579268791666667,0,0x0040,
0.579276708333333,0,0xA515,
0.579292541666667,0,0x0000,
0.579300458333333,0,0xA615,
0.579329666666667,0,0x0005,
0.579337333333333,0,0x2D1D,
0.579353416666667,0,0xBC42,
0.579361291666667,0,0xAD15,
0.579377166666667,0,0xFFFE,
0.579385083333333,0,0xAE15,
0.579400916666667,0,0x0111,
0.579408833333333,0,0xAF15,
0.579424666666667,0,0xFFFF,
0.579432583333333,0,0xB015,
0.579448416666667,0,0x8305,
0.579456333333333,0,0xB115,
0.579486166666667,0,0x0006,
0.579493875000000,0,0x3B11,
0.579510250000000,0,0xB3DB,
0.579518166666667,0,0xBB15,
0.579534000000000,0,0xB327,
0.579541916666667,0,0xBC15,
0.579557750000000,0,0xB2BD,
0.579565666666667,0,0xBD15,
0.579581500000000,0,0xB202,
0.579589416666667,0,0xBE15,
0.579605250000000,0,0xB200,
0.579613166666667,0,0xBF15,
0.579629000000000,0,0xB275,
0.579636916666667,0,0xC015,
0.579667125000000,0,0x000A,
0.579674791666667,0,0x4115,
0.579690833333333,0,0xC095,
0.579698791666667,0,0xC115,
0.579714625000000,0,0xC0C5,
0.579722541666667,0,0xC215,
0.579738375000000,0,0xC088,
0.579746291666667,0,0xC315,
0.579762125000000,0,0xC0C7,
0.579770041666667,0,0xC415,
0.579785875000000,0,0xC0C5,
0.579793791666667,0,0xC515,
0.579809625000000,0,0xDCF7,
0.579817541666667,0,0xC615,
0.579833375000000,0,0x801A,
0.579841291666667,0,0xC715,
0.579857125000000,0,0xA3D8,
0.579865041666667,0,0xC815,
0.579880875000000,0,0x9E3A,
0.579888791666667,0,0xC915,
0.579904625000000,0,0x9E3E,
0.579912541666667,0,0xCA15,
0.579944416666667,0,0x0004,
0.579952083333333,0,0x0329,
0.579968166666667,0,0x0A01,
0.579976041666667,0,0x8329,
0.579991708333333,0,0x0F00,
0.579999583333333,0,0x8429,
0.580015291666667,0,0x0000,
0.580023166666667,0,0x8525,
0.580038875000000,0,0x573F,
0.580046708333333,0,0x8629,
0.580077291666667,0,0x0001,
0.580084958333333,0,0x1D2D,
0.580101208333333,0,0x0055,
0.580109041666667,0,0x9D2D,
0.580137583333333,0,0x0003,
0.580145291666667,0,0x2421,
0.580161583333333,0,0x004C,
0.580169416666667,0,0xA425,
0.580185125000000,0,0x0040,
0.580193000000000,0,0xA525,
0.580208708333333,0,0x8000,
0.580216541666667,0,0xA625,
0.580245583333333,0,0x0005,
0.580253250000000,0,0x2D25,
0.580269541666667,0,0xBDD4,
0.580277416666667,0,0xAD25,
0.580293125000000,0,0xFFFE,
0.580300958333333,0,0xAE25,
0.580316666666667,0,0x4592,
0.580324541666667,0,0xAF25,
0.580340250000000,0,0xFFFF,
0.580348083333333,0,0xB025,
0.580363791666667,0,0x830E,
0.580371666666667,0,0xB125,
0.580402083333333,0,0x0006,
0.580409750000000,0,0x3B29,
0.580426166666667,0,0xE512,
0.580434000000000,0,0xBB25,
0.580449708333333,0,0x8000,
0.580457583333333,0,0xBC25,
0.580473291666667,0,0x8000,
0.580481125000000,0,0xBD25,
0.580496833333333,0,0x8001,
0.580504708333333,0,0xBE25,
0.580520416666667,0,0xE5B9,
0.580528250000000,0,0xBF25,
0.580543958333333,0,0xE5D5,
0.580551833333333,0,0xC025,
0.580582125000000,0,0x000A,
0.580589791666667,0,0x412D,
0.580605833333333,0,0xDB4D,
0.580613666666667,0,0xC125,
0.580629375000000,0,0xDC4C,
0.580637208333333,0,0xC225,
0.580652958333333,0,0xDF3B,
0.580660791666667,0,0xC325,
0.580676500000000,0,0xE11D,
0.580684333333333,0,0xC425,
0.580700083333333,0,0xA97F,
0.580707916666667,0,0xC525,
0.580723625000000,0,0xFF4A,
0.580731500000000,0,0xC625,
0.580747208333333,0,0xC014,
0.580755041666667,0,0xC725,
0.580770750000000,0,0xA3BA,
0.580778625000000,0,0xC825,
0.580794333333333,0,0x9E37,
0.580802166666667,0,0xC925,
0.580817875000000,0,0x9E3D,
0.580825750000000,0,0xCA25,
0.588438291666667,0,0x6C3F,
0.588446000000000,0,0x0603,
0.588473958333333,0,0x0004,
0.588481625000000,0,0x0315,
0.588497833333333,0,0x0A01,
0.588505708333333,0,0x8315,
0.588521583333333,0,0x0F00,
0.588529500000000,0,0x8415,
0.588545333333333,0,0x0000,
0.588553250000000,0,0x8516,
0.588569083333333,0,0x6F3F,
0.588577000000000,0,0x8615,
0.588608041666667,0,0x0004,
0.588615708333333,0,0x0319,
0.588631958333333,0,0x0A01,
0.588639833333333,0,0x8319,
0.588655708333333,0,0x0F00,
0.588663625000000,0,0x8419,
0.588679458333333,0,0x0000,
0.588687375000000,0,0x8516,
0.588703208333333,0,0x6F3F,
0.588711125000000,0,0x8619,
0.588741875000000,0,0x0004,
0.588749583333333,0,0x031D,
0.588765583333333,0,0x0A01,
0.588773500000000,0,0x831D,
0.588789333333333,0,0x0F00,
0.588797250000000,0,0x841D,
0.588813083333333,0,0x0000,
0.588821000000000,0,0x8516,
0.588836875000000,0,0x6F3F,
0.588844791666667,0,0x861D,
0.588876250000000,0,0x0004,
0.588883916666667,0,0x0311,
0.588900208333333,0,0x0A01,
0.588908125000000,0,0x8311,
0.588923958333333,0,0x0F00,
0.588931875000000,0,0x8411,
0.588947708333333,0,0x0000,
0.588955666666667,0,0x8516,
0.588971458333333,0,0x6F3F,
0.588979416666667,0,0x8611,
0.589011333333333,0,0x0004,
0.589019000000000,0,0x0315,
0.589035291666667,0,0x0A01,
0.589043208333333,0,0x8315,
0.589059041666667,0,0x0F00,
0.589066958333333,0,0x8415,
0.589082791666667,0,0x0000,
0.589090708333333,0,0x8516,
0.589106541666667,0,0x673F,
0.589114458333333,0,0x8615,
0.589144958333333,0,0x0001,
0.589152625000000,0,0x1D19,
0.589168833333333,0,0x1551,
0.589176750000000,0,0x9D19,
0.589204666666667,0,0x0003,
0.589212333333333,0,0x241D,
0.589228666666667,0,0x0048,
0.589236583333333,0,0xA416,
0.589252416666667,0,0x0040,
0.589260333333333,0,0xA516,
0.589276166666667,0,0x0000,
0.589284083333333,0,0xA616,
0.589313458333333,0,0x0005,
0.589321125000000,0,0x2D11,
0.589337500000000,0,0xBD4C,
0.589345416666667,0,0xAD16,
0.589361250000000,0,0xFFFD,
0.589369166666667,0,0xAE16,
0.589385000000000,0,0xFE1A,
0.589392916666667,0,0xAF16,
0.589408708333333,0,0xFFFF,
0.589416625000000,0,0xB016,
0.589432458333333,0,0x830F,
0.589440375000000,0,0xB116,
0.589470375000000,0,0x0006,
0.589478083333333,0,0x3B15,
0.589494291666667,0,0xB3DD,
0.589502208333333,0,0xBB16,
0.589518041666667,0,0xB32A,
0.589525958333333,0,0xBC16,
0.589541791666667,0,0xB2BB,
0.589549708333333,0,0xBD16,
0.589565541666667,0,0xB1FE,
0.589573416666667,0,0xBE16,
0.589589250000000,0,0xB1FF,
0.589597166666667,0,0xBF16,
0.589613041666667,0,0xB26D,
0.589620958333333,0,0xC016,
0.589651500000000,0,0x000A,
0.589659208333333,0,0x4119,
0.589675375000000,0,0xC094,
0.589683291666667,0,0xC116,
0.589699125000000,0,0xC0C6,
0.589707041666667,0,0xC216,
0.589722875000000,0,0xC088,
0.589730791666667,0,0xC316,
0.589746625000000,0,0xC0C6,
0.589754541666667,0,0xC416,
0.589770375000000,0,0xC0C6,
0.589778291666667,0,0xC516,
0.589794125000000,0,0xDCF9,
0.589802083333333,0,0xC616,
0.589817916666667,0,0x801D,
0.589825833333333,0,0xC716,
0.589841666666667,0,0xA3D8,
0.589849583333333,0,0xC816,
0.589865416666667,0,0x9E3B,
0.589873333333333,0,0xC916,
0.589889166666667,0,0x9E39,
0.589897083333333,0,0xCA16,
0.589929875000000,0,0x0004,
0.589937541666667,0,0x032D,
0.589953541666667,0,0x0A01,
0.589961416666667,0,0x832D,
0.589977125000000,0,0x0F00,
0.589984958333333,0,0x842D,
0.590000666666667,0,0x0000,
0.590008500000000,0,0x8526,
0.590024208333333,0,0x673F,
0.590032083333333,0,0x862D,
0.590062083333333,0,0x0001,
0.590069791666667,0,0x1D21,
0.590086083333333,0,0x0055,
0.590093916666667,0,0x9D21,
0.590121916666667,0,0x0003,
0.590129583333333,0,0x2425,
0.590145958333333,0,0x004C,
0.590153833333333,0,0xA426,
0.590169500000000,0,0x0040,
0.590177375000000,0,0xA526,
0.590193083333333,0,0x8000,
0.590200916666667,0,0xA626,
0.590230375000000,0,0x0005,
0.590238041666667,0,0x2D29,
0.590254458333333,0,0xBEDF,
0.590262291666667,0,0xAD26,
0.590278000000000,0,0xFFFE,
0.590285833333333,0,0xAE26,
0.590301541666667,0,0x4349,
0.590309416666667,0,0xAF26,
0.590325125000000,0,0xFFFF,
0.590332958333333,0,0xB026,
0.590348666666667,0,0x830A,
0.590356541666667,0,0xB126,
0.590386666666667,0,0x0006,
0.590394375000000,0,0x3B2D,
0.590410541666667,0,0xE518,
0.590418375000000,0,0xBB26,
0.590434083333333,0,0x8000,
0.590441916666667,0,0xBC26,
0.590457666666667,0,0x8000,
0.590465500000000,0,0xBD26,
0.590481208333333,0,0x8000,
0.590489083333333,0,0xBE26,
0.590504750000000,0,0xE5BB,
0.590512625000000,0,0xBF26,
0.590528333333333,0,0xE5D3,
0.590536208333333,0,0xC026,
0.590566375000000,0,0x000A,
0.590574041666667,0,0x4121,
0.590590166666667,0,0xDB4D,
0.590598041666667,0,0xC126,
0.590613750000000,0,0xDC53,
0.590621625000000,0,0xC226,
0.590637333333333,0,0xDF36,
0.590645166666667,0,0xC326,
0.590660875000000,0,0xE11C,
0.590668750000000,0,0xC426,
0.590684458333333,0,0xA97B,
0.590692291666667,0,0xC526,
0.590708000000000,0,0xFF47,
0.590715875000000,0,0xC626,
0.590731583333333,0,0xC012,
0.590739416666667,0,0xC726,
0.590755125000000,0,0xA3BA,
0.590763000000000,0,0xC826,
0.590778666666667,0,0x9E36,
0.590786541666667,0,0xC926,
0.590802250000000,0,0x9E3F,
0.590810125000000,0,0xCA26,
0.598450291666667,0,0x7C3F,
0.598457958333333,0,0x0607,
0.598485958333333,0,0x0004,
0.598493666666667,0,0x0319,
0.598510041666667,0,0x0A01,
0.598517958333333,0,0x8319,
0.598533791666667,0,0x0F00,
0.598541708333333,0,0x8419,
0.598557583333333,0,0x0000,
0.598565500000000,0,0x8517,
0.598581333333333,0,0x7F3F,
0.598589250000000,0,0x8619,
0.598620583333333,0,0x0004,
0.598628291666667,0,0x031D,
0.598644666666667,0,0x0A01,
0.598652583333333,0,0x831D,
0.598668416666667,0,0x0F00,
0.598676333333333,0,0x841D,
0.598692166666667,0,0x0000,
0.598700083333333,0,0x8517,
0.598715958333333,0,0x7F3F,
0.598723833333333,0,0x861D,
0.598754666666667,0,0x0004,
0.598762375000000,0,0x0311,
0.598778833333333,0,0x0A01,
0.598786750000000,0,0x8311,
0.598802583333333,0,0x0F00,
0.598810500000000,0,0x8411,
0.598826333333333,0,0x0000,
0.598834291666667,0,0x8517,
0.598850125000000,0,0x7F3F,
0.598858041666667,0,0x8611,
0.598889625000000,0,0x0004,
0.598897291666667,0,0x0315,
0.598913458333333,0,0x0A01,
0.598921375000000,0,0x8315,
0.598937208333333,0,0x0F00,
0.598945125000000,0,0x8415,
0.598960958333333,0,0x0000,
0.598968875000000,0,0x8517,
0.598984708333333,0,0x7F3F,
0.598992625000000,0,0x8615,
0.599024166666667,0,0x0004,
0.599031833333333,0,0x0319,
0.599048041666667,0,0x0A01,
0.599055958333333,0,0x8319,
0.599071791666667,0,0x0F00,
0.599079708333333,0,0x8419,
0.599095541666667,0,0x0000,
0.599103458333333,0,0x8517,
0.599119291666667,0,0x773F,
0.599127208333333,0,0x8619,
0.599158000000000,0,0x0001,
0.599165666666667,0,0x1D1D,
0.599181625000000,0,0x1551,
0.599189541666667,0,0x9D1D,
0.599217916666667,0,0x0003,
0.599225583333333,0,0x2411,
0.599242000000000,0,0x0048,
0.599249916666667,0,0xA417,
0.599265750000000,0,0x0040,
0.599273666666667,0,0xA517,
0.599289500000000,0,0x0000,
0.599297416666667,0,0xA617,
0.599326750000000,0,0x0005,
0.599334458333333,0,0x2D15,
0.599350875000000,0,0xBE56,
0.599358791666667,0,0xAD17,
0.599374625000000,0,0xFFFD,
0.599382541666667,0,0xAE17,
0.599398375000000,0,0xFBEF,
0.599406333333333,0,0xAF17,
0.599422125000000,0,0xFFFF,
0.599430083333333,0,0xB017,
0.599445916666667,0,0x830F,
0.599453833333333,0,0xB117,
0.599484000000000,0,0x0006,
0.599491708333333,0,0x3B19,
0.599507750000000,0,0xB3E0,
0.599515666666667,0,0xBB17,
0.599531500000000,0,0xB328,
0.599539416666667,0,0xBC17,
0.599555250000000,0,0xB2BC,
0.599563166666667,0,0xBD17,
0.599579041666667,0,0xB1FF,
0.599586958333333,0,0xBE17,
0.599602750000000,0,0xB1FD,
0.599610666666667,0,0xBF17,
0.599626541666667,0,0xB270,
0.599634458333333,0,0xC017,
0.599664875000000,0,0x000A,
0.599672541666667,0,0x411D,
0.599688875000000,0,0xC092,
0.599696791666667,0,0xC117,
0.599712625000000,0,0xC0C4,
0.599720541666667,0,0xC217,
0.599736375000000,0,0xC084,
0.599744291666667,0,0xC317,
0.599760125000000,0,0xC0C5,
0.599768041666667,0,0xC417,
0.599783875000000,0,0xC0C4,
0.599791791666667,0,0xC517,
0.599807625000000,0,0xDCF6,
0.599815541666667,0,0xC617,
0.599831375000000,0,0x801D,
0.599839291666667,0,0xC717,
0.599855125000000,0,0xA3D9,
0.599863041666667,0,0xC817,
0.599878875000000,0,0x9E39,
0.599886791666667,0,0xC917,
0.599902625000000,0,0x9E3C,
0.599910541666667,0,0xCA17,
0.599942875000000,0,0x0004,
0.599950541666667,0,0x0321,
0.599966625000000,0,0x0A01,
0.599974458333333,0,0x8321,
0.599990166666667,0,0x0F00,
0.599998041666667,0,0x8421,
0.600013750000000,0,0x0000,
0.600021583333333,0,0x8527,
0.600037291666667,0,0x773F,
0.600045166666667,0,0x8621,
0.600075041666667,0,0x0001,
0.600082708333333,0,0x1D25,
0.600098666666667,0,0x0055,
0.600106541666667,0,0x9D25,
0.600135000000000,0,0x0003,
0.600142666666667,0,0x2429,
0.600159041666667,0,0x004C,
0.600166875000000,0,0xA427,
0.600182583333333,0,0x0040,
0.600190416666667,0,0xA527,
0.600206166666667,0,0x8000,
0.600214000000000,0,0xA627,
0.600243375000000,0,0x0005,
0.600251041666667,0,0x2D2D,
0.600267000000000,0,0xBFEC,
0.600274875000000,0,0xAD27,
0.600290583333333,0,0xFFFE,
0.600298416666667,0,0xAE27,
0.600314125000000,0,0x40A8,
0.600322000000000,0,0xAF27,
0.600337708333333,0,0xFFFF,
0.600345541666667,0,0xB027,
0.600361250000000,0,0x8309,
0.600369125000000,0,0xB127,
0.600400416666667,0,0x0006,
0.600408083333333,0,0x3B21,
0.600424083333333,0,0xE51B,
0.600431916666667,0,0xBB27,
0.600447625000000,0,0x8000,
0.600455500000000,0,0xBC27,
0.600471208333333,0,0x8000,
0.600479041666667,0,0xBD27,
0.600494750000000,0,0x8000,
0.600502625000000,0,0xBE27,
0.600518333333333,0,0xE5BE,
0.600526166666667,0,0xBF27,
0.600541875000000,0,0xE5D5,
0.600549750000000,0,0xC027,
0.600580041666667,0,0x000A,
0.600587750000000,0,0x4125,
0.600603708333333,0,0xDB4D,
0.600611583333333,0,0xC127,
0.600627291666667,0,0xDC53,
0.600635166666667,0,0xC227,
0.600650833333333,0,0xDF3A,
0.600658708333333,0,0xC327,
0.600674416666667,0,0xE120,
0.600682250000000,0,0xC427,
0.600697958333333,0,0xA97B,
0.600705791666667,0,0xC527,
0.600721500000000,0,0xFF48,
0.600729375000000,0,0xC627,
0.600745083333333,0,0xC014,
0.600752916666667,0,0xC727,
0.600768625000000,0,0xA3BC,
0.600776500000000,0,0xC827,
0.600792208333333,0,0x9E3A,
0.600800041666667,0,0xC927,
0.600815750000000,0,0x9E40,
0.600823625000000,0,0xCA27,
0.608441000000000,0,0x8C3F,
0.608448666666667,0,0x060B,
0.608476208333333,0,0x0004,
0.608483875000000,0,0x031D,
0.608500208333333,0,0x0A01,
0.608508125000000,0,0x831D,
0.608524000000000,0,0x0F00,
0.608531916666667,0,0x841D,
0.608547750000000,0,0x0000,
0.608555666666667,0,0x8518,
0.608571500000000,0,0x8F3F,
0.608579416666667,0,0x861D,
0.608610333333333,0,0x0004,
0.608618041666667,0,0x0311,
0.608634375000000,0,0x0A01,
0.608642291666667,0,0x8311,
0.608658125000000,0,0x0F00,
0.608666041666667,0,0x8411,
0.608681875000000,0,0x0000,
0.608689791666667,0,0x8518,
0.608705625000000,0,0x8F3F,
0.608713541666667,0,0x8611,
0.608744250000000,0,0x0004,
0.608751916666667,0,0x0315,
0.608768000000000,0,0x0A01,
0.608775916666667,0,0x8315,
0.608791750000000,0,0x0F00,
0.608799666666667,0,0x8415,
0.608815541666667,0,0x0000,
0.608823458333333,0,0x8518,
0.608839291666667,0,0x8F3F,
0.608847208333333,0,0x8615,
0.608878375000000,0,0x0004,
0.608886083333333,0,0x0319,
0.608902125000000,0,0x0A01,
0.608910041666667,0,0x8319,
0.608925875000000,0,0x0F00,
0.608933791666667,0,0x8419,
0.608949666666667,0,0x0000,
0.608957583333333,0,0x8518,
0.608973416666667,0,0x8F3F,
0.608981333333333,0,0x8619,
0.609011708333333,0,0x0004,
0.609019416666667,0,0x031D,
0.609035750000000,0,0x0A01,
0.609043666666667,0,0x831D,
0.609059500000000,0,0x0F00,
0.609067416666667,0,0x841D,
0.609083250000000,0,0x0000,
0.609091166666667,0,0x8518,
0.609107000000000,0,0x873F,
0.609114916666667,0,0x861D,
0.609145416666667,0,0x0001,
0.609153083333333,0,0x1D11,
0.609169333333333,0,0x1551,
0.609177250000000,0,0x9D11,
0.609205416666667,0,0x0003,
0.609213083333333,0,0x2415,
0.609229166666667,0,0x0048,
0.609237083333333,0,0xA418,
0.609252916666667,0,0x0040,
0.609260833333333,0,0xA518,
0.609276708333333,0,0x0000,
0.609284625000000,0,0xA618,
0.609312875000000,0,0x0005,
0.609320541666667,0,0x2D19,
0.609336541666667,0,0xBF60,
0.609344458333333,0,0xAD18,
0.609360291666667,0,0xFFFD,
0.609368208333333,0,0xAE18,
0.609384041666667,0,0xF921,
0.609391958333333,0,0xAF18,
0.609407791666667,0,0xFFFF,
0.609415708333333,0,0xB018,
0.609431541666667,0,0x830F,
0.609439458333333,0,0xB118,
0.609469041666667,0,0x0006,
0.609476708333333,0,0x3B1D,
0.609492875000000,0,0xB3E2,
0.609500791666667,0,0xBB18,
0.609516625000000,0,0xB32D,
0.609524541666667,0,0xBC18,
0.609540375000000,0,0xB2BD,
0.609548291666667,0,0xBD18,
0.609564125000000,0,0xB201,
0.609572041666667,0,0xBE18,
0.609587875000000,0,0xB1FF,
0.609595791666667,0,0xBF18,
0.609611625000000,0,0xB272,
0.609619541666667,0,0xC018,
0.609649458333333,0,0x000A,
0.609657166666667,0,0x4111,
0.609673500000000,0,0xC092,
0.609681416666667,0,0xC118,
0.609697250000000,0,0xC0C3,
0.609705166666667,0,0xC218,
0.609721000000000,0,0xC084,
0.609728916666667,0,0xC318,
0.609744750000000,0,0xC0C2,
0.609752666666667,0,0xC418,
0.609768500000000,0,0xC0C6,
0.609776416666667,0,0xC518,
0.609792250000000,0,0xDCFB,
0.609800166666667,0,0xC618,
0.609816000000000,0,0x801D,
0.609823916666667,0,0xC718,
0.609839750000000,0,0xA3D8,
0.609847666666667,0,0xC818,
0.609863500000000,0,0x9E39,
0.609871416666667,0,0xC918,
0.609887250000000,0,0x9E3B,
0.609895166666667,0,0xCA18,
0.609927416666667,0,0x0004,
0.609935083333333,0,0x0325,
0.609951416666667,0,0x0A01,
0.609959250000000,0,0x8325,
0.609974958333333,0,0x0F00,
0.609982833333333,0,0x8425,
0.609998541666667,0,0x0000,
0.610006375000000,0,0x8528,
0.610022083333333,0,0x873F,
0.610029916666667,0,0x8625,
0.610060750000000,0,0x0001,
0.610068416666667,0,0x1D29,
0.610084458333333,0,0x0055,
0.610092291666667,0,0x9D29,
0.610119875000000,0,0x0003,
0.610127541666667,0,0x242D,
0.610143833333333,0,0x004C,
0.610151666666667,0,0xA428,
0.610167416666667,0,0x0040,
0.610175250000000,0,0xA528,
0.610190958333333,0,0x8000,
0.610198833333333,0,0xA628,
0.610228208333333,0,0x0005,
0.610235875000000,0,0x2D21,
0.610252291666667,0,0xC0F7,
0.610260166666667,0,0xAD28,
0.610275875000000,0,0xFFFE,
0.610283750000000,0,0xAE28,
0.610299416666667,0,0x3E2F,
0.610307291666667,0,0xAF28,
0.610323000000000,0,0xFFFF,
0.610330875000000,0,0xB028,
0.610346583333333,0,0x8306,
0.610354416666667,0,0xB128,
0.610384291666667,0,0x0006,
0.610391958333333,0,0x3B25,
0.610407958333333,0,0xE517,
0.610415791666667,0,0xBB28,
0.610431500000000,0,0x8001,
0.610439333333333,0,0xBC28,
0.610455041666667,0,0x8001,
0.610462916666667,0,0xBD28,
0.610478625000000,0,0x8001,
0.610486458333333,0,0xBE28,
0.610502208333333,0,0xE5B9,
0.610510041666667,0,0xBF28,
0.610525750000000,0,0xE5D2,
0.610533583333333,0,0xC028,
0.610564375000000,0,0x000A,
0.610572041666667,0,0x4129,
0.610588083333333,0,0xDB4B,
0.610595916666667,0,0xC128,
0.610611625000000,0,0xDC56,
0.610619500000000,0,0xC228,
0.610635208333333,0,0xDF36,
0.610643041666667,0,0xC328,
0.610658750000000,0,0xE120,
0.610666625000000,0,0xC428,
0.610682333333333,0,0xA97E,
0.610690166666667,0,0xC528,
0.610705875000000,0,0xFF4A,
0.610713750000000,0,0xC628,
0.610729458333333,0,0xC014,
0.610737333333333,0,0xC728,
0.610753000000000,0,0xA3B9,
0.610760875000000,0,0xC828,
0.610776583333333,0,0x9E3A,
0.610784458333333,0,0xC928,
0.610800166666667,0,0x9E3F,
0.610808000000000,0,0xCA28,
0.618444958333333,0,0x9C3F,
0.618452625000000,0,0x060F,
0.618480125000000,0,0x0004,
0.618487833333333,0,0x0311,
0.618504041666667,0,0x0A01,
0.618511958333333,0,0x8311,
0.618527791666667,0,0x0F00,
0.618535708333333,0,0x8411,
0.618551541666667,0,0x0000,
0.618559458333333,0,0x8519,
0.618575333333333,0,0x9F3F,
0.618583250000000,0,0x8611,
0.618614000000000,0,0x0004,
0.618621666666667,0,0x0315,
0.618637666666667,0,0x0A01,
0.618645583333333,0,0x8315,
0.618661416666667,0,0x0F00,
0.618669333333333,0,0x8415,
0.618685166666667,0,0x0000,
0.618693125000000,0,0x8519,
0.618708958333333,0,0x9F3F,
0.618716833333333,0,0x8615,
0.618747375000000,0,0x0004,
0.618755083333333,0,0x0319,
0.618771291666667,0,0x0A01,
0.618779208333333,0,0x8319,
0.618795041666667,0,0x0F00,
0.618803000000000,0,0x8419,
0.618818833333333,0,0x0000,
0.618826750000000,0,0x8519,
0.618842583333333,0,0x9F3F,
0.618850500000000,0,0x8619,
0.618882125000000,0,0x0004,
0.618889791666667,0,0x031D,
0.618905916666667,0,0x0A01,
0.618913833333333,0,0x831D,
0.618929708333333,0,0x0F00,
0.618937625000000,0,0x841D,
0.618953458333333,0,0x0000,
0.618961375000000,0,0x8519,
0.618977208333333,0,0x9F3F,
0.618985125000000,0,0x861D,
0.619015916666667,0,0x0004,
0.619023583333333,0,0x0311,
0.619040041666667,0,0x0A01,
0.619047958333333,0,0x8311,
0.619063791666667,0,0x0F00,
0.619071708333333,0,0x8411,
0.619087541666667,0,0x0000,
0.619095416666667,0,0x8519,
0.619111250000000,0,0x973F,
0.619119166666667,0,0x8611,
0.619149458333333,0,0x0001,
0.619157125000000,0,0x1D15,
0.619173125000000,0,0x1551,
0.619181041666667,0,0x9D15,
0.619209583333333,0,0x0003,
0.619217250000000,0,0x2419,
0.619233500000000,0,0x0048,
0.619241416666667,0,0xA419,
0.619257250000000,0,0x0040,
0.619265166666667,0,0xA519,
0.619281000000000,0,0x0000,
0.619288958333333,0,0xA619,
0.619318000000000,0,0x0005,
0.619325666666667,0,0x2D1D,
0.619341875000000,0,0xC06A,
0.619349791666667,0,0xAD19,
0.619365666666667,0,0xFFFD,
0.619373541666667,0,0xAE19,
0.619389416666667,0,0xF70D,
0.619397333333333,0,0xAF19,
0.619413166666667,0,0xFFFF,
0.619421083333333,0,0xB019,
0.619436916666667,0,0x830C,
0.619444833333333,0,0xB119,
0.619475333333333,0,0x0006,
0.619483041666667,0,0x3B11,
0.619499291666667,0,0xB3E1,
0.619507208333333,0,0xBB19,
0.619523041666667,0,0xB32A,
0.619530958333333,0,0xBC19,
0.619546791666667,0,0xB2BF,
0.619554708333333,0,0xBD19,
0.619570541666667,0,0xB1FF,
0.619578458333333,0,0xBE19,
0.619594291666667,0,0xB202,
0.619602208333333,0,0xBF19,
0.619618041666667,0,0xB274,
0.619625958333333,0,0xC019,
0.619657166666667,0,0x000A,
0.619664833333333,0,0x4115,
0.619680916666667,0,0xC098,
0.619688833333333,0,0xC119,
0.619704666666667,0,0xC0C9,
0.619712583333333,0,0xC219,
0.619728416666667,0,0xC086,
0.619736333333333,0,0xC319,
0.619752166666667,0,0xC0C7,
0.619760083333333,0,0xC419,
0.619775916666667,0,0xC0C7,
0.619783833333333,0,0xC519,
0.619799666666667,0,0xDCFB,
0.619807583333333,0,0xC619,
0.619823416666667,0,0x801C,
0.619831333333333,0,0xC719,
0.619847166666667,0,0xA3D8,
0.619855083333333,0,0xC819,
0.619870916666667,0,0x9E3A,
0.619878833333333,0,0xC919,
0.619894666666667,0,0x9E38,
0.619902583333333,0,0xCA19,
0.619934708333333,0,0x0004,
0.619942375000000,0,0x0329,
0.619958500000000,0,0x0A01,
0.619966375000000,0,0x8329,
0.619982083333333,0,0x0F00,
0.619989916666667,0,0x8429,
0.620005625000000,0,0x0000,
0.620013500000000,0,0x8529,
0.620029208333333,0,0x973F,
0.620037083333333,0,0x8629,
0.620067625000000,0,0x0001,
0.620075291666667,0,0x1D2D,
0.620091541666667,0,0x0055,
0.620099416666667,0,0x9D2D,
0.620127166666667,0,0x0003,
0.620134833333333,0,0x2421,
0.620150958333333,0,0x004C,
0.620158791666667,0,0xA429,
0.620174500000000,0,0x0040,
0.620182375000000,0,0xA529,
0.620198083333333,0,0x8000,
0.620205916666667,0,0xA629,
0.620235125000000,0,0x0005,
0.620242791666667,0,0x2D25,
0.620258958333333,0,0xC204,
0.620266791666667,0,0xAD29,
0.620282541666667,0,0xFFFE,
0.620290375000000,0,0xAE29,
0.620306083333333,0,0x3B93,
0.620313958333333,0,0xAF29,
0.620329625000000,0,0xFFFF,
0.620337500000000,0,0xB029,
0.620353208333333,0,0x8309,
0.620361083333333,0,0xB129,
0.620392458333333,0,0x0006,
0.620400166666667,0,0x3B29,
0.620416541666667,0,0xE518,
0.620424375000000,0,0xBB29,
0.620440083333333,0,0x8002,
0.620447958333333,0,0xBC29,
0.620463666666667,0,0x8000,
0.620471500000000,0,0xBD29,
0.620487208333333,0,0x8000,
0.620495083333333,0,0xBE29,
0.620510750000000,0,0xE5BA,
0.620518625000000,0,0xBF29,
0.620534333333333,0,0xE5D5,
0.620542166666667,0,0xC029,
0.620573625000000,0,0x000A,
0.620581291666667,0,0x412D,
0.620597666666667,0,0xDB4A,
0.620605541666667,0,0xC129,
0.620621250000000,0,0xDC52,
0.620629083333333,0,0xC229,
0.620644791666667,0,0xDF33,
0.620652666666667,0,0xC329,
0.620668375000000,0,0xE11E,
0.620676208333333,0,0xC429,
0.620691916666667,0,0xA97B,
0.620699791666667,0,0xC529,
0.620715500000000,0,0xFF47,
0.620723333333333,0,0xC629,
0.620739041666667,0,0xC015,
0.620746916666667,0,0xC729,
0.620762625000000,0,0xA3BD,
0.620770458333333,0,0xC829,
0.620786166666667,0,0x9E3A,
0.620794041666667,0,0xC929,
0.620809708333333,0,0x9E3C,
0.620817583333333,0,0xCA29,
0.628432000000000,0,0xAC3F,
0.628439666666667,0,0x0603,
0.628467208333333,0,0x0004,
0.628474916666667,0,0x0315,
0.628491125000000,0,0x0A01,
0.628499041666667,0,0x8315,
0.628514875000000,0,0x0F00,
0.628522791666667,0,0x8415,
0.628538625000000,0,0x0000,
0.628546541666667,0,0x851A,
0.628562375000000,0,0xAF3F,
0.628570291666667,0,0x8615,
0.628600958333333,0,0x0004,
0.628608625000000,0,0x0319,
0.628624750000000,0,0x0A01,
0.628632666666667,0,0x8319,
0.628648500000000,0,0x0F00,
0.628656416666667,0,0x8419,
0.628672250000000,0,0x0000,
0.628680166666667,0,0x851A,
0.628696000000000,0,0xAF3F,
0.628703958333333,0,0x8619,
0.628734250000000,0,0x0004,
0.628741958333333,0,0x031D,
0.628757875000000,0,0x0A01,
0.628765791666667,0,0x831D,
0.628781625000000,0,0x0F00,
0.628789541666667,0,0x841D,
0.628805375000000,0,0x0000,
0.628813291666667,0,0x851A,
0.628829166666667,0,0xAF3F,
0.628837041666667,0,0x861D,
0.628867750000000,0,0x0004,
0.628875416666667,0,0x0311,
0.628891458333333,0,0x0A01,
0.628899416666667,0,0x8311,
0.628915250000000,0,0x0F00,
0.628923166666667,0,0x8411,
0.628939000000000,0,0x0000,
0.628946916666667,0,0x851A,
0.628962791666667,0,0xAF3F,
0.628970708333333,0,0x8611,
0.629001666666667,0,0x0004,
0.629009333333333,0,0x0315,
0.629025625000000,0,0x0A01,
0.629033541666667,0,0x8315,
0.629049333333333,0,0x0F00,
0.629057250000000,0,0x8415,
0.629073083333333,0,0x0000,
0.629081000000000,0,0x851A,
0.629096833333333,0,0xA73F,
0.629104750000000,0,0x8615,
0.629134958333333,0,0x0001,
0.629142625000000,0,0x1D19,
0.629158708333333,0,0x1551,
0.629166583333333,0,0x9D19,
0.629194708333333,0,0x0003,
0.629202416666667,0,0x241D,
0.629218583333333,0,0x0048,
0.629226458333333,0,0xA41A,
0.629242291666667,0,0x0040,
0.629250250000000,0,0xA51A,
0.629266041666667,0,0x0000,
0.629273958333333,0,0xA61A,
0.629303125000000,0,0x0005,
0.629310833333333,0,0x2D11,
0.629326916666667,0,0xC173,
0.629334833333333,0,0xAD1A,
0.629350666666667,0,0xFFFD,
0.629358583333333,0,0xAE1A,
0.629374416666667,0,0xF4E5,
0.629382291666667,0,0xAF1A,
0.629398166666667,0,0xFFFF,
0.629406083333333,0,0xB01A,
0.629421875000000,0,0x830A,
0.629429833333333,0,0xB11A,
0.629459500000000,0,0x0006,
0.629467166666667,0,0x3B15,
0.629483291666667,0,0xB3DE,
0.629491208333333,0,0xBB1A,
0.629507041666667,0,0xB32A,
0.629514958333333,0,0xBC1A,
0.629530791666667,0,0xB2BB,
0.629538708333333,0,0xBD1A,
0.629554541666667,0,0xB1FC,
0.629562458333333,0,0xBE1A,
0.629578333333333,0,0xB200,
0.629586250000000,0,0xBF1A,
0.629602083333333,0,0xB275,
0.629610000000000,0,0xC01A,
0.629640666666667,0,0x000A,
0.629648375000000,0,0x4119,
0.629664458333333,0,0xC096,
0.629672375000000,0,0xC11A,
0.629688208333333,0,0xC0C6,
0.629696125000000,0,0xC21A,
0.629711958333333,0,0xC083,
0.629719875000000,0,0xC31A,
0.629735708333333,0,0xC0C2,
0.629743625000000,0,0xC41A,
0.629759458333333,0,0xC0C5,
0.629767375000000,0,0xC51A,
0.629783208333333,0,0xDCFA,
0.629791125000000,0,0xC61A,
0.629806958333333,0,0x801C,
0.629814916666667,0,0xC71A,
0.629830750000000,0,0xA3D9,
0.629838666666667,0,0xC81A,
0.629854500000000,0,0x9E38,
0.629862416666667,0,0xC91A,
0.629878250000000,0,0x9E3E,
0.629886166666667,0,0xCA1A,
0.629918541666667,0,0x0004,
0.629926250000000,0,0x032D,
0.629942375000000,0,0x0A01,
0.629950208333333,0,0x832D,
0.629965916666667,0,0x0F00,
0.629973791666667,0,0x842D,
0.629989458333333,0,0x0000,
0.629997333333333,0,0x852A,
0.630013041666667,0,0xA73F,
0.630020875000000,0,0x862D,
0.630051166666667,0,0x0001,
0.630058833333333,0,0x1D21,
0.630074875000000,0,0x0055,
0.630082708333333,0,0x9D21,
0.630110666666667,0,0x0003,
0.630118333333333,0,0x2425,
0.630134291666667,0,0x004C,
0.630142125000000,0,0xA42A,
0.630157833333333,0,0x0040,
0.630165666666667,0,0xA52A,
0.630181375000000,0,0x8000,
0.630189250000000,0,0xA62A,
0.630218291666667,0,0x0005,
0.630226000000000,0,0x2D29,
0.630242291666667,0,0xC30F,
0.630250125000000,0,0xAD2A,
0.630265833333333,0,0xFFFE,
0.630273666666667,0,0xAE2A,
0.630289375000000,0,0x3942,
0.630297250000000,0,0xAF2A,
0.630312958333333,0,0xFFFF,
0.630320791666667,0,0xB02A,
0.630336500000000,0,0x830E,
0.630344375000000,0,0xB12A,
0.630374583333333,0,0x0006,
0.630382291666667,0,0x3B2D,
0.630398333333333,0,0xE51D,
0.630406208333333,0,0xBB2A,
0.630421916666667,0,0x8005,
0.630429750000000,0,0xBC2A,
0.630445458333333,0,0x8000,
0.630453333333333,0,0xBD2A,
0.630469041666667,0,0x8000,
0.630476875000000,0,0xBE2A,
0.630492583333333,0,0xE5B6,
0.630500458333333,0,0xBF2A,
0.630516166666667,0,0xE5D0,
0.630524000000000,0,0xC02A,
0.630553666666667,0,0x000A,
0.630561333333333,0,0x4121,
0.630577500000000,0,0xDB4D,
0.630585375000000,0,0xC12A,
0.630601083333333,0,0xDC51,
0.630608916666667,0,0xC22A,
0.630624625000000,0,0xDF38,
0.630632458333333,0,0xC32A,
0.630648166666667,0,0xE120,
0.630656041666667,0,0xC42A,
0.630671708333333,0,0xA97C,
0.630679583333333,0,0xC52A,
0.630695291666667,0,0xFF45,
0.630703166666667,0,0xC62A,
0.630718833333333,0,0xC013,
0.630726708333333,0,0xC72A,
0.630742416666667,0,0xA3B8,
0.630750291666667,0,0xC82A,
0.630765958333333,0,0x9E36,
0.630773833333333,0,0xC92A,
0.630789541666667,0,0x9E41,
0.630797375000000,0,0xCA2A,
0.638474833333333,0,0xBC3F,
0.638482541666667,0,0x0607,
0.638509583333333,0,0x0004,
0.638517250000000,0,0x0319,
0.638533250000000,0,0x0A01,
0.638541166666667,0,0x8319,
0.638557000000000,0,0x0F00,
0.638564916666667,0,0x8419,
0.638580750000000,0,0x0000,
0.638588666666667,0,0x851B,
0.638604500000000,0,0xBF3F,
0.638612416666667,0,0x8619,
0.638643500000000,0,0x0004,
0.638651166666667,0,0x031D,
0.638667375000000,0,0x0A01,
0.638675291666667,0,0x831D,
0.638691125000000,0,0x0F00,
0.638699041666667,0,0x841D,
0.638714875000000,0,0x0000,
0.638722791666667,0,0x851B,
0.638738666666667,0,0xBF3F,
0.638746583333333,0,0x861D,
0.638776708333333,0,0x0004,
0.638784375000000,0,0x0311,
0.638800541666667,0,0x0A01,
0.638808458333333,0,0x8311,
0.638824291666667,0,0x0F00,
0.638832208333333,0,0x8411,
0.638848083333333,0,0x0000,
0.638856000000000,0,0x851B,
0.638871833333333,0,0xBF3F,
0.638879750000000,0,0x8611,
0.638910125000000,0,0x0004,
0.638917791666667,0,0x0315,
0.638934208333333,0,0x0A01,
0.638942125000000,0,0x8315,
0.638957916666667,0,0x0F00,
0.638965875000000,0,0x8415,
0.638981708333333,0,0x0000,
0.638989625000000,0,0x851B,
0.639005458333333,0,0xBF3F,
0.639013375000000,0,0x8615,
0.639044250000000,0,0x0004,
0.639051916666667,0,0x0319,
0.639068291666667,0,0x0A01,
0.639076208333333,0,0x8319,
0.639092041666667,0,0x0F00,
0.639099958333333,0,0x8419,
0.639115791666667,0,0x0000,
0.639123708333333,0,0x851B,
0.639139541666667,0,0xB73F,
0.639147458333333,0,0x8619,
0.639177625000000,0,0x0001,
0.639185291666667,0,0x1D1D,
0.639201375000000,0,0x1551,
0.639209291666667,0,0x9D1D,
0.639237083333333,0,0x0003,
0.639244750000000,0,0x2411,
0.639260750000000,0,0x0048,
0.639268708333333,0,0xA41B,
0.639284500000000,0,0x0040,
0.639292416666667,0,0xA51B,
0.639308250000000,0,0x0000,
0.639316166666667,0,0xA61B,
0.639345625000000,0,0x0005,
0.639353291666667,0,0x2D15,
0.639369583333333,0,0xC27E,
0.639377500000000,0,0xAD1B,
0.639393333333333,0,0xFFFD,
0.639401250000000,0,0xAE1B,
0.639417083333333,0,0xF26E,
0.639425000000000,0,0xAF1B,
0.639440833333333,0,0xFFFF,
0.639448750000000,0,0xB01B,
0.639464583333333,0,0x830C,
0.639472500000000,0,0xB11B,
0.639502666666667,0,0x0006,
0.639510375000000,0,0x3B19,
0.639526416666667,0,0xB3DE,
0.639534375000000,0,0xBB1B,
0.639550208333333,0,0xB32B,
0.639558083333333,0,0xBC1B,
0.639573916666667,0,0xB2BF,
0.639581875000000,0,0xBD1B,
0.639597708333333,0,0xB1FB,
0.639605625000000,0,0xBE1B,
0.639621458333333,0,0xB1FF,
0.639629375000000,0,0xBF1B,
0.639645208333333,0,0xB275,
0.639653125000000,0,0xC01B,
0.639683875000000,0,0x000A,
0.639691583333333,0,0x411D,
0.639707583333333,0,0xC098,
0.639715500000000,0,0xC11B,
0.639731333333333,0,0xC0C7,
0.639739250000000,0,0xC21B,
0.639755083333333,0,0xC089,
0.639763000000000,0,0xC31B,
0.639778833333333,0,0xC0C8,
0.639786750000000,0,0xC41B,
0.639802583333333,0,0xC0C8,
0.639810500000000,0,0xC51B,
0.639826333333333,0,0xDCFF,
0.639834291666667,0,0xC61B,
0.639850125000000,0,0x801F,
0.639858000000000,0,0xC71B,
0.639873833333333,0,0xA3D6,
0.639881791666667,0,0xC81B,
0.639897625000000,0,0x9E3D,
0.639905541666667,0,0xC91B,
0.639921375000000,0,0x9E39,
0.639929291666667,0,0xCA1B,
0.639961291666667,0,0x0004,
0.639968958333333,0,0x0321,
0.639985125000000,0,0x0A01,
0.639993000000000,0,0x8321,
0.640008708333333,0,0x0F00,
0.640016583333333,0,0x8421,
0.640032250000000,0,0x0000,
0.640040125000000,0,0x852B,
0.640055833333333,0,0xB73F,
0.640063666666667,0,0x8621,
0.640093375000000,0,0x0001,
0.640101083333333,0,0x1D25,
0.640117166666667,0,0x0055,
0.640125041666667,0,0x9D25,
0.640153416666667,0,0x0003,
0.640161083333333,0,0x2429,
0.640177041666667,0,0x004C,
0.640184916666667,0,0xA42B,
0.640200625000000,0,0x0040,
0.640208458333333,0,0xA52B,
0.640224166666667,0,0x8000,
0.640232041666667,0,0xA62B,
0.640261083333333,0,0x0005,
0.640268791666667,0,0x2D2D,
0.640285041666667,0,0xC41D,
0.640292916666667,0,0xAD2B,
0.640308583333333,0,0xFFFE,
0.640316458333333,0,0xAE2B,
0.640332166666667,0,0x368C,
0.640340000000000,0,0xAF2B,
0.640355708333333,0,0xFFFF,
0.640363541666667,0,0xB02B,
0.640379250000000,0,0x830D,
0.640387125000000,0,0xB12B,
0.640417500000000,0,0x0006,
0.640425166666667,0,0x3B21,
0.640441583333333,0,0xE51A,
0.640449416666667,0,0xBB2B,
0.640465125000000,0,0x8000,
0.640473000000000,0,0xBC2B,
0.640488708333333,0,0x8003,
0.640496541666667,0,0xBD2B,
0.640512250000000,0,0x8000,
0.640520125000000,0,0xBE2B,
0.640535833333333,0,0xE5B8,
0.640543666666667,0,0xBF2B,
0.640559375000000,0,0xE5D4,
0.640567208333333,0,0xC02B,
0.640597125000000,0,0x000A,
0.640604791666667,0,0x4125,
0.640621208333333,0,0xDB4F,
0.640629083333333,0,0xC12B,
0.640644791666667,0,0xDC52,
0.640652625000000,0,0xC22B,
0.640668333333333,0,0xDF3A,
0.640676208333333,0,0xC32B,
0.640691916666667,0,0xE120,
0.640699750000000,0,0xC42B,
0.640715458333333,0,0xA97E,
0.640723333333333,0,0xC52B,
0.640739041666667,0,0xFF4B,
0.640746875000000,0,0xC62B,
0.640762583333333,0,0xC014,
0.640770416666667,0,0xC72B,
0.640786166666667,0,0xA3BA,
0.640794000000000,0,0xC82B,
0.640809708333333,0,0x9E39,
0.640817541666667,0,0xC92B,
0.640833250000000,0,0x9E40,
0.640841083333333,0,0xCA2B,
0.648441541666667,0,0xCC3F,
0.648449250000000,0,0x060B,
0.648476291666667,0,0x0004,
0.648483958333333,0,0x031D,
0.648499958333333,0,0x0A01,
0.648507875000000,0,0x831D,
0.648523708333333,0,0x0F00,
0.648531625000000,0,0x841D,
0.648547458333333,0,0x0000,
0.648555375000000,0,0x851C,
0.648571250000000,0,0xCF3F,
0.648579166666667,0,0x861D,
0.648610125000000,0,0x0004,
0.648617833333333,0,0x0311,
0.648634083333333,0,0x0A01,
0.648642000000000,0,0x8311,
0.648657833333333,0,0x0F00,
0.648665791666667,0,0x8411,
0.648681625000000,0,0x0000,
0.648689541666667,0,0x851C,
0.648705333333333,0,0xCF3F,
0.648713291666667,0,0x8611,
0.648744000000000,0,0x0004,
0.648751666666667,0,0x0315,
0.648767708333333,0,0x0A01,
0.648775625000000,0,0x8315,
0.648791458333333,0,0x0F00,
0.648799375000000,0,0x8415,
0.648815208333333,0,0x0000,
0.648823125000000,0,0x851C,
0.648838958333333,0,0xCF3F,
0.648846875000000,0,0x8615,
0.648878375000000,0,0x0004,
0.648886083333333,0,0x0319,
0.648902333333333,0,0x0A01,
0.648910250000000,0,0x8319,
0.648926083333333,0,0x0F00,
0.648934000000000,0,0x8419,
0.648949833333333,0,0x0000,
0.648957750000000,0,0x851C,
0.648973583333333,0,0xCF3F,
0.648981500000000,0,0x8619,
0.649012500000000,0,0x0004,
0.649020166666667,0,0x031D,
0.649036416666667,0,0x0A01,
0.649044333333333,0,0x831D,
0.649060166666667,0,0x0F00,
0.649068083333333,0,0x841D,
0.649083916666667,0,0x0000,
0.649091833333333,0,0x851C,
0.649107625000000,0,0xC73F,
0.649115583333333,0,0x861D,
0.649146166666667,0,0x0001,
0.649153833333333,0,0x1D11,
0.649169958333333,0,0x1551,
0.649177875000000,0,0x9D11,
0.649205583333333,0,0x0003,
0.649213291666667,0,0x2415,
0.649229333333333,0,0x0048,
0.649237250000000,0,0xA41C,
0.649253083333333,0,0x0040,
0.649261000000000,0,0xA51C,
0.649276833333333,0,0x0000,
0.649284750000000,0,0xA61C,
0.649313625000000,0,0x0005,
0.649321333333333,0,0x2D19,
0.649337708333333,0,0xC387,
0.649345625000000,0,0xAD1C,
0.649361458333333,0,0xFFFD,
0.649369375000000,0,0xAE1C,
0.649385208333333,0,0xF001,
0.649393125000000,0,0xAF1C,
0.649408958333333,0,0x8000,
0.649416875000000,0,0xB01C,
0.649432708333333,0,0x8304,
0.649440625000000,0,0xB11C,
0.649471541666667,0,0x0006,
0.649479250000000,0,0x3B1D,
0.649495541666667,0,0xB3DE,
0.649503458333333,0,0xBB1C,
0.649519291666667,0,0xB32C,
0.649527208333333,0,0xBC1C,
0.649543041666667,0,0xB2BB,
0.649550958333333,0,0xBD1C,
0.649566791666667,0,0xB1FB,
0.649574708333333,0,0xBE1C,
0.649590541666667,0,0xB1FE,
0.649598458333333,0,0xBF1C,
0.649614291666667,0,0xB26F,
0.649622208333333,0,0xC01C,
0.649652416666667,0,0x000A,
0.649660125000000,0,0x4111,
0.649676125000000,0,0xC092,
0.649684041666667,0,0xC11C,
0.649699875000000,0,0xC0C6,
0.649707791666667,0,0xC21C,
0.649723625000000,0,0xC087,
0.649731541666667,0,0xC31C,
0.649747375000000,0,0xC0C5,
0.649755291666667,0,0xC41C,
0.649771125000000,0,0xC0C4,
0.649779083333333,0,0xC51C,
0.649794916666667,0,0xDCFB,
0.649802791666667,0,0xC61C,
0.649818666666667,0,0x801D,
0.649826583333333,0,0xC71C,
0.649842416666667,0,0xA3D6,
0.649850333333333,0,0xC81C,
0.649866166666667,0,0x9E39,
0.649874083333333,0,0xC91C,
0.649889916666667,0,0x9E3E,
0.649897833333333,0,0xCA1C,
0.649930000000000,0,0x0004,
0.649937708333333,0,0x0325,
0.649953833333333,0,0x0A01,
0.649961708333333,0,0x8325,
0.649977375000000,0,0x0F00,
0.649985250000000,0,0x8425,
0.650000958333333,0,0x0000,
0.650008791666667,0,0x852C,
0.650024500000000,0,0xC73F,
0.650032375000000,0,0x8625,
0.650062250000000,0,0x0001,
0.650069958333333,0,0x1D29,
0.650086333333333,0,0x0055,
0.650094208333333,0,0x9D29,
0.650122166666667,0,0x0003,
0.650129833333333,0,0x242D,
0.650146208333333,0,0x004C,
0.650154083333333,0,0xA42C,
0.650169791666667,0,0x0040,
0.650177625000000,0,0xA52C,
0.650193333333333,0,0x8000,
0.650201208333333,0,0xA62C,
0.650231125000000,0,0x0005,
0.650238833333333,0,0x2D21,
0.650255166666667,0,0xC528,
0.650263041666667,0,0xAD2C,
0.650278750000000,0,0xFFFE,
0.650286583333333,0,0xAE2C,
0.650302291666667,0,0x3446,
0.650310166666667,0,0xAF2C,
0.650325875000000,0,0xFFFF,
0.650333708333333,0,0xB02C,
0.650349416666667,0,0x8305,
0.650357291666667,0,0xB12C,
0.650388500000000,0,0x0006,
0.650396208333333,0,0x3B25,
0.650412250000000,0,0xE519,
0.650420083333333,0,0xBB2C,
0.650435791666667,0,0x8000,
0.650443666666667,0,0xBC2C,
0.650459375000000,0,0x8000,
0.650467208333333,0,0xBD2C,
0.650482916666667,0,0x8000,
0.650490791666667,0,0xBE2C,
0.650506500000000,0,0xE5BD,
0.650514333333333,0,0xBF2C,
0.650530041666667,0,0xE5D3,
0.650537875000000,0,0xC02C,
0.650568625000000,0,0x000A,
0.650576333333333,0,0x4129,
0.650592333333333,0,0xDB4E,
0.650600208333333,0,0xC12C,
0.650615916666667,0,0xDC52,
0.650623750000000,0,0xC22C,
0.650639500000000,0,0xDF39,
0.650647333333333,0,0xC32C,
0.650663041666667,0,0xE121,
0.650670875000000,0,0xC42C,
0.650686583333333,0,0xA97D,
0.650694458333333,0,0xC52C,
0.650710166666667,0,0xFF4A,
0.650718000000000,0,0xC62C,
0.650733708333333,0,0xC015,
0.650741583333333,0,0xC72C,
0.650757250000000,0,0xA3BC,
0.650765125000000,0,0xC82C,
0.650780833333333,0,0x9E3B,
0.650788666666667,0,0xC92C,
0.650804375000000,0,0x9E3F,
0.650812250000000,0,0xCA2C,
0.658694916666667,0,0xDC3F,
0.658702625000000,0,0x060F,
0.658730375000000,0,0x0004,
0.658738041666667,0,0x0311,
0.658754291666667,0,0x0A01,
0.658762208333333,0,0x8311,
0.658778041666667,0,0x0F00,
0.658785958333333,0,0x8411,
0.658801791666667,0,0x0000,
0.658809708333333,0,0x851D,
0.658825541666667,0,0xDF3F,
0.658833458333333,0,0x8611,
0.658864791666667,0,0x0004,
0.658872458333333,0,0x0315,
0.658888833333333,0,0x0A01,
0.658896750000000,0,0x8315,
0.658912583333333,0,0x0F00,
0.658920541666667,0,0x8415,
0.658936375000000,0,0x0000,
0.658944250000000,0,0x851D,
0.658960125000000,0,0xDF3F,
0.658968041666667,0,0x8615,
0.658998458333333,0,0x0004,
0.659006125000000,0,0x0319,
0.659022458333333,0,0x0A01,
0.659030375000000,0,0x8319,
0.659046250000000,0,0x0F00,
0.659054166666667,0,0x8419,
0.659070000000000,0,0x0000,
0.659077916666667,0,0x851D,
0.659093750000000,0,0xDF3F,
0.659101666666667,0,0x8619,
0.659132625000000,0,0x0004,
0.659140291666667,0,0x031D,
0.659156583333333,0,0x0A01,
0.659164500000000,0,0x831D,
0.659180333333333,0,0x0F00,
0.659188250000000,0,0x841D,
0.659204083333333,0,0x0000,
0.659212000000000,0,0x851D,
0.659227833333333,0,0xDF3F,
0.659235750000000,0,0x861D,
0.659266875000000,0,0x0004,
0.659274583333333,0,0x0311,
0.659290625000000,0,0x0A01,
0.659298541666667,0,0x8311,
0.659314375000000,0,0x0F00,
0.659322291666667,0,0x8411,
0.659338125000000,0,0x0000,
0.659346041666667,0,0x851D,
0.659361875000000,0,0xD73F,
0.659369791666667,0,0x8611,
0.659400083333333,0,0x0001,
0.659407750000000,0,0x1D15,
0.659424166666667,0,0x1551,
0.659432083333333,0,0x9D15,
0.659460416666667,0,0x0003,
0.659468125000000,0,0x2419,
0.659484500000000,0,0x0048,
0.659492416666667,0,0xA41D,
0.659508250000000,0,0x0040,
0.659516166666667,0,0xA51D,
0.659532000000000,0,0x0000,
0.659539916666667,0,0xA61D,
0.659569125000000,0,0x0005,
0.659576833333333,0,0x2D1D,
0.659592791666667,0,0xC498,
0.659600708333333,0,0xAD1D,
0.659616541666667,0,0xFFFD,
0.659624458333333,0,0xAE1D,
0.659640291666667,0,0xED72,
0.659648208333333,0,0xAF1D,
0.659664041666667,0,0xFFFF,
0.659671958333333,0,0xB01D,
0.659687791666667,0,0x830B,
0.659695708333333,0,0xB11D,
0.659726291666667,0,0x0006,
0.659734000000000,0,0x3B11,
0.659750083333333,0,0xB3DE,
0.659757958333333,0,0xBB1D,
0.659773833333333,0,0xB327,
0.659781708333333,0,0xBC1D,
0.659797541666667,0,0xB2BC,
0.659805458333333,0,0xBD1D,
0.659821291666667,0,0xB1FE,
0.659829208333333,0,0xBE1D,
0.659845041666667,0,0xB200,
0.659852958333333,0,0xBF1D,
0.659868791666667,0,0xB270,
0.659876708333333,0,0xC01D,
0.659907250000000,0,0x000A,
0.659914916666667,0,0x4115,
0.659931125000000,0,0xC093,
0.659939041666667,0,0xC11D,
0.659954875000000,0,0xC0C8,
0.659962791666667,0,0xC21D,
0.659978625000000,0,0xC087,
0.659986541666667,0,0xC31D,
0.660002375000000,0,0xC0C7,
0.660010291666667,0,0xC41D,
0.660026083333333,0,0xC0C6,
0.660034041666667,0,0xC51D,
0.660049875000000,0,0xDCF7,
0.660057750000000,0,0xC61D,
0.660073583333333,0,0x801E,
0.660081500000000,0,0xC71D,
0.660097333333333,0,0xA3D7,
0.660105250000000,0,0xC81D,
0.660121083333333,0,0x9E39,
0.660129000000000,0,0xC91D,
0.660144833333333,0,0x9E3A,
0.660152750000000,0,0xCA1D,
0.660184208333333,0,0x0004,
0.660191875000000,0,0x0329,
0.660208208333333,0,0x0A01,
0.660216083333333,0,0x8329,
0.660231791666667,0,0x0F00,
0.660239625000000,0,0x8429,
0.660255333333333,0,0x0000,
0.660263166666667,0,0x852D,
0.660278916666667,0,0xD73F,
0.660286750000000,0,0x8629,
0.660317458333333,0,0x0001,
0.660325166666667,0,0x1D2D,
0.660341208333333,0,0x0055,
0.660349083333333,0,0x9D2D,
0.660377291666667,0,0x0003,
0.660384958333333,0,0x2421,
0.660401125000000,0,0x004C,
0.660409000000000,0,0xA42D,
0.660424666666667,0,0x0040,
0.660432541666667,0,0xA52D,
0.660448250000000,0,0x8000,
0.660456083333333,0,0xA62D,
0.660485500000000,0,0x0005,
0.660493166666667,0,0x2D25,
0.660509125000000,0,0xC63B,
0.660516958333333,0,0xAD2D,
0.660532666666667,0,0xFFFE,
0.660540541666667,0,0xAE2D,
0.660556250000000,0,0x31A9,
0.660564083333333,0,0xAF2D,
0.660579833333333,0,0xFFFF,
0.660587666666667,0,0xB02D,
0.660603375000000,0,0x8309,
0.660611208333333,0,0xB12D,
0.660640125000000,0,0x0006,
0.660647791666667,0,0x3B29,
0.660663750000000,0,0xE51C,
0.660671625000000,0,0xBB2D,
0.660687333333333,0,0x8000,
0.660695166666667,0,0xBC2D,
0.660710875000000,0,0x8002,
0.660718750000000,0,0xBD2D,
0.660734458333333,0,0x8002,
0.660742291666667,0,0xBE2D,
0.660758000000000,0,0xE5BD,
0.660765833333333,0,0xBF2D,
0.660781583333333,0,0xE5D7,
0.660789416666667,0,0xC02D,
0.660819458333333,0,0x000A,
0.660827125000000,0,0x412D,
0.660843416666667,0,0xDB4E,
0.660851291666667,0,0xC12D,
0.660866958333333,0,0xDC55,
0.660874833333333,0,0xC22D,
0.660890541666667,0,0xDF3C,
0.660898375000000,0,0xC32D,
0.660914125000000,0,0xE124,
0.660921958333333,0,0xC42D,
0.660937666666667,0,0xA97F,
0.660945541666667,0,0xC52D,
0.660961250000000,0,0xFF4D,
0.660969125000000,0,0xC62D,
0.660984833333333,0,0xC015,
0.660992666666667,0,0xC72D,
0.661008375000000,0,0xA3BC,
0.661016250000000,0,0xC82D,
0.661031958333333,0,0x9E3D,
0.661039791666667,0,0xC92D,
0.661055500000000,0,0x9E3F,
0.661063375000000,0,0xCA2D,
0.668458583333333,0,0xEC3F,
0.668466250000000,0,0x0603,
0.668493708333333,0,0x0004,
0.668501416666667,0,0x0315,
0.668517750000000,0,0x0A01,
0.668525666666667,0,0x8315,
0.668541500000000,0,0x0F00,
0.668549416666667,0,0x8415,
0.668565250000000,0,0x0000,
0.668573208333333,0,0x851E,
0.668589041666667,0,0xEF3F,
0.668596958333333,0,0x8615,
0.668628208333333,0,0x0004,
0.668635875000000,0,0x0319,
0.668651875000000,0,0x0A01,
0.668659791666667,0,0x8319,
0.668675625000000,0,0x0F00,
0.668683541666667,0,0x8419,
0.668699416666667,0,0x0000,
0.668707333333333,0,0x851E,
0.668723166666667,0,0xEF3F,
0.668731083333333,0,0x8619,
0.668761250000000,0,0x0004,
0.668768916666667,0,0x031D,
0.668785041666667,0,0x0A01,
0.668792958333333,0,0x831D,
0.668808791666667,0,0x0F00,
0.668816708333333,0,0x841D,
0.668832583333333,0,0x0000,
0.668840458333333,0,0x851E,
0.668856333333333,0,0xEF3F,
0.668864208333333,0,0x861D,
0.668894875000000,0,0x0004,
0.668902583333333,0,0x0311,
0.668918666666667,0,0x0A01,
0.668926583333333,0,0x8311,
0.668942416666667,0,0x0F00,
0.668950333333333,0,0x8411,
0.668966166666667,0,0x0000,
0.668974083333333,0,0x851E,
0.668989958333333,0,0xEF3F,
0.668997875000000,0,0x8611,
0.669028916666667,0,0x0004,
0.669036583333333,0,0x0315,
0.669052791666667,0,0x0A01,
0.669060708333333,0,0x8315,
0.669076541666667,0,0x0F00,
0.669084458333333,0,0x8415,
0.669100291666667,0,0x0000,
0.669108208333333,0,0x851E,
0.669124000000000,0,0xE73F,
0.669131958333333,0,0x8615,
0.669162000000000,0,0x0001,
0.669169666666667,0,0x1D19,
0.669185875000000,0,0x1551,
0.669193750000000,0,0x9D19,
0.669221791666667,0,0x0003,
0.669229458333333,0,0x241D,
0.669245750000000,0,0x0048,
0.669253625000000,0,0xA41E,
0.669269458333333,0,0x0040,
0.669277375000000,0,0xA51E,
0.669293208333333,0,0x0000,
0.669301125000000,0,0xA61E,
0.669330708333333,0,0x0005,
0.669338416666667,0,0x2D11,
0.669354583333333,0,0xC59C,
0.669362500000000,0,0xAD1E,
0.669378333333333,0,0xFFFD,
0.669386250000000,0,0xAE1E,
0.669402041666667,0,0xEB09,
0.669410000000000,0,0xAF1E,
0.669425791666667,0,0xFFFF,
0.669433750000000,0,0xB01E,
0.669449583333333,0,0x830C,
0.669457458333333,0,0xB11E,
0.669487250000000,0,0x0006,
0.669494916666667,0,0x3B15,
0.669511416666667,0,0xB3DD,
0.669519333333333,0,0xBB1E,
0.669535166666667,0,0xB329,
0.669543083333333,0,0xBC1E,
0.669558916666667,0,0xB2BD,
0.669566833333333,0,0xBD1E,
0.669582666666667,0,0xB1FC,
0.669590583333333,0,0xBE1E,
0.669606416666667,0,0xB202,
0.669614333333333,0,0xBF1E,
0.669630166666667,0,0xB276,
0.669638083333333,0,0xC01E,
0.669668333333333,0,0x000A,
0.669676041666667,0,0x4119,
0.669692000000000,0,0xC096,
0.669699916666667,0,0xC11E,
0.669715750000000,0,0xC0C4,
0.669723666666667,0,0xC21E,
0.669739500000000,0,0xC088,
0.669747416666667,0,0xC31E,
0.669763250000000,0,0xC0CA,
0.669771166666667,0,0xC41E,
0.669787000000000,0,0xC0CA,
0.669794916666667,0,0xC51E,
0.669810750000000,0,0xDCF9,
0.669818666666667,0,0xC61E,
0.669834500000000,0,0x801D,
0.669842416666667,0,0xC71E,
0.669858250000000,0,0xA3D9,
0.669866166666667,0,0xC81E,
0.669882000000000,0,0x9E3B,
0.669889916666667,0,0xC91E,
0.669905750000000,0,0x9E35,
0.669913666666667,0,0xCA1E,
0.669945333333333,0,0x0004,
0.669953041666667,0,0x032D,
0.669968958333333,0,0x0A01,
0.669976833333333,0,0x832D,
0.669992541666667,0,0x0F00,
0.670000416666667,0,0x842D,
0.670016083333333,0,0x0000,
0.670023958333333,0,0x852E,
0.670039666666667,0,0xE73F,
0.670047500000000,0,0x862D,
0.670077500000000,0,0x0001,
0.670085166666667,0,0x1D21,
0.670101500000000,0,0x0055,
0.670109333333333,0,0x9D21,
0.670137750000000,0,0x0003,
0.670145416666667,0,0x2425,
0.670161375000000,0,0x004C,
0.670169250000000,0,0xA42E,
0.670184958333333,0,0x0040,
0.670192791666667,0,0xA52E,
0.670208500000000,0,0x8000,
0.670216333333333,0,0xA62E,
0.670246458333333,0,0x0005,
0.670254166666667,0,0x2D29,
0.670270333333333,0,0xC740,
0.670278208333333,0,0xAD2E,
0.670293916666667,0,0xFFFE,
0.670301750000000,0,0xAE2E,
0.670317458333333,0,0x2F22,
0.670325333333333,0,0xAF2E,
0.670341041666667,0,0xFFFF,
0.670348875000000,0,0xB02E,
0.670364583333333,0,0x830E,
0.670372458333333,0,0xB12E,
0.670404041666667,0,0x0006,
0.670411750000000,0,0x3B2D,
0.670427916666667,0,0xE518,
0.670435791666667,0,0xBB2E,
0.670451500000000,0,0x8000,
0.670459333333333,0,0xBC2E,
0.670475041666667,0,0x8000,
0.670482916666667,0,0xBD2E,
0.670498583333333,0,0x8000,
0.670506458333333,0,0xBE2E,
0.670522166666667,0,0xE5BC,
0.670530041666667,0,0xBF2E,
0.670545750000000,0,0xE5D3,
0.670553583333333,0,0xC02E,
0.670583625000000,0,0x000A,
0.670591291666667,0,0x4121,
0.670607583333333,0,0xDB50,
0.670615458333333,0,0xC12E,
0.670631166666667,0,0xDC52,
0.670639000000000,0,0xC22E,
0.670654708333333,0,0xDF37,
0.670662583333333,0,0xC32E,
0.670678291666667,0,0xE11E,
0.670686125000000,0,0xC42E,
0.670701833333333,0,0xA97B,
0.670709708333333,0,0xC52E,
0.670725416666667,0,0xFF48,
0.670733250000000,0,0xC62E,
0.670748958333333,0,0xC011,
0.670756833333333,0,0xC72E,
0.670772541666667,0,0xA3B8,
0.670780375000000,0,0xC82E,
0.670796083333333,0,0x9E38,
0.670803958333333,0,0xC92E,
0.670819666666667,0,0x9E40,
0.670827500000000,0,0xCA2E,
0.678474958333333,0,0xFC3F,
0.678482625000000,0,0x0607,
0.678509750000000,0,0x0004,
0.678517416666667,0,0x0319,
0.678533458333333,0,0x0A01,
0.678541375000000,0,0x8319,
0.678557208333333,0,0x0F00,
0.678565125000000,0,0x8419,
0.678580958333333,0,0x0000,
0.678588875000000,0,0x851F,
0.678604750000000,0,0xFF3F,
0.678612625000000,0,0x8619,
0.678643458333333,0,0x0004,
0.678651125000000,0,0x031D,
0.678667541666667,0,0x0A01,
0.678675500000000,0,0x831D,
0.678691333333333,0,0x0F00,
0.678699250000000,0,0x841D,
0.678715083333333,0,0x0000,
0.678723000000000,0,0x851F,
0.678738833333333,0,0xFF3F,
0.678746750000000,0,0x861D,
0.678776625000000,0,0x0004,
0.678784291666667,0,0x0311,
0.678800708333333,0,0x0A01,
0.678808625000000,0,0x8311,
0.678824458333333,0,0x0F00,
0.678832375000000,0,0x8411,
0.678848250000000,0,0x0000,
0.678856166666667,0,0x851F,
0.678872000000000,0,0xFF3F,
0.678879916666667,0,0x8611,
0.678910500000000,0,0x0004,
0.678918208333333,0,0x0315,
0.678934375000000,0,0x0A01,
0.678942291666667,0,0x8315,
0.678958125000000,0,0x0F00,
0.678966041666667,0,0x8415,
0.678981875000000,0,0x0000,
0.678989791666667,0,0x851F,
0.679005625000000,0,0xFF3F,
0.679013583333333,0,0x8615,
0.679044500000000,0,0x0004,
0.679052208333333,0,0x0319,
0.679068500000000,0,0x0A01,
0.679076416666667,0,0x8319,
0.679092250000000,0,0x0F00,
0.679100166666667,0,0x8419,
0.679116000000000,0,0x0000,
0.679123958333333,0,0x851F,
0.679139791666667,0,0xF73F,
0.679147708333333,0,0x8619,
0.679178291666667,0,0x0001,
0.679185958333333,0,0x1D1D,
0.679202125000000,0,0x1551,
0.679210041666667,0,0x9D1D,
0.679238250000000,0,0x0003,
0.679245916666667,0,0x2411,
0.679262000000000,0,0x0048,
0.679269916666667,0,0xA41F,
0.679285791666667,0,0x0040,
0.679293708333333,0,0xA51F,
0.679309500000000,0,0x0000,
0.679317416666667,0,0xA61F,
0.679346416666667,0,0x0005,
0.679354083333333,0,0x2D15,
0.679370375000000,0,0xC6A6,
0.679378291666667,0,0xAD1F,
0.679394125000000,0,0xFFFD,
0.679402041666667,0,0xAE1F,
0.679417875000000,0,0xE79D,
0.679425791666667,0,0xAF1F,
0.679441625000000,0,0xFFFF,
0.679449541666667,0,0xB01F,
0.679465416666667,0,0x830B,
0.679473333333333,0,0xB11F,
0.679503041666667,0,0x0006,
0.679510750000000,0,0x3B19,
0.679526750000000,0,0xB3DE,
0.679534666666667,0,0xBB1F,
0.679550500000000,0,0xB32B,
0.679558416666667,0,0xBC1F,
0.679574250000000,0,0xB2B9,
0.679582166666667,0,0xBD1F,
0.679598000000000,0,0xB1F9,
0.679605916666667,0,0xBE1F,
0.679621750000000,0,0xB201,
0.679629666666667,0,0xBF1F,
0.679645500000000,0,0xB271,
0.679653416666667,0,0xC01F,
0.679684041666667,0,0x000A,
0.679691708333333,0,0x411D,
0.679707833333333,0,0xC092,
0.679715750000000,0,0xC11F,
0.679731583333333,0,0xC0C3,
0.679739500000000,0,0xC21F,
0.679755333333333,0,0xC083,
0.679763250000000,0,0xC31F,
0.679779125000000,0,0xC0C7,
0.679787041666667,0,0xC41F,
0.679802833333333,0,0xC0C5,
0.679810791666667,0,0xC51F,
0.679826625000000,0,0xDCF8,
0.679834541666667,0,0xC61F,
0.679850375000000,0,0x8018,
0.679858291666667,0,0xC71F,
0.679874083333333,0,0xA3D6,
0.679882041666667,0,0xC81F,
0.679897875000000,0,0x9E3B,
0.679905750000000,0,0xC91F,
0.679921583333333,0,0x9E3A,
0.679929500000000,0,0xCA1F,
0.679961583333333,0,0x0004,
0.679969291666667,0,0x0321,
0.679985375000000,0,0x0A01,
0.679993208333333,0,0x8321,
0.680008916666667,0,0x0F00,
0.680016791666667,0,0x8421,
0.680032500000000,0,0x0000,
0.680040375000000,0,0x852F,
0.680056083333333,0,0xF73F,
0.680063916666667,0,0x8621,
0.680093708333333,0,0x0001,
0.680101416666667,0,0x1D25,
0.680117416666667,0,0x0055,
0.680125291666667,0,0x9D25,
0.680153875000000,0,0x0003,
0.680161541666667,0,0x2429,
0.680177791666667,0,0x004C,
0.680185625000000,0,0xA42F,
0.680201333333333,0,0x0040,
0.680209208333333,0,0xA52F,
0.680224916666667,0,0x8000,
0.680232791666667,0,0xA62F,
0.680262583333333,0,0x0005,
0.680270250000000,0,0x2D2D,
0.680286291666667,0,0xC84D,
0.680294125000000,0,0xAD2F,
0.680309833333333,0,0xFFFE,
0.680317708333333,0,0xAE2F,
0.680333416666667,0,0x2CD3,
0.680341250000000,0,0xAF2F,
0.680356958333333,0,0x8000,
0.680364833333333,0,0xB02F,
0.680380500000000,0,0x8300,
0.680388375000000,0,0xB12F,
0.680419625000000,0,0x0006,
0.680427291666667,0,0x3B21,
0.680443333333333,0,0xE516,
0.680451208333333,0,0xBB2F,
0.680466916666667,0,0x8000,
0.680474750000000,0,0xBC2F,
0.680490458333333,0,0x8002,
0.680498333333333,0,0xBD2F,
0.680514041666667,0,0x8000,
0.680521875000000,0,0xBE2F,
0.680537583333333,0,0xE5B3,
0.680545458333333,0,0xBF2F,
0.680561166666667,0,0xE5CF,
0.680569000000000,0,0xC02F,
0.680598958333333,0,0x000A,
0.680606625000000,0,0x4125,
0.680623000000000,0,0xDB4F,
0.680630875000000,0,0xC12F,
0.680646583333333,0,0xDC50,
0.680654458333333,0,0xC22F,
0.680670166666667,0,0xDF3C,
0.680678000000000,0,0xC32F,
0.680693708333333,0,0xE122,
0.680701541666667,0,0xC42F,
0.680717250000000,0,0xA980,
0.680725125000000,0,0xC52F,
0.680740833333333,0,0xFF4E,
0.680748708333333,0,0xC62F,
0.680764416666667,0,0xC016,
0.680772250000000,0,0xC72F,
0.680787958333333,0,0xA3BA,
0.680795833333333,0,0xC82F,
0.680811541666667,0,0x9E3E,
0.680819375000000,0,0xC92F,
0.680835083333333,0,0x9E3F,
0.680842916666667,0,0xCA2F,
0.688443541666667,0,0x0C3F,
0.688451250000000,0,0x060B,
0.688478625000000,0,0x0004,
0.688486291666667,0,0x031D,
0.688502291666667,0,0x0A01,
0.688510208333333,0,0x831D,
0.688526041666667,0,0x0F00,
0.688533958333333,0,0x841D,
0.688549791666667,0,0x0000,
0.688557708333333,0,0x8510,
0.688573541666667,0,0x0F3F,
0.688581458333333,0,0x861D,
0.688612625000000,0,0x0004,
0.688620291666667,0,0x0311,
0.688636416666667,0,0x0A01,
0.688644333333333,0,0x8311,
0.688660166666667,0,0x0F00,
0.688668083333333,0,0x8411,
0.688683916666667,0,0x0000,
0.688691833333333,0,0x8510,
0.688707666666667,0,0x0F3F,
0.688715583333333,0,0x8611,
0.688746708333333,0,0x0004,
0.688754416666667,0,0x0315,
0.688770541666667,0,0x0A01,
0.688778458333333,0,0x8315,
0.688794291666667,0,0x0F00,
0.688802208333333,0,0x8415,
0.688818041666667,0,0x0000,
0.688825958333333,0,0x8510,
0.688841791666667,0,0x0F3F,
0.688849708333333,0,0x8615,
0.688880625000000,0,0x0004,
0.688888291666667,0,0x0319,
0.688904625000000,0,0x0A01,
0.688912541666667,0,0x8319,
0.688928375000000,0,0x0F00,
0.688936291666667,0,0x8419,
0.688952166666667,0,0x0000,
0.688960041666667,0,0x8510,
0.688975916666667,0,0x0F3F,
0.688983833333333,0,0x8619,
0.689015000000000,0,0x0004,
0.689022708333333,0,0x031D,
0.689038750000000,0,0x0A01,
0.689046666666667,0,0x831D,
0.689062458333333,0,0x0F00,
0.689070375000000,0,0x841D,
0.689086208333333,0,0x0000,
0.689094125000000,0,0x8510,
0.689109958333333,0,0x073F,
0.689117875000000,0,0x861D,
0.689148333333333,0,0x0001,
0.689156000000000,0,0x1D11,
0.689172291666667,0,0x1551,
0.689180208333333,0,0x9D11,
0.689208500000000,0,0x0003,
0.689216208333333,0,0x2415,
0.689232125000000,0,0x0048,
0.689240041666667,0,0xA410,
0.689255875000000,0,0x0040,
0.689263791666667,0,0xA510,
0.689279625000000,0,0x0000,
0.689287541666667,0,0xA610,
0.689316708333333,0,0x0005,
0.689324416666667,0,0x2D19,
0.689340458333333,0,0xC7AF,
0.689348416666667,0,0xAD10,
0.689364250000000,0,0xFFFD,
0.689372125000000,0,0xAE10,
0.689387958333333,0,0xE45D,
0.689395875000000,0,0xAF10,
0.689411708333333,0,0xFFFF,
0.689419625000000,0,0xB010,
0.689435458333333,0,0x8309,
0.689443375000000,0,0xB110,
0.689472958333333,0,0x0006,
0.689480625000000,0,0x3B1D,
0.689496791666667,0,0xB3E2,
0.689504750000000,0,0xBB10,
0.689520583333333,0,0xB32D,
0.689528500000000,0,0xBC10,
0.689544333333333,0,0xB2BA,
0.689552208333333,0,0xBD10,
0.689568083333333,0,0xB1FF,
0.689576000000000,0,0xBE10,
0.689591833333333,0,0xB201,
0.689599750000000,0,0xBF10,
0.689615583333333,0,0xB270,
0.689623500000000,0,0xC010,
0.689653791666667,0,0x000A,
0.689661458333333,0,0x4111,
0.689677416666667,0,0xC094,
0.689685333333333,0,0xC110,
0.689701166666667,0,0xC0C3,
0.689709083333333,0,0xC210,
0.689724916666667,0,0xC087,
0.689732833333333,0,0xC310,
0.689748666666667,0,0xC0C3,
0.689756583333333,0,0xC410,
0.689772416666667,0,0xC0C3,
0.689780333333333,0,0xC510,
0.689796166666667,0,0xDCF9,
0.689804083333333,0,0xC610,
0.689819916666667,0,0x801E,
0.689827833333333,0,0xC710,
0.689843666666667,0,0xA3DA,
0.689851583333333,0,0xC810,
0.689867416666667,0,0x9E36,
0.689875333333333,0,0xC910,
0.689891166666667,0,0x9E3E,
0.689899083333333,0,0xCA10,
0.689931250000000,0,0x0004,
0.689938916666667,0,0x0325,
0.689954833333333,0,0x0A01,
0.689962708333333,0,0x8325,
0.689978375000000,0,0x0F00,
0.689986250000000,0,0x8425,
0.690001958333333,0,0x0000,
0.690009791666667,0,0x8520,
0.690025500000000,0,0x073F,
0.690033375000000,0,0x8625,
0.690064583333333,0,0x0001,
0.690072291666667,0,0x1D29,
0.690088333333333,0,0x0055,
0.690096208333333,0,0x9D29,
0.690124166666667,0,0x0003,
0.690131875000000,0,0x242D,
0.690148208333333,0,0x004C,
0.690156083333333,0,0xA420,
0.690171791666667,0,0x0040,
0.690179625000000,0,0xA520,
0.690195333333333,0,0x8000,
0.690203166666667,0,0xA620,
0.690231875000000,0,0x0005,
0.690239583333333,0,0x2D21,
0.690255708333333,0,0xC958,
0.690263583333333,0,0xAD20,
0.690279291666667,0,0xFFFE,
0.690287125000000,0,0xAE20,
0.690302833333333,0,0x2A8D,
0.690310708333333,0,0xAF20,
0.690326416666667,0,0xFFFF,
0.690334250000000,0,0xB020,
0.690349958333333,0,0x830E,
0.690357833333333,0,0xB120,
0.690387958333333,0,0x0006,
0.690395625000000,0,0x3B25,
0.690411833333333,0,0xE51D,
0.690419666666667,0,0xBB20,
0.690435375000000,0,0x8000,
0.690443250000000,0,0xBC20,
0.690458958333333,0,0x8000,
0.690466791666667,0,0xBD20,
0.690482500000000,0,0x8003,
0.690490375000000,0,0xBE20,
0.690506083333333,0,0xE5B7,
0.690513916666667,0,0xBF20,
0.690529625000000,0,0xE5D1,
0.690537500000000,0,0xC020,
0.690566958333333,0,0x000A,
0.690574625000000,0,0x4129,
0.690591000000000,0,0xDB4D,
0.690598875000000,0,0xC120,
0.690614583333333,0,0xDC4F,
0.690622458333333,0,0xC220,
0.690638166666667,0,0xDF39,
0.690646000000000,0,0xC320,
0.690661708333333,0,0xE122,
0.690669541666667,0,0xC420,
0.690685291666667,0,0xA97D,
0.690693125000000,0,0xC520,
0.690708833333333,0,0xFF4A,
0.690716666666667,0,0xC620,
0.690732416666667,0,0xC012,
0.690740250000000,0,0xC720,
0.690755958333333,0,0xA3BA,
0.690763791666667,0,0xC820,
0.690779500000000,0,0x9E39,
0.690787375000000,0,0xC920,
0.690803083333333,0,0x9E41,
0.690810916666667,0,0xCA20,
0.698480208333333,0,0x1C3F,
0.698487875000000,0,0x060F,
0.698515375000000,0,0x0004,
0.698523041666667,0,0x0311,
0.698539416666667,0,0x0A01,
0.698547375000000,0,0x8311,
0.698563208333333,0,0x0F00,
0.698571125000000,0,0x8411,
0.698586958333333,0,0x0000,
0.698594916666667,0,0x8511,
0.698610750000000,0,0x1F3F,
0.698618666666667,0,0x8611,
0.698649541666667,0,0x0004,
0.698657250000000,0,0x0315,
0.698673625000000,0,0x0A01,
0.698681541666667,0,0x8315,
0.698697375000000,0,0x0F00,
0.698705291666667,0,0x8415,
0.698721125000000,0,0x0000,
0.698729041666667,0,0x8511,
0.698744875000000,0,0x1F3F,
0.698752791666667,0,0x8615,
0.698784000000000,0,0x0004,
0.698791708333333,0,0x0319,
0.698807750000000,0,0x0A01,
0.698815666666667,0,0x8319,
0.698831500000000,0,0x0F00,
0.698839416666667,0,0x8419,
0.698855250000000,0,0x0000,
0.698863166666667,0,0x8511,
0.698879000000000,0,0x1F3F,
0.698886916666667,0,0x8619,
0.698918166666667,0,0x0004,
0.698925833333333,0,0x031D,
0.698941875000000,0,0x0A01,
0.698949791666667,0,0x831D,
0.698965625000000,0,0x0F00,
0.698973541666667,0,0x841D,
0.698989375000000,0,0x0000,
0.698997291666667,0,0x8511,
0.699013125000000,0,0x1F3F,
0.699021041666667,0,0x861D,
0.699051583333333,0,0x0004,
0.699059250000000,0,0x0311,
0.699075458333333,0,0x0A01,
0.699083375000000,0,0x8311,
0.699099208333333,0,0x0F00,
0.699107125000000,0,0x8411,
0.699122958333333,0,0x0000,
0.699130875000000,0,0x8511,
0.699146708333333,0,0x173F,
0.699154625000000,0,0x8611,
0.699185083333333,0,0x0001,
0.699192750000000,0,0x1D15,
0.699209041666667,0,0x1551,
0.699216958333333,0,0x9D15,
0.699244958333333,0,0x0003,
0.699252625000000,0,0x2419,
0.699268916666667,0,0x0048,
0.699276833333333,0,0xA411,
0.699292666666667,0,0x0040,
0.699300583333333,0,0xA511,
0.699316416666667,0,0x0000,
0.699324291666667,0,0xA611,
0.699353875000000,0,0x0005,
0.699361541666667,0,0x2D1D,
0.699377750000000,0,0xC8BA,
0.699385666666667,0,0xAD11,
0.699401500000000,0,0xFFFD,
0.699409416666667,0,0xAE11,
0.699425250000000,0,0xE18B,
0.699433166666667,0,0xAF11,
0.699449000000000,0,0x8000,
0.699456916666667,0,0xB011,
0.699472750000000,0,0x8301,
0.699480666666667,0,0xB111,
0.699510708333333,0,0x0006,
0.699518375000000,0,0x3B11,
0.699534625000000,0,0xB3DE,
0.699542541666667,0,0xBB11,
0.699558375000000,0,0xB32C,
0.699566291666667,0,0xBC11,
0.699582125000000,0,0xB2BB,
0.699590041666667,0,0xBD11,
0.699605875000000,0,0xB1FD,
0.699613791666667,0,0xBE11,
0.699629583333333,0,0xB201,
0.699637500000000,0,0xBF11,
0.699653333333333,0,0xB273,
0.699661250000000,0,0xC011,
0.699691750000000,0,0x000A,
0.699699416666667,0,0x4115,
0.699715666666667,0,0xC094,
0.699723583333333,0,0xC111,
0.699739416666667,0,0xC0CA,
0.699747333333333,0,0xC211,
0.699763166666667,0,0xC08A,
0.699771083333333,0,0xC311,
0.699786916666667,0,0xC0C7,
0.699794875000000,0,0xC411,
0.699810666666667,0,0xC0C6,
0.699818625000000,0,0xC511,
0.699834458333333,0,0xDCF8,
0.699842375000000,0,0xC611,
0.699858208333333,0,0x801B,
0.699866125000000,0,0xC711,
0.699881958333333,0,0xA3D7,
0.699889875000000,0,0xC811,
0.699905666666667,0,0x9E36,
0.699913583333333,0,0xC911,
0.699929416666667,0,0x9E3B,
0.699937333333333,0,0xCA11,
0.699969833333333,0,0x0004,
0.699977541666667,0,0x0329,
0.699993791666667,0,0x0A01,
0.700001666666667,0,0x8329,
0.700017375000000,0,0x0F00,
0.700025250000000,0,0x8429,
0.700040958333333,0,0x0000,
0.700048791666667,0,0x8521,
0.700064500000000,0,0x173F,
0.700072375000000,0,0x8629,
0.700102583333333,0,0x0001,
0.700110250000000,0,0x1D2D,
0.700126333333333,0,0x0055,
0.700134208333333,0,0x9D2D,
0.700162125000000,0,0x0003,
0.700169791666667,0,0x2421,
0.700185750000000,0,0x004C,
0.700193583333333,0,0xA421,
0.700209291666667,0,0x0040,
0.700217166666667,0,0xA521,
0.700232875000000,0,0x8000,
0.700240708333333,0,0xA621,
0.700269625000000,0,0x0005,
0.700277333333333,0,0x2D25,
0.700293708333333,0,0xCA65,
0.700301583333333,0,0xAD21,
0.700317291666667,0,0xFFFE,
0.700325166666667,0,0xAE21,
0.700340875000000,0,0x27DA,
0.700348708333333,0,0xAF21,
0.700364416666667,0,0xFFFF,
0.700372291666667,0,0xB021,
0.700387958333333,0,0x8301,
0.700395833333333,0,0xB121,
0.700426875000000,0,0x0006,
0.700434541666667,0,0x3B29,
0.700450833333333,0,0xE515,
0.700458666666667,0,0xBB21,
0.700474375000000,0,0x8000,
0.700482250000000,0,0xBC21,
0.700497916666667,0,0x8003,
0.700505791666667,0,0xBD21,
0.700521500000000,0,0x8000,
0.700529375000000,0,0xBE21,
0.700545041666667,0,0xE5BC,
0.700552916666667,0,0xBF21,
0.700568625000000,0,0xE5D5,
0.700576458333333,0,0xC021,
0.700606541666667,0,0x000A,
0.700614208333333,0,0x412D,
0.700630458333333,0,0xDB50,
0.700638333333333,0,0xC121,
0.700654041666667,0,0xDC50,
0.700661875000000,0,0xC221,
0.700677583333333,0,0xDF35,
0.700685458333333,0,0xC321,
0.700701166666667,0,0xE11E,
0.700709000000000,0,0xC421,
0.700724708333333,0,0xA97C,
0.700732583333333,0,0xC521,
0.700748250000000,0,0xFF48,
0.700756125000000,0,0xC621,
0.700771833333333,0,0xC012,
0.700779708333333,0,0xC721,
0.700795416666667,0,0xA3BA,
0.700803291666667,0,0xC821,
0.700818958333333,0,0x9E36,
0.700826833333333,0,0xC921,
0.700842541666667,0,0x9E40,
0.700850375000000,0,0xCA21,
0.708461416666667,0,0x2C3F,
0.708469083333333,0,0x0603,
0.708496916666667,0,0x0004,
0.708504583333333,0,0x0315,
0.708520666666667,0,0x0A01,
0.708528583333333,0,0x8315,
0.708544416666667,0,0x0F00,
0.708552333333333,0,0x8415,
0.708568166666667,0,0x0000,
0.708576083333333,0,0x8512,
0.708591916666667,0,0x2F3F,
0.708599833333333,0,0x8615,
0.708631125000000,0,0x0004,
0.708638791666667,0,0x0319,
0.708655250000000,0,0x0A01,
0.708663166666667,0,0x8319,
0.708679000000000,0,0x0F00,
0.708686916666667,0,0x8419,
0.708702791666667,0,0x0000,
0.708710708333333,0,0x8512,
0.708726541666667,0,0x2F3F,
0.708734458333333,0,0x8619,
0.708765041666667,0,0x0004,
0.708772708333333,0,0x031D,
0.708788875000000,0,0x0A01,
0.708796833333333,0,0x831D,
0.708812666666667,0,0x0F00,
0.708820583333333,0,0x841D,
0.708836416666667,0,0x0000,
0.708844333333333,0,0x8512,
0.708860166666667,0,0x2F3F,
0.708868083333333,0,0x861D,
0.708899916666667,0,0x0004,
0.708907583333333,0,0x0311,
0.708924000000000,0,0x0A01,
0.708931916666667,0,0x8311,
0.708947791666667,0,0x0F00,
0.708955708333333,0,0x8411,
0.708971541666667,0,0x0000,
0.708979458333333,0,0x8512,
0.708995291666667,0,0x2F3F,
0.709003208333333,0,0x8611,
0.709034625000000,0,0x0004,
0.709042291666667,0,0x0315,
0.709058625000000,0,0x0A01,
0.709066583333333,0,0x8315,
0.709082375000000,0,0x0F00,
0.709090333333333,0,0x8415,
0.709106166666667,0,0x0000,
0.709114041666667,0,0x8512,
0.709129916666667,0,0x273F,
0.709137833333333,0,0x8615,
0.709168291666667,0,0x0001,
0.709175958333333,0,0x1D19,
0.709192250000000,0,0x1551,
0.709200166666667,0,0x9D19,
0.709228416666667,0,0x0003,
0.709236083333333,0,0x241D,
0.709252125000000,0,0x0048,
0.709260000000000,0,0xA412,
0.709275833333333,0,0x0040,
0.709283791666667,0,0xA512,
0.709299583333333,0,0x0000,
0.709307500000000,0,0xA612,
0.709336625000000,0,0x0005,
0.709344291666667,0,0x2D11,
0.709360458333333,0,0xC9C4,
0.709368375000000,0,0xAD12,
0.709384208333333,0,0xFFFD,
0.709392125000000,0,0xAE12,
0.709407958333333,0,0xDF0E,
0.709415875000000,0,0xAF12,
0.709431708333333,0,0xFFFF,
0.709439625000000,0,0xB012,
0.709455458333333,0,0x830C,
0.709463375000000,0,0xB112,
0.709494000000000,0,0x0006,
0.709501666666667,0,0x3B15,
0.709517791666667,0,0xB3DD,
0.709525750000000,0,0xBB12,
0.709541541666667,0,0xB327,
0.709549458333333,0,0xBC12,
0.709565291666667,0,0xB2B9,
0.709573208333333,0,0xBD12,
0.709589083333333,0,0xB1FE,
0.709596958333333,0,0xBE12,
0.709612791666667,0,0xB1FE,
0.709620708333333,0,0xBF12,
0.709636541666667,0,0xB26F,
0.709644458333333,0,0xC012,
0.709674708333333,0,0x000A,
0.709682375000000,0,0x4119,
0.709698375000000,0,0xC095,
0.709706333333333,0,0xC112,
0.709722166666667,0,0xC0C6,
0.709730083333333,0,0xC212,
0.709745916666667,0,0xC087,
0.709753833333333,0,0xC312,
0.709769666666667,0,0xC0C2,
0.709777583333333,0,0xC412,
0.709793416666667,0,0xC0C5,
0.709801333333333,0,0xC512,
0.709817166666667,0,0xDCF7,
0.709825083333333,0,0xC612,
0.709840916666667,0,0x801A,
0.709848833333333,0,0xC712,
0.709864666666667,0,0xA3D9,
0.709872583333333,0,0xC812,
0.709888416666667,0,0x9E37,
0.709896333333333,0,0xC912,
0.709912125000000,0,0x9E3D,
0.709920083333333,0,0xCA12,
0.709952166666667,0,0x0004,
0.709959833333333,0,0x032D,
0.709976291666667,0,0x0A01,
0.709984166666667,0,0x832D,
0.709999875000000,0,0x0F00,
0.710007708333333,0,0x842D,
0.710023416666667,0,0x0000,
0.710031291666667,0,0x8522,
0.710047000000000,0,0x273F,
0.710054833333333,0,0x862D,
0.710084875000000,0,0x0001,
0.710092541666667,0,0x1D21,
0.710108833333333,0,0x0055,
0.710116708333333,0,0x9D21,
0.710144750000000,0,0x0003,
0.710152416666667,0,0x2425,
0.710168708333333,0,0x004C,
0.710176583333333,0,0xA422,
0.710192250000000,0,0x0040,
0.710200125000000,0,0xA522,
0.710215833333333,0,0x8000,
0.710223708333333,0,0xA622,
0.710252791666667,0,0x0005,
0.710260500000000,0,0x2D29,
0.710276708333333,0,0xCB71,
0.710284583333333,0,0xAD22,
0.710300291666667,0,0xFFFE,
0.710308125000000,0,0xAE22,
0.710323833333333,0,0x2599,
0.710331708333333,0,0xAF22,
0.710347416666667,0,0xFFFF,
0.710355250000000,0,0xB022,
0.710370958333333,0,0x830F,
0.710378833333333,0,0xB122,
0.710409708333333,0,0x0006,
0.710417416666667,0,0x3B2D,
0.710433791666667,0,0xE516,
0.710441666666667,0,0xBB22,
0.710457333333333,0,0x8000,
0.710465208333333,0,0xBC22,
0.710480916666667,0,0x8000,
0.710488750000000,0,0xBD22,
0.710504458333333,0,0x8003,
0.710512291666667,0,0xBE22,
0.710528000000000,0,0xE5BC,
0.710535875000000,0,0xBF22,
0.710551583333333,0,0xE5CF,
0.710559416666667,0,0xC022,
0.710589833333333,0,0x000A,
0.710597500000000,0,0x4121,
0.710613916666667,0,0xDB51,
0.710621750000000,0,0xC122,
0.710637458333333,0,0xDC55,
0.710645333333333,0,0xC222,
0.710661041666667,0,0xDF3D,
0.710668875000000,0,0xC322,
0.710684583333333,0,0xE123,
0.710692416666667,0,0xC422,
0.710708166666667,0,0xA97F,
0.710716000000000,0,0xC522,
0.710731708333333,0,0xFF4B,
0.710739583333333,0,0xC622,
0.710755291666667,0,0xC015,
0.710763125000000,0,0xC722,
0.710778875000000,0,0xA3B9,
0.710786708333333,0,0xC822,
0.710802416666667,0,0x9E3A,
0.710810250000000,0,0xC922,
0.710826000000000,0,0x9E3E,
0.710833833333333,0,0xCA22,
0.718464583333333,0,0x3C3F,
0.718472250000000,0,0x0607,
0.718499541666667,0,0x0004,
0.718507208333333,0,0x0319,
0.718523166666667,0,0x0A01,
0.718531083333333,0,0x8319,
0.718546916666667,0,0x0F00,
0.718554833333333,0,0x8419,
0.718570666666667,0,0x0000,
0.718578583333333,0,0x8513,
0.718594416666667,0,0x3F3F,
0.718602333333333,0,0x8619,
0.718634041666667,0,0x0004,
0.718641708333333,0,0x031D,
0.718657750000000,0,0x0A01,
0.718665666666667,0,0x831D,
0.718681500000000,0,0x0F00,
0.718689458333333,0,0x841D,
0.718705291666667,0,0x0000,
0.718713208333333,0,0x8513,
0.718729041666667,0,0x3F3F,
0.718736958333333,0,0x861D,
0.718767291666667,0,0x0004,
0.718775000000000,0,0x0311,
0.718791416666667,0,0x0A01,
0.718799333333333,0,0x8311,
0.718815166666667,0,0x0F00,
0.718823083333333,0,0x8411,
0.718838916666667,0,0x0000,
0.718846833333333,0,0x8513,
0.718862666666667,0,0x3F3F,
0.718870583333333,0,0x8611,
0.718901666666667,0,0x0004,
0.718909375000000,0,0x0315,
0.718925541666667,0,0x0A01,
0.718933458333333,0,0x8315,
0.718949291666667,0,0x0F00,
0.718957208333333,0,0x8415,
0.718973041666667,0,0x0000,
0.718981000000000,0,0x8513,
0.718996833333333,0,0x3F3F,
0.719004750000000,0,0x8615,
0.719036208333333,0,0x0004,
0.719043916666667,0,0x0319,
0.719060166666667,0,0x0A01,
0.719068083333333,0,0x8319,
0.719083916666667,0,0x0F00,
0.719091833333333,0,0x8419,
0.719107666666667,0,0x0000,
0.719115583333333,0,0x8513,
0.719131416666667,0,0x373F,
0.719139333333333,0,0x8619,
0.719170166666667,0,0x0001,
0.719177875000000,0,0x1D1D,
0.719194250000000,0,0x1551,
0.719202166666667,0,0x9D1D,
0.719230083333333,0,0x0003,
0.719237791666667,0,0x2411,
0.719254125000000,0,0x0048,
0.719262041666667,0,0xA413,
0.719277875000000,0,0x0040,
0.719285791666667,0,0xA513,
0.719301583333333,0,0x0000,
0.719309541666667,0,0xA613,
0.719338541666667,0,0x0005,
0.719346208333333,0,0x2D15,
0.719362458333333,0,0xCACE,
0.719370375000000,0,0xAD13,
0.719386208333333,0,0xFFFD,
0.719394125000000,0,0xAE13,
0.719409958333333,0,0xDCC2,
0.719417875000000,0,0xAF13,
0.719433708333333,0,0xFFFF,
0.719441625000000,0,0xB013,
0.719457458333333,0,0x830B,
0.719465375000000,0,0xB113,
0.719495541666667,0,0x0006,
0.719503208333333,0,0x3B19,
0.719519291666667,0,0xB3E3,
0.719527208333333,0,0xBB13,
0.719543041666667,0,0xB32D,
0.719550958333333,0,0xBC13,
0.719566791666667,0,0xB2BD,
0.719574708333333,0,0xBD13,
0.719590541666667,0,0xB201,
0.719598458333333,0,0xBE13,
0.719614291666667,0,0xB1FD,
0.719622208333333,0,0xBF13,
0.719638041666667,0,0xB271,
0.719645958333333,0,0xC013,
0.719676458333333,0,0x000A,
0.719684125000000,0,0x411D,
0.719700416666667,0,0xC095,
0.719708333333333,0,0xC113,
0.719724166666667,0,0xC0C6,
0.719732041666667,0,0xC213,
0.719747916666667,0,0xC086,
0.719755833333333,0,0xC313,
0.719771666666667,0,0xC0C5,
0.719779541666667,0,0xC413,
0.719795375000000,0,0xC0C5,
0.719803333333333,0,0xC513,
0.719819166666667,0,0xDCF7,
0.719827041666667,0,0xC613,
0.719842875000000,0,0x801E,
0.719850833333333,0,0xC713,
0.719866625000000,0,0xA3D7,
0.719874583333333,0,0xC813,
0.719890416666667,0,0x9E38,
0.719898333333333,0,0xC913,
0.719914166666667,0,0x9E3A,
0.719922083333333,0,0xCA13,
0.719954125000000,0,0x0004,
0.719961833333333,0,0x0321,
0.719977875000000,0,0x0A01,
0.719985708333333,0,0x8321,
0.720001416666667,0,0x0F00,
0.720009291666667,0,0x8421,
0.720024958333333,0,0x0000,
0.720032833333333,0,0x8523,
0.720048541666667,0,0x373F,
0.720056375000000,0,0x8621,
0.720086625000000,0,0x0001,
0.720094291666667,0,0x1D25,
0.720110333333333,0,0x0055,
0.720118208333333,0,0x9D25,
0.720146083333333,0,0x0003,
0.720153791666667,0,0x2429,
0.720169750000000,0,0x004C,
0.720177583333333,0,0xA423,
0.720193291666667,0,0x0040,
0.720201125000000,0,0xA523,
0.720216833333333,0,0x8000,
0.720224708333333,0,0xA623,
0.720253541666667,0,0x0005,
0.720261250000000,0,0x2D2D,
0.720277208333333,0,0xCC7D,
0.720285041666667,0,0xAD23,
0.720300750000000,0,0xFFFE,
0.720308625000000,0,0xAE23,
0.720324291666667,0,0x22D5,
0.720332166666667,0,0xAF23,
0.720347875000000,0,0xFFFF,
0.720355708333333,0,0xB023,
0.720371416666667,0,0x830E,
0.720379250000000,0,0xB123,
0.720410250000000,0,0x0006,
0.720417916666667,0,0x3B21,
0.720434208333333,0,0xE51B,
0.720442083333333,0,0xBB23,
0.720457791666667,0,0x8005,
0.720465625000000,0,0xBC23,
0.720481333333333,0,0x8000,
0.720489208333333,0,0xBD23,
0.720504916666667,0,0x8000,
0.720512750000000,0,0xBE23,
0.720528458333333,0,0xE5BA,
0.720536333333333,0,0xBF23,
0.720552041666667,0,0xE5D2,
0.720559875000000,0,0xC023,
0.720590666666667,0,0x000A,
0.720598375000000,0,0x4125,
0.720614333333333,0,0xDB4F,
0.720622208333333,0,0xC123,
0.720637875000000,0,0xDC53,
0.720645750000000,0,0xC223,
0.720661458333333,0,0xDF3D,
0.720669333333333,0,0xC323,
0.720685000000000,0,0xE121,
0.720692875000000,0,0xC423,
0.720708583333333,0,0xA97E,
0.720716416666667,0,0xC523,
0.720732125000000,0,0xFF4C,
0.720740000000000,0,0xC623,
0.720755666666667,0,0xC017,
0.720763541666667,0,0xC723,
0.720779250000000,0,0xA3BA,
0.720787083333333,0,0xC823,
0.720802791666667,0,0x9E38,
0.720810625000000,0,0xC923,
0.720826333333333,0,0x9E3C,
0.720834208333333,0,0xCA23,
0.728459625000000,0,0x4C3F,
0.728467291666667,0,0x060B,
0.728494166666667,0,0x0004,
0.728501875000000,0,0x031D,
0.728518291666667,0,0x0A01,
0.728526208333333,0,0x831D,
0.728542041666667,0,0x0F00,
0.728549958333333,0,0x841D,
0.728565833333333,0,0x0000,
0.728573750000000,0,0x8514,
0.728589583333333,0,0x4F3F,
0.728597458333333,0,0x861D,
0.728628500000000,0,0x0004,
0.728636166666667,0,0x0311,
0.728652416666667,0,0x0A01,
0.728660333333333,0,0x8311,
0.728676166666667,0,0x0F00,
0.728684083333333,0,0x8411,
0.728699916666667,0,0x0000,
0.728707833333333,0,0x8514,
0.728723666666667,0,0x4F3F,
0.728731625000000,0,0x8611,
0.728761708333333,0,0x0004,
0.728769375000000,0,0x0315,
0.728785541666667,0,0x0A01,
0.728793500000000,0,0x8315,
0.728809333333333,0,0x0F00,
0.728817250000000,0,0x8415,
0.728833083333333,0,0x0000,
0.728841000000000,0,0x8514,
0.728856875000000,0,0x4F3F,
0.728864791666667,0,0x8615,
0.728895708333333,0,0x0004,
0.728903416666667,0,0x0319,
0.728919708333333,0,0x0A01,
0.728927625000000,0,0x8319,
0.728943500000000,0,0x0F00,
0.728951416666667,0,0x8419,
0.728967250000000,0,0x0000,
0.728975166666667,0,0x8514,
0.728991000000000,0,0x4F3F,
0.728998916666667,0,0x8619,
0.729030083333333,0,0x0004,
0.729037750000000,0,0x031D,
0.729053875000000,0,0x0A01,
0.729061750000000,0,0x831D,
0.729077583333333,0,0x0F00,
0.729085541666667,0,0x841D,
0.729101375000000,0,0x0000,
0.729109291666667,0,0x8514,
0.729125125000000,0,0x473F,
0.729133041666667,0,0x861D,
0.729163458333333,0,0x0001,
0.729171125000000,0,0x1D11,
0.729187500000000,0,0x1551,
0.729195375000000,0,0x9D11,
0.729223083333333,0,0x0003,
0.729230791666667,0,0x2415,
0.729246833333333,0,0x0048,
0.729254791666667,0,0xA414,
0.729270625000000,0,0x0040,
0.729278541666667,0,0xA514,
0.729294375000000,0,0x0000,
0.729302291666667,0,0xA614,
0.729331458333333,0,0x0005,
0.729339166666667,0,0x2D19,
0.729355250000000,0,0xCBD8,
0.729363166666667,0,0xAD14,
0.729379000000000,0,0xFFFD,
0.729386916666667,0,0xAE14,
0.729402750000000,0,0xD9F0,
0.729410666666667,0,0xAF14,
0.729426500000000,0,0xFFFF,
0.729434416666667,0,0xB014,
0.729450250000000,0,0x830F,
0.729458166666667,0,0xB114,
0.729488791666667,0,0x0006,
0.729496458333333,0,0x3B1D,
0.729512625000000,0,0xB3DD,
0.729520541666667,0,0xBB14,
0.729536375000000,0,0xB32B,
0.729544291666667,0,0xBC14,
0.729560125000000,0,0xB2BD,
0.729568041666667,0,0xBD14,
0.729583875000000,0,0xB1FE,
0.729591791666667,0,0xBE14,
0.729607625000000,0,0xB202,
0.729615500000000,0,0xBF14,
0.729631333333333,0,0xB272,
0.729639291666667,0,0xC014,
0.729669541666667,0,0x000A,
0.729677250000000,0,0x4111,
0.729693666666667,0,0xC096,
0.729701625000000,0,0xC114,
0.729717416666667,0,0xC0C7,
0.729725333333333,0,0xC214,
0.729741208333333,0,0xC086,
0.729749125000000,0,0xC314,
0.729764958333333,0,0xC0C8,
0.729772875000000,0,0xC414,
0.729788708333333,0,0xC0C7,
0.729796625000000,0,0xC514,
0.729812458333333,0,0xDCFA,
0.729820375000000,0,0xC614,
0.729836166666667,0,0x801D,
0.729844083333333,0,0xC714,
0.729859916666667,0,0xA3D7,
0.729867833333333,0,0xC814,
0.729883666666667,0,0x9E39,
0.729891625000000,0,0xC914,
0.729907416666667,0,0x9E3C,
0.729915333333333,0,0xCA14,
0.729947666666667,0,0x0004,
0.729955375000000,0,0x0325,
0.729971375000000,0,0x0A01,
0.729979250000000,0,0x8325,
0.729994958333333,0,0x0F00,
0.730002791666667,0,0x8425,
0.730018500000000,0,0x0000,
0.730026375000000,0,0x8524,
0.730042083333333,0,0x473F,
0.730049958333333,0,0x8625,
0.730080000000000,0,0x0001,
0.730087666666667,0,0x1D29,
0.730103958333333,0,0x0055,
0.730111833333333,0,0x9D29,
0.730140208333333,0,0x0003,
0.730147875000000,0,0x242D,
0.730163833333333,0,0x004C,
0.730171708333333,0,0xA424,
0.730187416666667,0,0x0040,
0.730195291666667,0,0xA524,
0.730211000000000,0,0x8000,
0.730218833333333,0,0xA624,
0.730248333333333,0,0x0005,
0.730256041666667,0,0x2D21,
0.730272333333333,0,0xCD89,
0.730280208333333,0,0xAD24,
0.730295916666667,0,0xFFFE,
0.730303750000000,0,0xAE24,
0.730319458333333,0,0x201F,
0.730327291666667,0,0xAF24,
0.730343041666667,0,0xFFFF,
0.730350875000000,0,0xB024,
0.730366583333333,0,0x830E,
0.730374416666667,0,0xB124,
0.730406125000000,0,0x0006,
0.730413791666667,0,0x3B25,
0.730429916666667,0,0xE516,
0.730437750000000,0,0xBB24,
0.730453458333333,0,0x8000,
0.730461333333333,0,0xBC24,
0.730477041666667,0,0x8000,
0.730484875000000,0,0xBD24,
0.730500583333333,0,0x8000,
0.730508458333333,0,0xBE24,
0.730524125000000,0,0xE5BE,
0.730532000000000,0,0xBF24,
0.730547708333333,0,0xE5D3,
0.730555583333333,0,0xC024,
0.730585666666667,0,0x000A,
0.730593333333333,0,0x4129,
0.730609583333333,0,0xDB50,
0.730617416666667,0,0xC124,
0.730633125000000,0,0xDC52,
0.730641000000000,0,0xC224,
0.730656708333333,0,0xDF3A,
0.730664541666667,0,0xC324,
0.730680250000000,0,0xE11F,
0.730688125000000,0,0xC424,
0.730703833333333,0,0xA97C,
0.730711708333333,0,0xC524,
0.730727416666667,0,0xFF4E,
0.730735250000000,0,0xC624,
0.730750958333333,0,0xC012,
0.730758833333333,0,0xC724,
0.730774541666667,0,0xA3BB,
0.730782375000000,0,0xC824,
0.730798083333333,0,0x9E35,
0.730805916666667,0,0xC924,
0.730821625000000,0,0x9E3A,
0.730829500000000,0,0xCA24,
0.738468583333333,0,0x5C3F,
0.738476291666667,0,0x060F,
0.738503708333333,0,0x0004,
0.738511375000000,0,0x0311,
0.738527833333333,0,0x0A01,
0.738535708333333,0,0x8311,
0.738551541666667,0,0x0F00,
0.738559500000000,0,0x8411,
0.738575333333333,0,0x0000,
0.738583250000000,0,0x8515,
0.738599083333333,0,0x5F3F,
0.738607000000000,0,0x8611,
0.738637750000000,0,0x0004,
0.738645458333333,0,0x0315,
0.738661458333333,0,0x0A01,
0.738669375000000,0,0x8315,
0.738685208333333,0,0x0F00,
0.738693125000000,0,0x8415,
0.738708958333333,0,0x0000,
0.738716875000000,0,0x8515,
0.738732708333333,0,0x5F3F,
0.738740625000000,0,0x8615,
0.738771375000000,0,0x0004,
0.738779041666667,0,0x0319,
0.738795083333333,0,0x0A01,
0.738803000000000,0,0x8319,
0.738818833333333,0,0x0F00,
0.738826791666667,0,0x8419,
0.738842625000000,0,0x0000,
0.738850541666667,0,0x8515,
0.738866375000000,0,0x5F3F,
0.738874291666667,0,0x8619,
0.738904708333333,0,0x0004,
0.738912416666667,0,0x031D,
0.738928708333333,0,0x0A01,
0.738936625000000,0,0x831D,
0.738952458333333,0,0x0F00,
0.738960375000000,0,0x841D,
0.738976250000000,0,0x0000,
0.738984125000000,0,0x8515,
0.738999958333333,0,0x5F3F,
0.739007875000000,0,0x861D,
0.739038458333333,0,0x0004,
0.739046125000000,0,0x0311,
0.739062333333333,0,0x0A01,
0.739070250000000,0,0x8311,
0.739086083333333,0,0x0F00,
0.739093958333333,0,0x8411,
0.739109833333333,0,0x0000,
0.739117750000000,0,0x8515,
0.739133541666667,0,0x573F,
0.739141458333333,0,0x8611,
0.739172291666667,0,0x0001,
0.739179958333333,0,0x1D15,
0.739196375000000,0,0x1551,
0.739204291666667,0,0x9D15,
0.739232125000000,0,0x0003,
0.739239833333333,0,0x2419,
0.739256208333333,0,0x0048,
0.739264125000000,0,0xA415,
0.739279958333333,0,0x0040,
0.739287875000000,0,0xA515,
0.739303708333333,0,0x0000,
0.739311625000000,0,0xA615,
0.739340041666667,0,0x0005,
0.739347708333333,0,0x2D1D,
0.739364083333333,0,0xCCE2,
0.739372000000000,0,0xAD15,
0.739387833333333,0,0xFFFD,
0.739395750000000,0,0xAE15,
0.739411541666667,0,0xD720,
0.739419500000000,0,0xAF15,
0.739435333333333,0,0xFFFF,
0.739443208333333,0,0xB015,
0.739459083333333,0,0x8305,
0.739466958333333,0,0xB115,
0.739496791666667,0,0x0006,
0.739504500000000,0,0x3B11,
0.739520916666667,0,0xB3E1,
0.739528833333333,0,0xBB15,
0.739544666666667,0,0xB32D,
0.739552583333333,0,0xBC15,
0.739568416666667,0,0xB2BA,
0.739576333333333,0,0xBD15,
0.739592166666667,0,0xB1FE,
0.739600083333333,0,0xBE15,
0.739615916666667,0,0xB205,
0.739623833333333,0,0xBF15,
0.739639708333333,0,0xB275,
0.739647625000000,0,0xC015,
0.739677958333333,0,0x000A,
0.739685625000000,0,0x4115,
0.739702041666667,0,0xC097,
0.739709958333333,0,0xC115,
0.739725791666667,0,0xC0C8,
0.739733708333333,0,0xC215,
0.739749541666667,0,0xC08A,
0.739757458333333,0,0xC315,
0.739773291666667,0,0xC0C8,
0.739781208333333,0,0xC415,
0.739797041666667,0,0xC0C8,
0.739804958333333,0,0xC515,
0.739820791666667,0,0xDCFD,
0.739828750000000,0,0xC615,
0.739844583333333,0,0x801E,
0.739852458333333,0,0xC715,
0.739868333333333,0,0xA3D9,
0.739876250000000,0,0xC815,
0.739892083333333,0,0x9E3A,
0.739900000000000,0,0xC915,
0.739915833333333,0,0x9E36,
0.739923750000000,0,0xCA15,
0.739956083333333,0,0x0004,
0.739963750000000,0,0x0329,
0.739979708333333,0,0x0A01,
0.739987583333333,0,0x8329,
0.740003291666667,0,0x0F00,
0.740011125000000,0,0x8429,
0.740026833333333,0,0x0000,
0.740034708333333,0,0x8525,
0.740050416666667,0,0x573F,
0.740058291666667,0,0x8629,
0.740088833333333,0,0x0001,
0.740096541666667,0,0x1D2D,
0.740112750000000,0,0x0055,
0.740120583333333,0,0x9D2D,
0.740148958333333,0,0x0003,
0.740156625000000,0,0x2421,
0.740172666666667,0,0x004C,
0.740180500000000,0,0xA425,
0.740196208333333,0,0x0040,
0.740204083333333,0,0xA525,
0.740219791666667,0,0x8000,
0.740227625000000,0,0xA625,
0.740256958333333,0,0x0005,
0.740264666666667,0,0x2D25,
0.740280625000000,0,0xCE95,
0.740288500000000,0,0xAD25,
0.740304208333333,0,0xFFFE,
0.740312083333333,0,0xAE25,
0.740327791666667,0,0x1D7E,
0.740335625000000,0,0xAF25,
0.740351333333333,0,0xFFFF,
0.740359208333333,0,0xB025,
0.740374875000000,0,0x8307,
0.740382750000000,0,0xB125,
0.740414208333333,0,0x0006,
0.740421875000000,0,0x3B29,
0.740438250000000,0,0xE516,
0.740446083333333,0,0xBB25,
0.740461791666667,0,0x8000,
0.740469666666667,0,0xBC25,
0.740485375000000,0,0x8000,
0.740493208333333,0,0xBD25,
0.740508916666667,0,0x8000,
0.740516791666667,0,0xBE25,
0.740532500000000,0,0xE5BA,
0.740540375000000,0,0xBF25,
0.740556083333333,0,0xE5D2,
0.740563916666667,0,0xC025,
0.740594750000000,0,0x000A,
0.740602416666667,0,0x412D,
0.740618416666667,0,0xDB51,
0.740626250000000,0,0xC125,
0.740641958333333,0,0xDC51,
0.740649833333333,0,0xC225,
0.740665541666667,0,0xDF3F,
0.740673375000000,0,0xC325,
0.740689083333333,0,0xE122,
0.740696958333333,0,0xC425,
0.740712666666667,0,0xA980,
0.740720500000000,0,0xC525,
0.740736208333333,0,0xFF4A,
0.740744083333333,0,0xC625,
0.740759791666667,0,0xC015,
0.740767666666667,0,0xC725,
0.740783333333333,0,0xA3B8,
0.740791208333333,0,0xC825,
0.740806916666667,0,0x9E37,
0.740814791666667,0,0xC925,
0.740830500000000,0,0x9E3E,
0.740838333333333,0,0xCA25,
0.748462791666667,0,0x6C3F,
0.748470458333333,0,0x0603,
0.748497875000000,0,0x0004,
0.748505541666667,0,0x0315,
0.748521916666667,0,0x0A01,
0.748529875000000,0,0x8315,
0.748545708333333,0,0x0F00,
0.748553625000000,0,0x8415,
0.748569458333333,0,0x0000,
0.748577375000000,0,0x8516,
0.748593208333333,0,0x6F3F,
0.748601125000000,0,0x8615,
0.748632541666667,0,0x0004,
0.748640250000000,0,0x0319,
0.748656541666667,0,0x0A01,
0.748664500000000,0,0x8319,
0.748680333333333,0,0x0F00,
0.748688250000000,0,0x8419,
0.748704083333333,0,0x0000,
0.748712000000000,0,0x8516,
0.748727833333333,0,0x6F3F,
0.748735791666667,0,0x8619,
0.748766916666667,0,0x0004,
0.748774625000000,0,0x031D,
0.748790708333333,0,0x0A01,
0.748798666666667,0,0x831D,
0.748814500000000,0,0x0F00,
0.748822416666667,0,0x841D,
0.748838250000000,0,0x0000,
0.748846166666667,0,0x8516,
0.748862000000000,0,0x6F3F,
0.748869958333333,0,0x861D,
0.748901125000000,0,0x0004,
0.748908791666667,0,0x0311,
0.748924875000000,0,0x0A01,
0.748932791666667,0,0x8311,
0.748948625000000,0,0x0F00,
0.748956541666667,0,0x8411,
0.748972375000000,0,0x0000,
0.748980333333333,0,0x8516,
0.748996166666667,0,0x6F3F,
0.749004083333333,0,0x8611,
0.749035000000000,0,0x0004,
0.749042708333333,0,0x0315,
0.749059000000000,0,0x0A01,
0.749066916666667,0,0x8315,
0.749082750000000,0,0x0F00,
0.749090666666667,0,0x8415,
0.749106500000000,0,0x0000,
0.749114416666667,0,0x8516,
0.749130250000000,0,0x673F,
0.749138166666667,0,0x8615,
0.749168416666667,0,0x0001,
0.749176125000000,0,0x1D19,
0.749192083333333,0,0x1551,
0.749200000000000,0,0x9D19,
0.749228333333333,0,0x0003,
0.749236000000000,0,0x241D,
0.749252416666667,0,0x0048,
0.749260333333333,0,0xA416,
0.749276166666667,0,0x0040,
0.749284083333333,0,0xA516,
0.749299875000000,0,0x0000,
0.749307791666667,0,0xA616,
0.749337541666667,0,0x0005,
0.749345208333333,0,0x2D11,
0.749361208333333,0,0xCDEC,
0.749369125000000,0,0xAD16,
0.749384958333333,0,0xFFFD,
0.749392875000000,0,0xAE16,
0.749408708333333,0,0xD434,
0.749416625000000,0,0xAF16,
0.749432458333333,0,0x8000,
0.749440375000000,0,0xB016,
0.749456208333333,0,0x8300,
0.749464125000000,0,0xB116,
0.749494583333333,0,0x0006,
0.749502250000000,0,0x3B15,
0.749518541666667,0,0xB3DE,
0.749526458333333,0,0xBB16,
0.749542291666667,0,0xB32B,
0.749550208333333,0,0xBC16,
0.749566041666667,0,0xB2BB,
0.749573958333333,0,0xBD16,
0.749589791666667,0,0xB200,
0.749597708333333,0,0xBE16,
0.749613541666667,0,0xB201,
0.749621458333333,0,0xBF16,
0.749637291666667,0,0xB273,
0.749645208333333,0,0xC016,
0.749675000000000,0,0x000A,
0.749682666666667,0,0x4119,
0.749698625000000,0,0xC096,
0.749706541666667,0,0xC116,
0.749722375000000,0,0xC0C8,
0.749730291666667,0,0xC216,
0.749746125000000,0,0xC088,
0.749754041666667,0,0xC316,
0.749769875000000,0,0xC0C6,
0.749777791666667,0,0xC416,
0.749793625000000,0,0xC0C7,
0.749801541666667,0,0xC516,
0.749817375000000,0,0xDCFB,
0.749825291666667,0,0xC616,
0.749841125000000,0,0x8020,
0.749849000000000,0,0xC716,
0.749864833333333,0,0xA3D8,
0.749872791666667,0,0xC816,
0.749888625000000,0,0x9E39,
0.749896541666667,0,0xC916,
0.749912333333333,0,0x9E3D,
0.749920291666667,0,0xCA16,
0.749952541666667,0,0x0004,
0.749960208333333,0,0x032D,
0.749976125000000,0,0x0A01,
0.749984000000000,0,0x832D,
0.749999708333333,0,0x0F00,
0.750007541666667,0,0x842D,
0.750023250000000,0,0x0000,
0.750031125000000,0,0x8526,
0.750046833333333,0,0x673F,
0.750054666666667,0,0x862D,
0.750085666666667,0,0x0001,
0.750093333333333,0,0x1D21,
0.750109666666667,0,0x0055,
0.750117500000000,0,0x9D21,
0.750146041666667,0,0x0003,
0.750153708333333,0,0x2425,
0.750170000000000,0,0x004C,
0.750177875000000,0,0xA426,
0.750193583333333,0,0x0040,
0.750201458333333,0,0xA526,
0.750217125000000,0,0x8000,
0.750225000000000,0,0xA626,
0.750254125000000,0,0x0005,
0.750261791666667,0,0x2D29,
0.750278041666667,0,0xCFA1,
0.750285875000000,0,0xAD26,
0.750301583333333,0,0xFFFE,
0.750309416666667,0,0xAE26,
0.750325166666667,0,0x1A0B,
0.750333000000000,0,0xAF26,
0.750348708333333,0,0xFFFF,
0.750356541666667,0,0xB026,
0.750372250000000,0,0x830C,
0.750380125000000,0,0xB126,
0.750411333333333,0,0x0006,
0.750419000000000,0,0x3B2D,
0.750435083333333,0,0xE51A,
0.750442958333333,0,0xBB26,
0.750458666666667,0,0x8000,
0.750466500000000,0,0xBC26,
0.750482208333333,0,0x8002,
0.750490083333333,0,0xBD26,
0.750505791666667,0,0x8004,
0.750513625000000,0,0xBE26,
0.750529375000000,0,0xE5BA,
0.750537208333333,0,0xBF26,
0.750552916666667,0,0xE5D8,
0.750560791666667,0,0xC026,
0.750591333333333,0,0x000A,
0.750599000000000,0,0x4121,
0.750615250000000,0,0xDB4F,
0.750623125000000,0,0xC126,
0.750638833333333,0,0xDC4B,
0.750646666666667,0,0xC226,
0.750662375000000,0,0xDF3E,
0.750670250000000,0,0xC326,
0.750685958333333,0,0xE127,
0.750693791666667,0,0xC426,
0.750709500000000,0,0xA97E,
0.750717375000000,0,0xC526,
0.750733083333333,0,0xFF4A,
0.750740916666667,0,0xC626,
0.750756625000000,0,0xC014,
0.750764458333333,0,0xC726,
0.750780208333333,0,0xA3BA,
0.750788041666667,0,0xC826,
0.750803750000000,0,0x9E3A,
0.750811625000000,0,0xC926,
0.750827333333333,0,0x9E3F,
0.750835166666667,0,0xCA26,
0.758608375000000,0,0x7C3F,
0.758616041666667,0,0x0607,
0.758644250000000,0,0x0004,
0.758651916666667,0,0x0319,
0.758668166666667,0,0x0A01,
0.758676083333333,0,0x8319,
0.758691958333333,0,0x0F00,
0.758699833333333,0,0x8419,
0.758715708333333,0,0x0000,
0.758723625000000,0,0x8517,
0.758739458333333,0,0x7F3F,
0.758747375000000,0,0x8619,
0.758777958333333,0,0x0004,
0.758785625000000,0,0x031D,
0.758801833333333,0,0x0A01,
0.758809750000000,0,0x831D,
0.758825583333333,0,0x0F00,
0.758833500000000,0,0x841D,
0.758849333333333,0,0x0000,
0.758857250000000,0,0x8517,
0.758873083333333,0,0x7F3F,
0.758881000000000,0,0x861D,
0.758911333333333,0,0x0004,
0.758919000000000,0,0x0311,
0.758935416666667,0,0x0A01,
0.758943333333333,0,0x8311,
0.758959208333333,0,0x0F00,
0.758967125000000,0,0x8411,
0.758982958333333,0,0x0000,
0.758990875000000,0,0x8517,
0.759006708333333,0,0x7F3F,
0.759014625000000,0,0x8611,
0.759045708333333,0,0x0004,
0.759053375000000,0,0x0315,
0.759069541666667,0,0x0A01,
0.759077458333333,0,0x8315,
0.759093291666667,0,0x0F00,
0.759101208333333,0,0x8415,
0.759117041666667,0,0x0000,
0.759124958333333,0,0x8517,
0.759140833333333,0,0x7F3F,
0.759148750000000,0,0x8615,
0.759179833333333,0,0x0004,
0.759187500000000,0,0x0319,
0.759203625000000,0,0x0A01,
0.759211541666667,0,0x8319,
0.759227416666667,0,0x0F00,
0.759235291666667,0,0x8419,
0.759251125000000,0,0x0000,
0.759259041666667,0,0x8517,
0.759274875000000,0,0x773F,
0.759282791666667,0,0x8619,
0.759313291666667,0,0x0001,
0.759321000000000,0,0x1D1D,
0.759337250000000,0,0x1551,
0.759345125000000,0,0x9D1D,
0.759373791666667,0,0x0003,
0.759381458333333,0,0x2411,
0.759397583333333,0,0x0048,
0.759405500000000,0,0xA417,
0.759421333333333,0,0x0040,
0.759429250000000,0,0xA517,
0.759445083333333,0,0x0000,
0.759453000000000,0,0xA617,
0.759482708333333,0,0x0005,
0.759490375000000,0,0x2D15,
0.759506458333333,0,0xCEFA,
0.759514375000000,0,0xAD17,
0.759530208333333,0,0xFFFD,
0.759538125000000,0,0xAE17,
0.759553916666667,0,0xD0F2,
0.759561875000000,0,0xAF17,
0.759577708333333,0,0xFFFF,
0.759585625000000,0,0xB017,
0.759601458333333,0,0x830D,
0.759609375000000,0,0xB117,
0.759639500000000,0,0x0006,
0.759647166666667,0,0x3B19,
0.759663291666667,0,0xB3E3,
0.759671208333333,0,0xBB17,
0.759687041666667,0,0xB32D,
0.759694958333333,0,0xBC17,
0.759710791666667,0,0xB2BB,
0.759718708333333,0,0xBD17,
0.759734541666667,0,0xB1FB,
0.759742458333333,0,0xBE17,
0.759758291666667,0,0xB205,
0.759766208333333,0,0xBF17,
0.759782000000000,0,0xB274,
0.759789916666667,0,0xC017,
0.759820500000000,0,0x000A,
0.759828166666667,0,0x411D,
0.759844375000000,0,0xC093,
0.759852291666667,0,0xC117,
0.759868125000000,0,0xC0C4,
0.759876041666667,0,0xC217,
0.759891833333333,0,0xC086,
0.759899791666667,0,0xC317,
0.759915625000000,0,0xC0C9,
0.759923500000000,0,0xC417,
0.759939333333333,0,0xC0C3,
0.759947250000000,0,0xC517,
0.759963125000000,0,0xDCF8,
0.759971041666667,0,0xC617,
0.759986833333333,0,0x801A,
0.759994750000000,0,0xC717,
0.760010625000000,0,0xA3D8,
0.760018541666667,0,0xC817,
0.760034375000000,0,0x9E38,
0.760042291666667,0,0xC917,
0.760058125000000,0,0x9E3E,
0.760066041666667,0,0xCA17,
0.760097375000000,0,0x0004,
0.760105083333333,0,0x0321,
0.760121291666667,0,0x0A01,
0.760129166666667,0,0x8321,
0.760144833333333,0,0x0F00,
0.760152708333333,0,0x8421,
0.760168416666667,0,0x0000,
0.760176250000000,0,0x8527,
0.760192000000000,0,0x773F,
0.760199833333333,0,0x8621,
0.760230750000000,0,0x0001,
0.760238416666667,0,0x1D25,
0.760254833333333,0,0x0055,
0.760262666666667,0,0x9D25,
0.760291125000000,0,0x0003,
0.760298833333333,0,0x2429,
0.760315208333333,0,0x004C,
0.760323041666667,0,0xA427,
0.760338750000000,0,0x0040,
0.760346583333333,0,0xA527,
0.760362333333333,0,0x8000,
0.760370166666667,0,0xA627,
0.760399541666667,0,0x0005,
0.760407250000000,0,0x2D2D,
0.760423666666667,0,0xD0B1,
0.760431541666667,0,0xAD27,
0.760447250000000,0,0xFFFE,
0.760455083333333,0,0xAE27,
0.760470833333333,0,0x17DD,
0.760478666666667,0,0xAF27,
0.760494375000000,0,0xFFFF,
0.760502250000000,0,0xB027,
0.760517958333333,0,0x830F,
0.760525791666667,0,0xB127,
0.760555166666667,0,0x0006,
0.760562875000000,0,0x3B21,
0.760579291666667,0,0xE517,
0.760587125000000,0,0xBB27,
0.760602833333333,0,0x8000,
0.760610708333333,0,0xBC27,
0.760626416666667,0,0x8000,
0.760634250000000,0,0xBD27,
0.760650000000000,0,0x8001,
0.760657833333333,0,0xBE27,
0.760673541666667,0,0xE5BC,
0.760681416666667,0,0xBF27,
0.760697125000000,0,0xE5D6,
0.760704958333333,0,0xC027,
0.760734791666667,0,0x000A,
0.760742500000000,0,0x4125,
0.760758500000000,0,0xDB4A,
0.760766333333333,0,0xC127,
0.760782041666667,0,0xDC4D,
0.760789916666667,0,0xC227,
0.760805625000000,0,0xDF37,
0.760813458333333,0,0xC327,
0.760829166666667,0,0xE126,
0.760837041666667,0,0xC427,
0.760852750000000,0,0xA97E,
0.760860583333333,0,0xC527,
0.760876291666667,0,0xFF48,
0.760884166666667,0,0xC627,
0.760899875000000,0,0xC018,
0.760907708333333,0,0xC727,
0.760923416666667,0,0xA3BA,
0.760931291666667,0,0xC827,
0.760947000000000,0,0x9E3A,
0.760954833333333,0,0xC927,
0.760970541666667,0,0x9E3E,
0.760978416666667,0,0xCA27,
0.768464958333333,0,0x8C3F,
0.768472625000000,0,0x060B,
0.768500583333333,0,0x0004,
0.768508250000000,0,0x031D,
0.768524375000000,0,0x0A01,
0.768532291666667,0,0x831D,
0.768548125000000,0,0x0F00,
0.768556041666667,0,0x841D,
0.768571875000000,0,0x0000,
0.768579791666667,0,0x8518,
0.768595625000000,0,0x8F3F,
0.768603541666667,0,0x861D,
0.768634208333333,0,0x0004,
0.768641875000000,0,0x0311,
0.768657958333333,0,0x0A01,
0.768665875000000,0,0x8311,
0.768681708333333,0,0x0F00,
0.768689666666667,0,0x8411,
0.768705500000000,0,0x0000,
0.768713375000000,0,0x8518,
0.768729250000000,0,0x8F3F,
0.768737166666667,0,0x8611,
0.768767458333333,0,0x0004,
0.768775125000000,0,0x0315,
0.768791083333333,0,0x0A01,
0.768799041666667,0,0x8315,
0.768814875000000,0,0x0F00,
0.768822791666667,0,0x8415,
0.768838625000000,0,0x0000,
0.768846541666667,0,0x8518,
0.768862375000000,0,0x8F3F,
0.768870291666667,0,0x8615,
0.768901541666667,0,0x0004,
0.768909250000000,0,0x0319,
0.768925250000000,0,0x0A01,
0.768933166666667,0,0x8319,
0.768949000000000,0,0x0F00,
0.768956916666667,0,0x8419,
0.768972750000000,0,0x0000,
0.768980666666667,0,0x8518,
0.768996500000000,0,0x8F3F,
0.769004416666667,0,0x8619,
0.769035041666667,0,0x0004,
0.769042750000000,0,0x031D,
0.769058833333333,0,0x0A01,
0.769066750000000,0,0x831D,
0.769082583333333,0,0x0F00,
0.769090458333333,0,0x841D,
0.769106333333333,0,0x0000,
0.769114250000000,0,0x8518,
0.769130041666667,0,0x873F,
0.769137958333333,0,0x861D,
0.769168291666667,0,0x0001,
0.769175958333333,0,0x1D11,
0.769192375000000,0,0x1551,
0.769200291666667,0,0x9D11,
0.769228291666667,0,0x0003,
0.769236000000000,0,0x2415,
0.769252250000000,0,0x0048,
0.769260125000000,0,0xA418,
0.769275958333333,0,0x0040,
0.769283875000000,0,0xA518,
0.769299708333333,0,0x0000,
0.769307625000000,0,0xA618,
0.769336000000000,0,0x0005,
0.769343666666667,0,0x2D19,
0.769360041666667,0,0xD000,
0.769367958333333,0,0xAD18,
0.769383750000000,0,0xFFFD,
0.769391666666667,0,0xAE18,
0.769407500000000,0,0xCDDD,
0.769415416666667,0,0xAF18,
0.769431250000000,0,0x8000,
0.769439166666667,0,0xB018,
0.769455000000000,0,0x8301,
0.769462916666667,0,0xB118,
0.769493458333333,0,0x0006,
0.769501125000000,0,0x3B1D,
0.769517291666667,0,0xB3E1,
0.769525208333333,0,0xBB18,
0.769541041666667,0,0xB32A,
0.769548958333333,0,0xBC18,
0.769564750000000,0,0xB2BD,
0.769572666666667,0,0xBD18,
0.769588500000000,0,0xB1FF,
0.769596416666667,0,0xBE18,
0.769612250000000,0,0xB203,
0.769620166666667,0,0xBF18,
0.769635958333333,0,0xB272,
0.769643875000000,0,0xC018,
0.769674208333333,0,0x000A,
0.769681875000000,0,0x4111,
0.769698291666667,0,0xC096,
0.769706208333333,0,0xC118,
0.769722041666667,0,0xC0C7,
0.769729958333333,0,0xC218,
0.769745750000000,0,0xC087,
0.769753666666667,0,0xC318,
0.769769500000000,0,0xC0C8,
0.769777416666667,0,0xC418,
0.769793250000000,0,0xC0C4,
0.769801125000000,0,0xC518,
0.769816958333333,0,0xDCF9,
0.769824875000000,0,0xC618,
0.769840708333333,0,0x8020,
0.769848625000000,0,0xC718,
0.769864416666667,0,0xA3D9,
0.769872375000000,0,0xC818,
0.769888166666667,0,0x9E3A,
0.769896083333333,0,0xC918,
0.769911916666667,0,0x9E3A,
0.769919833333333,0,0xCA18,
0.769952000000000,0,0x0004,
0.769959666666667,0,0x0325,
0.769976041666667,0,0x0A01,
0.769983875000000,0,0x8325,
0.769999583333333,0,0x0F00,
0.770007458333333,0,0x8425,
0.770023125000000,0,0x0000,
0.770031000000000,0,0x8528,
0.770046708333333,0,0x873F,
0.770054583333333,0,0x8625,
0.770085083333333,0,0x0001,
0.770092750000000,0,0x1D29,
0.770109041666667,0,0x0055,
0.770116916666667,0,0x9D29,
0.770144708333333,0,0x0003,
0.770152375000000,0,0x242D,
0.770168416666667,0,0x004C,
0.770176291666667,0,0xA428,
0.770192000000000,0,0x0040,
0.770199833333333,0,0xA528,
0.770215541666667,0,0x8000,
0.770223416666667,0,0xA628,
0.770252750000000,0,0x0005,
0.770260416666667,0,0x2D21,
0.770276458333333,0,0xD1B9,
0.770284291666667,0,0xAD28,
0.770300000000000,0,0xFFFE,
0.770307833333333,0,0xAE28,
0.770323541666667,0,0x1551,
0.770331416666667,0,0xAF28,
0.770347125000000,0,0xFFFF,
0.770354958333333,0,0xB028,
0.770370666666667,0,0x830D,
0.770378541666667,0,0xB128,
0.770409000000000,0,0x0006,
0.770416708333333,0,0x3B25,
0.770433000000000,0,0xE518,
0.770440875000000,0,0xBB28,
0.770456541666667,0,0x8000,
0.770464416666667,0,0xBC28,
0.770480125000000,0,0x8000,
0.770487958333333,0,0xBD28,
0.770503666666667,0,0x8000,
0.770511541666667,0,0xBE28,
0.770527250000000,0,0xE5BA,
0.770535083333333,0,0xBF28,
0.770550791666667,0,0xE5CE,
0.770558666666667,0,0xC028,
0.770589750000000,0,0x000A,
0.770597458333333,0,0x4129,
0.770613625000000,0,0xDB50,
0.770621458333333,0,0xC128,
0.770637166666667,0,0xDC4E,
0.770645041666667,0,0xC228,
0.770660750000000,0,0xDF3C,
0.770668583333333,0,0xC328,
0.770684291666667,0,0xE123,
0.770692166666667,0,0xC428,
0.770707875000000,0,0xA97C,
0.770715708333333,0,0xC528,
0.770731416666667,0,0xFF4A,
0.770739291666667,0,0xC628,
0.770755000000000,0,0xC014,
0.770762833333333,0,0xC728,
0.770778583333333,0,0xA3BA,
0.770786416666667,0,0xC828,
0.770802125000000,0,0x9E39,
0.770809958333333,0,0xC928,
0.770825666666667,0,0x9E3F,
0.770833541666667,0,0xCA28,
0.778484833333333,0,0x9C3F,
0.778492541666667,0,0x060F,
0.778520166666667,0,0x0004,
0.778527833333333,0,0x0311,
0.778543916666667,0,0x0A01,
0.778551833333333,0,0x8311,
0.778567666666667,0,0x0F00,
0.778575583333333,0,0x8411,
0.778591416666667,0,0x0000,
0.778599333333333,0,0x8519,
0.778615166666667,0,0x9F3F,
0.778623125000000,0,0x8611,
0.778654000000000,0,0x0004,
0.778661666666667,0,0x0315,
0.778678000000000,0,0x0A01,
0.778685916666667,0,0x8315,
0.778701750000000,0,0x0F00,
0.778709666666667,0,0x8415,
0.778725541666667,0,0x0000,
0.778733416666667,0,0x8519,
0.778749291666667,0,0x9F3F,
0.778757208333333,0,0x8615,
0.778787791666667,0,0x0004,
0.778795500000000,0,0x0319,
0.778811666666667,0,0x0A01,
0.778819583333333,0,0x8319,
0.778835416666667,0,0x0F00,
0.778843333333333,0,0x8419,
0.778859166666667,0,0x0000,
0.778867083333333,0,0x8519,
0.778882958333333,0,0x9F3F,
0.778890875000000,0,0x8619,
0.778922291666667,0,0x0004,
0.778929958333333,0,0x031D,
0.778946250000000,0,0x0A01,
0.778954166666667,0,0x831D,
0.778970041666667,0,0x0F00,
0.778977958333333,0,0x841D,
0.778993791666667,0,0x0000,
0.779001708333333,0,0x8519,
0.779017541666667,0,0x9F3F,
0.779025458333333,0,0x861D,
0.779055875000000,0,0x0004,
0.779063583333333,0,0x0311,
0.779079875000000,0,0x0A01,
0.779087791666667,0,0x8311,
0.779103625000000,0,0x0F00,
0.779111541666667,0,0x8411,
0.779127375000000,0,0x0000,
0.779135291666667,0,0x8519,
0.779151125000000,0,0x973F,
0.779159041666667,0,0x8611,
0.779189625000000,0,0x0001,
0.779197291666667,0,0x1D15,
0.779213458333333,0,0x1551,
0.779221375000000,0,0x9D15,
0.779249500000000,0,0x0003,
0.779257166666667,0,0x2419,
0.779273333333333,0,0x0048,
0.779281250000000,0,0xA419,
0.779297083333333,0,0x0040,
0.779305000000000,0,0xA519,
0.779320833333333,0,0x0000,
0.779328750000000,0,0xA619,
0.779358458333333,0,0x0005,
0.779366166666667,0,0x2D1D,
0.779382166666667,0,0xD10A,
0.779390083333333,0,0xAD19,
0.779405916666667,0,0xFFFD,
0.779413833333333,0,0xAE19,
0.779429666666667,0,0xCBCB,
0.779437583333333,0,0xAF19,
0.779453416666667,0,0x8000,
0.779461333333333,0,0xB019,
0.779477166666667,0,0x8301,
0.779485083333333,0,0xB119,
0.779515416666667,0,0x0006,
0.779523125000000,0,0x3B11,
0.779539500000000,0,0xB3E3,
0.779547416666667,0,0xBB19,
0.779563250000000,0,0xB32D,
0.779571166666667,0,0xBC19,
0.779587000000000,0,0xB2C0,
0.779594916666667,0,0xBD19,
0.779610750000000,0,0xB1FF,
0.779618666666667,0,0xBE19,
0.779634500000000,0,0xB1FF,
0.779642416666667,0,0xBF19,
0.779658291666667,0,0xB272,
0.779666208333333,0,0xC019,
0.779696166666667,0,0x000A,
0.779703875000000,0,0x4115,
0.779720125000000,0,0xC098,
0.779728083333333,0,0xC119,
0.779743916666667,0,0xC0C7,
0.779751833333333,0,0xC219,
0.779767666666667,0,0xC088,
0.779775583333333,0,0xC319,
0.779791416666667,0,0xC0C3,
0.779799333333333,0,0xC419,
0.779815166666667,0,0xC0C4,
0.779823083333333,0,0xC519,
0.779838916666667,0,0xDCFB,
0.779846833333333,0,0xC619,
0.779862666666667,0,0x801F,
0.779870583333333,0,0xC719,
0.779886416666667,0,0xA3D8,
0.779894333333333,0,0xC819,
0.779910166666667,0,0x9E39,
0.779918083333333,0,0xC919,
0.779933916666667,0,0x9E39,
0.779941833333333,0,0xCA19,
0.779973458333333,0,0x0004,
0.779981125000000,0,0x0329,
0.779997458333333,0,0x0A01,
0.780005333333333,0,0x8329,
0.780021041666667,0,0x0F00,
0.780028875000000,0,0x8429,
0.780044625000000,0,0x0000,
0.780052458333333,0,0x8529,
0.780068166666667,0,0x973F,
0.780076000000000,0,0x8629,
0.780106666666667,0,0x0001,
0.780114333333333,0,0x1D2D,
0.780130500000000,0,0x0055,
0.780138333333333,0,0x9D2D,
0.780166583333333,0,0x0003,
0.780174291666667,0,0x2421,
0.780190375000000,0,0x004C,
0.780198250000000,0,0xA429,
0.780213916666667,0,0x0040,
0.780221791666667,0,0xA529,
0.780237500000000,0,0x8000,
0.780245375000000,0,0xA629,
0.780274708333333,0,0x0005,
0.780282375000000,0,0x2D25,
0.780298375000000,0,0xD2C6,
0.780306208333333,0,0xAD29,
0.780321916666667,0,0xFFFE,
0.780329750000000,0,0xAE29,
0.780345458333333,0,0x1303,
0.780353333333333,0,0xAF29,
0.780369041666667,0,0xFFFF,
0.780376875000000,0,0xB029,
0.780392583333333,0,0x8309,
0.780400458333333,0,0xB129,
0.780431625000000,0,0x0006,
0.780439291666667,0,0x3B29,
0.780455416666667,0,0xE51A,
0.780463250000000,0,0xBB29,
0.780478958333333,0,0x8001,
0.780486833333333,0,0xBC29,
0.780502541666667,0,0x8004,
0.780510416666667,0,0xBD29,
0.780526083333333,0,0x8003,
0.780533958333333,0,0xBE29,
0.780549666666667,0,0xE5BA,
0.780557500000000,0,0xBF29,
0.780573208333333,0,0xE5CF,
0.780581083333333,0,0xC029,
0.780611500000000,0,0x000A,
0.780619208333333,0,0x412D,
0.780635541666667,0,0xDB4B,
0.780643416666667,0,0xC129,
0.780659125000000,0,0xDC54,
0.780666958333333,0,0xC229,
0.780682708333333,0,0xDF36,
0.780690541666667,0,0xC329,
0.780706250000000,0,0xE121,
0.780714083333333,0,0xC429,
0.780729791666667,0,0xA97C,
0.780737666666667,0,0xC529,
0.780753375000000,0,0xFF4A,
0.780761250000000,0,0xC629,
0.780776916666667,0,0xC012,
0.780784791666667,0,0xC729,
0.780800500000000,0,0xA3B9,
0.780808375000000,0,0xC829,
0.780824041666667,0,0x9E37,
0.780831916666667,0,0xC929,
0.780847625000000,0,0x9E41,
0.780855458333333,0,0xCA29,
0.788456416666667,0,0xAC3F,
0.788464083333333,0,0x0603,
0.788491458333333,0,0x0004,
0.788499166666667,0,0x0315,
0.788515125000000,0,0x0A01,
0.788523041666667,0,0x8315,
0.788538875000000,0,0x0F00,
0.788546791666667,0,0x8415,
0.788562666666667,0,0x0000,
0.788570583333333,0,0x851A,
0.788586416666667,0,0xAF3F,
0.788594333333333,0,0x8615,
0.788624583333333,0,0x0004,
0.788632291666667,0,0x0319,
0.788648250000000,0,0x0A01,
0.788656166666667,0,0x8319,
0.788672041666667,0,0x0F00,
0.788679958333333,0,0x8419,
0.788695791666667,0,0x0000,
0.788703708333333,0,0x851A,
0.788719541666667,0,0xAF3F,
0.788727458333333,0,0x8619,
0.788758666666667,0,0x0004,
0.788766333333333,0,0x031D,
0.7887823750000