Time [s],Packet ID,MOSI,MISO
0.000004041666667,0,0x3C3F,
0.000011708333333,0,0x0607,
0.000039500000000,0,0x0004,
0.000047166666667,0,0x0319,
0.000063458333333,0,0x0A01,
0.000071375000000,0,0x8319,
0.000087208333333,0,0x0F00,
0.000095125000000,0,0x8419,
0.000110958333333,0,0x0000,
0.000118875000000,0,0x8513,
0.000134708333333,0,0x3F3F,
0.000142625000000,0,0x8619,
0.000174250000000,0,0x0004,
0.000181916666667,0,0x031D,
0.000198041666667,0,0x0A01,
0.000205958333333,0,0x831D,
0.000221833333333,0,0x0F00,
0.000229750000000,0,0x841D,
0.000245583333333,0,0x0000,
0.000253500000000,0,0x8513,
0.000269333333333,0,0x3F3F,
0.000277250000000,0,0x861D,
0.000307625000000,0,0x0004,
0.000315333333333,0,0x0311,
0.000331708333333,0,0x0A01,
0.000339625000000,0,0x8311,
0.000355458333333,0,0x0F00,
0.000363375000000,0,0x8411,
0.000379208333333,0,0x0000,
0.000387125000000,0,0x8513,
0.000402958333333,0,0x3F3F,
0.000410875000000,0,0x8611,
0.000441125000000,0,0x0004,
0.000448791666667,0,0x0315,
0.000464833333333,0,0x0A01,
0.000472750000000,0,0x8315,
0.000488583333333,0,0x0F00,
0.000496500000000,0,0x8415,
0.000512333333333,0,0x0000,
0.000520250000000,0,0x8513,
0.000536083333333,0,0x3F3F,
0.000544000000000,0,0x8615,
0.000574416666667,0,0x0004,
0.000582125000000,0,0x0319,
0.000598416666667,0,0x0A01,
0.000606333333333,0,0x8319,
0.000622166666667,0,0x0F00,
0.000630083333333,0,0x8419,
0.000645916666667,0,0x0000,
0.000653833333333,0,0x8513,
0.000669666666667,0,0x373F,
0.000677583333333,0,0x8619,
0.000708291666667,0,0x0001,
0.000715958333333,0,0x1D1D,
0.000732000000000,0,0x1551,
0.000739916666667,0,0x9D1D,
0.000767708333333,0,0x0003,
0.000775375000000,0,0x2411,
0.000791375000000,0,0x0048,
0.000799291666667,0,0xA413,
0.000815125000000,0,0x0040,
0.000823041666667,0,0xA513,
0.000838875000000,0,0x8000,
0.000846791666667,0,0xA613,
0.000876166666667,0,0x0005,
0.000883833333333,0,0x2D15,
0.000900208333333,0,0xE56C,
0.000908166666667,0,0xAD13,
0.000924000000000,0,0xFFED,
0.000931916666667,0,0xAE13,
0.000947750000000,0,0xBE36,
0.000955666666667,0,0xAF13,
0.000971500000000,0,0xFFFF,
0.000979416666667,0,0xB013,
0.000995250000000,0,0x8308,
0.001003166666667,0,0xB113,
0.001032416666667,0,0x0006,
0.001040083333333,0,0x3B19,
0.001056125000000,0,0xB3E3,
0.001064000000000,0,0xBB13,
0.001079833333333,0,0xB32D,
0.001087791666667,0,0xBC13,
0.001103625000000,0,0xB2BC,
0.001111500000000,0,0xBD13,
0.001127333333333,0,0xB1FF,
0.001135250000000,0,0xBE13,
0.001151083333333,0,0xB201,
0.001159000000000,0,0xBF13,
0.001174833333333,0,0xB271,
0.001182791666667,0,0xC013,
0.001213541666667,0,0x000A,
0.001221250000000,0,0x411D,
0.001237708333333,0,0xC0C5,
0.001245625000000,0,0xC113,
0.001261416666667,0,0xC0C4,
0.001269375000000,0,0xC213,
0.001285208333333,0,0xC0C5,
0.001293083333333,0,0xC313,
0.001308916666667,0,0xC088,
0.001316833333333,0,0xC413,
0.001332708333333,0,0xC0AC,
0.001340583333333,0,0xC513,
0.001356416666667,0,0xDD17,
0.001364375000000,0,0xC613,
0.001380208333333,0,0x8049,
0.001388083333333,0,0xC713,
0.001403916666667,0,0xA3D5,
0.001411833333333,0,0xC813,
0.001427708333333,0,0x9E38,
0.001435583333333,0,0xC913,
0.001451416666667,0,0x9E3E,
0.001459375000000,0,0xCA13,
0.001490708333333,0,0x0004,
0.001498416666667,0,0x0321,
0.001514500000000,0,0x0A01,
0.001522333333333,0,0x8321,
0.001538041666667,0,0x0F00,
0.001545916666667,0,0x8421,
0.001561625000000,0,0x0000,
0.001569500000000,0,0x8523,
0.001585208333333,0,0x373F,
0.001593041666667,0,0x8621,
0.001622875000000,0,0x0001,
0.001630541666667,0,0x1D25,
0.001646541666667,0,0x0055,
0.001654416666667,0,0x9D25,
0.001683125000000,0,0x0003,
0.001690791666667,0,0x2429,
0.001706958333333,0,0x004C,
0.001714791666667,0,0xA423,
0.001730500000000,0,0x0040,
0.001738375000000,0,0xA523,
0.001754083333333,0,0x8000,
0.001761958333333,0,0xA623,
0.001790958333333,0,0x0005,
0.001798625000000,0,0x2D2D,
0.001814958333333,0,0xF32B,
0.001822833333333,0,0xAD23,
0.001838541666667,0,0xFFF0,
0.001846416666667,0,0xAE23,
0.001862125000000,0,0x279C,
0.001869958333333,0,0xAF23,
0.001885666666667,0,0x8000,
0.001893500000000,0,0xB023,
0.001909250000000,0,0x8303,
0.001917083333333,0,0xB123,
0.001946291666667,0,0x0006,
0.001953958333333,0,0x3B21,
0.001970125000000,0,0xE51B,
0.001977958333333,0,0xBB23,
0.001993666666667,0,0x8000,
0.002001541666667,0,0xBC23,
0.002017250000000,0,0x8000,
0.002025125000000,0,0xBD23,
0.002040833333333,0,0x8000,
0.002048666666667,0,0xBE23,
0.002064375000000,0,0xE5BB,
0.002072250000000,0,0xBF23,
0.002087958333333,0,0xE5D3,
0.002095791666667,0,0xC023,
0.002125583333333,0,0x000A,
0.002133291666667,0,0x4125,
0.002149333333333,0,0xDB69,
0.002157208333333,0,0xC123,
0.002172916666667,0,0xDC75,
0.002180750000000,0,0xC223,
0.002196458333333,0,0xDF40,
0.002204333333333,0,0xC323,
0.002220041666667,0,0xE124,
0.002227916666667,0,0xC423,
0.002243625000000,0,0xA97D,
0.002251458333333,0,0xC523,
0.002267166666667,0,0xFF4B,
0.002275041666667,0,0xC623,
0.002290750000000,0,0xC015,
0.002298625000000,0,0xC723,
0.002314333333333,0,0xA3B9,
0.002322166666667,0,0xC823,
0.002337916666667,0,0x9E39,
0.002345750000000,0,0xC923,
0.002361458333333,0,0x9E3D,
0.002369333333333,0,0xCA23,
0.009824875000000,0,0x4C3F,
0.009832583333333,0,0x060B,
0.009860500000000,0,0x0004,
0.009868166666667,0,0x031D,
0.009884208333333,0,0x0A01,
0.009892125000000,0,0x831D,
0.009907958333333,0,0x0F00,
0.009915875000000,0,0x841D,
0.009931708333333,0,0x0000,
0.009939625000000,0,0x8514,
0.009955458333333,0,0x4F3F,
0.009963375000000,0,0x861D,
0.009994333333333,0,0x0004,
0.010002041666667,0,0x0311,
0.010018291666667,0,0x0A01,
0.010026208333333,0,0x8311,
0.010042083333333,0,0x0F00,
0.010050000000000,0,0x8411,
0.010065833333333,0,0x0000,
0.010073750000000,0,0x8514,
0.010089583333333,0,0x4F3F,
0.010097500000000,0,0x8611,
0.010128166666667,0,0x0004,
0.010135833333333,0,0x0315,
0.010151958333333,0,0x0A01,
0.010159875000000,0,0x8315,
0.010175708333333,0,0x0F00,
0.010183625000000,0,0x8415,
0.010199458333333,0,0x0000,
0.010207375000000,0,0x8514,
0.010223208333333,0,0x4F3F,
0.010231125000000,0,0x8615,
0.010261500000000,0,0x0004,
0.010269166666667,0,0x0319,
0.010285541666667,0,0x0A01,
0.010293500000000,0,0x8319,
0.010309333333333,0,0x0F00,
0.010317208333333,0,0x8419,
0.010333083333333,0,0x0000,
0.010341000000000,0,0x8514,
0.010356833333333,0,0x4F3F,
0.010364750000000,0,0x8619,
0.010395291666667,0,0x0004,
0.010403000000000,0,0x031D,
0.010419166666667,0,0x0A01,
0.010427083333333,0,0x831D,
0.010442916666667,0,0x0F00,
0.010450833333333,0,0x841D,
0.010466666666667,0,0x0000,
0.010474583333333,0,0x8514,
0.010490416666667,0,0x473F,
0.010498333333333,0,0x861D,
0.010528833333333,0,0x0001,
0.010536500000000,0,0x1D11,
0.010552750000000,0,0x1551,
0.010560666666667,0,0x9D11,
0.010588916666667,0,0x0003,
0.010596583333333,0,0x2415,
0.010612625000000,0,0x0048,
0.010620541666667,0,0xA414,
0.010636375000000,0,0x0040,
0.010644291666667,0,0xA514,
0.010660125000000,0,0x8000,
0.010668041666667,0,0xA614,
0.010696250000000,0,0x0005,
0.010703916666667,0,0x2D19,
0.010719958333333,0,0xE671,
0.010727875000000,0,0xAD14,
0.010743708333333,0,0xFFED,
0.010751625000000,0,0xAE14,
0.010767458333333,0,0xBBCE,
0.010775375000000,0,0xAF14,
0.010791208333333,0,0xFFFF,
0.010799125000000,0,0xB014,
0.010814958333333,0,0x830B,
0.010822875000000,0,0xB114,
0.010852208333333,0,0x0006,
0.010859875000000,0,0x3B1D,
0.010876291666667,0,0xB3E2,
0.010884208333333,0,0xBB14,
0.010900041666667,0,0xB32B,
0.010907958333333,0,0xBC14,
0.010923791666667,0,0xB2BC,
0.010931708333333,0,0xBD14,
0.010947541666667,0,0xB1FE,
0.010955458333333,0,0xBE14,
0.010971291666667,0,0xB1FF,
0.010979208333333,0,0xBF14,
0.010995041666667,0,0xB273,
0.011002958333333,0,0xC014,
0.011033708333333,0,0x000A,
0.011041375000000,0,0x4111,
0.011057375000000,0,0xC0C7,
0.011065291666667,0,0xC114,
0.011081125000000,0,0xC0C7,
0.011089041666667,0,0xC214,
0.011104875000000,0,0xC0CA,
0.011112791666667,0,0xC314,
0.011128625000000,0,0xC086,
0.011136541666667,0,0xC414,
0.011152375000000,0,0xC0AD,
0.011160291666667,0,0xC514,
0.011176125000000,0,0xDD1A,
0.011184041666667,0,0xC614,
0.011199875000000,0,0x8047,
0.011207791666667,0,0xC714,
0.011223625000000,0,0xA3D5,
0.011231541666667,0,0xC814,
0.011247375000000,0,0x9E3D,
0.011255291666667,0,0xC914,
0.011271125000000,0,0x9E3B,
0.011279041666667,0,0xCA14,
0.011311500000000,0,0x0004,
0.011319208333333,0,0x0325,
0.011335291666667,0,0x0A01,
0.011343125000000,0,0x8325,
0.011358833333333,0,0x0F00,
0.011366708333333,0,0x8425,
0.011382416666667,0,0x0000,
0.011390250000000,0,0x8524,
0.011405958333333,0,0x473F,
0.011413833333333,0,0x8625,
0.011443916666667,0,0x0001,
0.011451583333333,0,0x1D29,
0.011467833333333,0,0x0055,
0.011475708333333,0,0x9D29,
0.011503625000000,0,0x0003,
0.011511333333333,0,0x242D,
0.011527750000000,0,0x004C,
0.011535583333333,0,0xA424,
0.011551291666667,0,0x0040,
0.011559166666667,0,0xA524,
0.011574875000000,0,0x8000,
0.011582750000000,0,0xA624,
0.011611541666667,0,0x0005,
0.011619208333333,0,0x2D21,
0.011635250000000,0,0xF433,
0.011643125000000,0,0xAD24,
0.011658833333333,0,0xFFF0,
0.011666666666667,0,0xAE24,
0.011682375000000,0,0x25F1,
0.011690250000000,0,0xAF24,
0.011705958333333,0,0xFFFF,
0.011713833333333,0,0xB024,
0.011729541666667,0,0x830E,
0.011737416666667,0,0xB124,
0.011767791666667,0,0x0006,
0.011775458333333,0,0x3B25,
0.011791416666667,0,0xE51C,
0.011799291666667,0,0xBB24,
0.011815000000000,0,0x8000,
0.011822833333333,0,0xBC24,
0.011838541666667,0,0x8000,
0.011846416666667,0,0xBD24,
0.011862125000000,0,0x8000,
0.011870000000000,0,0xBE24,
0.011885708333333,0,0xE5B9,
0.011893541666667,0,0xBF24,
0.011909250000000,0,0xE5D2,
0.011917125000000,0,0xC024,
0.011948666666667,0,0x000A,
0.011956333333333,0,0x4129,
0.011972583333333,0,0xDB6C,
0.011980458333333,0,0xC124,
0.011996166666667,0,0xDC75,
0.012004000000000,0,0xC224,
0.012019708333333,0,0xDF41,
0.012027583333333,0,0xC324,
0.012043291666667,0,0xE120,
0.012051125000000,0,0xC424,
0.012066833333333,0,0xA97E,
0.012074708333333,0,0xC524,
0.012090416666667,0,0xFF4A,
0.012098250000000,0,0xC624,
0.012113958333333,0,0xC015,
0.012121833333333,0,0xC724,
0.012137541666667,0,0xA3B8,
0.012145416666667,0,0xC824,
0.012161083333333,0,0x9E3A,
0.012168958333333,0,0xC924,
0.012184666666667,0,0x9E42,
0.012192500000000,0,0xCA24,
0.019882708333333,0,0x5C3F,
0.019890416666667,0,0x060F,
0.019918416666667,0,0x0004,
0.019926125000000,0,0x0311,
0.019942416666667,0,0x0A01,
0.019950333333333,0,0x8311,
0.019966166666667,0,0x0F00,
0.019974083333333,0,0x8411,
0.019989916666667,0,0x0000,
0.019997833333333,0,0x8515,
0.020013666666667,0,0x5F3F,
0.020021583333333,0,0x8611,
0.020051333333333,0,0x0004,
0.020059000000000,0,0x0315,
0.020075041666667,0,0x0A01,
0.020082958333333,0,0x8315,
0.020098791666667,0,0x0F00,
0.020106708333333,0,0x8415,
0.020122541666667,0,0x0000,
0.020130458333333,0,0x8515,
0.020146333333333,0,0x5F3F,
0.020154250000000,0,0x8615,
0.020185083333333,0,0x0004,
0.020192750000000,0,0x0319,
0.020209208333333,0,0x0A01,
0.020217125000000,0,0x8319,
0.020232958333333,0,0x0F00,
0.020240916666667,0,0x8419,
0.020256708333333,0,0x0000,
0.020264666666667,0,0x8515,
0.020280500000000,0,0x5F3F,
0.020288416666667,0,0x8619,
0.020318541666667,0,0x0004,
0.020326250000000,0,0x031D,
0.020342375000000,0,0x0A01,
0.020350291666667,0,0x831D,
0.020366125000000,0,0x0F00,
0.020374041666667,0,0x841D,
0.020389875000000,0,0x0000,
0.020397833333333,0,0x8515,
0.020413666666667,0,0x5F3F,
0.020421583333333,0,0x861D,
0.020451833333333,0,0x0004,
0.020459541666667,0,0x0311,
0.020475500000000,0,0x0A01,
0.020483416666667,0,0x8311,
0.020499291666667,0,0x0F00,
0.020507166666667,0,0x8411,
0.020523041666667,0,0x0000,
0.020530958333333,0,0x8515,
0.020546791666667,0,0x573F,
0.020554708333333,0,0x8611,
0.020585541666667,0,0x0001,
0.020593250000000,0,0x1D15,
0.020609625000000,0,0x1551,
0.020617541666667,0,0x9D15,
0.020645708333333,0,0x0003,
0.020653416666667,0,0x2419,
0.020669500000000,0,0x0048,
0.020677375000000,0,0xA415,
0.020693250000000,0,0x0040,
0.020701166666667,0,0xA515,
0.020717000000000,0,0x8000,
0.020724916666667,0,0xA615,
0.020753166666667,0,0x0005,
0.020760875000000,0,0x2D1D,
0.020777333333333,0,0xE77D,
0.020785291666667,0,0xAD15,
0.020801083333333,0,0xFFED,
0.020809000000000,0,0xAE15,
0.020824875000000,0,0xB97D,
0.020832791666667,0,0xAF15,
0.020848583333333,0,0xFFFF,
0.020856541666667,0,0xB015,
0.020872375000000,0,0x830E,
0.020880291666667,0,0xB115,
0.020910875000000,0,0x0006,
0.020918583333333,0,0x3B11,
0.020934708333333,0,0xB3DE,
0.020942583333333,0,0xBB15,
0.020958416666667,0,0xB328,
0.020966333333333,0,0xBC15,
0.020982166666667,0,0xB2BC,
0.020990083333333,0,0xBD15,
0.021005916666667,0,0xB1FD,
0.021013833333333,0,0xBE15,
0.021029666666667,0,0xB1FE,
0.021037583333333,0,0xBF15,
0.021053416666667,0,0xB271,
0.021061333333333,0,0xC015,
0.021091291666667,0,0x000A,
0.021098958333333,0,0x4115,
0.021115250000000,0,0xC0C6,
0.021123166666667,0,0xC115,
0.021139000000000,0,0xC0C4,
0.021146916666667,0,0xC215,
0.021162750000000,0,0xC0C8,
0.021170666666667,0,0xC315,
0.021186541666667,0,0xC088,
0.021194416666667,0,0xC415,
0.021210250000000,0,0xC0AD,
0.021218208333333,0,0xC515,
0.021234041666667,0,0xDD1C,
0.021241958333333,0,0xC615,
0.021257750000000,0,0x8049,
0.021265666666667,0,0xC715,
0.021281500000000,0,0xA3D6,
0.021289416666667,0,0xC815,
0.021305250000000,0,0x9E3A,
0.021313166666667,0,0xC915,
0.021329000000000,0,0x9E36,
0.021336958333333,0,0xCA15,
0.021369125000000,0,0x0004,
0.021376791666667,0,0x0329,
0.021393083333333,0,0x0A01,
0.021400916666667,0,0x8329,
0.021416625000000,0,0x0F00,
0.021424500000000,0,0x8429,
0.021440208333333,0,0x0000,
0.021448083333333,0,0x8525,
0.021463791666667,0,0x573F,
0.021471625000000,0,0x8629,
0.021501666666667,0,0x0001,
0.021509333333333,0,0x1D2D,
0.021525666666667,0,0x0055,
0.021533500000000,0,0x9D2D,
0.021561833333333,0,0x0003,
0.021569541666667,0,0x2421,
0.021585541666667,0,0x004C,
0.021593416666667,0,0xA425,
0.021609125000000,0,0x0040,
0.021616958333333,0,0xA525,
0.021632708333333,0,0x8000,
0.021640541666667,0,0xA625,
0.021669958333333,0,0x0005,
0.021677666666667,0,0x2D25,
0.021694041666667,0,0xF540,
0.021701916666667,0,0xAD25,
0.021717625000000,0,0xFFF0,
0.021725500000000,0,0xAE25,
0.021741208333333,0,0x22E6,
0.021749083333333,0,0xAF25,
0.021764791666667,0,0xFFFF,
0.021772625000000,0,0xB025,
0.021788333333333,0,0x8306,
0.021796166666667,0,0xB125,
0.021826666666667,0,0x0006,
0.021834375000000,0,0x3B29,
0.021850666666667,0,0xE511,
0.021858541666667,0,0xBB25,
0.021874250000000,0,0x8000,
0.021882125000000,0,0xBC25,
0.021897833333333,0,0x8000,
0.021905666666667,0,0xBD25,
0.021921375000000,0,0x8002,
0.021929250000000,0,0xBE25,
0.021944958333333,0,0xE5BB,
0.021952791666667,0,0xBF25,
0.021968541666667,0,0xE5D5,
0.021976375000000,0,0xC025,
0.022006708333333,0,0x000A,
0.022014416666667,0,0x412D,
0.022030416666667,0,0xDB69,
0.022038250000000,0,0xC125,
0.022053958333333,0,0xDC72,
0.022061833333333,0,0xC225,
0.022077541666667,0,0xDF3E,
0.022085416666667,0,0xC325,
0.022101125000000,0,0xE121,
0.022108958333333,0,0xC425,
0.022124708333333,0,0xA97A,
0.022132541666667,0,0xC525,
0.022148291666667,0,0xFF49,
0.022156125000000,0,0xC625,
0.022171833333333,0,0xC015,
0.022179708333333,0,0xC725,
0.022195416666667,0,0xA3B8,
0.022203250000000,0,0xC825,
0.022218958333333,0,0x9E38,
0.022226833333333,0,0xC925,
0.022242541666667,0,0x9E3A,
0.022250375000000,0,0xCA25,
0.029845166666667,0,0x6C3F,
0.029852875000000,0,0x0603,
0.029880750000000,0,0x0004,
0.029888416666667,0,0x0315,
0.029904625000000,0,0x0A01,
0.029912541666667,0,0x8315,
0.029928375000000,0,0x0F00,
0.029936291666667,0,0x8415,
0.029952125000000,0,0x0000,
0.029960041666667,0,0x8516,
0.029975875000000,0,0x6F3F,
0.029983791666667,0,0x8615,
0.030015166666667,0,0x0004,
0.030022875000000,0,0x0319,
0.030039250000000,0,0x0A01,
0.030047125000000,0,0x8319,
0.030062958333333,0,0x0F00,
0.030070916666667,0,0x8419,
0.030086750000000,0,0x0000,
0.030094666666667,0,0x8516,
0.030110500000000,0,0x6F3F,
0.030118416666667,0,0x8619,
0.030149166666667,0,0x0004,
0.030156875000000,0,0x031D,
0.030172833333333,0,0x0A01,
0.030180791666667,0,0x831D,
0.030196583333333,0,0x0F00,
0.030204541666667,0,0x841D,
0.030220375000000,0,0x0000,
0.030228291666667,0,0x8516,
0.030244125000000,0,0x6F3F,
0.030252041666667,0,0x861D,
0.030282666666667,0,0x0004,
0.030290333333333,0,0x0311,
0.030306500000000,0,0x0A01,
0.030314375000000,0,0x8311,
0.030330250000000,0,0x0F00,
0.030338166666667,0,0x8411,
0.030354000000000,0,0x0000,
0.030361916666667,0,0x8516,
0.030377750000000,0,0x6F3F,
0.030385666666667,0,0x8611,
0.030416291666667,0,0x0004,
0.030424000000000,0,0x0315,
0.030440083333333,0,0x0A01,
0.030448000000000,0,0x8315,
0.030463833333333,0,0x0F00,
0.030471750000000,0,0x8415,
0.030487583333333,0,0x0000,
0.030495500000000,0,0x8516,
0.030511333333333,0,0x673F,
0.030519250000000,0,0x8615,
0.030549416666667,0,0x0001,
0.030557083333333,0,0x1D19,
0.030573166666667,0,0x1551,
0.030581083333333,0,0x9D19,
0.030609083333333,0,0x0003,
0.030616750000000,0,0x241D,
0.030633041666667,0,0x0048,
0.030640958333333,0,0xA416,
0.030656791666667,0,0x0040,
0.030664708333333,0,0xA516,
0.030680541666667,0,0x8000,
0.030688458333333,0,0xA616,
0.030717166666667,0,0x0005,
0.030724833333333,0,0x2D11,
0.030740916666667,0,0xE886,
0.030748833333333,0,0xAD16,
0.030764666666667,0,0xFFED,
0.030772583333333,0,0xAE16,
0.030788375000000,0,0xB6A7,
0.030796333333333,0,0xAF16,
0.030812166666667,0,0xFFFF,
0.030820083333333,0,0xB016,
0.030835916666667,0,0x830A,
0.030843833333333,0,0xB116,
0.030873916666667,0,0x0006,
0.030881625000000,0,0x3B15,
0.030897750000000,0,0xB3DE,
0.030905666666667,0,0xBB16,
0.030921500000000,0,0xB327,
0.030929416666667,0,0xBC16,
0.030945250000000,0,0xB2BC,
0.030953166666667,0,0xBD16,
0.030969000000000,0,0xB1FE,
0.030976916666667,0,0xBE16,
0.030992750000000,0,0xB1FC,
0.031000666666667,0,0xBF16,
0.031016500000000,0,0xB26F,
0.031024416666667,0,0xC016,
0.031054625000000,0,0x000A,
0.031062291666667,0,0x4119,
0.031078291666667,0,0xC0C5,
0.031086250000000,0,0xC116,
0.031102083333333,0,0xC0C5,
0.031109958333333,0,0xC216,
0.031125791666667,0,0xC0C2,
0.031133708333333,0,0xC316,
0.031149541666667,0,0xC084,
0.031157458333333,0,0xC416,
0.031173291666667,0,0xC0A8,
0.031181208333333,0,0xC516,
0.031197041666667,0,0xDD18,
0.031204958333333,0,0xC616,
0.031220791666667,0,0x8044,
0.031228708333333,0,0xC716,
0.031244541666667,0,0xA3D2,
0.031252458333333,0,0xC816,
0.031268291666667,0,0x9E37,
0.031276208333333,0,0xC916,
0.031292041666667,0,0x9E39,
0.031299958333333,0,0xCA16,
0.031331875000000,0,0x0004,
0.031339541666667,0,0x032D,
0.031355625000000,0,0x0A01,
0.031363458333333,0,0x832D,
0.031379166666667,0,0x0F00,
0.031387041666667,0,0x842D,
0.031402750000000,0,0x0000,
0.031410583333333,0,0x8526,
0.031426291666667,0,0x673F,
0.031434166666667,0,0x862D,
0.031464041666667,0,0x0001,
0.031471708333333,0,0x1D21,
0.031487666666667,0,0x0055,
0.031495541666667,0,0x9D21,
0.031523875000000,0,0x0003,
0.031531541666667,0,0x2425,
0.031547583333333,0,0x004C,
0.031555458333333,0,0xA426,
0.031571166666667,0,0x0040,
0.031579000000000,0,0xA526,
0.031594708333333,0,0x8000,
0.031602541666667,0,0xA626,
0.031631375000000,0,0x0005,
0.031639083333333,0,0x2D29,
0.031655083333333,0,0xF64B,
0.031662958333333,0,0xAD26,
0.031678666666667,0,0xFFF0,
0.031686541666667,0,0xAE26,
0.031702250000000,0,0x2035,
0.031710083333333,0,0xAF26,
0.031725791666667,0,0x8000,
0.031733625000000,0,0xB026,
0.031749375000000,0,0x8301,
0.031757208333333,0,0xB126,
0.031787208333333,0,0x0006,
0.031794875000000,0,0x3B2D,
0.031811208333333,0,0xE517,
0.031819083333333,0,0xBB26,
0.031834791666667,0,0x8000,
0.031842666666667,0,0xBC26,
0.031858375000000,0,0x8000,
0.031866208333333,0,0xBD26,
0.031881958333333,0,0x8001,
0.031889791666667,0,0xBE26,
0.031905500000000,0,0xE5BC,
0.031913375000000,0,0xBF26,
0.031929041666667,0,0xE5D7,
0.031936916666667,0,0xC026,
0.031967000000000,0,0x000A,
0.031974666666667,0,0x4121,
0.031990916666667,0,0xDB6C,
0.031998791666667,0,0xC126,
0.032014500000000,0,0xDC75,
0.032022333333333,0,0xC226,
0.032038041666667,0,0xDF41,
0.032045916666667,0,0xC326,
0.032061625000000,0,0xE120,
0.032069458333333,0,0xC426,
0.032085208333333,0,0xA980,
0.032093041666667,0,0xC526,
0.032108750000000,0,0xFF49,
0.032116625000000,0,0xC626,
0.032132333333333,0,0xC016,
0.032140166666667,0,0xC726,
0.032155875000000,0,0xA3B4,
0.032163750000000,0,0xC826,
0.032179458333333,0,0x9E3D,
0.032187291666667,0,0xC926,
0.032203000000000,0,0x9E41,
0.032210875000000,0,0xCA26,
0.040010833333333,0,0x7C3F,
0.040018541666667,0,0x0607,
0.040046416666667,0,0x0004,
0.040054083333333,0,0x0319,
0.040070250000000,0,0x0A01,
0.040078166666667,0,0x8319,
0.040094000000000,0,0x0F00,
0.040101916666667,0,0x8419,
0.040117750000000,0,0x0000,
0.040125666666667,0,0x8517,
0.040141500000000,0,0x7F3F,
0.040149416666667,0,0x8619,
0.040179708333333,0,0x0004,
0.040187375000000,0,0x031D,
0.040203375000000,0,0x0A01,
0.040211291666667,0,0x831D,
0.040227166666667,0,0x0F00,
0.040235041666667,0,0x841D,
0.040250916666667,0,0x0000,
0.040258791666667,0,0x8517,
0.040274666666667,0,0x7F3F,
0.040282541666667,0,0x861D,
0.040313791666667,0,0x0004,
0.040321458333333,0,0x0311,
0.040337500000000,0,0x0A01,
0.040345416666667,0,0x8311,
0.040361250000000,0,0x0F00,
0.040369208333333,0,0x8411,
0.040385041666667,0,0x0000,
0.040392958333333,0,0x8517,
0.040408791666667,0,0x7F3F,
0.040416708333333,0,0x8611,
0.040448083333333,0,0x0004,
0.040455791666667,0,0x0315,
0.040472166666667,0,0x0A01,
0.040480083333333,0,0x8315,
0.040495916666667,0,0x0F00,
0.040503875000000,0,0x8415,
0.040519666666667,0,0x0000,
0.040527625000000,0,0x8517,
0.040543416666667,0,0x7F3F,
0.040551375000000,0,0x8615,
0.040581708333333,0,0x0004,
0.040589375000000,0,0x0319,
0.040605750000000,0,0x0A01,
0.040613708333333,0,0x8319,
0.040629541666667,0,0x0F00,
0.040637416666667,0,0x8419,
0.040653250000000,0,0x0000,
0.040661166666667,0,0x8517,
0.040677000000000,0,0x773F,
0.040684916666667,0,0x8619,
0.040715375000000,0,0x0001,
0.040723083333333,0,0x1D1D,
0.040739333333333,0,0x1551,
0.040747291666667,0,0x9D1D,
0.040776041666667,0,0x0003,
0.040783708333333,0,0x2411,
0.040799708333333,0,0x0048,
0.040807625000000,0,0xA417,
0.040823458333333,0,0x0040,
0.040831375000000,0,0xA517,
0.040847208333333,0,0x8000,
0.040855125000000,0,0xA617,
0.040883958333333,0,0x0005,
0.040891625000000,0,0x2D15,
0.040908083333333,0,0xE994,
0.040916000000000,0,0xAD17,
0.040931833333333,0,0xFFED,
0.040939750000000,0,0xAE17,
0.040955583333333,0,0xB3A5,
0.040963500000000,0,0xAF17,
0.040979333333333,0,0xFFFF,
0.040987250000000,0,0xB017,
0.041003083333333,0,0x830C,
0.041011000000000,0,0xB117,
0.041041333333333,0,0x0006,
0.041049041666667,0,0x3B19,
0.041065416666667,0,0xB3E5,
0.041073333333333,0,0xBB17,
0.041089166666667,0,0xB32C,
0.041097083333333,0,0xBC17,
0.041112916666667,0,0xB2C2,
0.041120833333333,0,0xBD17,
0.041136666666667,0,0xB204,
0.041144583333333,0,0xBE17,
0.041160458333333,0,0xB201,
0.041168333333333,0,0xBF17,
0.041184166666667,0,0xB273,
0.041192125000000,0,0xC017,
0.041222833333333,0,0x000A,
0.041230500000000,0,0x411D,
0.041246541666667,0,0xC0C1,
0.041254458333333,0,0xC117,
0.041270291666667,0,0xC0C2,
0.041278250000000,0,0xC217,
0.041294083333333,0,0xC0C0,
0.041302000000000,0,0xC317,
0.041317833333333,0,0xC081,
0.041325750000000,0,0xC417,
0.041341583333333,0,0xC0A7,
0.041349500000000,0,0xC517,
0.041365333333333,0,0xDD15,
0.041373250000000,0,0xC617,
0.041389083333333,0,0x8044,
0.041397000000000,0,0xC717,
0.041412833333333,0,0xA3D5,
0.041420750000000,0,0xC817,
0.041436583333333,0,0x9E37,
0.041444500000000,0,0xC917,
0.041460333333333,0,0x9E3A,
0.041468250000000,0,0xCA17,
0.041500541666667,0,0x0004,
0.041508208333333,0,0x0321,
0.041524333333333,0,0x0A01,
0.041532208333333,0,0x8321,
0.041547875000000,0,0x0F00,
0.041555750000000,0,0x8421,
0.041571458333333,0,0x0000,
0.041579333333333,0,0x8527,
0.041595041666667,0,0x773F,
0.041602875000000,0,0x8621,
0.041633125000000,0,0x0001,
0.041640791666667,0,0x1D25,
0.041656916666667,0,0x0055,
0.041664750000000,0,0x9D25,
0.041692416666667,0,0x0003,
0.041700083333333,0,0x2429,
0.041716291666667,0,0x004C,
0.041724125000000,0,0xA427,
0.041739833333333,0,0x0040,
0.041747708333333,0,0xA527,
0.041763416666667,0,0x8000,
0.041771291666667,0,0xA627,
0.041800208333333,0,0x0005,
0.041807875000000,0,0x2D2D,
0.041823833333333,0,0xF75C,
0.041831666666667,0,0xAD27,
0.041847375000000,0,0xFFF0,
0.041855250000000,0,0xAE27,
0.041870958333333,0,0x1DD5,
0.041878833333333,0,0xAF27,
0.041894541666667,0,0x8000,
0.041902416666667,0,0xB027,
0.041918083333333,0,0x8301,
0.041925958333333,0,0xB127,
0.041955916666667,0,0x0006,
0.041963625000000,0,0x3B21,
0.041979958333333,0,0xE51A,
0.041987833333333,0,0xBB27,
0.042003500000000,0,0x8001,
0.042011375000000,0,0xBC27,
0.042027083333333,0,0x8000,
0.042034916666667,0,0xBD27,
0.042050625000000,0,0x8001,
0.042058500000000,0,0xBE27,
0.042074208333333,0,0xE5BA,
0.042082083333333,0,0xBF27,
0.042097791666667,0,0xE5D5,
0.042105625000000,0,0xC027,
0.042135333333333,0,0x000A,
0.042143041666667,0,0x4125,
0.042159125000000,0,0xDB69,
0.042167000000000,0,0xC127,
0.042182708333333,0,0xDC72,
0.042190541666667,0,0xC227,
0.042206291666667,0,0xDF3C,
0.042214125000000,0,0xC327,
0.042229833333333,0,0xE126,
0.042237708333333,0,0xC427,
0.042253416666667,0,0xA981,
0.042261291666667,0,0xC527,
0.042277000000000,0,0xFF4A,
0.042284875000000,0,0xC627,
0.042300541666667,0,0xC015,
0.042308416666667,0,0xC727,
0.042324125000000,0,0xA3B9,
0.042331958333333,0,0xC827,
0.042347708333333,0,0x9E3B,
0.042355541666667,0,0xC927,
0.042371291666667,0,0x9E3B,
0.042379125000000,0,0xCA27,
0.049822333333333,0,0x8C3F,
0.049830041666667,0,0x060B,
0.049856916666667,0,0x0004,
0.049864583333333,0,0x031D,
0.049880750000000,0,0x0A01,
0.049888666666667,0,0x831D,
0.049904500000000,0,0x0F00,
0.049912416666667,0,0x841D,
0.049928250000000,0,0x0000,
0.049936166666667,0,0x8518,
0.049952000000000,0,0x8F3F,
0.049959916666667,0,0x861D,
0.049990375000000,0,0x0004,
0.049998041666667,0,0x0311,
0.050014375000000,0,0x0A01,
0.050022291666667,0,0x8311,
0.050038125000000,0,0x0F00,
0.050046041666667,0,0x8411,
0.050061916666667,0,0x0000,
0.050069833333333,0,0x8518,
0.050085666666667,0,0x8F3F,
0.050093583333333,0,0x8611,
0.050124208333333,0,0x0004,
0.050131875000000,0,0x0315,
0.050148041666667,0,0x0A01,
0.050155958333333,0,0x8315,
0.050171791666667,0,0x0F00,
0.050179708333333,0,0x8415,
0.050195541666667,0,0x0000,
0.050203458333333,0,0x8518,
0.050219291666667,0,0x8F3F,
0.050227250000000,0,0x8615,
0.050258375000000,0,0x0004,
0.050266041666667,0,0x0319,
0.050282166666667,0,0x0A01,
0.050290083333333,0,0x8319,
0.050305958333333,0,0x0F00,
0.050313833333333,0,0x8419,
0.050329708333333,0,0x0000,
0.050337625000000,0,0x8518,
0.050353458333333,0,0x8F3F,
0.050361375000000,0,0x8619,
0.050392916666667,0,0x0004,
0.050400625000000,0,0x031D,
0.050416833333333,0,0x0A01,
0.050424708333333,0,0x831D,
0.050440583333333,0,0x0F00,
0.050448458333333,0,0x841D,
0.050464333333333,0,0x0000,
0.050472250000000,0,0x8518,
0.050488083333333,0,0x873F,
0.050496000000000,0,0x861D,
0.050525750000000,0,0x0001,
0.050533458333333,0,0x1D11,
0.050549458333333,0,0x1551,
0.050557333333333,0,0x9D11,
0.050585458333333,0,0x0003,
0.050593125000000,0,0x2415,
0.050609333333333,0,0x0048,
0.050617250000000,0,0xA418,
0.050633083333333,0,0x0040,
0.050641000000000,0,0xA518,
0.050656833333333,0,0x8000,
0.050664750000000,0,0xA618,
0.050693875000000,0,0x0005,
0.050701541666667,0,0x2D19,
0.050717666666667,0,0xEA99,
0.050725583333333,0,0xAD18,
0.050741416666667,0,0xFFED,
0.050749333333333,0,0xAE18,
0.050765166666667,0,0xB05C,
0.050773083333333,0,0xAF18,
0.050788916666667,0,0x8000,
0.050796833333333,0,0xB018,
0.050812666666667,0,0x8306,
0.050820583333333,0,0xB118,
0.050851083333333,0,0x0006,
0.050858750000000,0,0x3B1D,
0.050875000000000,0,0xB3DE,
0.050882916666667,0,0xBB18,
0.050898750000000,0,0xB328,
0.050906666666667,0,0xBC18,
0.050922500000000,0,0xB2BF,
0.050930416666667,0,0xBD18,
0.050946250000000,0,0xB1FE,
0.050954166666667,0,0xBE18,
0.050970000000000,0,0xB1FC,
0.050977916666667,0,0xBF18,
0.050993750000000,0,0xB26E,
0.051001666666667,0,0xC018,
0.051032166666667,0,0x000A,
0.051039833333333,0,0x4111,
0.051056083333333,0,0xC0C3,
0.051064000000000,0,0xC118,
0.051079833333333,0,0xC0C7,
0.051087750000000,0,0xC218,
0.051103583333333,0,0xC0C5,
0.051111500000000,0,0xC318,
0.051127333333333,0,0xC087,
0.051135250000000,0,0xC418,
0.051151083333333,0,0xC0A8,
0.051159000000000,0,0xC518,
0.051174833333333,0,0xDD1A,
0.051182750000000,0,0xC618,
0.051198583333333,0,0x804A,
0.051206500000000,0,0xC718,
0.051222333333333,0,0xA3D6,
0.051230250000000,0,0xC818,
0.051246083333333,0,0x9E39,
0.051254000000000,0,0xC918,
0.051269833333333,0,0x9E39,
0.051277750000000,0,0xCA18,
0.051309541666667,0,0x0004,
0.051317208333333,0,0x0325,
0.051333166666667,0,0x0A01,
0.051341041666667,0,0x8325,
0.051356750000000,0,0x0F00,
0.051364583333333,0,0x8425,
0.051380291666667,0,0x0000,
0.051388166666667,0,0x8528,
0.051403875000000,0,0x873F,
0.051411750000000,0,0x8625,
0.051442458333333,0,0x0001,
0.051450125000000,0,0x1D29,
0.051466250000000,0,0x0055,
0.051474083333333,0,0x9D29,
0.051501916666667,0,0x0003,
0.051509625000000,0,0x242D,
0.051525625000000,0,0x004C,
0.051533500000000,0,0xA428,
0.051549208333333,0,0x0040,
0.051557083333333,0,0xA528,
0.051572791666667,0,0x8000,
0.051580625000000,0,0xA628,
0.051609375000000,0,0x0005,
0.051617083333333,0,0x2D21,
0.051633166666667,0,0xF862,
0.051641041666667,0,0xAD28,
0.051656750000000,0,0xFFF0,
0.051664625000000,0,0xAE28,
0.051680333333333,0,0x1C4C,
0.051688166666667,0,0xAF28,
0.051703875000000,0,0xFFFF,
0.051711750000000,0,0xB028,
0.051727458333333,0,0x830F,
0.051735333333333,0,0xB128,
0.051766291666667,0,0x0006,
0.051773958333333,0,0x3B25,
0.051790333333333,0,0xE518,
0.051798166666667,0,0xBB28,
0.051813875000000,0,0x8001,
0.051821750000000,0,0xBC28,
0.051837458333333,0,0x8000,
0.051845333333333,0,0xBD28,
0.051861000000000,0,0x8001,
0.051868875000000,0,0xBE28,
0.051884583333333,0,0xE5BA,
0.051892458333333,0,0xBF28,
0.051908166666667,0,0xE5CF,
0.051916041666667,0,0xC028,
0.051946583333333,0,0x000A,
0.051954250000000,0,0x4129,
0.051970541666667,0,0xDB6A,
0.051978375000000,0,0xC128,
0.051994125000000,0,0xDC6E,
0.052001958333333,0,0xC228,
0.052017666666667,0,0xDF40,
0.052025541666667,0,0xC328,
0.052041250000000,0,0xE11F,
0.052049083333333,0,0xC428,
0.052064791666667,0,0xA97F,
0.052072666666667,0,0xC528,
0.052088375000000,0,0xFF4A,
0.052096208333333,0,0xC628,
0.052111958333333,0,0xC015,
0.052119791666667,0,0xC728,
0.052135500000000,0,0xA3B8,
0.052143375000000,0,0xC828,
0.052159083333333,0,0x9E37,
0.052166916666667,0,0xC928,
0.052182666666667,0,0x9E41,
0.052190500000000,0,0xCA28,
0.059851208333333,0,0x9C3F,
0.059858875000000,0,0x060F,
0.059885875000000,0,0x0004,
0.059893541666667,0,0x0311,
0.059909958333333,0,0x0A01,
0.059917875000000,0,0x8311,
0.059933750000000,0,0x0F00,
0.059941625000000,0,0x8411,
0.059957500000000,0,0x0000,
0.059965416666667,0,0x8519,
0.059981250000000,0,0x9F3F,
0.059989166666667,0,0x8611,
0.060019708333333,0,0x0004,
0.060027375000000,0,0x0315,
0.060043625000000,0,0x0A01,
0.060051541666667,0,0x8315,
0.060067375000000,0,0x0F00,
0.060075291666667,0,0x8415,
0.060091125000000,0,0x0000,
0.060099041666667,0,0x8519,
0.060114875000000,0,0x9F3F,
0.060122791666667,0,0x8615,
0.060153875000000,0,0x0004,
0.060161583333333,0,0x0319,
0.060177750000000,0,0x0A01,
0.060185666666667,0,0x8319,
0.060201500000000,0,0x0F00,
0.060209416666667,0,0x8419,
0.060225250000000,0,0x0000,
0.060233208333333,0,0x8519,
0.060249041666667,0,0x9F3F,
0.060256958333333,0,0x8619,
0.060287833333333,0,0x0004,
0.060295500000000,0,0x031D,
0.060311916666667,0,0x0A01,
0.060319833333333,0,0x831D,
0.060335666666667,0,0x0F00,
0.060343583333333,0,0x841D,
0.060359416666667,0,0x0000,
0.060367375000000,0,0x8519,
0.060383208333333,0,0x9F3F,
0.060391083333333,0,0x861D,
0.060421416666667,0,0x0004,
0.060429083333333,0,0x0311,
0.060445541666667,0,0x0A01,
0.060453458333333,0,0x8311,
0.060469291666667,0,0x0F00,
0.060477208333333,0,0x8411,
0.060493041666667,0,0x0000,
0.060500958333333,0,0x8519,
0.060516791666667,0,0x973F,
0.060524708333333,0,0x8611,
0.060555708333333,0,0x0001,
0.060563416666667,0,0x1D15,
0.060579625000000,0,0x1551,
0.060587541666667,0,0x9D15,
0.060615750000000,0,0x0003,
0.060623416666667,0,0x2419,
0.060639500000000,0,0x0048,
0.060647416666667,0,0xA419,
0.060663250000000,0,0x0040,
0.060671166666667,0,0xA519,
0.060687000000000,0,0x8000,
0.060694916666667,0,0xA619,
0.060723958333333,0,0x0005,
0.060731625000000,0,0x2D1D,
0.060747833333333,0,0xEBA4,
0.060755750000000,0,0xAD19,
0.060771583333333,0,0xFFED,
0.060779500000000,0,0xAE19,
0.060795333333333,0,0xAE1E,
0.060803291666667,0,0xAF19,
0.060819125000000,0,0xFFFF,
0.060827041666667,0,0xB019,
0.060842875000000,0,0x830E,
0.060850791666667,0,0xB119,
0.060880750000000,0,0x0006,
0.060888416666667,0,0x3B11,
0.060904750000000,0,0xB3E3,
0.060912666666667,0,0xBB19,
0.060928500000000,0,0xB32E,
0.060936416666667,0,0xBC19,
0.060952250000000,0,0xB2BB,
0.060960125000000,0,0xBD19,
0.060976000000000,0,0xB1FC,
0.060983916666667,0,0xBE19,
0.060999750000000,0,0xB200,
0.061007625000000,0,0xBF19,
0.061023458333333,0,0xB275,
0.061031416666667,0,0xC019,
0.061060791666667,0,0x000A,
0.061068458333333,0,0x4115,
0.061084833333333,0,0xC0C4,
0.061092750000000,0,0xC119,
0.061108583333333,0,0xC0C4,
0.061116500000000,0,0xC219,
0.061132291666667,0,0xC0C3,
0.061140208333333,0,0xC319,
0.061156083333333,0,0xC084,
0.061164000000000,0,0xC419,
0.061179833333333,0,0xC0A9,
0.061187708333333,0,0xC519,
0.061203583333333,0,0xDD19,
0.061211500000000,0,0xC619,
0.061227333333333,0,0x8044,
0.061235250000000,0,0xC719,
0.061251083333333,0,0xA3D7,
0.061259000000000,0,0xC819,
0.061274833333333,0,0x9E37,
0.061282750000000,0,0xC919,
0.061298583333333,0,0x9E38,
0.061306500000000,0,0xCA19,
0.061338916666667,0,0x0004,
0.061346625000000,0,0x0329,
0.061362791666667,0,0x0A01,
0.061370666666667,0,0x8329,
0.061386375000000,0,0x0F00,
0.061394208333333,0,0x8429,
0.061409916666667,0,0x0000,
0.061417791666667,0,0x8529,
0.061433500000000,0,0x973F,
0.061441375000000,0,0x8629,
0.061470875000000,0,0x0001,
0.061478541666667,0,0x1D2D,
0.061494875000000,0,0x0055,
0.061502708333333,0,0x9D2D,
0.061531125000000,0,0x0003,
0.061538833333333,0,0x2421,
0.061555250000000,0,0x004C,
0.061563125000000,0,0xA429,
0.061578833333333,0,0x0040,
0.061586666666667,0,0xA529,
0.061602416666667,0,0x8000,
0.061610250000000,0,0xA629,
0.061639458333333,0,0x0005,
0.061647166666667,0,0x2D25,
0.061663291666667,0,0xF96F,
0.061671166666667,0,0xAD29,
0.061686875000000,0,0xFFF0,
0.061694708333333,0,0xAE29,
0.061710416666667,0,0x1986,
0.061718291666667,0,0xAF29,
0.061734000000000,0,0xFFFF,
0.061741875000000,0,0xB029,
0.061757583333333,0,0x830E,
0.061765416666667,0,0xB129,
0.061796250000000,0,0x0006,
0.061803958333333,0,0x3B29,
0.061819916666667,0,0xE516,
0.061827791666667,0,0xBB29,
0.061843500000000,0,0x8000,
0.061851375000000,0,0xBC29,
0.061867083333333,0,0x8002,
0.061874916666667,0,0xBD29,
0.061890625000000,0,0x8000,
0.061898500000000,0,0xBE29,
0.061914208333333,0,0xE5BB,
0.061922083333333,0,0xBF29,
0.061937791666667,0,0xE5D3,
0.061945625000000,0,0xC029,
0.061975958333333,0,0x000A,
0.061983625000000,0,0x412D,
0.061999625000000,0,0xDB6B,
0.062007500000000,0,0xC129,
0.062023208333333,0,0xDC75,
0.062031083333333,0,0xC229,
0.062046791666667,0,0xDF41,
0.062054625000000,0,0xC329,
0.062070333333333,0,0xE122,
0.062078208333333,0,0xC429,
0.062093916666667,0,0xA97E,
0.062101791666667,0,0xC529,
0.062117500000000,0,0xFF4C,
0.062125333333333,0,0xC629,
0.062141083333333,0,0xC013,
0.062148916666667,0,0xC729,
0.062164625000000,0,0xA3B8,
0.062172500000000,0,0xC829,
0.062188208333333,0,0x9E38,
0.062196041666667,0,0xC929,
0.062211750000000,0,0x9E3A,
0.062219625000000,0,0xCA29,
0.069831000000000,0,0xAC3F,
0.069838708333333,0,0x0603,
0.069866208333333,0,0x0004,
0.069873875000000,0,0x0315,
0.069890291666667,0,0x0A01,
0.069898208333333,0,0x8315,
0.069914041666667,0,0x0F00,
0.069921958333333,0,0x8415,
0.069937791666667,0,0x0000,
0.069945708333333,0,0x851A,
0.069961541666667,0,0xAF3F,
0.069969458333333,0,0x8615,
0.070000291666667,0,0x0004,
0.070007958333333,0,0x0319,
0.070024375000000,0,0x0A01,
0.070032250000000,0,0x8319,
0.070048083333333,0,0x0F00,
0.070056041666667,0,0x8419,
0.070071833333333,0,0x0000,
0.070079750000000,0,0x851A,
0.070095583333333,0,0xAF3F,
0.070103541666667,0,0x8619,
0.070134458333333,0,0x0004,
0.070142125000000,0,0x031D,
0.070158416666667,0,0x0A01,
0.070166375000000,0,0x831D,
0.070182166666667,0,0x0F00,
0.070190125000000,0,0x841D,
0.070205958333333,0,0x0000,
0.070213875000000,0,0x851A,
0.070229708333333,0,0xAF3F,
0.070237583333333,0,0x861D,
0.070268791666667,0,0x0004,
0.070276458333333,0,0x0311,
0.070292541666667,0,0x0A01,
0.070300458333333,0,0x8311,
0.070316250000000,0,0x0F00,
0.070324208333333,0,0x8411,
0.070340000000000,0,0x0000,
0.070347916666667,0,0x851A,
0.070363750000000,0,0xAF3F,
0.070371708333333,0,0x8611,
0.070403583333333,0,0x0004,
0.070411250000000,0,0x0315,
0.070427583333333,0,0x0A01,
0.070435458333333,0,0x8315,
0.070451291666667,0,0x0F00,
0.070459208333333,0,0x8415,
0.070475041666667,0,0x0000,
0.070482958333333,0,0x851A,
0.070498750000000,0,0xA73F,
0.070506708333333,0,0x8615,
0.070537000000000,0,0x0001,
0.070544666666667,0,0x1D19,
0.070561083333333,0,0x1551,
0.070569000000000,0,0x9D19,
0.070597041666667,0,0x0003,
0.070604750000000,0,0x241D,
0.070620958333333,0,0x0048,
0.070628875000000,0,0xA41A,
0.070644708333333,0,0x0040,
0.070652625000000,0,0xA51A,
0.070668458333333,0,0x8000,
0.070676375000000,0,0xA61A,
0.070704875000000,0,0x0005,
0.070712541666667,0,0x2D11,
0.070728791666667,0,0xECAD,
0.070736750000000,0,0xAD1A,
0.070752541666667,0,0xFFED,
0.070760458333333,0,0xAE1A,
0.070776291666667,0,0xACB9,
0.070784208333333,0,0xAF1A,
0.070800041666667,0,0x8000,
0.070807958333333,0,0xB01A,
0.070823791666667,0,0x8301,
0.070831708333333,0,0xB11A,
0.070862041666667,0,0x0006,
0.070869750000000,0,0x3B15,
0.070886125000000,0,0xB3E5,
0.070894041666667,0,0xBB1A,
0.070909875000000,0,0xB330,
0.070917791666667,0,0xBC1A,
0.070933625000000,0,0xB2BD,
0.070941541666667,0,0xBD1A,
0.070957375000000,0,0xB1FD,
0.070965291666667,0,0xBE1A,
0.070981125000000,0,0xB1FE,
0.070989041666667,0,0xBF1A,
0.071004875000000,0,0xB275,
0.071012791666667,0,0xC01A,
0.071043541666667,0,0x000A,
0.071051250000000,0,0x4119,
0.071067708333333,0,0xC0C4,
0.071075625000000,0,0xC11A,
0.071091458333333,0,0xC0C2,
0.071099375000000,0,0xC21A,
0.071115208333333,0,0xC0C5,
0.071123125000000,0,0xC31A,
0.071138958333333,0,0xC083,
0.071146875000000,0,0xC41A,
0.071162708333333,0,0xC0A7,
0.071170625000000,0,0xC51A,
0.071186458333333,0,0xDD17,
0.071194416666667,0,0xC61A,
0.071210208333333,0,0x8045,
0.071218125000000,0,0xC71A,
0.071233958333333,0,0xA3D5,
0.071241875000000,0,0xC81A,
0.071257708333333,0,0x9E37,
0.071265625000000,0,0xC91A,
0.071281458333333,0,0x9E3A,
0.071289375000000,0,0xCA1A,
0.071321291666667,0,0x0004,
0.071328958333333,0,0x032D,
0.071345000000000,0,0x0A01,
0.071352833333333,0,0x832D,
0.071368541666667,0,0x0F00,
0.071376416666667,0,0x842D,
0.071392125000000,0,0x0000,
0.071399958333333,0,0x852A,
0.071415666666667,0,0xA73F,
0.071423541666667,0,0x862D,
0.071453291666667,0,0x0001,
0.071461000000000,0,0x1D21,
0.071477041666667,0,0x0055,
0.071484916666667,0,0x9D21,
0.071512750000000,0,0x0003,
0.071520458333333,0,0x2425,
0.071536416666667,0,0x004C,
0.071544291666667,0,0xA42A,
0.071560000000000,0,0x0040,
0.071567875000000,0,0xA52A,
0.071583583333333,0,0x8000,
0.071591416666667,0,0xA62A,
0.071620291666667,0,0x0005,
0.071627958333333,0,0x2D29,
0.071644000000000,0,0xFA7B,
0.071651833333333,0,0xAD2A,
0.071667541666667,0,0xFFF0,
0.071675416666667,0,0xAE2A,
0.071691083333333,0,0x176E,
0.071698958333333,0,0xAF2A,
0.071714666666667,0,0xFFFF,
0.071722541666667,0,0xB02A,
0.071738250000000,0,0x830D,
0.071746125000000,0,0xB12A,
0.071777000000000,0,0x0006,
0.071784666666667,0,0x3B2D,
0.071801083333333,0,0xE519,
0.071808958333333,0,0xBB2A,
0.071824666666667,0,0x8000,
0.071832500000000,0,0xBC2A,
0.071848250000000,0,0x8000,
0.071856083333333,0,0xBD2A,
0.071871791666667,0,0x8002,
0.071879666666667,0,0xBE2A,
0.071895375000000,0,0xE5BF,
0.071903208333333,0,0xBF2A,
0.071918958333333,0,0xE5D8,
0.071926791666667,0,0xC02A,
0.071956583333333,0,0x000A,
0.071964250000000,0,0x4121,
0.071980291666667,0,0xDB6B,
0.071988166666667,0,0xC12A,
0.072003875000000,0,0xDC6D,
0.072011750000000,0,0xC22A,
0.072027458333333,0,0xDF42,
0.072035291666667,0,0xC32A,
0.072051000000000,0,0xE124,
0.072058875000000,0,0xC42A,
0.072074583333333,0,0xA97F,
0.072082458333333,0,0xC52A,
0.072098166666667,0,0xFF4C,
0.072106000000000,0,0xC62A,
0.072121708333333,0,0xC016,
0.072129583333333,0,0xC72A,
0.072145291666667,0,0xA3B7,
0.072153166666667,0,0xC82A,
0.072168875000000,0,0x9E3B,
0.072176708333333,0,0xC92A,
0.072192416666667,0,0x9E41,
0.072200291666667,0,0xCA2A,
0.079843791666667,0,0xBC3F,
0.079851458333333,0,0x0607,
0.079878958333333,0,0x0004,
0.079886625000000,0,0x0319,
0.079902916666667,0,0x0A01,
0.079910833333333,0,0x8319,
0.079926666666667,0,0x0F00,
0.079934583333333,0,0x8419,
0.079950416666667,0,0x0000,
0.079958375000000,0,0x851B,
0.079974208333333,0,0xBF3F,
0.079982125000000,0,0x8619,
0.080013041666667,0,0x0004,
0.080020750000000,0,0x031D,
0.080037041666667,0,0x0A01,
0.080045000000000,0,0x831D,
0.080060833333333,0,0x0F00,
0.080068750000000,0,0x841D,
0.080084583333333,0,0x0000,
0.080092500000000,0,0x851B,
0.080108375000000,0,0xBF3F,
0.080116291666667,0,0x861D,
0.080146250000000,0,0x0004,
0.080153916666667,0,0x0311,
0.080170250000000,0,0x0A01,
0.080178166666667,0,0x8311,
0.080194000000000,0,0x0F00,
0.080201916666667,0,0x8411,
0.080217750000000,0,0x0000,
0.080225708333333,0,0x851B,
0.080241500000000,0,0xBF3F,
0.080249458333333,0,0x8611,
0.080281208333333,0,0x0004,
0.080288875000000,0,0x0315,
0.080305375000000,0,0x0A01,
0.080313291666667,0,0x8315,
0.080329125000000,0,0x0F00,
0.080337041666667,0,0x8415,
0.080352875000000,0,0x0000,
0.080360833333333,0,0x851B,
0.080376666666667,0,0xBF3F,
0.080384583333333,0,0x8615,
0.080415375000000,0,0x0004,
0.080423083333333,0,0x0319,
0.080439000000000,0,0x0A01,
0.080446916666667,0,0x8319,
0.080462750000000,0,0x0F00,
0.080470666666667,0,0x8419,
0.080486500000000,0,0x0000,
0.080494416666667,0,0x851B,
0.080510250000000,0,0xB73F,
0.080518166666667,0,0x8619,
0.080548500000000,0,0x0001,
0.080556166666667,0,0x1D1D,
0.080572583333333,0,0x1551,
0.080580500000000,0,0x9D1D,
0.080609041666667,0,0x0003,
0.080616708333333,0,0x2411,
0.080632958333333,0,0x0048,
0.080640875000000,0,0xA41B,
0.080656708333333,0,0x0040,
0.080664625000000,0,0xA51B,
0.080680458333333,0,0x8000,
0.080688375000000,0,0xA61B,
0.080717375000000,0,0x0005,
0.080725041666667,0,0x2D15,
0.080741333333333,0,0xEDB8,
0.080749250000000,0,0xAD1B,
0.080765083333333,0,0xFFED,
0.080773000000000,0,0xAE1B,
0.080788833333333,0,0xAA11,
0.080796750000000,0,0xAF1B,
0.080812583333333,0,0x8000,
0.080820541666667,0,0xB01B,
0.080836375000000,0,0x8300,
0.080844291666667,0,0xB11B,
0.080874791666667,0,0x0006,
0.080882500000000,0,0x3B19,
0.080898708333333,0,0xB3DE,
0.080906625000000,0,0xBB1B,
0.080922500000000,0,0xB32B,
0.080930375000000,0,0xBC1B,
0.080946208333333,0,0xB2BF,
0.080954166666667,0,0xBD1B,
0.080969958333333,0,0xB1FF,
0.080977875000000,0,0xBE1B,
0.080993708333333,0,0xB200,
0.081001625000000,0,0xBF1B,
0.081017458333333,0,0xB270,
0.081025375000000,0,0xC01B,
0.081055291666667,0,0x000A,
0.081062958333333,0,0x411D,
0.081079291666667,0,0xC0CA,
0.081087208333333,0,0xC11B,
0.081103041666667,0,0xC0C5,
0.081110958333333,0,0xC21B,
0.081126791666667,0,0xC0C9,
0.081134708333333,0,0xC31B,
0.081150541666667,0,0xC088,
0.081158458333333,0,0xC41B,
0.081174291666667,0,0xC0AC,
0.081182250000000,0,0xC51B,
0.081198083333333,0,0xDD1A,
0.081206000000000,0,0xC61B,
0.081221833333333,0,0x8046,
0.081229750000000,0,0xC71B,
0.081245583333333,0,0xA3D5,
0.081253500000000,0,0xC81B,
0.081269333333333,0,0x9E3C,
0.081277250000000,0,0xC91B,
0.081293083333333,0,0x9E3D,
0.081301000000000,0,0xCA1B,
0.081333666666667,0,0x0004,
0.081341375000000,0,0x0321,
0.081357833333333,0,0x0A01,
0.081365666666667,0,0x8321,
0.081381375000000,0,0x0F00,
0.081389250000000,0,0x8421,
0.081404958333333,0,0x0000,
0.081412833333333,0,0x852B,
0.081428541666667,0,0xB73F,
0.081436375000000,0,0x8621,
0.081466416666667,0,0x0001,
0.081474083333333,0,0x1D25,
0.081490416666667,0,0x0055,
0.081498250000000,0,0x9D25,
0.081526416666667,0,0x0003,
0.081534083333333,0,0x2429,
0.081550333333333,0,0x004C,
0.081558166666667,0,0xA42B,
0.081573875000000,0,0x0040,
0.081581750000000,0,0xA52B,
0.081597458333333,0,0x8000,
0.081605333333333,0,0xA62B,
0.081634125000000,0,0x0005,
0.081641791666667,0,0x2D2D,
0.081657833333333,0,0xFB87,
0.081665708333333,0,0xAD2B,
0.081681416666667,0,0xFFF0,
0.081689291666667,0,0xAE2B,
0.081705000000000,0,0x14FA,
0.081712833333333,0,0xAF2B,
0.081728583333333,0,0xFFFF,
0.081736416666667,0,0xB02B,
0.081752125000000,0,0x8309,
0.081760000000000,0,0xB12B,
0.081791208333333,0,0x0006,
0.081798875000000,0,0x3B21,
0.081815000000000,0,0xE517,
0.081822875000000,0,0xBB2B,
0.081838541666667,0,0x8001,
0.081846416666667,0,0xBC2B,
0.081862125000000,0,0x8006,
0.081870000000000,0,0xBD2B,
0.081885708333333,0,0x8003,
0.081893541666667,0,0xBE2B,
0.081909250000000,0,0xE5BB,
0.081917125000000,0,0xBF2B,
0.081932833333333,0,0xE5D7,
0.081940708333333,0,0xC02B,
0.081970458333333,0,0x000A,
0.081978125000000,0,0x4125,
0.081994208333333,0,0xDB68,
0.082002083333333,0,0xC12B,
0.082017791666667,0,0xDC72,
0.082025625000000,0,0xC22B,
0.082041333333333,0,0xDF3E,
0.082049208333333,0,0xC32B,
0.082064916666667,0,0xE125,
0.082072750000000,0,0xC42B,
0.082088458333333,0,0xA97C,
0.082096333333333,0,0xC52B,
0.082112041666667,0,0xFF48,
0.082119916666667,0,0xC62B,
0.082135625000000,0,0xC013,
0.082143458333333,0,0xC72B,
0.082159208333333,0,0xA3B7,
0.082167041666667,0,0xC82B,
0.082182750000000,0,0x9E37,
0.082190625000000,0,0xC92B,
0.082206333333333,0,0x9E3B,
0.082214208333333,0,0xCA2B,
0.089832250000000,0,0xCC3F,
0.089839916666667,0,0x060B,
0.089867500000000,0,0x0004,
0.089875166666667,0,0x031D,
0.089891541666667,0,0x0A01,
0.089899458333333,0,0x831D,
0.089915291666667,0,0x0F00,
0.089923208333333,0,0x841D,
0.089939041666667,0,0x0000,
0.089947000000000,0,0x851C,
0.089962833333333,0,0xCF3F,
0.089970750000000,0,0x861D,
0.090001375000000,0,0x0004,
0.090009041666667,0,0x0311,
0.090025166666667,0,0x0A01,
0.090033083333333,0,0x8311,
0.090048958333333,0,0x0F00,
0.090056833333333,0,0x8411,
0.090072708333333,0,0x0000,
0.090080625000000,0,0x851C,
0.090096458333333,0,0xCF3F,
0.090104375000000,0,0x8611,
0.090134875000000,0,0x0004,
0.090142583333333,0,0x0315,
0.090158833333333,0,0x0A01,
0.090166708333333,0,0x8315,
0.090182583333333,0,0x0F00,
0.090190500000000,0,0x8415,
0.090206333333333,0,0x0000,
0.090214250000000,0,0x851C,
0.090230083333333,0,0xCF3F,
0.090238000000000,0,0x8615,
0.090269291666667,0,0x0004,
0.090276958333333,0,0x0319,
0.090293416666667,0,0x0A01,
0.090301375000000,0,0x8319,
0.090317208333333,0,0x0F00,
0.090325125000000,0,0x8419,
0.090340958333333,0,0x0000,
0.090348875000000,0,0x851C,
0.090364708333333,0,0xCF3F,
0.090372625000000,0,0x8619,
0.090404083333333,0,0x0004,
0.090411750000000,0,0x031D,
0.090428041666667,0,0x0A01,
0.090435958333333,0,0x831D,
0.090451791666667,0,0x0F00,
0.090459708333333,0,0x841D,
0.090475541666667,0,0x0000,
0.090483458333333,0,0x851C,
0.090499291666667,0,0xC73F,
0.090507208333333,0,0x861D,
0.090538625000000,0,0x0001,
0.090546291666667,0,0x1D11,
0.090562625000000,0,0x1551,
0.090570541666667,0,0x9D11,
0.090598166666667,0,0x0003,
0.090605875000000,0,0x2415,
0.090622000000000,0,0x0048,
0.090629916666667,0,0xA41C,
0.090645750000000,0,0x0040,
0.090653666666667,0,0xA51C,
0.090669500000000,0,0x8000,
0.090677416666667,0,0xA61C,
0.090705916666667,0,0x0005,
0.090713625000000,0,0x2D19,
0.090729875000000,0,0xEEC1,
0.090737791666667,0,0xAD1C,
0.090753625000000,0,0xFFED,
0.090761541666667,0,0xAE1C,
0.090777375000000,0,0xA710,
0.090785291666667,0,0xAF1C,
0.090801125000000,0,0xFFFF,
0.090809041666667,0,0xB01C,
0.090824875000000,0,0x830D,
0.090832791666667,0,0xB11C,
0.090863333333333,0,0x0006,
0.090871000000000,0,0x3B1D,
0.090887208333333,0,0xB3DE,
0.090895125000000,0,0xBB1C,
0.090910958333333,0,0xB32C,
0.090918875000000,0,0xBC1C,
0.090934708333333,0,0xB2BD,
0.090942625000000,0,0xBD1C,
0.090958458333333,0,0xB201,
0.090966375000000,0,0xBE1C,
0.090982208333333,0,0xB205,
0.090990125000000,0,0xBF1C,
0.091005958333333,0,0xB277,
0.091013875000000,0,0xC01C,
0.091044000000000,0,0x000A,
0.091051708333333,0,0x4111,
0.091067791666667,0,0xC0C5,
0.091075708333333,0,0xC11C,
0.091091541666667,0,0xC0C3,
0.091099458333333,0,0xC21C,
0.091115291666667,0,0xC0C4,
0.091123208333333,0,0xC31C,
0.091139041666667,0,0xC084,
0.091146958333333,0,0xC41C,
0.091162791666667,0,0xC0A8,
0.091170750000000,0,0xC51C,
0.091186541666667,0,0xDD14,
0.091194500000000,0,0xC61C,
0.091210291666667,0,0x8049,
0.091218250000000,0,0xC71C,
0.091234083333333,0,0xA3D5,
0.091241958333333,0,0xC81C,
0.091257833333333,0,0x9E37,
0.091265750000000,0,0xC91C,
0.091281583333333,0,0x9E36,
0.091289500000000,0,0xCA1C,
0.091322125000000,0,0x0004,
0.091329791666667,0,0x0325,
0.091346166666667,0,0x0A01,
0.091354000000000,0,0x8325,
0.091369708333333,0,0x0F00,
0.091377583333333,0,0x8425,
0.091393291666667,0,0x0000,
0.091401125000000,0,0x852C,
0.091416875000000,0,0xC73F,
0.091424708333333,0,0x8625,
0.091454333333333,0,0x0001,
0.091462041666667,0,0x1D29,
0.091478250000000,0,0x0055,
0.091486083333333,0,0x9D29,
0.091514500000000,0,0x0003,
0.091522166666667,0,0x242D,
0.091538166666667,0,0x004C,
0.091546000000000,0,0xA42C,
0.091561708333333,0,0x0040,
0.091569583333333,0,0xA52C,
0.091585291666667,0,0x8000,
0.091593125000000,0,0xA62C,
0.091622291666667,0,0x0005,
0.091629958333333,0,0x2D21,
0.091646166666667,0,0xFC93,
0.091654041666667,0,0xAD2C,
0.091669750000000,0,0xFFF0,
0.091677583333333,0,0xAE2C,
0.091693291666667,0,0x127F,
0.091701166666667,0,0xAF2C,
0.091716875000000,0,0x8000,
0.091724750000000,0,0xB02C,
0.091740458333333,0,0x8300,
0.091748291666667,0,0xB12C,
0.091777291666667,0,0x0006,
0.091784958333333,0,0x3B25,
0.091801333333333,0,0xE51B,
0.091809166666667,0,0xBB2C,
0.091824875000000,0,0x8000,
0.091832750000000,0,0xBC2C,
0.091848458333333,0,0x8000,
0.091856333333333,0,0xBD2C,
0.091872041666667,0,0x8000,
0.091879875000000,0,0xBE2C,
0.091895583333333,0,0xE5BD,
0.091903458333333,0,0xBF2C,
0.091919166666667,0,0xE5D3,
0.091927000000000,0,0xC02C,
0.091956791666667,0,0x000A,
0.091964500000000,0,0x4129,
0.091980541666667,0,0xDB66,
0.091988416666667,0,0xC12C,
0.092004125000000,0,0xDC70,
0.092011958333333,0,0xC22C,
0.092027708333333,0,0xDF42,
0.092035541666667,0,0xC32C,
0.092051250000000,0,0xE123,
0.092059125000000,0,0xC42C,
0.092074833333333,0,0xA97E,
0.092082666666667,0,0xC52C,
0.092098375000000,0,0xFF4A,
0.092106250000000,0,0xC62C,
0.092121958333333,0,0xC014,
0.092129791666667,0,0xC72C,
0.092145541666667,0,0xA3B9,
0.092153416666667,0,0xC82C,
0.092169125000000,0,0x9E39,
0.092176958333333,0,0xC92C,
0.092192708333333,0,0x9E3C,
0.092200541666667,0,0xCA2C,
0.100117833333333,0,0xDC3F,
0.100125541666667,0,0x060F,
0.100152500000000,0,0x0004,
0.100160208333333,0,0x0311,
0.100176416666667,0,0x0A01,
0.100184333333333,0,0x8311,
0.100200166666667,0,0x0F00,
0.100208083333333,0,0x8411,
0.100223916666667,0,0x0000,
0.100231833333333,0,0x851D,
0.100247666666667,0,0xDF3F,
0.100255583333333,0,0x8611,
0.100287333333333,0,0x0004,
0.100295000000000,0,0x0315,
0.100311000000000,0,0x0A01,
0.100318916666667,0,0x8315,
0.100334750000000,0,0x0F00,
0.100342666666667,0,0x8415,
0.100358541666667,0,0x0000,
0.100366458333333,0,0x851D,
0.100382291666667,0,0xDF3F,
0.100390208333333,0,0x8615,
0.100420541666667,0,0x0004,
0.100428208333333,0,0x0319,
0.100444666666667,0,0x0A01,
0.100452583333333,0,0x8319,
0.100468458333333,0,0x0F00,
0.100476333333333,0,0x8419,
0.100492208333333,0,0x0000,
0.100500125000000,0,0x851D,
0.100515958333333,0,0xDF3F,
0.100523916666667,0,0x8619,
0.100554375000000,0,0x0004,
0.100562041666667,0,0x031D,
0.100578333333333,0,0x0A01,
0.100586250000000,0,0x831D,
0.100602083333333,0,0x0F00,
0.100610000000000,0,0x841D,
0.100625833333333,0,0x0000,
0.100633791666667,0,0x851D,
0.100649625000000,0,0xDF3F,
0.100657541666667,0,0x861D,
0.100689000000000,0,0x0004,
0.100696666666667,0,0x0311,
0.100712958333333,0,0x0A01,
0.100720875000000,0,0x8311,
0.100736708333333,0,0x0F00,
0.100744625000000,0,0x8411,
0.100760458333333,0,0x0000,
0.100768416666667,0,0x851D,
0.100784208333333,0,0xD73F,
0.100792125000000,0,0x8611,
0.100822625000000,0,0x0001,
0.100830291666667,0,0x1D15,
0.100846583333333,0,0x1551,
0.100854458333333,0,0x9D15,
0.100882458333333,0,0x0003,
0.100890166666667,0,0x2419,
0.100906416666667,0,0x0048,
0.100914375000000,0,0xA41D,
0.100930208333333,0,0x0040,
0.100938083333333,0,0xA51D,
0.100953958333333,0,0x8000,
0.100961875000000,0,0xA61D,
0.100990916666667,0,0x0005,
0.100998583333333,0,0x2D1D,
0.101014791666667,0,0xEFD3,
0.101022708333333,0,0xAD1D,
0.101038583333333,0,0xFFED,
0.101046458333333,0,0xAE1D,
0.101062291666667,0,0xA421,
0.101070208333333,0,0xAF1D,
0.101086041666667,0,0x8000,
0.101093958333333,0,0xB01D,
0.101109791666667,0,0x8302,
0.101117708333333,0,0xB11D,
0.101147583333333,0,0x0006,
0.101155250000000,0,0x3B11,
0.101171625000000,0,0xB3E3,
0.101179541666667,0,0xBB1D,
0.101195375000000,0,0xB32E,
0.101203291666667,0,0xBC1D,
0.101219125000000,0,0xB2BE,
0.101227041666667,0,0xBD1D,
0.101242875000000,0,0xB1FF,
0.101250791666667,0,0xBE1D,
0.101266625000000,0,0xB205,
0.101274541666667,0,0xBF1D,
0.101290375000000,0,0xB275,
0.101298291666667,0,0xC01D,
0.101329375000000,0,0x000A,
0.101337041666667,0,0x4115,
0.101353208333333,0,0xC0C5,
0.101361125000000,0,0xC11D,
0.101376958333333,0,0xC0C5,
0.101384875000000,0,0xC21D,
0.101400666666667,0,0xC0C5,
0.101408583333333,0,0xC31D,
0.101424416666667,0,0xC08A,
0.101432375000000,0,0xC41D,
0.101448208333333,0,0xC0AC,
0.101456125000000,0,0xC51D,
0.101471958333333,0,0xDD18,
0.101479875000000,0,0xC61D,
0.101495708333333,0,0x8047,
0.101503625000000,0,0xC71D,
0.101519458333333,0,0xA3D4,
0.101527375000000,0,0xC81D,
0.101543208333333,0,0x9E3B,
0.101551125000000,0,0xC91D,
0.101566958333333,0,0x9E3D,
0.101574875000000,0,0xCA1D,
0.101607583333333,0,0x0004,
0.101615291666667,0,0x0329,
0.101631333333333,0,0x0A01,
0.101639208333333,0,0x8329,
0.101654916666667,0,0x0F00,
0.101662750000000,0,0x8429,
0.101678458333333,0,0x0000,
0.101686333333333,0,0x852D,
0.101702041666667,0,0xD73F,
0.101709875000000,0,0x8629,
0.101739958333333,0,0x0001,
0.101747625000000,0,0x1D2D,
0.101763916666667,0,0x0055,
0.101771750000000,0,0x9D2D,
0.101799958333333,0,0x0003,
0.101807666666667,0,0x2421,
0.101823791666667,0,0x004C,
0.101831666666667,0,0xA42D,
0.101847375000000,0,0x0040,
0.101855250000000,0,0xA52D,
0.101870916666667,0,0x8000,
0.101878791666667,0,0xA62D,
0.101907916666667,0,0x0005,
0.101915583333333,0,0x2D25,
0.101931833333333,0,0xFDA6,
0.101939666666667,0,0xAD2D,
0.101955375000000,0,0xFFF0,
0.101963250000000,0,0xAE2D,
0.101978958333333,0,0x0FEC,
0.101986791666667,0,0xAF2D,
0.102002500000000,0,0xFFFF,
0.102010375000000,0,0xB02D,
0.102026083333333,0,0x830C,
0.102033916666667,0,0xB12D,
0.102064333333333,0,0x0006,
0.102072041666667,0,0x3B29,
0.102088416666667,0,0xE51C,
0.102096291666667,0,0xBB2D,
0.102112000000000,0,0x8001,
0.102119833333333,0,0xBC2D,
0.102135583333333,0,0x8001,
0.102143416666667,0,0xBD2D,
0.102159125000000,0,0x8003,
0.102166958333333,0,0xBE2D,
0.102182708333333,0,0xE5BB,
0.102190541666667,0,0xBF2D,
0.102206250000000,0,0xE5D4,
0.102214083333333,0,0xC02D,
0.102243791666667,0,0x000A,
0.102251500000000,0,0x412D,
0.102267625000000,0,0xDB63,
0.102275458333333,0,0xC12D,
0.102291166666667,0,0xDC6D,
0.102299041666667,0,0xC22D,
0.102314750000000,0,0xDF3D,
0.102322625000000,0,0xC32D,
0.102338333333333,0,0xE120,
0.102346166666667,0,0xC42D,
0.102361875000000,0,0xA97B,
0.102369708333333,0,0xC52D,
0.102385458333333,0,0xFF45,
0.102393291666667,0,0xC62D,
0.102409000000000,0,0xC012,
0.102416875000000,0,0xC72D,
0.102432583333333,0,0xA3B9,
0.102440416666667,0,0xC82D,
0.102456125000000,0,0x9E38,
0.102464000000000,0,0xC92D,
0.102479708333333,0,0x9E40,
0.102487541666667,0,0xCA2D,
0.109835916666667,0,0xEC3F,
0.109843583333333,0,0x0603,
0.109870958333333,0,0x0004,
0.109878666666667,0,0x0315,
0.109894708333333,0,0x0A01,
0.109902666666667,0,0x8315,
0.109918500000000,0,0x0F00,
0.109926416666667,0,0x8415,
0.109942250000000,0,0x0000,
0.109950166666667,0,0x851E,
0.109966000000000,0,0xEF3F,
0.109973958333333,0,0x8615,
0.110004333333333,0,0x0004,
0.110012000000000,0,0x0319,
0.110028416666667,0,0x0A01,
0.110036333333333,0,0x8319,
0.110052166666667,0,0x0F00,
0.110060083333333,0,0x8419,
0.110075916666667,0,0x0000,
0.110083833333333,0,0x851E,
0.110099666666667,0,0xEF3F,
0.110107583333333,0,0x8619,
0.110138541666667,0,0x0004,
0.110146208333333,0,0x031D,
0.110162541666667,0,0x0A01,
0.110170458333333,0,0x831D,
0.110186333333333,0,0x0F00,
0.110194250000000,0,0x841D,
0.110210083333333,0,0x0000,
0.110218000000000,0,0x851E,
0.110233833333333,0,0xEF3F,
0.110241791666667,0,0x861D,
0.110272500000000,0,0x0004,
0.110280166666667,0,0x0311,
0.110296208333333,0,0x0A01,
0.110304125000000,0,0x8311,
0.110320000000000,0,0x0F00,
0.110327916666667,0,0x8411,
0.110343750000000,0,0x0000,
0.110351666666667,0,0x851E,
0.110367500000000,0,0xEF3F,
0.110375416666667,0,0x8611,
0.110405791666667,0,0x0004,
0.110413500000000,0,0x0315,
0.110429833333333,0,0x0A01,
0.110437750000000,0,0x8315,
0.110453583333333,0,0x0F00,
0.110461500000000,0,0x8415,
0.110477333333333,0,0x0000,
0.110485250000000,0,0x851E,
0.110501083333333,0,0xE73F,
0.110509000000000,0,0x8615,
0.110539958333333,0,0x0001,
0.110547625000000,0,0x1D19,
0.110563916666667,0,0x1551,
0.110571875000000,0,0x9D19,
0.110599916666667,0,0x0003,
0.110607583333333,0,0x241D,
0.110623833333333,0,0x0048,
0.110631708333333,0,0xA41E,
0.110647583333333,0,0x0040,
0.110655500000000,0,0xA51E,
0.110671333333333,0,0x8000,
0.110679250000000,0,0xA61E,
0.110707875000000,0,0x0005,
0.110715541666667,0,0x2D11,
0.110731708333333,0,0xF0D5,
0.110739625000000,0,0xAD1E,
0.110755458333333,0,0xFFED,
0.110763375000000,0,0xAE1E,
0.110779208333333,0,0xA147,
0.110787125000000,0,0xAF1E,
0.110802958333333,0,0xFFFF,
0.110810875000000,0,0xB01E,
0.110826708333333,0,0x830F,
0.110834666666667,0,0xB11E,
0.110864333333333,0,0x0006,
0.110872000000000,0,0x3B15,
0.110888083333333,0,0xB3E3,
0.110896000000000,0,0xBB1E,
0.110911875000000,0,0xB32E,
0.110919791666667,0,0xBC1E,
0.110935583333333,0,0xB2BE,
0.110943500000000,0,0xBD1E,
0.110959375000000,0,0xB1FB,
0.110967250000000,0,0xBE1E,
0.110983125000000,0,0xB1FE,
0.110991000000000,0,0xBF1E,
0.111006833333333,0,0xB26F,
0.111014750000000,0,0xC01E,
0.111044541666667,0,0x000A,
0.111052208333333,0,0x4119,
0.111068208333333,0,0xC0C4,
0.111076125000000,0,0xC11E,
0.111091958333333,0,0xC0C6,
0.111099833333333,0,0xC21E,
0.111115708333333,0,0xC0C4,
0.111123583333333,0,0xC31E,
0.111139458333333,0,0xC085,
0.111147333333333,0,0xC41E,
0.111163166666667,0,0xC0A8,
0.111171083333333,0,0xC51E,
0.111186916666667,0,0xDD15,
0.111194833333333,0,0xC61E,
0.111210666666667,0,0x8043,
0.111218583333333,0,0xC71E,
0.111234458333333,0,0xA3D5,
0.111242333333333,0,0xC81E,
0.111258208333333,0,0x9E36,
0.111266125000000,0,0xC91E,
0.111281916666667,0,0x9E37,
0.111289833333333,0,0xCA1E,
0.111322041666667,0,0x0004,
0.111329708333333,0,0x032D,
0.111345750000000,0,0x0A01,
0.111353625000000,0,0x832D,
0.111369333333333,0,0x0F00,
0.111377208333333,0,0x842D,
0.111392916666667,0,0x0000,
0.111400750000000,0,0x852E,
0.111416458333333,0,0xE73F,
0.111424333333333,0,0x862D,
0.111454708333333,0,0x0001,
0.111462375000000,0,0x1D21,
0.111478833333333,0,0x0055,
0.111486708333333,0,0x9D21,
0.111515291666667,0,0x0003,
0.111522958333333,0,0x2425,
0.111539208333333,0,0x004C,
0.111547083333333,0,0xA42E,
0.111562791666667,0,0x0040,
0.111570666666667,0,0xA52E,
0.111586375000000,0,0x8000,
0.111594208333333,0,0xA62E,
0.111623041666667,0,0x0005,
0.111630750000000,0,0x2D29,
0.111646750000000,0,0xFEAB,
0.111654625000000,0,0xAD2E,
0.111670333333333,0,0xFFF0,
0.111678208333333,0,0xAE2E,
0.111693916666667,0,0x0D2A,
0.111701791666667,0,0xAF2E,
0.111717458333333,0,0x8000,
0.111725333333333,0,0xB02E,
0.111741041666667,0,0x8302,
0.111748916666667,0,0xB12E,
0.111778958333333,0,0x0006,
0.111786625000000,0,0x3B2D,
0.111802916666667,0,0xE51A,
0.111810791666667,0,0xBB2E,
0.111826500000000,0,0x8003,
0.111834375000000,0,0xBC2E,
0.111850041666667,0,0x8001,
0.111857916666667,0,0xBD2E,
0.111873625000000,0,0x8003,
0.111881458333333,0,0xBE2E,
0.111897208333333,0,0xE5B8,
0.111905041666667,0,0xBF2E,
0.111920750000000,0,0xE5D0,
0.111928625000000,0,0xC02E,
0.111958083333333,0,0x000A,
0.111965750000000,0,0x4121,
0.111981666666667,0,0xDB6A,
0.111989541666667,0,0xC12E,
0.112005250000000,0,0xDC6F,
0.112013125000000,0,0xC22E,
0.112028791666667,0,0xDF41,
0.112036666666667,0,0xC32E,
0.112052375000000,0,0xE11F,
0.112060250000000,0,0xC42E,
0.112075958333333,0,0xA97D,
0.112083833333333,0,0xC52E,
0.112099541666667,0,0xFF48,
0.112107375000000,0,0xC62E,
0.112123125000000,0,0xC011,
0.112130958333333,0,0xC72E,
0.112146708333333,0,0xA3B7,
0.112154583333333,0,0xC82E,
0.112170291666667,0,0x9E39,
0.112178125000000,0,0xC92E,
0.112193875000000,0,0x9E3D,
0.112201708333333,0,0xCA2E,
0.119833291666667,0,0xFC3F,
0.119840958333333,0,0x0607,
0.119868666666667,0,0x0004,
0.119876375000000,0,0x0319,
0.119892708333333,0,0x0A01,
0.119900625000000,0,0x8319,
0.119916458333333,0,0x0F00,
0.119924375000000,0,0x8419,
0.119940208333333,0,0x0000,
0.119948125000000,0,0x851F,
0.119963958333333,0,0xFF3F,
0.119971875000000,0,0x8619,
0.120003500000000,0,0x0004,
0.120011166666667,0,0x031D,
0.120027291666667,0,0x0A01,
0.120035250000000,0,0x831D,
0.120051083333333,0,0x0F00,
0.120059000000000,0,0x841D,
0.120074833333333,0,0x0000,
0.120082750000000,0,0x851F,
0.120098583333333,0,0xFF3F,
0.120106500000000,0,0x861D,
0.120137625000000,0,0x0004,
0.120145333333333,0,0x0311,
0.120161458333333,0,0x0A01,
0.120169375000000,0,0x8311,
0.120185250000000,0,0x0F00,
0.120193166666667,0,0x8411,
0.120209000000000,0,0x0000,
0.120216916666667,0,0x851F,
0.120232750000000,0,0xFF3F,
0.120240666666667,0,0x8611,
0.120272625000000,0,0x0004,
0.120280291666667,0,0x0315,
0.120296625000000,0,0x0A01,
0.120304541666667,0,0x8315,
0.120320375000000,0,0x0F00,
0.120328291666667,0,0x8415,
0.120344166666667,0,0x0000,
0.120352083333333,0,0x851F,
0.120367916666667,0,0xFF3F,
0.120375833333333,0,0x8615,
0.120407500000000,0,0x0004,
0.120415208333333,0,0x0319,
0.120431250000000,0,0x0A01,
0.120439166666667,0,0x8319,
0.120455041666667,0,0x0F00,
0.120462958333333,0,0x8419,
0.120478791666667,0,0x0000,
0.120486708333333,0,0x851F,
0.120502541666667,0,0xF73F,
0.120510458333333,0,0x8619,
0.120540750000000,0,0x0001,
0.120548416666667,0,0x1D1D,
0.120564875000000,0,0x1551,
0.120572791666667,0,0x9D1D,
0.120601250000000,0,0x0003,
0.120608916666667,0,0x2411,
0.120625250000000,0,0x0048,
0.120633166666667,0,0xA41F,
0.120649000000000,0,0x0040,
0.120656958333333,0,0xA51F,
0.120672791666667,0,0x8000,
0.120680708333333,0,0xA61F,
0.120709750000000,0,0x0005,
0.120717458333333,0,0x2D15,
0.120733625000000,0,0xF1DF,
0.120741541666667,0,0xAD1F,
0.120757375000000,0,0xFFED,
0.120765291666667,0,0xAE1F,
0.120781125000000,0,0x9ED0,
0.120789041666667,0,0xAF1F,
0.120804916666667,0,0xFFFF,
0.120812833333333,0,0xB01F,
0.120828666666667,0,0x830D,
0.120836583333333,0,0xB11F,
0.120866375000000,0,0x0006,
0.120874041666667,0,0x3B19,
0.120890041666667,0,0xB3E1,
0.120897958333333,0,0xBB1F,
0.120913791666667,0,0xB32E,
0.120921708333333,0,0xBC1F,
0.120937583333333,0,0xB2BB,
0.120945500000000,0,0xBD1F,
0.120961333333333,0,0xB201,
0.120969250000000,0,0xBE1F,
0.120985083333333,0,0xB200,
0.120993000000000,0,0xBF1F,
0.121008833333333,0,0xB271,
0.121016750000000,0,0xC01F,
0.121046833333333,0,0x000A,
0.121054500000000,0,0x411D,
0.121070708333333,0,0xC0C4,
0.121078583333333,0,0xC11F,
0.121094416666667,0,0xC0C4,
0.121102375000000,0,0xC21F,
0.121118208333333,0,0xC0C2,
0.121126125000000,0,0xC31F,
0.121141916666667,0,0xC081,
0.121149875000000,0,0xC41F,
0.121165708333333,0,0xC0AB,
0.121173625000000,0,0xC51F,
0.121189458333333,0,0xDD16,
0.121197375000000,0,0xC61F,
0.121213208333333,0,0x8045,
0.121221125000000,0,0xC71F,
0.121236958333333,0,0xA3D5,
0.121244875000000,0,0xC81F,
0.121260708333333,0,0x9E39,
0.121268666666667,0,0xC91F,
0.121284458333333,0,0x9E37,
0.121292375000000,0,0xCA1F,
0.121324208333333,0,0x0004,
0.121331916666667,0,0x0321,
0.121348250000000,0,0x0A01,
0.121356083333333,0,0x8321,
0.121371833333333,0,0x0F00,
0.121379666666667,0,0x8421,
0.121395375000000,0,0x0000,
0.121403250000000,0,0x852F,
0.121418958333333,0,0xF73F,
0.121426833333333,0,0x8621,
0.121457583333333,0,0x0001,
0.121465291666667,0,0x1D25,
0.121481333333333,0,0x0055,
0.121489208333333,0,0x9D25,
0.121517375000000,0,0x0003,
0.121525041666667,0,0x2429,
0.121541208333333,0,0x004C,
0.121549083333333,0,0xA42F,
0.121564791666667,0,0x0040,
0.121572666666667,0,0xA52F,
0.121588375000000,0,0x8000,
0.121596250000000,0,0xA62F,
0.121624833333333,0,0x0005,
0.121632500000000,0,0x2D2D,
0.121648791666667,0,0xFFB7,
0.121656625000000,0,0xAD2F,
0.121672375000000,0,0xFFF0,
0.121680208333333,0,0xAE2F,
0.121695916666667,0,0x0AD7,
0.121703791666667,0,0xAF2F,
0.121719500000000,0,0xFFFF,
0.121727375000000,0,0xB02F,
0.121743083333333,0,0x830D,
0.121750958333333,0,0xB12F,
0.121782958333333,0,0x0006,
0.121790625000000,0,0x3B21,
0.121806916666667,0,0xE517,
0.121814791666667,0,0xBB2F,
0.121830500000000,0,0x8000,
0.121838375000000,0,0xBC2F,
0.121854083333333,0,0x8000,
0.121861916666667,0,0xBD2F,
0.121877625000000,0,0x8000,
0.121885500000000,0,0xBE2F,
0.121901208333333,0,0xE5BA,
0.121909041666667,0,0xBF2F,
0.121924791666667,0,0xE5D6,
0.121932625000000,0,0xC02F,
0.121962416666667,0,0x000A,
0.121970125000000,0,0x4125,
0.121986166666667,0,0xDB6C,
0.121994000000000,0,0xC12F,
0.122009708333333,0,0xDC71,
0.122017583333333,0,0xC22F,
0.122033291666667,0,0xDF43,
0.122041166666667,0,0xC32F,
0.122056875000000,0,0xE11F,
0.122064750000000,0,0xC42F,
0.122080458333333,0,0xA97D,
0.122088291666667,0,0xC52F,
0.122104041666667,0,0xFF4A,
0.122111875000000,0,0xC62F,
0.122127583333333,0,0xC015,
0.122135458333333,0,0xC72F,
0.122151166666667,0,0xA3B8,
0.122159000000000,0,0xC82F,
0.122174750000000,0,0x9E39,
0.122182625000000,0,0xC92F,
0.122198333333333,0,0x9E42,
0.122206208333333,0,0xCA2F,
0.129842708333333,0,0x0C3F,
0.129850375000000,0,0x060B,
0.129877416666667,0,0x0004,
0.129885083333333,0,0x031D,
0.129901125000000,0,0x0A01,
0.129909041666667,0,0x831D,
0.129924916666667,0,0x0F00,
0.129932833333333,0,0x841D,
0.129948666666667,0,0x0000,
0.129956583333333,0,0x8510,
0.129972416666667,0,0x0F3F,
0.129980333333333,0,0x861D,
0.130011375000000,0,0x0004,
0.130019041666667,0,0x0311,
0.130035291666667,0,0x0A01,
0.130043208333333,0,0x8311,
0.130059041666667,0,0x0F00,
0.130066958333333,0,0x8411,
0.130082833333333,0,0x0000,
0.130090750000000,0,0x8510,
0.130106583333333,0,0x0F3F,
0.130114500000000,0,0x8611,
0.130145375000000,0,0x0004,
0.130153083333333,0,0x0315,
0.130169416666667,0,0x0A01,
0.130177375000000,0,0x8315,
0.130193208333333,0,0x0F00,
0.130201125000000,0,0x8415,
0.130216958333333,0,0x0000,
0.130224916666667,0,0x8510,
0.130240750000000,0,0x0F3F,
0.130248666666667,0,0x8615,
0.130279958333333,0,0x0004,
0.130287625000000,0,0x0319,
0.130304125000000,0,0x0A01,
0.130312041666667,0,0x8319,
0.130327833333333,0,0x0F00,
0.130335791666667,0,0x8419,
0.130351625000000,0,0x0000,
0.130359541666667,0,0x8510,
0.130375375000000,0,0x0F3F,
0.130383333333333,0,0x8619,
0.130414291666667,0,0x0004,
0.130421958333333,0,0x031D,
0.130438250000000,0,0x0A01,
0.130446166666667,0,0x831D,
0.130462000000000,0,0x0F00,
0.130469916666667,0,0x841D,
0.130485750000000,0,0x0000,
0.130493666666667,0,0x8510,
0.130509500000000,0,0x073F,
0.130517416666667,0,0x861D,
0.130548416666667,0,0x0001,
0.130556083333333,0,0x1D11,
0.130572375000000,0,0x1551,
0.130580291666667,0,0x9D11,
0.130608458333333,0,0x0003,
0.130616166666667,0,0x2415,
0.130632250000000,0,0x0048,
0.130640166666667,0,0xA410,
0.130656000000000,0,0x0040,
0.130663916666667,0,0xA510,
0.130679750000000,0,0x8000,
0.130687666666667,0,0xA610,
0.130716291666667,0,0x0005,
0.130723958333333,0,0x2D19,
0.130740125000000,0,0xF2E9,
0.130748041666667,0,0xAD10,
0.130763875000000,0,0xFFED,
0.130771833333333,0,0xAE10,
0.130787666666667,0,0x9C8C,
0.130795583333333,0,0xAF10,
0.130811416666667,0,0x8000,
0.130819333333333,0,0xB010,
0.130835166666667,0,0x8300,
0.130843125000000,0,0xB110,
0.130872625000000,0,0x0006,
0.130880291666667,0,0x3B1D,
0.130896541666667,0,0xB3DD,
0.130904458333333,0,0xBB10,
0.130920291666667,0,0xB325,
0.130928208333333,0,0xBC10,
0.130944041666667,0,0xB2BB,
0.130951958333333,0,0xBD10,
0.130967750000000,0,0xB1FE,
0.130975708333333,0,0xBE10,
0.130991541666667,0,0xB200,
0.130999458333333,0,0xBF10,
0.131015291666667,0,0xB26E,
0.131023208333333,0,0xC010,
0.131052958333333,0,0x000A,
0.131060666666667,0,0x4111,
0.131076625000000,0,0xC0C8,
0.131084541666667,0,0xC110,
0.131100375000000,0,0xC0C7,
0.131108291666667,0,0xC210,
0.131124125000000,0,0xC0C8,
0.131132041666667,0,0xC310,
0.131147875000000,0,0xC088,
0.131155791666667,0,0xC410,
0.131171625000000,0,0xC0AF,
0.131179541666667,0,0xC510,
0.131195375000000,0,0xDD19,
0.131203291666667,0,0xC610,
0.131219125000000,0,0x804A,
0.131227041666667,0,0xC710,
0.131242875000000,0,0xA3D6,
0.131250791666667,0,0xC810,
0.131266625000000,0,0x9E3C,
0.131274541666667,0,0xC910,
0.131290375000000,0,0x9E38,
0.131298291666667,0,0xCA10,
0.131331375000000,0,0x0004,
0.131339041666667,0,0x0325,
0.131355041666667,0,0x0A01,
0.131362875000000,0,0x8325,
0.131378625000000,0,0x0F00,
0.131386458333333,0,0x8425,
0.131402166666667,0,0x0000,
0.131410041666667,0,0x8520,
0.131425750000000,0,0x073F,
0.131433583333333,0,0x8625,
0.131464041666667,0,0x0001,
0.131471708333333,0,0x1D29,
0.131488125000000,0,0x0055,
0.131495958333333,0,0x9D29,
0.131523916666667,0,0x0003,
0.131531583333333,0,0x242D,
0.131548000000000,0,0x004C,
0.131555875000000,0,0xA420,
0.131571583333333,0,0x0040,
0.131579458333333,0,0xA520,
0.131595166666667,0,0x8000,
0.131603041666667,0,0xA620,
0.131632416666667,0,0x0005,
0.131640083333333,0,0x2D21,
0.131656041666667,0,0x00C3,
0.131663875000000,0,0xAD20,
0.131679625000000,0,0xFFF0,
0.131687458333333,0,0xAE20,
0.131703166666667,0,0x0882,
0.131711041666667,0,0xAF20,
0.131726750000000,0,0xFFFF,
0.131734583333333,0,0xB020,
0.131750333333333,0,0x830D,
0.131758166666667,0,0xB120,
0.131789875000000,0,0x0006,
0.131797541666667,0,0x3B25,
0.131813666666667,0,0xE516,
0.131821500000000,0,0xBB20,
0.131837250000000,0,0x8000,
0.131845083333333,0,0xBC20,
0.131860791666667,0,0x8000,
0.131868666666667,0,0xBD20,
0.131884375000000,0,0x8000,
0.131892208333333,0,0xBE20,
0.131907916666667,0,0xE5B7,
0.131915791666667,0,0xBF20,
0.131931500000000,0,0xE5D1,
0.131939375000000,0,0xC020,
0.131969833333333,0,0x000A,
0.131977541666667,0,0x4129,
0.131993875000000,0,0xDB67,
0.132001708333333,0,0xC120,
0.132017458333333,0,0xDC73,
0.132025333333333,0,0xC220,
0.132041041666667,0,0xDF41,
0.132048916666667,0,0xC320,
0.132064625000000,0,0xE11F,
0.132072458333333,0,0xC420,
0.132088166666667,0,0xA97F,
0.132096041666667,0,0xC520,
0.132111750000000,0,0xFF4A,
0.132119583333333,0,0xC620,
0.132135291666667,0,0xC013,
0.132143166666667,0,0xC720,
0.132158875000000,0,0xA3B7,
0.132166708333333,0,0xC820,
0.132182416666667,0,0x9E38,
0.132190291666667,0,0xC920,
0.132206000000000,0,0x9E3D,
0.132213875000000,0,0xCA20,
0.139847791666667,0,0x1C3F,
0.139855458333333,0,0x060F,
0.139882625000000,0,0x0004,
0.139890291666667,0,0x0311,
0.139906333333333,0,0x0A01,
0.139914250000000,0,0x8311,
0.139930125000000,0,0x0F00,
0.139938000000000,0,0x8411,
0.139953875000000,0,0x0000,
0.139961791666667,0,0x8511,
0.139977625000000,0,0x1F3F,
0.139985541666667,0,0x8611,
0.140016458333333,0,0x0004,
0.140024166666667,0,0x0315,
0.140040500000000,0,0x0A01,
0.140048416666667,0,0x8315,
0.140064250000000,0,0x0F00,
0.140072166666667,0,0x8415,
0.140088000000000,0,0x0000,
0.140095916666667,0,0x8511,
0.140111750000000,0,0x1F3F,
0.140119666666667,0,0x8615,
0.140150833333333,0,0x0004,
0.140158500000000,0,0x0319,
0.140174625000000,0,0x0A01,
0.140182541666667,0,0x8319,
0.140198375000000,0,0x0F00,
0.140206333333333,0,0x8419,
0.140222166666667,0,0x0000,
0.140230083333333,0,0x8511,
0.140245916666667,0,0x1F3F,
0.140253833333333,0,0x8619,
0.140284583333333,0,0x0004,
0.140292250000000,0,0x031D,
0.140308291666667,0,0x0A01,
0.140316208333333,0,0x831D,
0.140332041666667,0,0x0F00,
0.140339958333333,0,0x841D,
0.140355791666667,0,0x0000,
0.140363708333333,0,0x8511,
0.140379541666667,0,0x1F3F,
0.140387458333333,0,0x861D,
0.140418916666667,0,0x0004,
0.140426583333333,0,0x0311,
0.140442875000000,0,0x0A01,
0.140450791666667,0,0x8311,
0.140466625000000,0,0x0F00,
0.140474541666667,0,0x8411,
0.140490375000000,0,0x0000,
0.140498291666667,0,0x8511,
0.140514125000000,0,0x173F,
0.140522041666667,0,0x8611,
0.140552833333333,0,0x0001,
0.140560500000000,0,0x1D15,
0.140576458333333,0,0x1551,
0.140584375000000,0,0x9D15,
0.140612250000000,0,0x0003,
0.140619916666667,0,0x2419,
0.140636333333333,0,0x0048,
0.140644250000000,0,0xA411,
0.140660083333333,0,0x0040,
0.140668041666667,0,0xA511,
0.140683833333333,0,0x8000,
0.140691791666667,0,0xA611,
0.140721166666667,0,0x0005,
0.140728833333333,0,0x2D1D,
0.140745208333333,0,0xF3F4,
0.140753125000000,0,0xAD11,
0.140768958333333,0,0xFFED,
0.140776875000000,0,0xAE11,
0.140792750000000,0,0x9A22,
0.140800625000000,0,0xAF11,
0.140816458333333,0,0xFFFF,
0.140824375000000,0,0xB011,
0.140840208333333,0,0x830B,
0.140848166666667,0,0xB111,
0.140878291666667,0,0x0006,
0.140885958333333,0,0x3B11,
0.140902083333333,0,0xB3E1,
0.140910000000000,0,0xBB11,
0.140925833333333,0,0xB329,
0.140933750000000,0,0xBC11,
0.140949583333333,0,0xB2BA,
0.140957500000000,0,0xBD11,
0.140973333333333,0,0xB200,
0.140981250000000,0,0xBE11,
0.140997083333333,0,0xB200,
0.141005000000000,0,0xBF11,
0.141020875000000,0,0xB273,
0.141028791666667,0,0xC011,
0.141059166666667,0,0x000A,
0.141066833333333,0,0x4115,
0.141083208333333,0,0xC0C3,
0.141091125000000,0,0xC111,
0.141106958333333,0,0xC0C5,
0.141114875000000,0,0xC211,
0.141130750000000,0,0xC0C3,
0.141138666666667,0,0xC311,
0.141154458333333,0,0xC088,
0.141162416666667,0,0xC411,
0.141178250000000,0,0xC0A9,
0.141186166666667,0,0xC511,
0.141202000000000,0,0xDD17,
0.141209916666667,0,0xC611,
0.141225750000000,0,0x8048,
0.141233666666667,0,0xC711,
0.141249500000000,0,0xA3D3,
0.141257416666667,0,0xC811,
0.141273250000000,0,0x9E3A,
0.141281166666667,0,0xC911,
0.141297000000000,0,0x9E3A,
0.141304958333333,0,0xCA11,
0.141337083333333,0,0x0004,
0.141344750000000,0,0x0329,
0.141360875000000,0,0x0A01,
0.141368750000000,0,0x8329,
0.141384458333333,0,0x0F00,
0.141392333333333,0,0x8429,
0.141408041666667,0,0x0000,
0.141415875000000,0,0x8521,
0.141431583333333,0,0x173F,
0.141439458333333,0,0x8629,
0.141469375000000,0,0x0001,
0.141477083333333,0,0x1D2D,
0.141492958333333,0,0x0055,
0.141500833333333,0,0x9D2D,
0.141528958333333,0,0x0003,
0.141536625000000,0,0x2421,
0.141552875000000,0,0x004C,
0.141560750000000,0,0xA421,
0.141576458333333,0,0x0040,
0.141584333333333,0,0xA521,
0.141600041666667,0,0x8000,
0.141607916666667,0,0xA621,
0.141637000000000,0,0x0005,
0.141644666666667,0,0x2D25,
0.141660958333333,0,0x01CF,
0.141668791666667,0,0xAD21,
0.141684500000000,0,0xFFF0,
0.141692375000000,0,0xAE21,
0.141708083333333,0,0x06D5,
0.141715958333333,0,0xAF21,
0.141731666666667,0,0xFFFF,
0.141739541666667,0,0xB021,
0.141755250000000,0,0x830E,
0.141763125000000,0,0xB121,
0.141794958333333,0,0x0006,
0.141802666666667,0,0x3B29,
0.141819083333333,0,0xE51C,
0.141826916666667,0,0xBB21,
0.141842625000000,0,0x8000,
0.141850500000000,0,0xBC21,
0.141866208333333,0,0x8000,
0.141874083333333,0,0xBD21,
0.141889791666667,0,0x8000,
0.141897666666667,0,0xBE21,
0.141913375000000,0,0xE5BA,
0.141921208333333,0,0xBF21,
0.141936916666667,0,0xE5D1,
0.141944791666667,0,0xC021,
0.141975291666667,0,0x000A,
0.141982958333333,0,0x412D,
0.141999333333333,0,0xDB68,
0.142007166666667,0,0xC121,
0.142022875000000,0,0xDC70,
0.142030750000000,0,0xC221,
0.142046458333333,0,0xDF41,
0.142054333333333,0,0xC321,
0.142070000000000,0,0xE11D,
0.142077875000000,0,0xC421,
0.142093583333333,0,0xA97A,
0.142101458333333,0,0xC521,
0.142117166666667,0,0xFF49,
0.142125000000000,0,0xC621,
0.142140750000000,0,0xC013,
0.142148583333333,0,0xC721,
0.142164291666667,0,0xA3B7,
0.142172166666667,0,0xC821,
0.142187875000000,0,0x9E3A,
0.142195750000000,0,0xC921,
0.142211458333333,0,0x9E3E,
0.142219333333333,0,0xCA21,
0.149839833333333,0,0x2C3F,
0.149847541666667,0,0x0603,
0.149875000000000,0,0x0004,
0.149882708333333,0,0x0315,
0.149899041666667,0,0x0A01,
0.149906958333333,0,0x8315,
0.149922833333333,0,0x0F00,
0.149930708333333,0,0x8415,
0.149946583333333,0,0x0000,
0.149954500000000,0,0x8512,
0.149970333333333,0,0x2F3F,
0.149978250000000,0,0x8615,
0.150008458333333,0,0x0004,
0.150016166666667,0,0x0319,
0.150032208333333,0,0x0A01,
0.150040125000000,0,0x8319,
0.150055958333333,0,0x0F00,
0.150063875000000,0,0x8419,
0.150079708333333,0,0x0000,
0.150087666666667,0,0x8512,
0.150103500000000,0,0x2F3F,
0.150111416666667,0,0x8619,
0.150142291666667,0,0x0004,
0.150149958333333,0,0x031D,
0.150166375000000,0,0x0A01,
0.150174291666667,0,0x831D,
0.150190125000000,0,0x0F00,
0.150198041666667,0,0x841D,
0.150213875000000,0,0x0000,
0.150221791666667,0,0x8512,
0.150237625000000,0,0x2F3F,
0.150245541666667,0,0x861D,
0.150276541666667,0,0x0004,
0.150284250000000,0,0x0311,
0.150300500000000,0,0x0A01,
0.150308375000000,0,0x8311,
0.150324250000000,0,0x0F00,
0.150332166666667,0,0x8411,
0.150348000000000,0,0x0000,
0.150355916666667,0,0x8512,
0.150371750000000,0,0x2F3F,
0.150379708333333,0,0x8611,
0.150410708333333,0,0x0004,
0.150418375000000,0,0x0315,
0.150434625000000,0,0x0A01,
0.150442541666667,0,0x8315,
0.150458375000000,0,0x0F00,
0.150466291666667,0,0x8415,
0.150482166666667,0,0x0000,
0.150490041666667,0,0x8512,
0.150505916666667,0,0x273F,
0.150513791666667,0,0x8615,
0.150544375000000,0,0x0001,
0.150552041666667,0,0x1D19,
0.150568250000000,0,0x1551,
0.150576166666667,0,0x9D19,
0.150604041666667,0,0x0003,
0.150611708333333,0,0x241D,
0.150628125000000,0,0x0048,
0.150636041666667,0,0xA412,
0.150651875000000,0,0x0040,
0.150659791666667,0,0xA512,
0.150675625000000,0,0x8000,
0.150683541666667,0,0xA612,
0.150712291666667,0,0x0005,
0.150720000000000,0,0x2D11,
0.150736000000000,0,0xF4FD,
0.150743875000000,0,0xAD12,
0.150759750000000,0,0xFFED,
0.150767625000000,0,0xAE12,
0.150783458333333,0,0x9700,
0.150791375000000,0,0xAF12,
0.150807208333333,0,0xFFFF,
0.150815166666667,0,0xB012,
0.150831000000000,0,0x8309,
0.150838875000000,0,0xB112,
0.150868916666667,0,0x0006,
0.150876583333333,0,0x3B15,
0.150892791666667,0,0xB3E2,
0.150900708333333,0,0xBB12,
0.150916583333333,0,0xB32F,
0.150924500000000,0,0xBC12,
0.150940333333333,0,0xB2B9,
0.150948250000000,0,0xBD12,
0.150964083333333,0,0xB1FE,
0.150972000000000,0,0xBE12,
0.150987833333333,0,0xB1FD,
0.150995750000000,0,0xBF12,
0.151011583333333,0,0xB26F,
0.151019500000000,0,0xC012,
0.151050125000000,0,0x000A,
0.151057791666667,0,0x4119,
0.151073916666667,0,0xC0C4,
0.151081875000000,0,0xC112,
0.151097666666667,0,0xC0C2,
0.151105583333333,0,0xC212,
0.151121416666667,0,0xC0C4,
0.151129375000000,0,0xC312,
0.151145166666667,0,0xC086,
0.151153083333333,0,0xC412,
0.151168916666667,0,0xC0AB,
0.151176833333333,0,0xC512,
0.151192666666667,0,0xDD15,
0.151200583333333,0,0xC612,
0.151216416666667,0,0x8044,
0.151224333333333,0,0xC712,
0.151240166666667,0,0xA3D5,
0.151248125000000,0,0xC812,
0.151263958333333,0,0x9E36,
0.151271833333333,0,0xC912,
0.151287708333333,0,0x9E3A,
0.151295583333333,0,0xCA12,
0.151327958333333,0,0x0004,
0.151335625000000,0,0x032D,
0.151351583333333,0,0x0A01,
0.151359416666667,0,0x832D,
0.151375166666667,0,0x0F00,
0.151383000000000,0,0x842D,
0.151398708333333,0,0x0000,
0.151406583333333,0,0x8522,
0.151422291666667,0,0x273F,
0.151430125000000,0,0x862D,
0.151460500000000,0,0x0001,
0.151468166666667,0,0x1D21,
0.151484166666667,0,0x0055,
0.151492000000000,0,0x9D21,
0.151520000000000,0,0x0003,
0.151527708333333,0,0x2425,
0.151544041666667,0,0x004C,
0.151551916666667,0,0xA422,
0.151567625000000,0,0x0040,
0.151575500000000,0,0xA522,
0.151591208333333,0,0x8000,
0.151599041666667,0,0xA622,
0.151627583333333,0,0x0005,
0.151635250000000,0,0x2D29,
0.151651625000000,0,0x02DB,
0.151659458333333,0,0xAD22,
0.151675166666667,0,0xFFF0,
0.151683041666667,0,0xAE22,
0.151698750000000,0,0x0460,
0.151706583333333,0,0xAF22,
0.151722291666667,0,0xFFFF,
0.151730166666667,0,0xB022,
0.151745875000000,0,0x830C,
0.151753750000000,0,0xB122,
0.151784916666667,0,0x0006,
0.151792625000000,0,0x3B2D,
0.151808708333333,0,0xE517,
0.151816583333333,0,0xBB22,
0.151832291666667,0,0x8002,
0.151840125000000,0,0xBC22,
0.151855833333333,0,0x8000,
0.151863708333333,0,0xBD22,
0.151879416666667,0,0x8000,
0.151887291666667,0,0xBE22,
0.151903000000000,0,0xE5B5,
0.151910875000000,0,0xBF22,
0.151926583333333,0,0xE5D3,
0.151934458333333,0,0xC022,
0.151965000000000,0,0x000A,
0.151972708333333,0,0x4121,
0.151988916666667,0,0xDB68,
0.151996791666667,0,0xC122,
0.152012500000000,0,0xDC72,
0.152020375000000,0,0xC222,
0.152036041666667,0,0xDF3C,
0.152043916666667,0,0xC322,
0.152059625000000,0,0xE124,
0.152067500000000,0,0xC422,
0.152083166666667,0,0xA97E,
0.152091041666667,0,0xC522,
0.152106750000000,0,0xFF49,
0.152114625000000,0,0xC622,
0.152130333333333,0,0xC019,
0.152138166666667,0,0xC722,
0.152153875000000,0,0xA3B6,
0.152161750000000,0,0xC822,
0.152177458333333,0,0x9E39,
0.152185333333333,0,0xC922,
0.152201041666667,0,0x9E39,
0.152208916666667,0,0xCA22,
0.159998750000000,0,0x3C3F,
0.160006416666667,0,0x0607,
0.160034541666667,0,0x0004,
0.160042208333333,0,0x0319,
0.160058541666667,0,0x0A01,
0.160066458333333,0,0x8319,
0.160082291666667,0,0x0F00,
0.160090208333333,0,0x8419,
0.160106083333333,0,0x0000,
0.160113958333333,0,0x8513,
0.160129833333333,0,0x3F3F,
0.160137750000000,0,0x8619,
0.160168125000000,0,0x0004,
0.160175833333333,0,0x031D,
0.160192208333333,0,0x0A01,
0.160200125000000,0,0x831D,
0.160215958333333,0,0x0F00,
0.160223916666667,0,0x841D,
0.160239750000000,0,0x0000,
0.160247666666667,0,0x8513,
0.160263500000000,0,0x3F3F,
0.160271416666667,0,0x861D,
0.160302333333333,0,0x0004,
0.160310000000000,0,0x0311,
0.160326375000000,0,0x0A01,
0.160334291666667,0,0x8311,
0.160350166666667,0,0x0F00,
0.160358041666667,0,0x8411,
0.160373916666667,0,0x0000,
0.160381833333333,0,0x8513,
0.160397666666667,0,0x3F3F,
0.160405583333333,0,0x8611,
0.160436666666667,0,0x0004,
0.160444375000000,0,0x0315,
0.160460500000000,0,0x0A01,
0.160468458333333,0,0x8315,
0.160484291666667,0,0x0F00,
0.160492208333333,0,0x8415,
0.160508041666667,0,0x0000,
0.160515958333333,0,0x8513,
0.160531791666667,0,0x3F3F,
0.160539708333333,0,0x8615,
0.160569583333333,0,0x0004,
0.160577291666667,0,0x0319,
0.160593625000000,0,0x0A01,
0.160601541666667,0,0x8319,
0.160617375000000,0,0x0F00,
0.160625291666667,0,0x8419,
0.160641125000000,0,0x0000,
0.160649041666667,0,0x8513,
0.160664875000000,0,0x373F,
0.160672791666667,0,0x8619,
0.160703166666667,0,0x0001,
0.160710875000000,0,0x1D1D,
0.160727208333333,0,0x1551,
0.160735125000000,0,0x9D1D,
0.160763666666667,0,0x0003,
0.160771333333333,0,0x2411,
0.160787583333333,0,0x0048,
0.160795500000000,0,0xA413,
0.160811333333333,0,0x0040,
0.160819250000000,0,0xA513,
0.160835083333333,0,0x8000,
0.160843000000000,0,0xA613,
0.160871500000000,0,0x0005,
0.160879166666667,0,0x2D15,
0.160895458333333,0,0xF60B,
0.160903375000000,0,0xAD13,
0.160919208333333,0,0xFFED,
0.160927083333333,0,0xAE13,
0.160942916666667,0,0x9474,
0.160950875000000,0,0xAF13,
0.160966708333333,0,0xFFFF,
0.160974625000000,0,0xB013,
0.160990458333333,0,0x830C,
0.160998375000000,0,0xB113,
0.161028833333333,0,0x0006,
0.161036500000000,0,0x3B19,
0.161052791666667,0,0xB3DF,
0.161060708333333,0,0xBB13,
0.161076541666667,0,0xB32F,
0.161084458333333,0,0xBC13,
0.161100291666667,0,0xB2BC,
0.161108208333333,0,0xBD13,
0.161124041666667,0,0xB1FD,
0.161131958333333,0,0xBE13,
0.161147791666667,0,0xB1FC,
0.161155708333333,0,0xBF13,
0.161171541666667,0,0xB270,
0.161179458333333,0,0xC013,
0.161209333333333,0,0x000A,
0.161217041666667,0,0x411D,
0.161233375000000,0,0xC0C7,
0.161241291666667,0,0xC113,
0.161257125000000,0,0xC0C5,
0.161265041666667,0,0xC213,
0.161280875000000,0,0xC0C4,
0.161288791666667,0,0xC313,
0.161304625000000,0,0xC084,
0.161312541666667,0,0xC413,
0.161328333333333,0,0xC0AA,
0.161336291666667,0,0xC513,
0.161352083333333,0,0xDD15,
0.161360041666667,0,0xC613,
0.161375875000000,0,0x8044,
0.161383791666667,0,0xC713,
0.161399625000000,0,0xA3D5,
0.161407541666667,0,0xC813,
0.161423375000000,0,0x9E37,
0.161431291666667,0,0xC913,
0.161447125000000,0,0x9E3B,
0.161455041666667,0,0xCA13,
0.161486833333333,0,0x0004,
0.161494500000000,0,0x0321,
0.161510791666667,0,0x0A01,
0.161518625000000,0,0x8321,
0.161534333333333,0,0x0F00,
0.161542208333333,0,0x8421,
0.161557916666667,0,0x0000,
0.161565750000000,0,0x8523,
0.161581458333333,0,0x373F,
0.161589333333333,0,0x8621,
0.161620458333333,0,0x0001,
0.161628125000000,0,0x1D25,
0.161644333333333,0,0x0055,
0.161652166666667,0,0x9D25,
0.161680125000000,0,0x0003,
0.161687791666667,0,0x2429,
0.161703750000000,0,0x004C,
0.161711583333333,0,0xA423,
0.161727291666667,0,0x0040,
0.161735166666667,0,0xA523,
0.161750875000000,0,0x8000,
0.161758708333333,0,0xA623,
0.161788208333333,0,0x0005,
0.161795916666667,0,0x2D2D,
0.161812250000000,0,0x03EB,
0.161820083333333,0,0xAD23,
0.161835791666667,0,0xFFF0,
0.161843666666667,0,0xAE23,
0.161859375000000,0,0x01C3,
0.161867208333333,0,0xAF23,
0.161882916666667,0,0x8000,
0.161890791666667,0,0xB023,
0.161906500000000,0,0x8303,
0.161914375000000,0,0xB123,
0.161943833333333,0,0x0006,
0.161951500000000,0,0x3B21,
0.161967875000000,0,0xE51B,
0.161975750000000,0,0xBB23,
0.161991458333333,0,0x8000,
0.161999291666667,0,0xBC23,
0.162015041666667,0,0x8000,
0.162022875000000,0,0xBD23,
0.162038583333333,0,0x8002,
0.162046458333333,0,0xBE23,
0.162062166666667,0,0xE5BC,
0.162070041666667,0,0xBF23,
0.162085708333333,0,0xE5D6,
0.162093583333333,0,0xC023,
0.162123708333333,0,0x000A,
0.162131416666667,0,0x4125,
0.162147583333333,0,0xDB65,
0.162155458333333,0,0xC123,
0.162171166666667,0,0xDC71,
0.162179041666667,0,0xC223,
0.162194750000000,0,0xDF3F,
0.162202583333333,0,0xC323,
0.162218291666667,0,0xE121,
0.162226166666667,0,0xC423,
0.162241875000000,0,0xA97C,
0.162249708333333,0,0xC523,
0.162265458333333,0,0xFF4C,
0.162273291666667,0,0xC623,
0.162289000000000,0,0xC015,
0.162296875000000,0,0xC723,
0.162312541666667,0,0xA3BB,
0.162320416666667,0,0xC823,
0.162336125000000,0,0x9E38,
0.162344000000000,0,0xC923,
0.162359708333333,0,0x9E3E,
0.162367583333333,0,0xCA23,
0.169808750000000,0,0x4C3F,
0.169816416666667,0,0x060B,
0.169843958333333,0,0x0004,
0.169851625000000,0,0x031D,
0.169867833333333,0,0x0A01,
0.169875750000000,0,0x831D,
0.169891541666667,0,0x0F00,
0.169899500000000,0,0x841D,
0.169915333333333,0,0x0000,
0.169923250000000,0,0x8514,
0.169939083333333,0,0x4F3F,
0.169947000000000,0,0x861D,
0.169977625000000,0,0x0004,
0.169985291666667,0,0x0311,
0.170001416666667,0,0x0A01,
0.170009375000000,0,0x8311,
0.170025208333333,0,0x0F00,
0.170033125000000,0,0x8411,
0.170048958333333,0,0x0000,
0.170056875000000,0,0x8514,
0.170072708333333,0,0x4F3F,
0.170080625000000,0,0x8611,
0.170110916666667,0,0x0004,
0.170118583333333,0,0x0315,
0.170135083333333,0,0x0A01,
0.170142958333333,0,0x8315,
0.170158791666667,0,0x0F00,
0.170166750000000,0,0x8415,
0.170182583333333,0,0x0000,
0.170190500000000,0,0x8514,
0.170206333333333,0,0x4F3F,
0.170214250000000,0,0x8615,
0.170244916666667,0,0x0004,
0.170252583333333,0,0x0319,
0.170268708333333,0,0x0A01,
0.170276625000000,0,0x8319,
0.170292458333333,0,0x0F00,
0.170300375000000,0,0x8419,
0.170316208333333,0,0x0000,
0.170324125000000,0,0x8514,
0.170339958333333,0,0x4F3F,
0.170347875000000,0,0x8619,
0.170378333333333,0,0x0004,
0.170386041666667,0,0x031D,
0.170402291666667,0,0x0A01,
0.170410208333333,0,0x831D,
0.170426041666667,0,0x0F00,
0.170433958333333,0,0x841D,
0.170449833333333,0,0x0000,
0.170457708333333,0,0x8514,
0.170473583333333,0,0x473F,
0.170481500000000,0,0x861D,
0.170511958333333,0,0x0001,
0.170519625000000,0,0x1D11,
0.170535916666667,0,0x1551,
0.170543833333333,0,0x9D11,
0.170571833333333,0,0x0003,
0.170579541666667,0,0x2415,
0.170595791666667,0,0x0048,
0.170603708333333,0,0xA414,
0.170619541666667,0,0x0040,
0.170627500000000,0,0xA514,
0.170643333333333,0,0x8000,
0.170651250000000,0,0xA614,
0.170680500000000,0,0x0005,
0.170688166666667,0,0x2D19,
0.170704166666667,0,0xF710,
0.170712083333333,0,0xAD14,
0.170727916666667,0,0xFFED,
0.170735875000000,0,0xAE14,
0.170751666666667,0,0x9241,
0.170759625000000,0,0xAF14,
0.170775416666667,0,0x8000,
0.170783333333333,0,0xB014,
0.170799166666667,0,0x8304,
0.170807125000000,0,0xB114,
0.170836791666667,0,0x0006,
0.170844458333333,0,0x3B1D,
0.170860541666667,0,0xB3DA,
0.170868458333333,0,0xBB14,
0.170884291666667,0,0xB327,
0.170892208333333,0,0xBC14,
0.170908041666667,0,0xB2BD,
0.170915958333333,0,0xBD14,
0.170931791666667,0,0xB1FE,
0.170939708333333,0,0xBE14,
0.170955541666667,0,0xB201,
0.170963458333333,0,0xBF14,
0.170979291666667,0,0xB272,
0.170987208333333,0,0xC014,
0.171016958333333,0,0x000A,
0.171024666666667,0,0x4111,
0.171040666666667,0,0xC0C6,
0.171048541666667,0,0xC114,
0.171064416666667,0,0xC0C5,
0.171072333333333,0,0xC214,
0.171088125000000,0,0xC0C9,
0.171096083333333,0,0xC314,
0.171111916666667,0,0xC089,
0.171119833333333,0,0xC414,
0.171135666666667,0,0xC0AC,
0.171143583333333,0,0xC514,
0.171159416666667,0,0xDD1A,
0.171167375000000,0,0xC614,
0.171183166666667,0,0x8047,
0.171191125000000,0,0xC714,
0.171206958333333,0,0xA3D3,
0.171214875000000,0,0xC814,
0.171230708333333,0,0x9E3B,
0.171238625000000,0,0xC914,
0.171254458333333,0,0x9E3A,
0.171262375000000,0,0xCA14,
0.171294791666667,0,0x0004,
0.171302458333333,0,0x0325,
0.171318833333333,0,0x0A01,
0.171326708333333,0,0x8325,
0.171342416666667,0,0x0F00,
0.171350291666667,0,0x8425,
0.171365958333333,0,0x0000,
0.171373833333333,0,0x8524,
0.171389541666667,0,0x473F,
0.171397416666667,0,0x8625,
0.171428125000000,0,0x0001,
0.171435791666667,0,0x1D29,
0.171451916666667,0,0x0055,
0.171459750000000,0,0x9D29,
0.171487625000000,0,0x0003,
0.171495291666667,0,0x242D,
0.171511333333333,0,0x004C,
0.171519166666667,0,0xA424,
0.171534875000000,0,0x0040,
0.171542750000000,0,0xA524,
0.171558458333333,0,0x8000,
0.171566291666667,0,0xA624,
0.171595375000000,0,0x0005,
0.171603083333333,0,0x2D21,
0.171619333333333,0,0x04F2,
0.171627208333333,0,0xAD24,
0.171642916666667,0,0xFFEF,
0.171650791666667,0,0xAE24,
0.171666500000000,0,0xFFB9,
0.171674333333333,0,0xAF24,
0.171690041666667,0,0x8000,
0.171697916666667,0,0xB024,
0.171713625000000,0,0x8300,
0.171721500000000,0,0xB124,
0.171751625000000,0,0x0006,
0.171759291666667,0,0x3B25,
0.171775500000000,0,0xE515,
0.171783375000000,0,0xBB24,
0.171799083333333,0,0x8000,
0.171806916666667,0,0xBC24,
0.171822625000000,0,0x8000,
0.171830500000000,0,0xBD24,
0.171846208333333,0,0x8001,
0.171854083333333,0,0xBE24,
0.171869791666667,0,0xE5BB,
0.171877625000000,0,0xBF24,
0.171893333333333,0,0xE5D2,
0.171901208333333,0,0xC024,
0.171931750000000,0,0x000A,
0.171939416666667,0,0x4129,
0.171955708333333,0,0xDB67,
0.171963541666667,0,0xC124,
0.171979291666667,0,0xDC69,
0.171987125000000,0,0xC224,
0.172002833333333,0,0xDF3D,
0.172010708333333,0,0xC324,
0.172026416666667,0,0xE122,
0.172034291666667,0,0xC424,
0.172049958333333,0,0xA97D,
0.172057833333333,0,0xC524,
0.172073541666667,0,0xFF49,
0.172081416666667,0,0xC624,
0.172097125000000,0,0xC013,
0.172104958333333,0,0xC724,
0.172120708333333,0,0xA3B9,
0.172128541666667,0,0xC824,
0.172144250000000,0,0x9E36,
0.172152125000000,0,0xC924,
0.172167833333333,0,0x9E3F,
0.172175666666667,0,0xCA24,
0.179838208333333,0,0x5C3F,
0.179845875000000,0,0x060F,
0.179873375000000,0,0x0004,
0.179881083333333,0,0x0311,
0.179897333333333,0,0x0A01,
0.179905250000000,0,0x8311,
0.179921083333333,0,0x0F00,
0.179929000000000,0,0x8411,
0.179944875000000,0,0x0000,
0.179952791666667,0,0x8515,
0.179968625000000,0,0x5F3F,
0.179976500000000,0,0x8611,
0.180007708333333,0,0x0004,
0.180015375000000,0,0x0315,
0.180031458333333,0,0x0A01,
0.180039375000000,0,0x8315,
0.180055208333333,0,0x0F00,
0.180063125000000,0,0x8415,
0.180078958333333,0,0x0000,
0.180086875000000,0,0x8515,
0.180102750000000,0,0x5F3F,
0.180110625000000,0,0x8615,
0.180142000000000,0,0x0004,
0.180149708333333,0,0x0319,
0.180166083333333,0,0x0A01,
0.180174000000000,0,0x8319,
0.180189833333333,0,0x0F00,
0.180197750000000,0,0x8419,
0.180213583333333,0,0x0000,
0.180221500000000,0,0x8515,
0.180237333333333,0,0x5F3F,
0.180245250000000,0,0x8619,
0.180276375000000,0,0x0004,
0.180284083333333,0,0x031D,
0.180300208333333,0,0x0A01,
0.180308083333333,0,0x831D,
0.180323958333333,0,0x0F00,
0.180331875000000,0,0x841D,
0.180347708333333,0,0x0000,
0.180355625000000,0,0x8515,
0.180371458333333,0,0x5F3F,
0.180379375000000,0,0x861D,
0.180410791666667,0,0x0004,
0.180418458333333,0,0x0311,
0.180434791666667,0,0x0A01,
0.180442708333333,0,0x8311,
0.180458541666667,0,0x0F00,
0.180466458333333,0,0x8411,
0.180482291666667,0,0x0000,
0.180490208333333,0,0x8515,
0.180506041666667,0,0x573F,
0.180513958333333,0,0x8611,
0.180545125000000,0,0x0001,
0.180552833333333,0,0x1D15,
0.180568875000000,0,0x1551,
0.180576791666667,0,0x9D15,
0.180605083333333,0,0x0003,
0.180612750000000,0,0x2419,
0.180628750000000,0,0x0048,
0.180636666666667,0,0xA415,
0.180652500000000,0,0x0040,
0.180660416666667,0,0xA515,
0.180676250000000,0,0x8000,
0.180684166666667,0,0xA615,
0.180712833333333,0,0x0005,
0.180720500000000,0,0x2D1D,
0.180736625000000,0,0xF81B,
0.180744541666667,0,0xAD15,
0.180760375000000,0,0xFFED,
0.180768291666667,0,0xAE15,
0.180784125000000,0,0x9038,
0.180792041666667,0,0xAF15,
0.180807875000000,0,0xFFFF,
0.180815791666667,0,0xB015,
0.180831625000000,0,0x830D,
0.180839541666667,0,0xB115,
0.180868875000000,0,0x0006,
0.180876541666667,0,0x3B11,
0.180892958333333,0,0xB3E1,
0.180900875000000,0,0xBB15,
0.180916708333333,0,0xB32A,
0.180924625000000,0,0xBC15,
0.180940458333333,0,0xB2BC,
0.180948375000000,0,0xBD15,
0.180964208333333,0,0xB1FE,
0.180972125000000,0,0xBE15,
0.180988000000000,0,0xB1FF,
0.180995916666667,0,0xBF15,
0.181011708333333,0,0xB270,
0.181019666666667,0,0xC015,
0.181049500000000,0,0x000A,
0.181057166666667,0,0x4115,
0.181073583333333,0,0xC0C7,
0.181081500000000,0,0xC115,
0.181097333333333,0,0xC0C7,
0.181105250000000,0,0xC215,
0.181121083333333,0,0xC0C3,
0.181129000000000,0,0xC315,
0.181144833333333,0,0xC089,
0.181152750000000,0,0xC415,
0.181168583333333,0,0xC0AA,
0.181176500000000,0,0xC515,
0.181192333333333,0,0xDD14,
0.181200250000000,0,0xC615,
0.181216083333333,0,0x8047,
0.181223958333333,0,0xC715,
0.181239791666667,0,0xA3D6,
0.181247750000000,0,0xC815,
0.181263541666667,0,0x9E3B,
0.181271500000000,0,0xC915,
0.181287333333333,0,0x9E39,
0.181295250000000,0,0xCA15,
0.181328041666667,0,0x0004,
0.181335750000000,0,0x0329,
0.181351708333333,0,0x0A01,
0.181359541666667,0,0x8329,
0.181375291666667,0,0x0F00,
0.181383125000000,0,0x8429,
0.181398833333333,0,0x0000,
0.181406708333333,0,0x8525,
0.181422416666667,0,0x573F,
0.181430291666667,0,0x8629,
0.181460416666667,0,0x0001,
0.181468125000000,0,0x1D2D,
0.181484291666667,0,0x0055,
0.181492125000000,0,0x9D2D,
0.181520666666667,0,0x0003,
0.181528333333333,0,0x2421,
0.181544666666667,0,0x004C,
0.181552541666667,0,0xA425,
0.181568208333333,0,0x0040,
0.181576083333333,0,0xA525,
0.181591791666667,0,0x8000,
0.181599625000000,0,0xA625,
0.181628833333333,0,0x0005,
0.181636500000000,0,0x2D25,
0.181652666666667,0,0x05FF,
0.181660541666667,0,0xAD25,
0.181676250000000,0,0xFFEF,
0.181684083333333,0,0xAE25,
0.181699791666667,0,0xFD21,
0.181707666666667,0,0xAF25,
0.181723375000000,0,0x8000,
0.181731250000000,0,0xB025,
0.181746958333333,0,0x8302,
0.181754791666667,0,0xB125,
0.181787000000000,0,0x0006,
0.181794708333333,0,0x3B29,
0.181810791666667,0,0xE517,
0.181818625000000,0,0xBB25,
0.181834375000000,0,0x8001,
0.181842208333333,0,0xBC25,
0.181857916666667,0,0x8001,
0.181865791666667,0,0xBD25,
0.181881500000000,0,0x8004,
0.181889333333333,0,0xBE25,
0.181905083333333,0,0xE5C2,
0.181912916666667,0,0xBF25,
0.181928625000000,0,0xE5D8,
0.181936500000000,0,0xC025,
0.181966916666667,0,0x000A,
0.181974583333333,0,0x412D,
0.181990958333333,0,0xDB6E,
0.181998833333333,0,0xC125,
0.182014541666667,0,0xDC73,
0.182022375000000,0,0xC225,
0.182038083333333,0,0xDF44,
0.182045958333333,0,0xC325,
0.182061666666667,0,0xE123,
0.182069500000000,0,0xC425,
0.182085250000000,0,0xA97F,
0.182093083333333,0,0xC525,
0.182108791666667,0,0xFF4C,
0.182116666666667,0,0xC625,
0.182132375000000,0,0xC016,
0.182140250000000,0,0xC725,
0.182155958333333,0,0xA3B6,
0.182163791666667,0,0xC825,
0.182179500000000,0,0x9E3B,
0.182187375000000,0,0xC925,
0.182203083333333,0,0x9E3F,
0.182210958333333,0,0xCA25,
0.189814625000000,0,0x6C3F,
0.189822291666667,0,0x0603,
0.189849833333333,0,0x0004,
0.189857541666667,0,0x0315,
0.189873916666667,0,0x0A01,
0.189881833333333,0,0x8315,
0.189897666666667,0,0x0F00,
0.189905625000000,0,0x8415,
0.189921458333333,0,0x0000,
0.189929375000000,0,0x8516,
0.189945208333333,0,0x6F3F,
0.189953125000000,0,0x8615,
0.189983458333333,0,0x0004,
0.189991125000000,0,0x0319,
0.190007541666667,0,0x0A01,
0.190015500000000,0,0x8319,
0.190031333333333,0,0x0F00,
0.190039250000000,0,0x8419,
0.190055083333333,0,0x0000,
0.190063000000000,0,0x8516,
0.190078833333333,0,0x6F3F,
0.190086791666667,0,0x8619,
0.190117791666667,0,0x0004,
0.190125458333333,0,0x031D,
0.190141708333333,0,0x0A01,
0.190149666666667,0,0x831D,
0.190165500000000,0,0x0F00,
0.190173416666667,0,0x841D,
0.190189250000000,0,0x0000,
0.190197166666667,0,0x8516,
0.190213000000000,0,0x6F3F,
0.190220916666667,0,0x861D,
0.190251041666667,0,0x0004,
0.190258750000000,0,0x0311,
0.190274875000000,0,0x0A01,
0.190282791666667,0,0x8311,
0.190298625000000,0,0x0F00,
0.190306583333333,0,0x8411,
0.190322416666667,0,0x0000,
0.190330333333333,0,0x8516,
0.190346166666667,0,0x6F3F,
0.190354083333333,0,0x8611,
0.190383750000000,0,0x0004,
0.190391416666667,0,0x0315,
0.190407541666667,0,0x0A01,
0.190415458333333,0,0x8315,
0.190431291666667,0,0x0F00,
0.190439208333333,0,0x8415,
0.190455041666667,0,0x0000,
0.190462958333333,0,0x8516,
0.190478791666667,0,0x673F,
0.190486750000000,0,0x8615,
0.190517458333333,0,0x0001,
0.190525125000000,0,0x1D19,
0.190541125000000,0,0x1551,
0.190549083333333,0,0x9D19,
0.190577333333333,0,0x0003,
0.190585041666667,0,0x241D,
0.190601000000000,0,0x0048,
0.190608916666667,0,0xA416,
0.190624750000000,0,0x0040,
0.190632666666667,0,0xA516,
0.190648500000000,0,0x8000,
0.190656416666667,0,0xA616,
0.190684666666667,0,0x0005,
0.190692333333333,0,0x2D11,
0.190708375000000,0,0xF924,
0.190716291666667,0,0xAD16,
0.190732125000000,0,0xFFED,
0.190740041666667,0,0xAE16,
0.190755875000000,0,0x8DE9,
0.190763791666667,0,0xAF16,
0.190779625000000,0,0x8000,
0.190787541666667,0,0xB016,
0.190803375000000,0,0x8301,
0.190811291666667,0,0xB116,
0.190841916666667,0,0x0006,
0.190849583333333,0,0x3B15,
0.190865708333333,0,0xB3DD,
0.190873625000000,0,0xBB16,
0.190889458333333,0,0xB328,
0.190897375000000,0,0xBC16,
0.190913208333333,0,0xB2BF,
0.190921125000000,0,0xBD16,
0.190936958333333,0,0xB202,
0.190944875000000,0,0xBE16,
0.190960708333333,0,0xB202,
0.190968625000000,0,0xBF16,
0.190984458333333,0,0xB273,
0.190992375000000,0,0xC016,
0.191022041666667,0,0x000A,
0.191029750000000,0,0x4119,
0.191045791666667,0,0xC0C3,
0.191053708333333,0,0xC116,
0.191069541666667,0,0xC0C3,
0.191077458333333,0,0xC216,
0.191093291666667,0,0xC0C7,
0.191101208333333,0,0xC316,
0.191117041666667,0,0xC083,
0.191124958333333,0,0xC416,
0.191140791666667,0,0xC0A7,
0.191148708333333,0,0xC516,
0.191164541666667,0,0xDD16,
0.191172458333333,0,0xC616,
0.191188291666667,0,0x8043,
0.191196208333333,0,0xC716,
0.191212041666667,0,0xA3D6,
0.191219958333333,0,0xC816,
0.191235791666667,0,0x9E35,
0.191243708333333,0,0xC916,
0.191259541666667,0,0x9E3B,
0.191267458333333,0,0xCA16,
0.191299541666667,0,0x0004,
0.191307208333333,0,0x032D,
0.191323625000000,0,0x0A01,
0.191331500000000,0,0x832D,
0.191347208333333,0,0x0F00,
0.191355083333333,0,0x842D,
0.191370791666667,0,0x0000,
0.191378625000000,0,0x8526,
0.191394333333333,0,0x673F,
0.191402208333333,0,0x862D,
0.191432666666667,0,0x0001,
0.191440375000000,0,0x1D21,
0.191456708333333,0,0x0055,
0.191464541666667,0,0x9D21,
0.191493250000000,0,0x0003,
0.191500916666667,0,0x2425,
0.191517125000000,0,0x004C,
0.191524958333333,0,0xA426,
0.191540666666667,0,0x0040,
0.191548541666667,0,0xA526,
0.191564250000000,0,0x8000,
0.191572083333333,0,0xA626,
0.191601541666667,0,0x0005,
0.191609208333333,0,0x2D29,
0.191625625000000,0,0x070A,
0.191633500000000,0,0xAD26,
0.191649166666667,0,0xFFEF,
0.191657041666667,0,0xAE26,
0.191672750000000,0,0xFACF,
0.191680625000000,0,0xAF26,
0.191696333333333,0,0x8000,
0.191704208333333,0,0xB026,
0.191719875000000,0,0x8305,
0.191727750000000,0,0xB126,
0.191758625000000,0,0x0006,
0.191766333333333,0,0x3B2D,
0.191782750000000,0,0xE514,
0.191790625000000,0,0xBB26,
0.191806333333333,0,0x8000,
0.191814166666667,0,0xBC26,
0.191829875000000,0,0x8003,
0.191837750000000,0,0xBD26,
0.191853458333333,0,0x8002,
0.191861333333333,0,0xBE26,
0.191877041666667,0,0xE5BD,
0.191884916666667,0,0xBF26,
0.191900625000000,0,0xE5D9,
0.191908458333333,0,0xC026,
0.191939958333333,0,0x000A,
0.191947625000000,0,0x4121,
0.191963916666667,0,0xDB68,
0.191971791666667,0,0xC126,
0.191987500000000,0,0xDC6E,
0.191995375000000,0,0xC226,
0.192011083333333,0,0xDF3F,
0.192018958333333,0,0xC326,
0.192034625000000,0,0xE11F,
0.192042500000000,0,0xC426,
0.192058208333333,0,0xA97D,
0.192066083333333,0,0xC526,
0.192081791666667,0,0xFF4B,
0.192089625000000,0,0xC626,
0.192105333333333,0,0xC013,
0.192113208333333,0,0xC726,
0.192128916666667,0,0xA3B9,
0.192136750000000,0,0xC826,
0.192152500000000,0,0x9E37,
0.192160333333333,0,0xC926,
0.192176041666667,0,0x9E3F,
0.192183916666667,0,0xCA26,
0.200029458333333,0,0x7C3F,
0.200037125000000,0,0x0607,
0.200064541666667,0,0x0004,
0.200072250000000,0,0x0319,
0.200088416666667,0,0x0A01,
0.200096333333333,0,0x8319,
0.200112166666667,0,0x0F00,
0.200120083333333,0,0x8419,
0.200135916666667,0,0x0000,
0.200143875000000,0,0x8517,
0.200159666666667,0,0x7F3F,
0.200167625000000,0,0x8619,
0.200199666666667,0,0x0004,
0.200207333333333,0,0x031D,
0.200223541666667,0,0x0A01,
0.200231416666667,0,0x831D,
0.200247291666667,0,0x0F00,
0.200255208333333,0,0x841D,
0.200271041666667,0,0x0000,
0.200278958333333,0,0x8517,
0.200294791666667,0,0x7F3F,
0.200302708333333,0,0x861D,
0.200332666666667,0,0x0004,
0.200340375000000,0,0x0311,
0.200356666666667,0,0x0A01,
0.200364583333333,0,0x8311,
0.200380416666667,0,0x0F00,
0.200388333333333,0,0x8411,
0.200404166666667,0,0x0000,
0.200412125000000,0,0x8517,
0.200427958333333,0,0x7F3F,
0.200435875000000,0,0x8611,
0.200466291666667,0,0x0004,
0.200474000000000,0,0x0315,
0.200490291666667,0,0x0A01,
0.200498208333333,0,0x8315,
0.200514041666667,0,0x0F00,
0.200522000000000,0,0x8415,
0.200537791666667,0,0x0000,
0.200545708333333,0,0x8517,
0.200561583333333,0,0x7F3F,
0.200569458333333,0,0x8615,
0.200600458333333,0,0x0004,
0.200608125000000,0,0x0319,
0.200624375000000,0,0x0A01,
0.200632291666667,0,0x8319,
0.200648125000000,0,0x0F00,
0.200656041666667,0,0x8419,
0.200671875000000,0,0x0000,
0.200679791666667,0,0x8517,
0.200695625000000,0,0x773F,
0.200703541666667,0,0x8619,
0.200734000000000,0,0x0001,
0.200741708333333,0,0x1D1D,
0.200757958333333,0,0x1551,
0.200765875000000,0,0x9D1D,
0.200794000000000,0,0x0003,
0.200801666666667,0,0x2411,
0.200817833333333,0,0x0048,
0.200825750000000,0,0xA417,
0.200841583333333,0,0x0040,
0.200849500000000,0,0xA517,
0.200865333333333,0,0x8000,
0.200873250000000,0,0xA617,
0.200902833333333,0,0x0005,
0.200910500000000,0,0x2D15,
0.200926666666667,0,0xFA34,
0.200934583333333,0,0xAD17,
0.200950416666667,0,0xFFED,
0.200958333333333,0,0xAE17,
0.200974166666667,0,0x8AB2,
0.200982083333333,0,0xAF17,
0.200997916666667,0,0xFFFF,
0.201005833333333,0,0xB017,
0.201021666666667,0,0x830E,
0.201029583333333,0,0xB117,
0.201059083333333,0,0x0006,
0.201066750000000,0,0x3B19,
0.201083041666667,0,0xB3E1,
0.201090958333333,0,0xBB17,
0.201106750000000,0,0xB331,
0.201114708333333,0,0xBC17,
0.201130500000000,0,0xB2C1,
0.201138416666667,0,0xBD17,
0.201154250000000,0,0xB1FD,
0.201162166666667,0,0xBE17,
0.201178000000000,0,0xB201,
0.201185916666667,0,0xBF17,
0.201201750000000,0,0xB274,
0.201209666666667,0,0xC017,
0.201240416666667,0,0x000A,
0.201248083333333,0,0x411D,
0.201264125000000,0,0xC0C4,
0.201272041666667,0,0xC117,
0.201287875000000,0,0xC0C0,
0.201295791666667,0,0xC217,
0.201311625000000,0,0xC0C3,
0.201319541666667,0,0xC317,
0.201335375000000,0,0xC087,
0.201343291666667,0,0xC417,
0.201359125000000,0,0xC0A8,
0.201367083333333,0,0xC517,
0.201382916666667,0,0xDD16,
0.201390833333333,0,0xC617,
0.201406666666667,0,0x8047,
0.201414541666667,0,0xC717,
0.201430416666667,0,0xA3D5,
0.201438333333333,0,0xC817,
0.201454166666667,0,0x9E36,
0.201462041666667,0,0xC917,
0.201477875000000,0,0x9E3B,
0.201485833333333,0,0xCA17,
0.201517250000000,0,0x0004,
0.201524916666667,0,0x0321,
0.201541083333333,0,0x0A01,
0.201548958333333,0,0x8321,
0.201564666666667,0,0x0F00,
0.201572541666667,0,0x8421,
0.201588250000000,0,0x0000,
0.201596125000000,0,0x8527,
0.201611833333333,0,0x773F,
0.201619708333333,0,0x8621,
0.201649750000000,0,0x0001,
0.201657416666667,0,0x1D25,
0.201673708333333,0,0x0055,
0.201681583333333,0,0x9D25,
0.201709791666667,0,0x0003,
0.201717458333333,0,0x2429,
0.201733583333333,0,0x004C,
0.201741458333333,0,0xA427,
0.201757166666667,0,0x0040,
0.201765041666667,0,0xA527,
0.201780750000000,0,0x8000,
0.201788625000000,0,0xA627,
0.201817708333333,0,0x0005,
0.201825416666667,0,0x2D2D,
0.201841625000000,0,0x081C,
0.201849500000000,0,0xAD27,
0.201865208333333,0,0xFFEF,
0.201873041666667,0,0xAE27,
0.201888791666667,0,0xF88B,
0.201896625000000,0,0xAF27,
0.201912333333333,0,0x8000,
0.201920208333333,0,0xB027,
0.201935916666667,0,0x8305,
0.201943791666667,0,0xB127,
0.201972958333333,0,0x0006,
0.201980625000000,0,0x3B21,
0.201996791666667,0,0xE51F,
0.202004666666667,0,0xBB27,
0.202020375000000,0,0x8000,
0.202028208333333,0,0xBC27,
0.202043916666667,0,0x8002,
0.202051791666667,0,0xBD27,
0.202067500000000,0,0x8006,
0.202075375000000,0,0xBE27,
0.202091083333333,0,0xE5BB,
0.202098916666667,0,0xBF27,
0.202114666666667,0,0xE5D6,
0.202122500000000,0,0xC027,
0.202152500000000,0,0x000A,
0.202160166666667,0,0x4125,
0.202176500000000,0,0xDB67,
0.202184375000000,0,0xC127,
0.202200083333333,0,0xDC76,
0.202207916666667,0,0xC227,
0.202223666666667,0,0xDF3F,
0.202231500000000,0,0xC327,
0.202247208333333,0,0xE128,
0.202255041666667,0,0xC427,
0.202270791666667,0,0xA984,
0.202278666666667,0,0xC527,
0.202294375000000,0,0xFF52,
0.202302208333333,0,0xC627,
0.202317916666667,0,0xC01B,
0.202325791666667,0,0xC727,
0.202341500000000,0,0xA3BA,
0.202349375000000,0,0xC827,
0.202365083333333,0,0x9E3B,
0.202372916666667,0,0xC927,
0.202388666666667,0,0x9E3E,
0.202396500000000,0,0xCA27,
0.209854958333333,0,0x8C3F,
0.209862625000000,0,0x060B,
0.209890291666667,0,0x0004,
0.209898000000000,0,0x031D,
0.209914291666667,0,0x0A01,
0.209922208333333,0,0x831D,
0.209938041666667,0,0x0F00,
0.209945958333333,0,0x841D,
0.209961791666667,0,0x0000,
0.209969708333333,0,0x8518,
0.209985583333333,0,0x8F3F,
0.209993500000000,0,0x861D,
0.210024291666667,0,0x0004,
0.210031958333333,0,0x0311,
0.210048416666667,0,0x0A01,
0.210056333333333,0,0x8311,
0.210072166666667,0,0x0F00,
0.210080083333333,0,0x8411,
0.210095958333333,0,0x0000,
0.210103875000000,0,0x8518,
0.210119708333333,0,0x8F3F,
0.210127625000000,0,0x8611,
0.210158166666667,0,0x0004,
0.210165875000000,0,0x0315,
0.210182041666667,0,0x0A01,
0.210189958333333,0,0x8315,
0.210205833333333,0,0x0F00,
0.210213708333333,0,0x8415,
0.210229583333333,0,0x0000,
0.210237500000000,0,0x8518,
0.210253333333333,0,0x8F3F,
0.210261250000000,0,0x8615,
0.210292000000000,0,0x0004,
0.210299666666667,0,0x0319,
0.210315708333333,0,0x0A01,
0.210323625000000,0,0x8319,
0.210339458333333,0,0x0F00,
0.210347375000000,0,0x8419,
0.210363208333333,0,0x0000,
0.210371125000000,0,0x8518,
0.210386958333333,0,0x8F3F,
0.210394875000000,0,0x8619,
0.210424791666667,0,0x0004,
0.210432500000000,0,0x031D,
0.210448791666667,0,0x0A01,
0.210456708333333,0,0x831D,
0.210472541666667,0,0x0F00,
0.210480500000000,0,0x841D,
0.210496291666667,0,0x0000,
0.210504208333333,0,0x8518,
0.210520041666667,0,0x873F,
0.210527958333333,0,0x861D,
0.210558666666667,0,0x0001,
0.210566333333333,0,0x1D11,
0.210582375000000,0,0x1551,
0.210590291666667,0,0x9D11,
0.210618916666667,0,0x0003,
0.210626583333333,0,0x2415,
0.210642750000000,0,0x0048,
0.210650666666667,0,0xA418,
0.210666500000000,0,0x0040,
0.210674416666667,0,0xA518,
0.210690250000000,0,0x8000,
0.210698166666667,0,0xA618,
0.210727041666667,0,0x0005,
0.210734750000000,0,0x2D19,
0.210751125000000,0,0xFB39,
0.210759041666667,0,0xAD18,
0.210774833333333,0,0xFFED,
0.210782750000000,0,0xAE18,
0.210798583333333,0,0x8815,
0.210806500000000,0,0xAF18,
0.210822333333333,0,0xFFFF,
0.210830208333333,0,0xB018,
0.210846041666667,0,0x8306,
0.210853958333333,0,0xB118,
0.210883625000000,0,0x0006,
0.210891291666667,0,0x3B1D,
0.210907375000000,0,0xB3DE,
0.210915333333333,0,0xBB18,
0.210931125000000,0,0xB32E,
0.210939041666667,0,0xBC18,
0.210954916666667,0,0xB2BC,
0.210962791666667,0,0xBD18,
0.210978625000000,0,0xB200,
0.210986583333333,0,0xBE18,
0.211002375000000,0,0xB206,
0.211010291666667,0,0xBF18,
0.211026125000000,0,0xB275,
0.211034083333333,0,0xC018,
0.211064125000000,0,0x000A,
0.211071791666667,0,0x4111,
0.211087958333333,0,0xC0C4,
0.211095875000000,0,0xC118,
0.211111708333333,0,0xC0C6,
0.211119625000000,0,0xC218,
0.211135458333333,0,0xC0C6,
0.211143375000000,0,0xC318,
0.211159208333333,0,0xC085,
0.211167125000000,0,0xC418,
0.211182958333333,0,0xC0AA,
0.211190875000000,0,0xC518,
0.211206708333333,0,0xDD14,
0.211214625000000,0,0xC618,
0.211230458333333,0,0x8045,
0.211238375000000,0,0xC718,
0.211254208333333,0,0xA3D5,
0.211262125000000,0,0xC818,
0.211277958333333,0,0x9E3B,
0.211285875000000,0,0xC918,
0.211301750000000,0,0x9E39,
0.211309625000000,0,0xCA18,
0.211341291666667,0,0x0004,
0.211348958333333,0,0x0325,
0.211365083333333,0,0x0A01,
0.211372958333333,0,0x8325,
0.211388666666667,0,0x0F00,
0.211396500000000,0,0x8425,
0.211412208333333,0,0x0000,
0.211420083333333,0,0x8528,
0.211435791666667,0,0x873F,
0.211443625000000,0,0x8625,
0.211474250000000,0,0x0001,
0.211481916666667,0,0x1D29,
0.211498125000000,0,0x0055,
0.211505958333333,0,0x9D29,
0.211534000000000,0,0x0003,
0.211541708333333,0,0x242D,
0.211558041666667,0,0x004C,
0.211565875000000,0,0xA428,
0.211581583333333,0,0x0040,
0.211589458333333,0,0xA528,
0.211605166666667,0,0x8000,
0.211613041666667,0,0xA628,
0.211641791666667,0,0x0005,
0.211649458333333,0,0x2D21,
0.211665541666667,0,0x0923,
0.211673416666667,0,0xAD28,
0.211689125000000,0,0xFFEF,
0.211696958333333,0,0xAE28,
0.211712666666667,0,0xF56B,
0.211720541666667,0,0xAF28,
0.211736250000000,0,0xFFFF,
0.211744083333333,0,0xB028,
0.211759791666667,0,0x8302,
0.211767666666667,0,0xB128,
0.211797333333333,0,0x0006,
0.211805041666667,0,0x3B25,
0.211821166666667,0,0xE518,
0.211829041666667,0,0xBB28,
0.211844750000000,0,0x8000,
0.211852625000000,0,0xBC28,
0.211868333333333,0,0x8002,
0.211876208333333,0,0xBD28,
0.211891916666667,0,0x8003,
0.211899750000000,0,0xBE28,
0.211915458333333,0,0xE5BB,
0.211923333333333,0,0xBF28,
0.211939041666667,0,0xE5D3,
0.211946916666667,0,0xC028,
0.211977791666667,0,0x000A,
0.211985458333333,0,0x4129,
0.212001416666667,0,0xDB69,
0.212009291666667,0,0xC128,
0.212024958333333,0,0xDC72,
0.212032833333333,0,0xC228,
0.212048541666667,0,0xDF3E,
0.212056416666667,0,0xC328,
0.212072125000000,0,0xE121,
0.212079958333333,0,0xC428,
0.212095666666667,0,0xA97D,
0.212103541666667,0,0xC528,
0.212119250000000,0,0xFF4B,
0.212127083333333,0,0xC628,
0.212142791666667,0,0xC012,
0.212150666666667,0,0xC728,
0.212166375000000,0,0xA3B7,
0.212174208333333,0,0xC828,
0.212189916666667,0,0x9E3B,
0.212197791666667,0,0xC928,
0.212213500000000,0,0x9E40,
0.212221333333333,0,0xCA28,
0.220027333333333,0,0x9C3F,
0.220035000000000,0,0x060F,
0.220063250000000,0,0x0004,
0.220070958333333,0,0x0311,
0.220087333333333,0,0x0A01,
0.220095250000000,0,0x8311,
0.220111083333333,0,0x0F00,
0.220119000000000,0,0x8411,
0.220134833333333,0,0x0000,
0.220142750000000,0,0x8519,
0.220158583333333,0,0x9F3F,
0.220166541666667,0,0x8611,
0.220196916666667,0,0x0004,
0.220204583333333,0,0x0315,
0.220220958333333,0,0x0A01,
0.220228875000000,0,0x8315,
0.220244708333333,0,0x0F00,
0.220252666666667,0,0x8415,
0.220268458333333,0,0x0000,
0.220276416666667,0,0x8519,
0.220292250000000,0,0x9F3F,
0.220300166666667,0,0x8615,
0.220330250000000,0,0x0004,
0.220337916666667,0,0x0319,
0.220354125000000,0,0x0A01,
0.220362041666667,0,0x8319,
0.220377875000000,0,0x0F00,
0.220385791666667,0,0x8419,
0.220401625000000,0,0x0000,
0.220409541666667,0,0x8519,
0.220425375000000,0,0x9F3F,
0.220433291666667,0,0x8619,
0.220463500000000,0,0x0004,
0.220471166666667,0,0x031D,
0.220487208333333,0,0x0A01,
0.220495166666667,0,0x831D,
0.220511000000000,0,0x0F00,
0.220518916666667,0,0x841D,
0.220534750000000,0,0x0000,
0.220542666666667,0,0x8519,
0.220558500000000,0,0x9F3F,
0.220566416666667,0,0x861D,
0.220596791666667,0,0x0004,
0.220604458333333,0,0x0311,
0.220620833333333,0,0x0A01,
0.220628750000000,0,0x8311,
0.220644583333333,0,0x0F00,
0.220652500000000,0,0x8411,
0.220668333333333,0,0x0000,
0.220676250000000,0,0x8519,
0.220692083333333,0,0x973F,
0.220700000000000,0,0x8611,
0.220730333333333,0,0x0001,
0.220738000000000,0,0x1D15,
0.220754416666667,0,0x1551,
0.220762333333333,0,0x9D15,
0.220790166666667,0,0x0003,
0.220797833333333,0,0x2419,
0.220814291666667,0,0x0048,
0.220822208333333,0,0xA419,
0.220838041666667,0,0x0040,
0.220845958333333,0,0xA519,
0.220861791666667,0,0x8000,
0.220869708333333,0,0xA619,
0.220898708333333,0,0x0005,
0.220906416666667,0,0x2D1D,
0.220922666666667,0,0xFC48,
0.220930583333333,0,0xAD19,
0.220946416666667,0,0xFFED,
0.220954333333333,0,0xAE19,
0.220970166666667,0,0x8637,
0.220978083333333,0,0xAF19,
0.220993916666667,0,0xFFFF,
0.221001833333333,0,0xB019,
0.221017666666667,0,0x830F,
0.221025583333333,0,0xB119,
0.221055750000000,0,0x0006,
0.221063458333333,0,0x3B11,
0.221079541666667,0,0xB3E1,
0.221087458333333,0,0xBB19,
0.221103291666667,0,0xB32A,
0.221111208333333,0,0xBC19,
0.221127041666667,0,0xB2BD,
0.221134958333333,0,0xBD19,
0.221150791666667,0,0xB200,
0.221158708333333,0,0xBE19,
0.221174541666667,0,0xB203,
0.221182458333333,0,0xBF19,
0.221198291666667,0,0xB275,
0.221206208333333,0,0xC019,
0.221236625000000,0,0x000A,
0.221244291666667,0,0x4115,
0.221260625000000,0,0xC0C4,
0.221268541666667,0,0xC119,
0.221284375000000,0,0xC0C5,
0.221292291666667,0,0xC219,
0.221308166666667,0,0xC0C5,
0.221316041666667,0,0xC319,
0.221331875000000,0,0xC087,
0.221339791666667,0,0xC419,
0.221355625000000,0,0xC0AA,
0.221363541666667,0,0xC519,
0.221379375000000,0,0xDD16,
0.221387291666667,0,0xC619,
0.221403125000000,0,0x8046,
0.221411041666667,0,0xC719,
0.221426875000000,0,0xA3D6,
0.221434791666667,0,0xC819,
0.221450625000000,0,0x9E38,
0.221458541666667,0,0xC919,
0.221474375000000,0,0x9E3A,
0.221482291666667,0,0xCA19,
0.221514083333333,0,0x0004,
0.221521791666667,0,0x0329,
0.221537833333333,0,0x0A01,
0.221545666666667,0,0x8329,
0.221561375000000,0,0x0F00,
0.221569250000000,0,0x8429,
0.221584958333333,0,0x0000,
0.221592791666667,0,0x8529,
0.221608500000000,0,0x973F,
0.221616375000000,0,0x8629,
0.221646416666667,0,0x0001,
0.221654083333333,0,0x1D2D,
0.221670375000000,0,0x0055,
0.221678250000000,0,0x9D2D,
0.221706500000000,0,0x0003,
0.221714166666667,0,0x2421,
0.221730291666667,0,0x004C,
0.221738166666667,0,0xA429,
0.221753875000000,0,0x0040,
0.221761708333333,0,0xA529,
0.221777416666667,0,0x8000,
0.221785291666667,0,0xA629,
0.221814291666667,0,0x0005,
0.221822000000000,0,0x2D25,
0.221838333333333,0,0x0A34,
0.221846166666667,0,0xAD29,
0.221861875000000,0,0xFFEF,
0.221869750000000,0,0xAE29,
0.221885458333333,0,0xF2B6,
0.221893291666667,0,0xAF29,
0.221909000000000,0,0xFFFF,
0.221916875000000,0,0xB029,
0.221932583333333,0,0x8306,
0.221940416666667,0,0xB129,
0.221970666666667,0,0x0006,
0.221978375000000,0,0x3B29,
0.221994458333333,0,0xE518,
0.222002291666667,0,0xBB29,
0.222018000000000,0,0x8000,
0.222025875000000,0,0xBC29,
0.222041583333333,0,0x8002,
0.222049416666667,0,0xBD29,
0.222065125000000,0,0x8005,
0.222073000000000,0,0xBE29,
0.222088708333333,0,0xE5BD,
0.222096583333333,0,0xBF29,
0.222112291666667,0,0xE5D4,
0.222120125000000,0,0xC029,
0.222150041666667,0,0x000A,
0.222157708333333,0,0x412D,
0.222174166666667,0,0xDB68,
0.222182000000000,0,0xC129,
0.222197750000000,0,0xDC76,
0.222205583333333,0,0xC229,
0.222221291666667,0,0xDF41,
0.222229166666667,0,0xC329,
0.222244875000000,0,0xE123,
0.222252708333333,0,0xC429,
0.222268458333333,0,0xA980,
0.222276291666667,0,0xC529,
0.222292000000000,0,0xFF4D,
0.222299833333333,0,0xC629,
0.222315583333333,0,0xC016,
0.222323416666667,0,0xC729,
0.222339125000000,0,0xA3B8,
0.222347000000000,0,0xC829,
0.222362708333333,0,0x9E3B,
0.222370583333333,0,0xC929,
0.222386291666667,0,0x9E40,
0.222394125000000,0,0xCA29,
0.229840208333333,0,0xAC3F,
0.229847875000000,0,0x0603,
0.229875708333333,0,0x0004,
0.229883375000000,0,0x0315,
0.229899625000000,0,0x0A01,
0.229907541666667,0,0x8315,
0.229923375000000,0,0x0F00,
0.229931291666667,0,0x8415,
0.229947125000000,0,0x0000,
0.229955041666667,0,0x851A,
0.229970875000000,0,0xAF3F,
0.229978791666667,0,0x8615,
0.230009875000000,0,0x0004,
0.230017541666667,0,0x0319,
0.230033750000000,0,0x0A01,
0.230041666666667,0,0x8319,
0.230057500000000,0,0x0F00,
0.230065416666667,0,0x8419,
0.230081250000000,0,0x0000,
0.230089166666667,0,0x851A,
0.230105041666667,0,0xAF3F,
0.230112958333333,0,0x8619,
0.230143583333333,0,0x0004,
0.230151250000000,0,0x031D,
0.230167416666667,0,0x0A01,
0.230175291666667,0,0x831D,
0.230191166666667,0,0x0F00,
0.230199041666667,0,0x841D,
0.230214916666667,0,0x0000,
0.230222833333333,0,0x851A,
0.230238666666667,0,0xAF3F,
0.230246583333333,0,0x861D,
0.230276958333333,0,0x0004,
0.230284625000000,0,0x0311,
0.230301041666667,0,0x0A01,
0.230308958333333,0,0x8311,
0.230324791666667,0,0x0F00,
0.230332750000000,0,0x8411,
0.230348583333333,0,0x0000,
0.230356500000000,0,0x851A,
0.230372333333333,0,0xAF3F,
0.230380250000000,0,0x8611,
0.230411666666667,0,0x0004,
0.230419333333333,0,0x0315,
0.230435708333333,0,0x0A01,
0.230443583333333,0,0x8315,
0.230459458333333,0,0x0F00,
0.230467375000000,0,0x8415,
0.230483166666667,0,0x0000,
0.230491125000000,0,0x851A,
0.230506916666667,0,0xA73F,
0.230514875000000,0,0x8615,
0.230545250000000,0,0x0001,
0.230552916666667,0,0x1D19,
0.230569291666667,0,0x1551,
0.230577208333333,0,0x9D19,
0.230605333333333,0,0x0003,
0.230613000000000,0,0x241D,
0.230629166666667,0,0x0048,
0.230637083333333,0,0xA41A,
0.230652916666667,0,0x0040,
0.230660833333333,0,0xA51A,
0.230676666666667,0,0x8000,
0.230684583333333,0,0xA61A,
0.230712958333333,0,0x0005,
0.230720666666667,0,0x2D11,
0.230737041666667,0,0xFD4D,
0.230744958333333,0,0xAD1A,
0.230760750000000,0,0xFFED,
0.230768708333333,0,0xAE1A,
0.230784541666667,0,0x832B,
0.230792416666667,0,0xAF1A,
0.230808250000000,0,0xFFFF,
0.230816166666667,0,0xB01A,
0.230832000000000,0,0x830B,
0.230839958333333,0,0xB11A,
0.230869791666667,0,0x0006,
0.230877458333333,0,0x3B15,
0.230893875000000,0,0xB3DC,
0.230901791666667,0,0xBB1A,
0.230917625000000,0,0xB32D,
0.230925541666667,0,0xBC1A,
0.230941375000000,0,0xB2B7,
0.230949291666667,0,0xBD1A,
0.230965125000000,0,0xB1FA,
0.230973041666667,0,0xBE1A,
0.230988875000000,0,0xB201,
0.230996791666667,0,0xBF1A,
0.231012625000000,0,0xB275,
0.231020541666667,0,0xC01A,
0.231051541666667,0,0x000A,
0.231059208333333,0,0x4119,
0.231075458333333,0,0xC0C7,
0.231083333333333,0,0xC11A,
0.231099166666667,0,0xC0C7,
0.231107083333333,0,0xC21A,
0.231122916666667,0,0xC0C4,
0.231130833333333,0,0xC31A,
0.231146666666667,0,0xC085,
0.231154583333333,0,0xC41A,
0.231170416666667,0,0xC0AB,
0.231178333333333,0,0xC51A,
0.231194166666667,0,0xDD16,
0.231202083333333,0,0xC61A,
0.231217916666667,0,0x8045,
0.231225833333333,0,0xC71A,
0.231241666666667,0,0xA3D4,
0.231249583333333,0,0xC81A,
0.231265416666667,0,0x9E3A,
0.231273291666667,0,0xC91A,
0.231289125000000,0,0x9E39,
0.231297083333333,0,0xCA1A,
0.231329000000000,0,0x0004,
0.231336666666667,0,0x032D,
0.231352916666667,0,0x0A01,
0.231360791666667,0,0x832D,
0.231376500000000,0,0x0F00,
0.231384333333333,0,0x842D,
0.231400041666667,0,0x0000,
0.231407916666667,0,0x852A,
0.231423625000000,0,0xA73F,
0.231431500000000,0,0x862D,
0.231462125000000,0,0x0001,
0.231469791666667,0,0x1D21,
0.231486000000000,0,0x0055,
0.231493833333333,0,0x9D21,
0.231521833333333,0,0x0003,
0.231529541666667,0,0x2425,
0.231545875000000,0,0x004C,
0.231553750000000,0,0xA42A,
0.231569458333333,0,0x0040,
0.231577291666667,0,0xA52A,
0.231593041666667,0,0x8000,
0.231600875000000,0,0xA62A,
0.231629958333333,0,0x0005,
0.231637666666667,0,0x2D29,
0.231653916666667,0,0x0B3B,
0.231661750000000,0,0xAD2A,
0.231677458333333,0,0xFFEF,
0.231685333333333,0,0xAE2A,
0.231701041666667,0,0xF139,
0.231708916666667,0,0xAF2A,
0.231724625000000,0,0xFFFF,
0.231732458333333,0,0xB02A,
0.231748166666667,0,0x830B,
0.231756041666667,0,0xB12A,
0.231787333333333,0,0x0006,
0.231795041666667,0,0x3B2D,
0.231811000000000,0,0xE51C,
0.231818875000000,0,0xBB2A,
0.231834583333333,0,0x8003,
0.231842458333333,0,0xBC2A,
0.231858166666667,0,0x8001,
0.231866000000000,0,0xBD2A,
0.231881708333333,0,0x8005,
0.231889583333333,0,0xBE2A,
0.231905291666667,0,0xE5BE,
0.231913125000000,0,0xBF2A,
0.231928833333333,0,0xE5D6,
0.231936708333333,0,0xC02A,
0.231967708333333,0,0x000A,
0.231975375000000,0,0x4121,
0.231991666666667,0,0xDB6A,
0.231999500000000,0,0xC12A,
0.232015208333333,0,0xDC73,
0.232023083333333,0,0xC22A,
0.232038791666667,0,0xDF46,
0.232046625000000,0,0xC32A,
0.232062333333333,0,0xE125,
0.232070208333333,0,0xC42A,
0.232085916666667,0,0xA97E,
0.232093791666667,0,0xC52A,
0.232109500000000,0,0xFF49,
0.232117333333333,0,0xC62A,
0.232133041666667,0,0xC012,
0.232140916666667,0,0xC72A,
0.232156625000000,0,0xA3B8,
0.232164458333333,0,0xC82A,
0.232180166666667,0,0x9E3A,
0.232188041666667,0,0xC92A,
0.232203750000000,0,0x9E3F,
0.232211625000000,0,0xCA2A,
0.239876083333333,0,0xBC3F,
0.239883750000000,0,0x0607,
0.239911583333333,0,0x0004,
0.239919291666667,0,0x0319,
0.239935583333333,0,0x0A01,
0.239943500000000,0,0x8319,
0.239959333333333,0,0x0F00,
0.239967250000000,0,0x8419,
0.239983083333333,0,0x0000,
0.239991000000000,0,0x851B,
0.240006833333333,0,0xBF3F,
0.240014750000000,0,0x8619,
0.240046041666667,0,0x0004,
0.240053708333333,0,0x031D,
0.240069708333333,0,0x0A01,
0.240077625000000,0,0x831D,
0.240093458333333,0,0x0F00,
0.240101375000000,0,0x841D,
0.240117208333333,0,0x0000,
0.240125125000000,0,0x851B,
0.240141000000000,0,0xBF3F,
0.240148875000000,0,0x861D,
0.240179458333333,0,0x0004,
0.240187125000000,0,0x0311,
0.240203333333333,0,0x0A01,
0.240211250000000,0,0x8311,
0.240227083333333,0,0x0F00,
0.240235000000000,0,0x8411,
0.240250833333333,0,0x0000,
0.240258791666667,0,0x851B,
0.240274625000000,0,0xBF3F,
0.240282541666667,0,0x8611,
0.240312916666667,0,0x0004,
0.240320625000000,0,0x0315,
0.240336958333333,0,0x0A01,
0.240344875000000,0,0x8315,
0.240360750000000,0,0x0F00,
0.240368625000000,0,0x8415,
0.240384500000000,0,0x0000,
0.240392416666667,0,0x851B,
0.240408250000000,0,0xBF3F,
0.240416166666667,0,0x8615,
0.240446708333333,0,0x0004,
0.240454375000000,0,0x0319,
0.240470625000000,0,0x0A01,
0.240478541666667,0,0x8319,
0.240494375000000,0,0x0F00,
0.240502333333333,0,0x8419,
0.240518166666667,0,0x0000,
0.240526041666667,0,0x851B,
0.240541916666667,0,0xB73F,
0.240549833333333,0,0x8619,
0.240580708333333,0,0x0001,
0.240588375000000,0,0x1D1D,
0.240604750000000,0,0x1551,
0.240612625000000,0,0x9D1D,
0.240640583333333,0,0x0003,
0.240648291666667,0,0x2411,
0.240664625000000,0,0x0048,
0.240672500000000,0,0xA41B,
0.240688333333333,0,0x0040,
0.240696291666667,0,0xA51B,
0.240712083333333,0,0x8000,
0.240720000000000,0,0xA61B,
0.240749250000000,0,0x0005,
0.240756958333333,0,0x2D15,
0.240772958333333,0,0xFE58,
0.240780875000000,0,0xAD1B,
0.240796708333333,0,0xFFED,
0.240804625000000,0,0xAE1B,
0.240820458333333,0,0x818F,
0.240828375000000,0,0xAF1B,
0.240844250000000,0,0xFFFF,
0.240852125000000,0,0xB01B,
0.240867958333333,0,0x8307,
0.240875916666667,0,0xB11B,
0.240906375000000,0,0x0006,
0.240914041666667,0,0x3B19,
0.240930333333333,0,0xB3E3,
0.240938250000000,0,0xBB1B,
0.240954083333333,0,0xB32A,
0.240962000000000,0,0xBC1B,
0.240977833333333,0,0xB2C1,
0.240985750000000,0,0xBD1B,
0.241001583333333,0,0xB202,
0.241009500000000,0,0xBE1B,
0.241025333333333,0,0xB201,
0.241033250000000,0,0xBF1B,
0.241049083333333,0,0xB273,
0.241057000000000,0,0xC01B,
0.241087208333333,0,0x000A,
0.241094875000000,0,0x411D,
0.241110958333333,0,0xC0CA,
0.241118875000000,0,0xC11B,
0.241134708333333,0,0xC0C5,
0.241142625000000,0,0xC21B,
0.241158500000000,0,0xC0C4,
0.241166375000000,0,0xC31B,
0.241182250000000,0,0xC08A,
0.241190166666667,0,0xC41B,
0.241206000000000,0,0xC0AD,
0.241213916666667,0,0xC51B,
0.241229750000000,0,0xDD19,
0.241237666666667,0,0xC61B,
0.241253541666667,0,0x8045,
0.241261416666667,0,0xC71B,
0.241277291666667,0,0xA3D4,
0.241285208333333,0,0xC81B,
0.241301041666667,0,0x9E3B,
0.241308958333333,0,0xC91B,
0.241324791666667,0,0x9E3B,
0.241332708333333,0,0xCA1B,
0.241364666666667,0,0x0004,
0.241372375000000,0,0x0321,
0.241388375000000,0,0x0A01,
0.241396250000000,0,0x8321,
0.241411958333333,0,0x0F00,
0.241419791666667,0,0x8421,
0.241435500000000,0,0x0000,
0.241443375000000,0,0x852B,
0.241459083333333,0,0xB73F,
0.241466958333333,0,0x8621,
0.241497250000000,0,0x0001,
0.241504916666667,0,0x1D25,
0.241520958333333,0,0x0055,
0.241528833333333,0,0x9D25,
0.241557208333333,0,0x0003,
0.241564875000000,0,0x2429,
0.241580875000000,0,0x004C,
0.241588708333333,0,0xA42B,
0.241604416666667,0,0x0040,
0.241612291666667,0,0xA52B,
0.241628000000000,0,0x8000,
0.241635833333333,0,0xA62B,
0.241664541666667,0,0x0005,
0.241672208333333,0,0x2D2D,
0.241688375000000,0,0x0C48,
0.241696250000000,0,0xAD2B,
0.241711958333333,0,0xFFEF,
0.241719791666667,0,0xAE2B,
0.241735500000000,0,0xEEB9,
0.241743375000000,0,0xAF2B,
0.241759083333333,0,0xFFFF,
0.241766958333333,0,0xB02B,
0.241782666666667,0,0x830E,
0.241790500000000,0,0xB12B,
0.241820375000000,0,0x0006,
0.241828041666667,0,0x3B21,
0.241844041666667,0,0xE515,
0.241851916666667,0,0xBB2B,
0.241867625000000,0,0x8000,
0.241875458333333,0,0xBC2B,
0.241891208333333,0,0x8000,
0.241899041666667,0,0xBD2B,
0.241914750000000,0,0x8000,
0.241922625000000,0,0xBE2B,
0.241938333333333,0,0xE5B8,
0.241946166666667,0,0xBF2B,
0.241961916666667,0,0xE5D6,
0.241969750000000,0,0xC02B,
0.241999500000000,0,0x000A,
0.242007208333333,0,0x4125,
0.242023291666667,0,0xDB6A,
0.242031125000000,0,0xC12B,
0.242046875000000,0,0xDC73,
0.242054708333333,0,0xC22B,
0.242070416666667,0,0xDF43,
0.242078291666667,0,0xC32B,
0.242094000000000,0,0xE126,
0.242101875000000,0,0xC42B,
0.242117541666667,0,0xA97C,
0.242125416666667,0,0xC52B,
0.242141125000000,0,0xFF4C,
0.242149000000000,0,0xC62B,
0.242164708333333,0,0xC015,
0.242172541666667,0,0xC72B,
0.242188291666667,0,0xA3BA,
0.242196125000000,0,0xC82B,
0.242211833333333,0,0x9E3C,
0.242219666666667,0,0xC92B,
0.242235416666667,0,0x9E3E,
0.242243250000000,0,0xCA2B,
0.249853208333333,0,0xCC3F,
0.249860875000000,0,0x060B,
0.249888416666667,0,0x0004,
0.249896083333333,0,0x031D,
0.249912458333333,0,0x0A01,
0.249920375000000,0,0x831D,
0.249936208333333,0,0x0F00,
0.249944125000000,0,0x841D,
0.249959958333333,0,0x0000,
0.249967875000000,0,0x851C,
0.249983708333333,0,0xCF3F,
0.249991625000000,0,0x861D,
0.250023041666667,0,0x0004,
0.250030750000000,0,0x0311,
0.250047041666667,0,0x0A01,
0.250054958333333,0,0x8311,
0.250070833333333,0,0x0F00,
0.250078708333333,0,0x8411,
0.250094541666667,0,0x0000,
0.250102500000000,0,0x851C,
0.250118333333333,0,0xCF3F,
0.250126250000000,0,0x8611,
0.250157000000000,0,0x0004,
0.250164666666667,0,0x0315,
0.250180666666667,0,0x0A01,
0.250188583333333,0,0x8315,
0.250204458333333,0,0x0F00,
0.250212375000000,0,0x8415,
0.250228208333333,0,0x0000,
0.250236125000000,0,0x851C,
0.250251958333333,0,0xCF3F,
0.250259916666667,0,0x8615,
0.250291291666667,0,0x0004,
0.250298958333333,0,0x0319,
0.250315333333333,0,0x0A01,
0.250323250000000,0,0x8319,
0.250339083333333,0,0x0F00,
0.250347000000000,0,0x8419,
0.250362833333333,0,0x0000,
0.250370791666667,0,0x851C,
0.250386625000000,0,0xCF3F,
0.250394500000000,0,0x8619,
0.250425583333333,0,0x0004,
0.250433291666667,0,0x031D,
0.250449416666667,0,0x0A01,
0.250457375000000,0,0x831D,
0.250473166666667,0,0x0F00,
0.250481125000000,0,0x841D,
0.250496958333333,0,0x0000,
0.250504875000000,0,0x851C,
0.250520708333333,0,0xC73F,
0.250528625000000,0,0x861D,
0.250559416666667,0,0x0001,
0.250567083333333,0,0x1D11,
0.250583541666667,0,0x1551,
0.250591458333333,0,0x9D11,
0.250619541666667,0,0x0003,
0.250627208333333,0,0x2415,
0.250643416666667,0,0x0048,
0.250651333333333,0,0xA41C,
0.250667166666667,0,0x0040,
0.250675083333333,0,0xA51C,
0.250690916666667,0,0x8000,
0.250698833333333,0,0xA61C,
0.250728166666667,0,0x0005,
0.250735833333333,0,0x2D19,
0.250752291666667,0,0xFF61,
0.250760208333333,0,0xAD1C,
0.250776041666667,0,0xFFED,
0.250783958333333,0,0xAE1C,
0.250799791666667,0,0x7ED6,
0.250807708333333,0,0xAF1C,
0.250823541666667,0,0xFFFF,
0.250831458333333,0,0xB01C,
0.250847291666667,0,0x830D,
0.250855250000000,0,0xB11C,
0.250885250000000,0,0x0006,
0.250892916666667,0,0x3B1D,
0.250909166666667,0,0xB3DD,
0.250917083333333,0,0xBB1C,
0.250932916666667,0,0xB327,
0.250940791666667,0,0xBC1C,
0.250956666666667,0,0xB2BC,
0.250964583333333,0,0xBD1C,
0.250980416666667,0,0xB1FE,
0.250988333333333,0,0xBE1C,
0.251004166666667,0,0xB201,
0.251012083333333,0,0xBF1C,
0.251027916666667,0,0xB272,
0.251035833333333,0,0xC01C,
0.251066166666667,0,0x000A,
0.251073875000000,0,0x4111,
0.251090291666667,0,0xC0C3,
0.251098166666667,0,0xC11C,
0.251114041666667,0,0xC0C2,
0.251121958333333,0,0xC21C,
0.251137791666667,0,0xC0C3,
0.251145708333333,0,0xC31C,
0.251161541666667,0,0xC084,
0.251169458333333,0,0xC41C,
0.251185291666667,0,0xC0A8,
0.251193208333333,0,0xC51C,
0.251209041666667,0,0xDD16,
0.251216958333333,0,0xC61C,
0.251232791666667,0,0x8045,
0.251240708333333,0,0xC71C,
0.251256541666667,0,0xA3D6,
0.251264458333333,0,0xC81C,
0.251280291666667,0,0x9E36,
0.251288250000000,0,0xC91C,
0.251304041666667,0,0x9E3C,
0.251312000000000,0,0xCA1C,
0.251344291666667,0,0x0004,
0.251352000000000,0,0x0325,
0.251367916666667,0,0x0A01,
0.251375791666667,0,0x8325,
0.251391500000000,0,0x0F00,
0.251399375000000,0,0x8425,
0.251415083333333,0,0x0000,
0.251422916666667,0,0x852C,
0.251438625000000,0,0xC73F,
0.251446500000000,0,0x8625,
0.251477291666667,0,0x0001,
0.251484958333333,0,0x1D29,
0.251500958333333,0,0x0055,
0.251508833333333,0,0x9D29,
0.251536708333333,0,0x0003,
0.251544416666667,0,0x242D,
0.251560416666667,0,0x004C,
0.251568250000000,0,0xA42C,
0.251584000000000,0,0x0040,
0.251591833333333,0,0xA52C,
0.251607541666667,0,0x8000,
0.251615375000000,0,0xA62C,
0.251644333333333,0,0x0005,
0.251652000000000,0,0x2D21,
0.251668416666667,0,0x0D53,
0.251676291666667,0,0xAD2C,
0.251692000000000,0,0xFFEF,
0.251699833333333,0,0xAE2C,
0.251715583333333,0,0xECB3,
0.251723416666667,0,0xAF2C,
0.251739166666667,0,0x8000,
0.251747000000000,0,0xB02C,
0.251762708333333,0,0x8301,
0.251770541666667,0,0xB12C,
0.251802333333333,0,0x0006,
0.251810000000000,0,0x3B25,
0.251826041666667,0,0xE518,
0.251833875000000,0,0xBB2C,
0.251849625000000,0,0x8000,
0.251857458333333,0,0xBC2C,
0.251873166666667,0,0x8001,
0.251881041666667,0,0xBD2C,
0.251896791666667,0,0x8001,
0.251904625000000,0,0xBE2C,
0.251920333333333,0,0xE5BC,
0.251928208333333,0,0xBF2C,
0.251943916666667,0,0xE5D5,
0.251951750000000,0,0xC02C,
0.251982083333333,0,0x000A,
0.251989750000000,0,0x4129,
0.252005791666667,0,0xDB6A,
0.252013625000000,0,0xC12C,
0.252029375000000,0,0xDC75,
0.252037208333333,0,0xC22C,
0.252052916666667,0,0xDF40,
0.252060791666667,0,0xC32C,
0.252076500000000,0,0xE120,
0.252084333333333,0,0xC42C,
0.252100041666667,0,0xA97A,
0.252107916666667,0,0xC52C,
0.252123625000000,0,0xFF49,
0.252131458333333,0,0xC62C,
0.252147166666667,0,0xC015,
0.252155041666667,0,0xC72C,
0.252170750000000,0,0xA3B7,
0.252178583333333,0,0xC82C,
0.252194291666667,0,0x9E36,
0.252202166666667,0,0xC92C,
0.252217875000000,0,0x9E3E,
0.252225750000000,0,0xCA2C,
0.259858750000000,0,0xDC3F,
0.259866458333333,0,0x060F,
0.259894083333333,0,0x0004,
0.259901750000000,0,0x0311,
0.259917791666667,0,0x0A01,
0.259925708333333,0,0x8311,
0.259941541666667,0,0x0F00,
0.259949458333333,0,0x8411,
0.259965333333333,0,0x0000,
0.259973208333333,0,0x851D,
0.259989083333333,0,0xDF3F,
0.259997000000000,0,0x8611,
0.260027833333333,0,0x0004,
0.260035500000000,0,0x0315,
0.260051916666667,0,0x0A01,
0.260059833333333,0,0x8315,
0.260075666666667,0,0x0F00,
0.260083625000000,0,0x8415,
0.260099416666667,0,0x0000,
0.260107333333333,0,0x851D,
0.260123166666667,0,0xDF3F,
0.260131125000000,0,0x8615,
0.260161791666667,0,0x0004,
0.260169500000000,0,0x0319,
0.260185541666667,0,0x0A01,
0.260193458333333,0,0x8319,
0.260209333333333,0,0x0F00,
0.260217208333333,0,0x8419,
0.260233083333333,0,0x0000,
0.260241000000000,0,0x851D,
0.260256833333333,0,0xDF3F,
0.260264750000000,0,0x8619,
0.260295875000000,0,0x0004,
0.260303541666667,0,0x031D,
0.260319666666667,0,0x0A01,
0.260327583333333,0,0x831D,
0.260343458333333,0,0x0F00,
0.260351375000000,0,0x841D,
0.260367166666667,0,0x0000,
0.260375125000000,0,0x851D,
0.260390958333333,0,0xDF3F,
0.260398875000000,0,0x861D,
0.260429583333333,0,0x0004,
0.260437250000000,0,0x0311,
0.260453291666667,0,0x0A01,
0.260461208333333,0,0x8311,
0.260477041666667,0,0x0F00,
0.260484958333333,0,0x8411,
0.260500791666667,0,0x0000,
0.260508708333333,0,0x851D,
0.260524541666667,0,0xD73F,
0.260532458333333,0,0x8611,
0.260562750000000,0,0x0001,
0.260570416666667,0,0x1D15,
0.260586875000000,0,0x1551,
0.260594791666667,0,0x9D15,
0.260623625000000,0,0x0003,
0.260631291666667,0,0x2419,
0.260647750000000,0,0x0048,
0.260655666666667,0,0xA41D,
0.260671500000000,0,0x0040,
0.260679416666667,0,0xA51D,
0.260695250000000,0,0x8000,
0.260703166666667,0,0xA61D,
0.260732208333333,0,0x0005,
0.260739916666667,0,0x2D1D,
0.260756083333333,0,0x006B,
0.260764000000000,0,0xAD1D,
0.260779833333333,0,0xFFED,
0.260787750000000,0,0xAE1D,
0.260803583333333,0,0x7C4E,
0.260811500000000,0,0xAF1D,
0.260827375000000,0,0xFFFF,
0.260835250000000,0,0xB01D,
0.260851083333333,0,0x8306,
0.260859000000000,0,0xB11D,
0.260889750000000,0,0x0006,
0.260897416666667,0,0x3B11,
0.260913416666667,0,0xB3E1,
0.260921333333333,0,0xBB1D,
0.260937166666667,0,0xB325,
0.260945083333333,0,0xBC1D,
0.260960916666667,0,0xB2BD,
0.260968833333333,0,0xBD1D,
0.260984666666667,0,0xB1FD,
0.260992583333333,0,0xBE1D,
0.261008416666667,0,0xB1FF,
0.261016333333333,0,0xBF1D,
0.261032166666667,0,0xB271,
0.261040083333333,0,0xC01D,
0.261070500000000,0,0x000A,
0.261078208333333,0,0x4115,
0.261094500000000,0,0xC0C6,
0.261102416666667,0,0xC11D,
0.261118250000000,0,0xC0C2,
0.261126166666667,0,0xC21D,
0.261142000000000,0,0xC0C5,
0.261149916666667,0,0xC31D,
0.261165750000000,0,0xC083,
0.261173666666667,0,0xC41D,
0.261189500000000,0,0xC0AB,
0.261197416666667,0,0xC51D,
0.261213250000000,0,0xDD15,
0.261221166666667,0,0xC61D,
0.261237041666667,0,0x8044,
0.261244916666667,0,0xC71D,
0.261260750000000,0,0xA3D4,
0.261268708333333,0,0xC81D,
0.261284541666667,0,0x9E38,
0.261292458333333,0,0xC91D,
0.261308291666667,0,0x9E3D,
0.261316208333333,0,0xCA1D,
0.261347958333333,0,0x0004,
0.261355625000000,0,0x0329,
0.261371625000000,0,0x0A01,
0.261379458333333,0,0x8329,
0.261395208333333,0,0x0F00,
0.261403041666667,0,0x8429,
0.261418750000000,0,0x0000,
0.261426625000000,0,0x852D,
0.261442333333333,0,0xD73F,
0.261450166666667,0,0x8629,
0.261480875000000,0,0x0001,
0.261488583333333,0,0x1D2D,
0.261504708333333,0,0x0055,
0.261512541666667,0,0x9D2D,
0.261540250000000,0,0x0003,
0.261547916666667,0,0x2421,
0.261564083333333,0,0x004C,
0.261571958333333,0,0xA42D,
0.261587666666667,0,0x0040,
0.261595541666667,0,0xA52D,
0.261611250000000,0,0x8000,
0.261619125000000,0,0xA62D,
0.261647708333333,0,0x0005,
0.261655416666667,0,0x2D25,
0.261671625000000,0,0x0E5F,
0.261679458333333,0,0xAD2D,
0.261695208333333,0,0xFFEF,
0.261703041666667,0,0xAE2D,
0.261718791666667,0,0xEB32,
0.261726625000000,0,0xAF2D,
0.261742375000000,0,0x8000,
0.261750208333333,0,0xB02D,
0.261765916666667,0,0x830E,
0.261773791666667,0,0xB12D,
0.261804333333333,0,0x0006,
0.261812000000000,0,0x3B29,
0.261828291666667,0,0xE51B,
0.261836125000000,0,0xBB2D,
0.261851833333333,0,0x8000,
0.261859708333333,0,0xBC2D,
0.261875416666667,0,0x8000,
0.261883291666667,0,0xBD2D,
0.261899000000000,0,0x8000,
0.261906833333333,0,0xBE2D,
0.261922541666667,0,0xE5BA,
0.261930416666667,0,0xBF2D,
0.261946125000000,0,0xE5D7,
0.261953958333333,0,0xC02D,
0.261984166666667,0,0x000A,
0.261991833333333,0,0x412D,
0.262007958333333,0,0xDB68,
0.262015833333333,0,0xC12D,
0.262031541666667,0,0xDC70,
0.262039416666667,0,0xC22D,
0.262055125000000,0,0xDF3E,
0.262062958333333,0,0xC32D,
0.262078666666667,0,0xE11F,
0.262086541666667,0,0xC42D,
0.262102250000000,0,0xA97A,
0.262110125000000,0,0xC52D,
0.262125791666667,0,0xFF48,
0.262133666666667,0,0xC62D,
0.262149375000000,0,0xC014,
0.262157250000000,0,0xC72D,
0.262172958333333,0,0xA3B7,
0.262180791666667,0,0xC82D,
0.262196500000000,0,0x9E37,
0.262204375000000,0,0xC92D,
0.262220083333333,0,0x9E3C,
0.262227916666667,0,0xCA2D,
0.269856541666667,0,0xEC3F,
0.269864208333333,0,0x0603,
0.269891333333333,0,0x0004,
0.269899000000000,0,0x0315,
0.269915333333333,0,0x0A01,
0.269923250000000,0,0x8315,
0.269939083333333,0,0x0F00,
0.269947000000000,0,0x8415,
0.269962875000000,0,0x0000,
0.269970791666667,0,0x851E,
0.269986583333333,0,0xEF3F,
0.269994541666667,0,0x8615,
0.270025041666667,0,0x0004,
0.270032750000000,0,0x0319,
0.270048958333333,0,0x0A01,
0.270056875000000,0,0x8319,
0.270072708333333,0,0x0F00,
0.270080625000000,0,0x8419,
0.270096458333333,0,0x0000,
0.270104375000000,0,0x851E,
0.270120208333333,0,0xEF3F,
0.270128125000000,0,0x8619,
0.270158625000000,0,0x0004,
0.270166333333333,0,0x031D,
0.270182583333333,0,0x0A01,
0.270190500000000,0,0x831D,
0.270206333333333,0,0x0F00,
0.270214250000000,0,0x841D,
0.270230125000000,0,0x0000,
0.270238000000000,0,0x851E,
0.270253833333333,0,0xEF3F,
0.270261791666667,0,0x861D,
0.270292333333333,0,0x0004,
0.270300000000000,0,0x0311,
0.270316208333333,0,0x0A01,
0.270324125000000,0,0x8311,
0.270339958333333,0,0x0F00,
0.270347875000000,0,0x8411,
0.270363750000000,0,0x0000,
0.270371666666667,0,0x851E,
0.270387458333333,0,0xEF3F,
0.270395375000000,0,0x8611,
0.270426625000000,0,0x0004,
0.270434333333333,0,0x0315,
0.270450333333333,0,0x0A01,
0.270458208333333,0,0x8315,
0.270474041666667,0,0x0F00,
0.270482000000000,0,0x8415,
0.270497791666667,0,0x0000,
0.270505750000000,0,0x851E,
0.270521541666667,0,0xE73F,
0.270529500000000,0,0x8615,
0.270560666666667,0,0x0001,
0.270568333333333,0,0x1D19,
0.270584416666667,0,0x1551,
0.270592291666667,0,0x9D19,
0.270620041666667,0,0x0003,
0.270627750000000,0,0x241D,
0.270643750000000,0,0x0048,
0.270651708333333,0,0xA41E,
0.270667500000000,0,0x0040,
0.270675458333333,0,0xA51E,
0.270691250000000,0,0x8000,
0.270699208333333,0,0xA61E,
0.270727958333333,0,0x0005,
0.270735666666667,0,0x2D11,
0.270752125000000,0,0x0175,
0.270760041666667,0,0xAD1E,
0.270775875000000,0,0xFFED,
0.270783791666667,0,0xAE1E,
0.270799625000000,0,0x79B4,
0.270807541666667,0,0xAF1E,
0.270823416666667,0,0xFFFF,
0.270831291666667,0,0xB01E,
0.270847166666667,0,0x830F,
0.270855041666667,0,0xB11E,
0.270885458333333,0,0x0006,
0.270893166666667,0,0x3B15,
0.270909500000000,0,0xB3E2,
0.270917416666667,0,0xBB1E,
0.270933250000000,0,0xB32B,
0.270941166666667,0,0xBC1E,
0.270957000000000,0,0xB2BE,
0.270964916666667,0,0xBD1E,
0.270980750000000,0,0xB1FF,
0.270988666666667,0,0xBE1E,
0.271004541666667,0,0xB206,
0.271012416666667,0,0xBF1E,
0.271028250000000,0,0xB277,
0.271036166666667,0,0xC01E,
0.271067250000000,0,0x000A,
0.271074916666667,0,0x4119,
0.271091083333333,0,0xC0C4,
0.271099000000000,0,0xC11E,
0.271114833333333,0,0xC0C5,
0.271122750000000,0,0xC21E,
0.271138583333333,0,0xC0C5,
0.271146541666667,0,0xC31E,
0.271162333333333,0,0xC087,
0.271170291666667,0,0xC41E,
0.271186125000000,0,0xC0A8,
0.271194000000000,0,0xC51E,
0.271209833333333,0,0xDD19,
0.271217791666667,0,0xC61E,
0.271233625000000,0,0x8045,
0.271241500000000,0,0xC71E,
0.271257333333333,0,0xA3D6,
0.271265291666667,0,0xC81E,
0.271281125000000,0,0x9E35,
0.271289000000000,0,0xC91E,
0.271304833333333,0,0x9E3A,
0.271312750000000,0,0xCA1E,
0.271346041666667,0,0x0004,
0.271353708333333,0,0x032D,
0.271370166666667,0,0x0A01,
0.271378000000000,0,0x832D,
0.271393708333333,0,0x0F00,
0.271401583333333,0,0x842D,
0.271417291666667,0,0x0000,
0.271425125000000,0,0x852E,
0.271440875000000,0,0xE73F,
0.271448708333333,0,0x862D,
0.271479375000000,0,0x0001,
0.271487041666667,0,0x1D21,
0.271503208333333,0,0x0055,
0.271511083333333,0,0x9D21,
0.271538541666667,0,0x0003,
0.271546250000000,0,0x2425,
0.271562625000000,0,0x004C,
0.271570458333333,0,0xA42E,
0.271586208333333,0,0x0040,
0.271594041666667,0,0xA52E,
0.271609750000000,0,0x8000,
0.271617625000000,0,0xA62E,
0.271645708333333,0,0x0005,
0.271653375000000,0,0x2D29,
0.271669666666667,0,0x0F6B,
0.271677500000000,0,0xAD2E,
0.271693208333333,0,0xFFEF,
0.271701083333333,0,0xAE2E,
0.271716791666667,0,0xE8CE,
0.271724666666667,0,0xAF2E,
0.271740375000000,0,0xFFFF,
0.271748208333333,0,0xB02E,
0.271763916666667,0,0x8309,
0.271771791666667,0,0xB12E,
0.271801458333333,0,0x0006,
0.271809125000000,0,0x3B2D,
0.271825291666667,0,0xE51C,
0.271833125000000,0,0xBB2E,
0.271848875000000,0,0x8002,
0.271856708333333,0,0xBC2E,
0.271872416666667,0,0x8000,
0.271880291666667,0,0xBD2E,
0.271896000000000,0,0x8002,
0.271903833333333,0,0xBE2E,
0.271919541666667,0,0xE5BB,
0.271927416666667,0,0xBF2E,
0.271943125000000,0,0xE5D5,
0.271951000000000,0,0xC02E,
0.271980708333333,0,0x000A,
0.271988375000000,0,0x4121,
0.272004500000000,0,0xDB64,
0.272012333333333,0,0xC12E,
0.272028041666667,0,0xDC74,
0.272035916666667,0,0xC22E,
0.272051625000000,0,0xDF3E,
0.272059500000000,0,0xC32E,
0.272075208333333,0,0xE121,
0.272083041666667,0,0xC42E,
0.272098750000000,0,0xA97D,
0.272106625000000,0,0xC52E,
0.272122333333333,0,0xFF49,
0.272130208333333,0,0xC62E,
0.272145916666667,0,0xC015,
0.272153750000000,0,0xC72E,
0.272169458333333,0,0xA3B8,
0.272177333333333,0,0xC82E,
0.272193041666667,0,0x9E39,
0.272200916666667,0,0xC92E,
0.272216625000000,0,0x9E3D,
0.272224458333333,0,0xCA2E,
0.279999541666667,0,0xFC3F,
0.280007208333333,0,0x0607,
0.280035000000000,0,0x0004,
0.280042708333333,0,0x0319,
0.280059083333333,0,0x0A01,
0.280067000000000,0,0x8319,
0.280082833333333,0,0x0F00,
0.280090750000000,0,0x8419,
0.280106583333333,0,0x0000,
0.280114500000000,0,0x851F,
0.280130375000000,0,0xFF3F,
0.280138291666667,0,0x8619,
0.280168875000000,0,0x0004,
0.280176541666667,0,0x031D,
0.280192708333333,0,0x0A01,
0.280200625000000,0,0x831D,
0.280216416666667,0,0x0F00,
0.280224375000000,0,0x841D,
0.280240166666667,0,0x0000,
0.280248083333333,0,0x851F,
0.280263916666667,0,0xFF3F,
0.280271833333333,0,0x861D,
0.280302166666667,0,0x0004,
0.280309833333333,0,0x0311,
0.280326250000000,0,0x0A01,
0.280334166666667,0,0x8311,
0.280350041666667,0,0x0F00,
0.280357958333333,0,0x8411,
0.280373791666667,0,0x0000,
0.280381708333333,0,0x851F,
0.280397541666667,0,0xFF3F,
0.280405458333333,0,0x8611,
0.280435666666667,0,0x0004,
0.280443375000000,0,0x0315,
0.280459375000000,0,0x0A01,
0.280467333333333,0,0x8315,
0.280483166666667,0,0x0F00,
0.280491083333333,0,0x8415,
0.280506916666667,0,0x0000,
0.280514833333333,0,0x851F,
0.280530666666667,0,0xFF3F,
0.280538583333333,0,0x8615,
0.280568750000000,0,0x0004,
0.280576458333333,0,0x0319,
0.280592541666667,0,0x0A01,
0.280600458333333,0,0x8319,
0.280616291666667,0,0x0F00,
0.280624208333333,0,0x8419,
0.280640041666667,0,0x0000,
0.280648000000000,0,0x851F,
0.280663791666667,0,0xF73F,
0.280671750000000,0,0x8619,
0.280701875000000,0,0x0001,
0.280709583333333,0,0x1D1D,
0.280725708333333,0,0x1551,
0.280733583333333,0,0x9D1D,
0.280761750000000,0,0x0003,
0.280769416666667,0,0x2411,
0.280785583333333,0,0x0048,
0.280793500000000,0,0xA41F,
0.280809333333333,0,0x0040,
0.280817250000000,0,0xA51F,
0.280833083333333,0,0x8000,
0.280841000000000,0,0xA61F,
0.280870208333333,0,0x0005,
0.280877875000000,0,0x2D15,
0.280893958333333,0,0x0283,
0.280901875000000,0,0xAD1F,
0.280917708333333,0,0xFFED,
0.280925625000000,0,0xAE1F,
0.280941458333333,0,0x774D,
0.280949416666667,0,0xAF1F,
0.280965250000000,0,0xFFFF,
0.280973166666667,0,0xB01F,
0.280989000000000,0,0x830D,
0.280996916666667,0,0xB11F,
0.281027291666667,0,0x0006,
0.281034958333333,0,0x3B19,
0.281051375000000,0,0xB3DD,
0.281059250000000,0,0xBB1F,
0.281075125000000,0,0xB32B,
0.281083041666667,0,0xBC1F,
0.281098875000000,0,0xB2BE,
0.281106791666667,0,0xBD1F,
0.281122625000000,0,0xB200,
0.281130541666667,0,0xBE1F,
0.281146375000000,0,0xB200,
0.281154291666667,0,0xBF1F,
0.281170125000000,0,0xB271,
0.281178041666667,0,0xC01F,
0.281208166666667,0,0x000A,
0.281215833333333,0,0x411D,
0.281232000000000,0,0xC0C4,
0.281239916666667,0,0xC11F,
0.281255750000000,0,0xC0C6,
0.281263666666667,0,0xC21F,
0.281279500000000,0,0xC0C2,
0.281287416666667,0,0xC31F,
0.281303250000000,0,0xC086,
0.281311166666667,0,0xC41F,
0.281327000000000,0,0xC0A9,
0.281334916666667,0,0xC51F,
0.281350791666667,0,0xDD14,
0.281358708333333,0,0xC61F,
0.281374541666667,0,0x8048,
0.281382458333333,0,0xC71F,
0.281398291666667,0,0xA3D7,
0.281406208333333,0,0xC81F,
0.281422041666667,0,0x9E37,
0.281429958333333,0,0xC91F,
0.281445791666667,0,0x9E3B,
0.281453708333333,0,0xCA1F,
0.281485208333333,0,0x0004,
0.281492875000000,0,0x0321,
0.281509166666667,0,0x0A01,
0.281517041666667,0,0x8321,
0.281532750000000,0,0x0F00,
0.281540625000000,0,0x8421,
0.281556291666667,0,0x0000,
0.281564166666667,0,0x852F,
0.281579875000000,0,0xF73F,
0.281587750000000,0,0x8621,
0.281618250000000,0,0x0001,
0.281625916666667,0,0x1D25,
0.281642250000000,0,0x0055,
0.281650125000000,0,0x9D25,
0.281678166666667,0,0x0003,
0.281685833333333,0,0x2429,
0.281702166666667,0,0x004C,
0.281710000000000,0,0xA42F,
0.281725708333333,0,0x0040,
0.281733583333333,0,0xA52F,
0.281749291666667,0,0x8000,
0.281757166666667,0,0xA62F,
0.281787125000000,0,0x0005,
0.281794791666667,0,0x2D2D,
0.281811166666667,0,0x107B,
0.281819041666667,0,0xAD2F,
0.281834750000000,0,0xFFEF,
0.281842583333333,0,0xAE2F,
0.281858333333333,0,0xE598,
0.281866166666667,0,0xAF2F,
0.281881875000000,0,0xFFFF,
0.281889750000000,0,0xB02F,
0.281905458333333,0,0x830D,
0.281913291666667,0,0xB12F,
0.281943666666667,0,0x0006,
0.281951333333333,0,0x3B21,
0.281967333333333,0,0xE519,
0.281975208333333,0,0xBB2F,
0.281990875000000,0,0x8000,
0.281998750000000,0,0xBC2F,
0.282014458333333,0,0x8000,
0.282022333333333,0,0xBD2F,
0.282038041666667,0,0x8000,
0.282045875000000,0,0xBE2F,
0.282061583333333,0,0xE5BA,
0.282069458333333,0,0xBF2F,
0.282085166666667,0,0xE5D2,
0.282093000000000,0,0xC02F,
0.282122666666667,0,0x000A,
0.282130333333333,0,0x4125,
0.282146541666667,0,0xDB68,
0.282154375000000,0,0xC12F,
0.282170083333333,0,0xDC77,
0.282177958333333,0,0xC22F,
0.282193666666667,0,0xDF41,
0.282201500000000,0,0xC32F,
0.282217208333333,0,0xE121,
0.282225083333333,0,0xC42F,
0.282240791666667,0,0xA983,
0.282248666666667,0,0xC52F,
0.282264375000000,0,0xFF4C,
0.282272250000000,0,0xC62F,
0.282287958333333,0,0xC015,
0.282295791666667,0,0xC72F,
0.282311541666667,0,0xA3B7,
0.282319375000000,0,0xC82F,
0.282335083333333,0,0x9E38,
0.282342958333333,0,0xC92F,
0.282358666666667,0,0x9E42,
0.282366500000000,0,0xCA2F,
0.289858166666667,0,0x0C3F,
0.289865833333333,0,0x060B,
0.289893083333333,0,0x0004,
0.289900791666667,0,0x031D,
0.289917000000000,0,0x0A01,
0.289924875000000,0,0x831D,
0.289940750000000,0,0x0F00,
0.289948666666667,0,0x841D,
0.289964500000000,0,0x0000,
0.289972416666667,0,0x8510,
0.289988250000000,0,0x0F3F,
0.289996166666667,0,0x861D,
0.290026500000000,0,0x0004,
0.290034166666667,0,0x0311,
0.290050583333333,0,0x0A01,
0.290058500000000,0,0x8311,
0.290074333333333,0,0x0F00,
0.290082291666667,0,0x8411,
0.290098083333333,0,0x0000,
0.290106041666667,0,0x8510,
0.290121833333333,0,0x0F3F,
0.290129791666667,0,0x8611,
0.290160541666667,0,0x0004,
0.290168208333333,0,0x0315,
0.290184208333333,0,0x0A01,
0.290192125000000,0,0x8315,
0.290208000000000,0,0x0F00,
0.290215916666667,0,0x8415,
0.290231750000000,0,0x0000,
0.290239666666667,0,0x8510,
0.290255500000000,0,0x0F3F,
0.290263416666667,0,0x8615,
0.290294125000000,0,0x0004,
0.290301791666667,0,0x0319,
0.290317875000000,0,0x0A01,
0.290325791666667,0,0x8319,
0.290341625000000,0,0x0F00,
0.290349541666667,0,0x8419,
0.290365375000000,0,0x0000,
0.290373291666667,0,0x8510,
0.290389125000000,0,0x0F3F,
0.290397041666667,0,0x8619,
0.290427541666667,0,0x0004,
0.290435208333333,0,0x031D,
0.290451458333333,0,0x0A01,
0.290459416666667,0,0x831D,
0.290475208333333,0,0x0F00,
0.290483166666667,0,0x841D,
0.290498958333333,0,0x0000,
0.290506916666667,0,0x8510,
0.290522750000000,0,0x073F,
0.290530666666667,0,0x861D,
0.290561208333333,0,0x0001,
0.290568875000000,0,0x1D11,
0.290585083333333,0,0x1551,
0.290593000000000,0,0x9D11,
0.290620708333333,0,0x0003,
0.290628375000000,0,0x2415,
0.290644500000000,0,0x0048,
0.290652416666667,0,0xA410,
0.290668250000000,0,0x0040,
0.290676166666667,0,0xA510,
0.290692000000000,0,0x8000,
0.290699916666667,0,0xA610,
0.290728750000000,0,0x0005,
0.290736416666667,0,0x2D19,
0.290752875000000,0,0x0389,
0.290760791666667,0,0xAD10,
0.290776625000000,0,0xFFED,
0.290784541666667,0,0xAE10,
0.290800375000000,0,0x7423,
0.290808291666667,0,0xAF10,
0.290824125000000,0,0xFFFF,
0.290832083333333,0,0xB010,
0.290847916666667,0,0x830B,
0.290855833333333,0,0xB110,
0.290886125000000,0,0x0006,
0.290893833333333,0,0x3B1D,
0.290910250000000,0,0xB3DF,
0.290918166666667,0,0xBB10,
0.290934000000000,0,0xB32B,
0.290941916666667,0,0xBC10,
0.290957750000000,0,0xB2BA,
0.290965666666667,0,0xBD10,
0.290981500000000,0,0xB201,
0.290989416666667,0,0xBE10,
0.291005250000000,0,0xB200,
0.291013166666667,0,0xBF10,
0.291029000000000,0,0xB271,
0.291036916666667,0,0xC010,
0.291067791666667,0,0x000A,
0.291075458333333,0,0x4111,
0.291091833333333,0,0xC0C5,
0.291099750000000,0,0xC110,
0.291115583333333,0,0xC0C9,
0.291123500000000,0,0xC210,
0.291139333333333,0,0xC0C9,
0.291147250000000,0,0xC310,
0.291163083333333,0,0xC088,
0.291171000000000,0,0xC410,
0.291186833333333,0,0xC0AA,
0.291194750000000,0,0xC510,
0.291210583333333,0,0xDD1A,
0.291218500000000,0,0xC610,
0.291234333333333,0,0x8047,
0.291242250000000,0,0xC710,
0.291258083333333,0,0xA3D5,
0.291266000000000,0,0xC810,
0.291281833333333,0,0x9E3A,
0.291289750000000,0,0xC910,
0.291305583333333,0,0x9E3A,
0.291313500000000,0,0xCA10,
0.291345916666667,0,0x0004,
0.291353583333333,0,0x0325,
0.291369875000000,0,0x0A01,
0.291377708333333,0,0x8325,
0.291393416666667,0,0x0F00,
0.291401291666667,0,0x8425,
0.291417000000000,0,0x0000,
0.291424833333333,0,0x8520,
0.291440541666667,0,0x073F,
0.291448416666667,0,0x8625,
0.291478666666667,0,0x0001,
0.291486333333333,0,0x1D29,
0.291502416666667,0,0x0055,
0.291510250000000,0,0x9D29,
0.291538000000000,0,0x0003,
0.291545708333333,0,0x242D,
0.291561833333333,0,0x004C,
0.291569666666667,0,0xA420,
0.291585416666667,0,0x0040,
0.291593250000000,0,0xA520,
0.291609000000000,0,0x8000,
0.291616833333333,0,0xA620,
0.291645208333333,0,0x0005,
0.291652875000000,0,0x2D21,
0.291668875000000,0,0x1183,
0.291676750000000,0,0xAD20,
0.291692458333333,0,0xFFEF,
0.291700333333333,0,0xAE20,
0.291716041666667,0,0xE38B,
0.291723875000000,0,0xAF20,
0.291739583333333,0,0x8000,
0.291747458333333,0,0xB020,
0.291763166666667,0,0x8304,
0.291771041666667,0,0xB120,
0.291801416666667,0,0x0006,
0.291809083333333,0,0x3B25,
0.291825041666667,0,0xE518,
0.291832916666667,0,0xBB20,
0.291848583333333,0,0x8000,
0.291856458333333,0,0xBC20,
0.291872166666667,0,0x8000,
0.291880041666667,0,0xBD20,
0.291895750000000,0,0x8000,
0.291903583333333,0,0xBE20,
0.291919291666667,0,0xE5BB,
0.291927125000000,0,0xBF20,
0.291942875000000,0,0xE5D3,
0.291950708333333,0,0xC020,
0.291981125000000,0,0x000A,
0.291988791666667,0,0x4129,
0.292005208333333,0,0xDB67,
0.292013083333333,0,0xC120,
0.292028791666667,0,0xDC6F,
0.292036625000000,0,0xC220,
0.292052333333333,0,0xDF3D,
0.292060208333333,0,0xC320,
0.292075916666667,0,0xE11C,
0.292083791666667,0,0xC420,
0.292099500000000,0,0xA97D,
0.292107333333333,0,0xC520,
0.292123041666667,0,0xFF47,
0.292130916666667,0,0xC620,
0.292146625000000,0,0xC00D,
0.292154458333333,0,0xC720,
0.292170208333333,0,0xA3B8,
0.292178041666667,0,0xC820,
0.292193791666667,0,0x9E35,
0.292201625000000,0,0xC920,
0.292217333333333,0,0x9E3D,
0.292225208333333,0,0xCA20,
0.300008125000000,0,0x1C3F,
0.300015791666667,0,0x060F,
0.300043708333333,0,0x0004,
0.300051375000000,0,0x0311,
0.300067625000000,0,0x0A01,
0.300075541666667,0,0x8311,
0.300091375000000,0,0x0F00,
0.300099291666667,0,0x8411,
0.300115125000000,0,0x0000,
0.300123041666667,0,0x8511,
0.300138875000000,0,0x1F3F,
0.300146791666667,0,0x8611,
0.300177958333333,0,0x0004,
0.300185666666667,0,0x0315,
0.300201708333333,0,0x0A01,
0.300209625000000,0,0x8315,
0.300225458333333,0,0x0F00,
0.300233416666667,0,0x8415,
0.300249250000000,0,0x0000,
0.300257166666667,0,0x8511,
0.300273000000000,0,0x1F3F,
0.300280916666667,0,0x8615,
0.300310541666667,0,0x0004,
0.300318208333333,0,0x0319,
0.300334375000000,0,0x0A01,
0.300342291666667,0,0x8319,
0.300358125000000,0,0x0F00,
0.300366041666667,0,0x8419,
0.300381875000000,0,0x0000,
0.300389791666667,0,0x8511,
0.300405666666667,0,0x1F3F,
0.300413541666667,0,0x8619,
0.300444208333333,0,0x0004,
0.300451875000000,0,0x031D,
0.300468000000000,0,0x0A01,
0.300475916666667,0,0x831D,
0.300491750000000,0,0x0F00,
0.300499666666667,0,0x841D,
0.300515500000000,0,0x0000,
0.300523416666667,0,0x8511,
0.300539250000000,0,0x1F3F,
0.300547166666667,0,0x861D,
0.300577291666667,0,0x0004,
0.300585000000000,0,0x0311,
0.300601083333333,0,0x0A01,
0.300609041666667,0,0x8311,
0.300624875000000,0,0x0F00,
0.300632750000000,0,0x8411,
0.300648583333333,0,0x0000,
0.300656500000000,0,0x8511,
0.300672333333333,0,0x173F,
0.300680250000000,0,0x8611,
0.300710500000000,0,0x0001,
0.300718166666667,0,0x1D15,
0.300734208333333,0,0x1551,
0.300742125000000,0,0x9D15,
0.300770750000000,0,0x0003,
0.300778416666667,0,0x2419,
0.300794541666667,0,0x0048,
0.300802458333333,0,0xA411,
0.300818291666667,0,0x0040,
0.300826208333333,0,0xA511,
0.300842041666667,0,0x8000,
0.300850000000000,0,0xA611,
0.300879208333333,0,0x0005,
0.300886875000000,0,0x2D1D,
0.300902916666667,0,0x0497,
0.300910833333333,0,0xAD11,
0.300926666666667,0,0xFFED,
0.300934625000000,0,0xAE11,
0.300950416666667,0,0x708C,
0.300958333333333,0,0xAF11,
0.300974208333333,0,0xFFFF,
0.300982083333333,0,0xB011,
0.300997958333333,0,0x830C,
0.301005833333333,0,0xB111,
0.301036541666667,0,0x0006,
0.301044208333333,0,0x3B11,
0.301060291666667,0,0xB3E4,
0.301068208333333,0,0xBB11,
0.301084041666667,0,0xB32F,
0.301091958333333,0,0xBC11,
0.301107791666667,0,0xB2BE,
0.301115708333333,0,0xBD11,
0.301131541666667,0,0xB201,
0.301139458333333,0,0xBE11,
0.301155250000000,0,0xB201,
0.301163208333333,0,0xBF11,
0.301179000000000,0,0xB275,
0.301186958333333,0,0xC011,
0.301218041666667,0,0x000A,
0.301225708333333,0,0x4115,
0.301241875000000,0,0xC0C6,
0.301249791666667,0,0xC111,
0.301265625000000,0,0xC0C5,
0.301273541666667,0,0xC211,
0.301289375000000,0,0xC0C4,
0.301297291666667,0,0xC311,
0.301313125000000,0,0xC083,
0.301321041666667,0,0xC411,
0.301336875000000,0,0xC0AC,
0.301344791666667,0,0xC511,
0.301360625000000,0,0xDD17,
0.301368541666667,0,0xC611,
0.301384375000000,0,0x8046,
0.301392291666667,0,0xC711,
0.301408125000000,0,0xA3D4,
0.301416041666667,0,0xC811,
0.301431875000000,0,0x9E38,
0.301439791666667,0,0xC911,
0.301455625000000,0,0x9E3B,
0.301463541666667,0,0xCA11,
0.301495083333333,0,0x0004,
0.301502750000000,0,0x0329,
0.301518750000000,0,0x0A01,
0.301526625000000,0,0x8329,
0.301542333333333,0,0x0F00,
0.301550166666667,0,0x8429,
0.301565916666667,0,0x0000,
0.301573750000000,0,0x8521,
0.301589458333333,0,0x173F,
0.301597333333333,0,0x8629,
0.301628000000000,0,0x0001,
0.301635708333333,0,0x1D2D,
0.301651833333333,0,0x0055,
0.301659666666667,0,0x9D2D,
0.301687666666667,0,0x0003,
0.301695333333333,0,0x2421,
0.301711750000000,0,0x004C,
0.301719583333333,0,0xA421,
0.301735291666667,0,0x0040,
0.301743166666667,0,0xA521,
0.301758875000000,0,0x8000,
0.301766750000000,0,0xA621,
0.301796250000000,0,0x0005,
0.301803958333333,0,0x2D25,
0.301820250000000,0,0x1293,
0.301828125000000,0,0xAD21,
0.301843833333333,0,0xFFEF,
0.301851708333333,0,0xAE21,
0.301867416666667,0,0xE0D5,
0.301875250000000,0,0xAF21,
0.301890958333333,0,0xFFFF,
0.301898833333333,0,0xB021,
0.301914541666667,0,0x8306,
0.301922416666667,0,0xB121,
0.301953708333333,0,0x0006,
0.301961375000000,0,0x3B29,
0.301977375000000,0,0xE51B,
0.301985250000000,0,0xBB21,
0.302000958333333,0,0x8001,
0.302008791666667,0,0xBC21,
0.302024500000000,0,0x8000,
0.302032375000000,0,0xBD21,
0.302048083333333,0,0x8000,
0.302055958333333,0,0xBE21,
0.302071666666667,0,0xE5BE,
0.302079541666667,0,0xBF21,
0.302095250000000,0,0xE5D8,
0.302103083333333,0,0xC021,
0.302132458333333,0,0x000A,
0.302140125000000,0,0x412D,
0.302156125000000,0,0xDB6A,
0.302163958333333,0,0xC121,
0.302179708333333,0,0xDC75,
0.302187541666667,0,0xC221,
0.302203291666667,0,0xDF42,
0.302211125000000,0,0xC321,
0.302226833333333,0,0xE125,
0.302234708333333,0,0xC421,
0.302250416666667,0,0xA982,
0.302258250000000,0,0xC521,
0.302274000000000,0,0xFF4D,
0.302281833333333,0,0xC621,
0.302297541666667,0,0xC017,
0.302305416666667,0,0xC721,
0.302321125000000,0,0xA3B6,
0.302329000000000,0,0xC821,
0.302344708333333,0,0x9E3C,
0.302352541666667,0,0xC921,
0.302368250000000,0,0x9E3E,
0.302376125000000,0,0xCA21,
0.309860875000000,0,0x2C3F,
0.309868541666667,0,0x0603,
0.309895625000000,0,0x0004,
0.309903291666667,0,0x0315,
0.309919625000000,0,0x0A01,
0.309927541666667,0,0x8315,
0.309943375000000,0,0x0F00,
0.309951291666667,0,0x8415,
0.309967166666667,0,0x0000,
0.309975083333333,0,0x8512,
0.309990916666667,0,0x2F3F,
0.309998833333333,0,0x8615,
0.310030208333333,0,0x0004,
0.310037916666667,0,0x0319,
0.310054250000000,0,0x0A01,
0.310062166666667,0,0x8319,
0.310078000000000,0,0x0F00,
0.310085958333333,0,0x8419,
0.310101791666667,0,0x0000,
0.310109708333333,0,0x8512,
0.310125541666667,0,0x2F3F,
0.310133458333333,0,0x8619,
0.310164541666667,0,0x0004,
0.310172208333333,0,0x031D,
0.310188416666667,0,0x0A01,
0.310196333333333,0,0x831D,
0.310212166666667,0,0x0F00,
0.310220083333333,0,0x841D,
0.310235916666667,0,0x0000,
0.310243833333333,0,0x8512,
0.310259666666667,0,0x2F3F,
0.310267583333333,0,0x861D,
0.310298500000000,0,0x0004,
0.310306166666667,0,0x0311,
0.310322541666667,0,0x0A01,
0.310330458333333,0,0x8311,
0.310346291666667,0,0x0F00,
0.310354208333333,0,0x8411,
0.310370041666667,0,0x0000,
0.310377958333333,0,0x8512,
0.310393791666667,0,0x2F3F,
0.310401708333333,0,0x8611,
0.310431875000000,0,0x0004,
0.310439583333333,0,0x0315,
0.310455666666667,0,0x0A01,
0.310463583333333,0,0x8315,
0.310479416666667,0,0x0F00,
0.310487333333333,0,0x8415,
0.310503166666667,0,0x0000,
0.310511083333333,0,0x8512,
0.310526958333333,0,0x273F,
0.310534875000000,0,0x8615,
0.310565875000000,0,0x0001,
0.310573583333333,0,0x1D19,
0.310589791666667,0,0x1551,
0.310597708333333,0,0x9D19,
0.310625833333333,0,0x0003,
0.310633541666667,0,0x241D,
0.310649708333333,0,0x0048,
0.310657625000000,0,0xA412,
0.310673458333333,0,0x0040,
0.310681375000000,0,0xA512,
0.310697208333333,0,0x8000,
0.310705125000000,0,0xA612,
0.310733583333333,0,0x0005,
0.310741291666667,0,0x2D11,
0.310757583333333,0,0x059D,
0.310765500000000,0,0xAD12,
0.310781333333333,0,0xFFED,
0.310789250000000,0,0xAE12,
0.310805083333333,0,0x6DF9,
0.310813000000000,0,0xAF12,
0.310828833333333,0,0xFFFF,
0.310836750000000,0,0xB012,
0.310852583333333,0,0x830A,
0.310860541666667,0,0xB112,
0.310890333333333,0,0x0006,
0.310898000000000,0,0x3B15,
0.310914458333333,0,0xB3E0,
0.310922375000000,0,0xBB12,
0.310938208333333,0,0xB32D,
0.310946125000000,0,0xBC12,
0.310961958333333,0,0xB2BD,
0.310969875000000,0,0xBD12,
0.310985708333333,0,0xB1FC,
0.310993625000000,0,0xBE12,
0.311009500000000,0,0xB1FF,
0.311017375000000,0,0xBF12,
0.311033208333333,0,0xB272,
0.311041166666667,0,0xC012,
0.311071375000000,0,0x000A,
0.311079041666667,0,0x4119,
0.311095083333333,0,0xC0C3,
0.311103000000000,0,0xC112,
0.311118833333333,0,0xC0C2,
0.311126750000000,0,0xC212,
0.311142583333333,0,0xC0C6,
0.311150541666667,0,0xC312,
0.311166333333333,0,0xC084,
0.311174291666667,0,0xC412,
0.311190083333333,0,0xC0A9,
0.311198000000000,0,0xC512,
0.311213833333333,0,0xDD16,
0.311221791666667,0,0xC612,
0.311237625000000,0,0x8043,
0.311245541666667,0,0xC712,
0.311261375000000,0,0xA3D4,
0.311269291666667,0,0xC812,
0.311285125000000,0,0x9E38,
0.311293041666667,0,0xC912,
0.311308916666667,0,0x9E38,
0.311316833333333,0,0xCA12,
0.311349041666667,0,0x0004,
0.311356750000000,0,0x032D,
0.311373166666667,0,0x0A01,
0.311381000000000,0,0x832D,
0.311396708333333,0,0x0F00,
0.311404583333333,0,0x842D,
0.311420291666667,0,0x0000,
0.311428125000000,0,0x8522,
0.311443833333333,0,0x273F,
0.311451708333333,0,0x862D,
0.311481916666667,0,0x0001,
0.311489583333333,0,0x1D21,
0.311505708333333,0,0x0055,
0.311513583333333,0,0x9D21,
0.311542000000000,0,0x0003,
0.311549708333333,0,0x2425,
0.311566125000000,0,0x004C,
0.311573958333333,0,0xA422,
0.311589666666667,0,0x0040,
0.311597500000000,0,0xA522,
0.311613208333333,0,0x8000,
0.311621083333333,0,0xA622,
0.311650166666667,0,0x0005,
0.311657875000000,0,0x2D29,
0.311674125000000,0,0x139B,
0.311681958333333,0,0xAD22,
0.311697666666667,0,0xFFEF,
0.311705541666667,0,0xAE22,
0.311721250000000,0,0xDE68,
0.311729125000000,0,0xAF22,
0.311744791666667,0,0xFFFF,
0.311752666666667,0,0xB022,
0.311768375000000,0,0x830C,
0.311776208333333,0,0xB122,
0.311806708333333,0,0x0006,
0.311814375000000,0,0x3B2D,
0.311830750000000,0,0xE51F,
0.311838583333333,0,0xBB22,
0.311854291666667,0,0x8000,
0.311862166666667,0,0xBC22,
0.311877875000000,0,0x8000,
0.311885750000000,0,0xBD22,
0.311901458333333,0,0x8000,
0.311909291666667,0,0xBE22,
0.311925000000000,0,0xE5B7,
0.311932875000000,0,0xBF22,
0.311948583333333,0,0xE5D1,
0.311956416666667,0,0xC022,
0.311986791666667,0,0x000A,
0.311994458333333,0,0x4121,
0.312010458333333,0,0xDB64,
0.312018291666667,0,0xC122,
0.312034000000000,0,0xDC71,
0.312041875000000,0,0xC222,
0.312057583333333,0,0xDF3F,
0.312065416666667,0,0xC322,
0.312081125000000,0,0xE122,
0.312089000000000,0,0xC422,
0.312104708333333,0,0xA97E,
0.312112541666667,0,0xC522,
0.312128250000000,0,0xFF4A,
0.312136125000000,0,0xC622,
0.312151833333333,0,0xC014,
0.312159708333333,0,0xC722,
0.312175416666667,0,0xA3B9,
0.312183250000000,0,0xC822,
0.312198958333333,0,0x9E39,
0.312206833333333,0,0xC922,
0.312222541666667,0,0x9E3C,
0.312230416666667,0,0xCA22,
0.319878125000000,0,0x3C3F,
0.319885833333333,0,0x0607,
0.319913041666667,0,0x0004,
0.319920708333333,0,0x0319,
0.319936875000000,0,0x0A01,
0.319944791666667,0,0x8319,
0.319960666666667,0,0x0F00,
0.319968583333333,0,0x8419,
0.319984416666667,0,0x0000,
0.319992333333333,0,0x8513,
0.320008208333333,0,0x3F3F,
0.320016125000000,0,0x8619,
0.320046916666667,0,0x0004,
0.320054625000000,0,0x031D,
0.320070583333333,0,0x0A01,
0.320078500000000,0,0x831D,
0.320094333333333,0,0x0F00,
0.320102250000000,0,0x841D,
0.320118083333333,0,0x0000,
0.320126041666667,0,0x8513,
0.320141875000000,0,0x3F3F,
0.320149791666667,0,0x861D,
0.320180500000000,0,0x0004,
0.320188166666667,0,0x0311,
0.320204250000000,0,0x0A01,
0.320212166666667,0,0x8311,
0.320228041666667,0,0x0F00,
0.320235916666667,0,0x8411,
0.320251791666667,0,0x0000,
0.320259708333333,0,0x8513,
0.320275541666667,0,0x3F3F,
0.320283458333333,0,0x8611,
0.320314166666667,0,0x0004,
0.320321833333333,0,0x0315,
0.320337916666667,0,0x0A01,
0.320345833333333,0,0x8315,
0.320361666666667,0,0x0F00,
0.320369583333333,0,0x8415,
0.320385416666667,0,0x0000,
0.320393333333333,0,0x8513,
0.320409166666667,0,0x3F3F,
0.320417083333333,0,0x8615,
0.320447875000000,0,0x0004,
0.320455583333333,0,0x0319,
0.320471500000000,0,0x0A01,
0.320479416666667,0,0x8319,
0.320495250000000,0,0x0F00,
0.320503208333333,0,0x8419,
0.320519041666667,0,0x0000,
0.320526958333333,0,0x8513,
0.320542750000000,0,0x373F,
0.320550708333333,0,0x8619,
0.320581875000000,0,0x0001,
0.320589541666667,0,0x1D1D,
0.320605625000000,0,0x1551,
0.320613583333333,0,0x9D1D,
0.320641583333333,0,0x0003,
0.320649250000000,0,0x2411,
0.320665541666667,0,0x0048,
0.320673458333333,0,0xA413,
0.320689291666667,0,0x0040,
0.320697208333333,0,0xA513,
0.320713041666667,0,0x8000,
0.320720958333333,0,0xA613,
0.320749916666667,0,0x0005,
0.320757583333333,0,0x2D15,
0.320773916666667,0,0x06A8,
0.320781833333333,0,0xAD13,
0.320797666666667,0,0xFFED,
0.320805583333333,0,0xAE13,
0.320821416666667,0,0x6AD5,
0.320829375000000,0,0xAF13,
0.320845208333333,0,0x8000,
0.320853125000000,0,0xB013,
0.320868958333333,0,0x8300,
0.320876875000000,0,0xB113,
0.320907250000000,0,0x0006,
0.320914916666667,0,0x3B19,
0.320931291666667,0,0xB3DE,
0.320939250000000,0,0xBB13,
0.320955083333333,0,0xB325,
0.320963000000000,0,0xBC13,
0.320978833333333,0,0xB2BE,
0.320986750000000,0,0xBD13,
0.321002583333333,0,0xB201,
0.321010500000000,0,0xBE13,
0.321026333333333,0,0xB202,
0.321034250000000,0,0xBF13,
0.321050083333333,0,0xB272,
0.321058000000000,0,0xC013,
0.321087375000000,0,0x000A,
0.321095041666667,0,0x411D,
0.321111458333333,0,0xC0C7,
0.321119375000000,0,0xC113,
0.321135250000000,0,0xC0C5,
0.321143166666667,0,0xC213,
0.321159000000000,0,0xC0C4,
0.321166916666667,0,0xC313,
0.321182750000000,0,0xC087,
0.321190666666667,0,0xC413,
0.321206500000000,0,0xC0AA,
0.321214458333333,0,0xC513,
0.321230291666667,0,0xDD16,
0.321238208333333,0,0xC613,
0.321254041666667,0,0x8043,
0.321261958333333,0,0xC713,
0.321277791666667,0,0xA3D5,
0.321285708333333,0,0xC813,
0.321301541666667,0,0x9E36,
0.321309500000000,0,0xC913,
0.321325291666667,0,0x9E3E,
0.321333250000000,0,0xCA13,
0.321366083333333,0,0x0004,
0.321373791666667,0,0x0321,
0.321389791666667,0,0x0A01,
0.321397666666667,0,0x8321,
0.321413375000000,0,0x0F00,
0.321421208333333,0,0x8421,
0.321436916666667,0,0x0000,
0.321444791666667,0,0x8523,
0.321460500000000,0,0x373F,
0.321468375000000,0,0x8621,
0.321498500000000,0,0x0001,
0.321506166666667,0,0x1D25,
0.321522375000000,0,0x0055,
0.321530250000000,0,0x9D25,
0.321558458333333,0,0x0003,
0.321566125000000,0,0x2429,
0.321582291666667,0,0x004C,
0.321590125000000,0,0xA423,
0.321605833333333,0,0x0040,
0.321613708333333,0,0xA523,
0.321629375000000,0,0x8000,
0.321637250000000,0,0xA623,
0.321666125000000,0,0x0005,
0.321673791666667,0,0x2D2D,
0.321689791666667,0,0x14A8,
0.321697625000000,0,0xAD23,
0.321713375000000,0,0xFFEF,
0.321721208333333,0,0xAE23,
0.321736916666667,0,0xDC0A,
0.321744791666667,0,0xAF23,
0.321760500000000,0,0x8000,
0.321768333333333,0,0xB023,
0.321784083333333,0,0x8300,
0.321791916666667,0,0xB123,
0.321822375000000,0,0x0006,
0.321830041666667,0,0x3B21,
0.321846416666667,0,0xE51B,
0.321854291666667,0,0xBB23,
0.321869958333333,0,0x8000,
0.321877833333333,0,0xBC23,
0.321893541666667,0,0x8001,
0.321901416666667,0,0xBD23,
0.321917125000000,0,0x8000,
0.321924958333333,0,0xBE23,
0.321940666666667,0,0xE5BC,
0.321948541666667,0,0xBF23,
0.321964250000000,0,0xE5D3,
0.321972083333333,0,0xC023,
0.322002166666667,0,0x000A,
0.322009833333333,0,0x4125,
0.322026083333333,0,0xDB68,
0.322033958333333,0,0xC123,
0.322049666666667,0,0xDC71,
0.322057500000000,0,0xC223,
0.322073208333333,0,0xDF41,
0.322081083333333,0,0xC323,
0.322096791666667,0,0xE121,
0.322104666666667,0,0xC423,
0.322120375000000,0,0xA97D,
0.322128208333333,0,0xC523,
0.322143916666667,0,0xFF4C,
0.322151791666667,0,0xC623,
0.322167500000000,0,0xC016,
0.322175375000000,0,0xC723,
0.322191083333333,0,0xA3B7,
0.322198958333333,0,0xC823,
0.322214666666667,0,0x9E39,
0.322222500000000,0,0xC923,
0.322238208333333,0,0x9E3E,
0.322246041666667,0,0xCA23,
0.329830083333333,0,0x4C3F,
0.329837791666667,0,0x060B,
0.329865500000000,0,0x0004,
0.329873166666667,0,0x031D,
0.329889458333333,0,0x0A01,
0.329897375000000,0,0x831D,
0.329913250000000,0,0x0F00,
0.329921166666667,0,0x841D,
0.329937000000000,0,0x0000,
0.329944916666667,0,0x8514,
0.329960750000000,0,0x4F3F,
0.329968708333333,0,0x861D,
0.329999416666667,0,0x0004,
0.330007125000000,0,0x0311,
0.330023125000000,0,0x0A01,
0.330031041666667,0,0x8311,
0.330046875000000,0,0x0F00,
0.330054833333333,0,0x8411,
0.330070666666667,0,0x0000,
0.330078583333333,0,0x8514,
0.330094416666667,0,0x4F3F,
0.330102333333333,0,0x8611,
0.330133291666667,0,0x0004,
0.330140958333333,0,0x0315,
0.330157291666667,0,0x0A01,
0.330165250000000,0,0x8315,
0.330181083333333,0,0x0F00,
0.330189000000000,0,0x8415,
0.330204833333333,0,0x0000,
0.330212750000000,0,0x8514,
0.330228583333333,0,0x4F3F,
0.330236541666667,0,0x8615,
0.330267291666667,0,0x0004,
0.330274958333333,0,0x0319,
0.330290958333333,0,0x0A01,
0.330298875000000,0,0x8319,
0.330314708333333,0,0x0F00,
0.330322666666667,0,0x8419,
0.330338500000000,0,0x0000,
0.330346375000000,0,0x8514,
0.330362250000000,0,0x4F3F,
0.330370125000000,0,0x8619,
0.330400708333333,0,0x0004,
0.330408416666667,0,0x031D,
0.330424583333333,0,0x0A01,
0.330432500000000,0,0x831D,
0.330448333333333,0,0x0F00,
0.330456250000000,0,0x841D,
0.330472083333333,0,0x0000,
0.330480000000000,0,0x8514,
0.330495833333333,0,0x473F,
0.330503750000000,0,0x861D,
0.330534375000000,0,0x0001,
0.330542041666667,0,0x1D11,
0.330558166666667,0,0x1551,
0.330566083333333,0,0x9D11,
0.330594458333333,0,0x0003,
0.330602125000000,0,0x2415,
0.330618541666667,0,0x0048,
0.330626500000000,0,0xA414,
0.330642333333333,0,0x0040,
0.330650250000000,0,0xA514,
0.330666083333333,0,0x8000,
0.330674000000000,0,0xA614,
0.330702750000000,0,0x0005,
0.330710458333333,0,0x2D19,
0.330726458333333,0,0x07B0,
0.330734375000000,0,0xAD14,
0.330750208333333,0,0xFFED,
0.330758125000000,0,0xAE14,
0.330773958333333,0,0x6800,
0.330781875000000,0,0xAF14,
0.330797750000000,0,0xFFFF,
0.330805666666667,0,0xB014,
0.330821500000000,0,0x8307,
0.330829416666667,0,0xB114,
0.330859958333333,0,0x0006,
0.330867666666667,0,0x3B1D,
0.330883833333333,0,0xB3DF,
0.330891750000000,0,0xBB14,
0.330907583333333,0,0xB32A,
0.330915500000000,0,0xBC14,
0.330931333333333,0,0xB2B9,
0.330939250000000,0,0xBD14,
0.330955125000000,0,0xB1FD,
0.330963000000000,0,0xBE14,
0.330978875000000,0,0xB1FE,
0.330986791666667,0,0xBF14,
0.331002625000000,0,0xB271,
0.331010541666667,0,0xC014,
0.331040916666667,0,0x000A,
0.331048625000000,0,0x4111,
0.331065000000000,0,0xC0C6,
0.331072916666667,0,0xC114,
0.331088750000000,0,0xC0C4,
0.331096666666667,0,0xC214,
0.331112500000000,0,0xC0C5,
0.331120416666667,0,0xC314,
0.331136291666667,0,0xC083,
0.331144208333333,0,0xC414,
0.331160000000000,0,0xC0AA,
0.331167958333333,0,0xC514,
0.331183791666667,0,0xDD17,
0.331191708333333,0,0xC614,
0.331207541666667,0,0x8046,
0.331215458333333,0,0xC714,
0.331231291666667,0,0xA3D5,
0.331239208333333,0,0xC814,
0.331255041666667,0,0x9E38,
0.331262958333333,0,0xC914,
0.331278791666667,0,0x9E38,
0.331286750000000,0,0xCA14,
0.331318291666667,0,0x0004,
0.331326000000000,0,0x0325,
0.331342291666667,0,0x0A01,
0.331350125000000,0,0x8325,
0.331365833333333,0,0x0F00,
0.331373708333333,0,0x8425,
0.331389416666667,0,0x0000,
0.331397250000000,0,0x8524,
0.331412958333333,0,0x473F,
0.331420833333333,0,0x8625,
0.331451333333333,0,0x0001,
0.331459041666667,0,0x1D29,
0.331475333333333,0,0x0055,
0.331483166666667,0,0x9D29,
0.331511000000000,0,0x0003,
0.331518666666667,0,0x242D,
0.331534750000000,0,0x004C,
0.331542625000000,0,0xA424,
0.331558333333333,0,0x0040,
0.331566166666667,0,0xA524,
0.331581875000000,0,0x8000,
0.331589750000000,0,0xA624,
0.331618833333333,0,0x0005,
0.331626500000000,0,0x2D21,
0.331642750000000,0,0x15B2,
0.331650625000000,0,0xAD24,
0.331666333333333,0,0xFFEF,
0.331674166666667,0,0xAE24,
0.331689875000000,0,0xDA9E,
0.331697750000000,0,0xAF24,
0.331713458333333,0,0x8000,
0.331721291666667,0,0xB024,
0.331737000000000,0,0x8300,
0.331744875000000,0,0xB124,
0.331774250000000,0,0x0006,
0.331781916666667,0,0x3B25,
0.331797875000000,0,0xE517,
0.331805750000000,0,0xBB24,
0.331821458333333,0,0x8001,
0.331829333333333,0,0xBC24,
0.331845000000000,0,0x8004,
0.331852875000000,0,0xBD24,
0.331868583333333,0,0x8002,
0.331876416666667,0,0xBE24,
0.331892125000000,0,0xE5BB,
0.331900000000000,0,0xBF24,
0.331915708333333,0,0xE5D3,
0.331923541666667,0,0xC024,
0.331954166666667,0,0x000A,
0.331961833333333,0,0x4129,
0.331978041666667,0,0xDB6B,
0.331985916666667,0,0xC124,
0.332001625000000,0,0xDC74,
0.332009500000000,0,0xC224,
0.332025166666667,0,0xDF40,
0.332033041666667,0,0xC324,
0.332048750000000,0,0xE120,
0.332056625000000,0,0xC424,
0.332072333333333,0,0xA97E,
0.332080166666667,0,0xC524,
0.332095875000000,0,0xFF4C,
0.332103750000000,0,0xC624,
0.332119458333333,0,0xC015,
0.332127333333333,0,0xC724,
0.332143041666667,0,0xA3B9,
0.332150875000000,0,0xC824,
0.332166583333333,0,0x9E37,
0.332174458333333,0,0xC924,
0.332190166666667,0,0x9E3E,
0.332198000000000,0,0xCA24,
0.340019083333333,0,0x5C3F,
0.340026750000000,0,0x060F,
0.340053916666667,0,0x0004,
0.340061583333333,0,0x0311,
0.340077583333333,0,0x0A01,
0.340085541666667,0,0x8311,
0.340101375000000,0,0x0F00,
0.340109291666667,0,0x8411,
0.340125125000000,0,0x0000,
0.340133041666667,0,0x8515,
0.340148875000000,0,0x5F3F,
0.340156791666667,0,0x8611,
0.340187916666667,0,0x0004,
0.340195583333333,0,0x0315,
0.340211708333333,0,0x0A01,
0.340219625000000,0,0x8315,
0.340235458333333,0,0x0F00,
0.340243416666667,0,0x8415,
0.340259250000000,0,0x0000,
0.340267166666667,0,0x8515,
0.340283000000000,0,0x5F3F,
0.340290916666667,0,0x8615,
0.340322083333333,0,0x0004,
0.340329750000000,0,0x0319,
0.340345916666667,0,0x0A01,
0.340353791666667,0,0x8319,
0.340369666666667,0,0x0F00,
0.340377583333333,0,0x8419,
0.340393458333333,0,0x0000,
0.340401333333333,0,0x8515,
0.340417208333333,0,0x5F3F,
0.340425125000000,0,0x8619,
0.340456083333333,0,0x0004,
0.340463750000000,0,0x031D,
0.340480083333333,0,0x0A01,
0.340487958333333,0,0x831D,
0.340503833333333,0,0x0F00,
0.340511750000000,0,0x841D,
0.340527583333333,0,0x0000,
0.340535500000000,0,0x8515,
0.340551375000000,0,0x5F3F,
0.340559291666667,0,0x861D,
0.340590125000000,0,0x0004,
0.340597791666667,0,0x0311,
0.340614208333333,0,0x0A01,
0.340622125000000,0,0x8311,
0.340637958333333,0,0x0F00,
0.340645875000000,0,0x8411,
0.340661708333333,0,0x0000,
0.340669666666667,0,0x8515,
0.340685500000000,0,0x573F,
0.340693416666667,0,0x8611,
0.340723250000000,0,0x0001,
0.340730916666667,0,0x1D15,
0.340746875000000,0,0x1551,
0.340754791666667,0,0x9D15,
0.340783291666667,0,0x0003,
0.340790958333333,0,0x2419,
0.340807250000000,0,0x0048,
0.340815166666667,0,0xA415,
0.340831000000000,0,0x0040,
0.340838916666667,0,0xA515,
0.340854791666667,0,0x8000,
0.340862666666667,0,0xA615,
0.340891500000000,0,0x0005,
0.340899208333333,0,0x2D1D,
0.340915625000000,0,0x08BF,
0.340923583333333,0,0xAD15,
0.340939416666667,0,0xFFED,
0.340947333333333,0,0xAE15,
0.340963166666667,0,0x655F,
0.340971083333333,0,0xAF15,
0.340986916666667,0,0xFFFF,
0.340994833333333,0,0xB015,
0.341010666666667,0,0x830B,
0.341018583333333,0,0xB115,
0.341048791666667,0,0x0006,
0.341056500000000,0,0x3B11,
0.341072541666667,0,0xB3DF,
0.341080458333333,0,0xBB15,
0.341096291666667,0,0xB32A,
0.341104208333333,0,0xBC15,
0.341120083333333,0,0xB2BD,
0.341128000000000,0,0xBD15,
0.341143833333333,0,0xB200,
0.341151750000000,0,0xBE15,
0.341167583333333,0,0xB200,
0.341175500000000,0,0xBF15,
0.341191333333333,0,0xB272,
0.341199250000000,0,0xC015,
0.341229708333333,0,0x000A,
0.341237416666667,0,0x4115,
0.341253666666667,0,0xC0C2,
0.341261625000000,0,0xC115,
0.341277458333333,0,0xC0C4,
0.341285375000000,0,0xC215,
0.341301208333333,0,0xC0C4,
0.341309125000000,0,0xC315,
0.341324958333333,0,0xC085,
0.341332875000000,0,0xC415,
0.341348708333333,0,0xC0A8,
0.341356625000000,0,0xC515,
0.341372458333333,0,0xDD15,
0.341380375000000,0,0xC615,
0.341396208333333,0,0x8047,
0.341404125000000,0,0xC715,
0.341419958333333,0,0xA3D2,
0.341427875000000,0,0xC815,
0.341443666666667,0,0x9E37,
0.341451625000000,0,0xC915,
0.341467458333333,0,0x9E3A,
0.341475375000000,0,0xCA15,
0.341506500000000,0,0x0004,
0.341514166666667,0,0x0329,
0.341530416666667,0,0x0A01,
0.341538291666667,0,0x8329,
0.341554000000000,0,0x0F00,
0.341561833333333,0,0x8429,
0.341577583333333,0,0x0000,
0.341585416666667,0,0x8525,
0.341601125000000,0,0x573F,
0.341609000000000,0,0x8629,
0.341639791666667,0,0x0001,
0.341647458333333,0,0x1D2D,
0.341663500000000,0,0x0055,
0.341671333333333,0,0x9D2D,
0.341698750000000,0,0x0003,
0.341706458333333,0,0x2421,
0.341722416666667,0,0x004C,
0.341730250000000,0,0xA425,
0.341745958333333,0,0x0040,
0.341753833333333,0,0xA525,
0.341769541666667,0,0x8000,
0.341777416666667,0,0xA625,
0.341807041666667,0,0x0005,
0.341814708333333,0,0x2D25,
0.341830916666667,0,0x16C3,
0.341838750000000,0,0xAD25,
0.341854458333333,0,0xFFEF,
0.341862333333333,0,0xAE25,
0.341878041666667,0,0xD7D1,
0.341885916666667,0,0xAF25,
0.341901625000000,0,0xFFFF,
0.341909458333333,0,0xB025,
0.341925208333333,0,0x830F,
0.341933041666667,0,0xB125,
0.341962958333333,0,0x0006,
0.341970625000000,0,0x3B29,
0.341986541666667,0,0xE51E,
0.341994416666667,0,0xBB25,
0.342010125000000,0,0x8002,
0.342018000000000,0,0xBC25,
0.342033708333333,0,0x8000,
0.342041541666667,0,0xBD25,
0.342057291666667,0,0x8001,
0.342065125000000,0,0xBE25,
0.342080833333333,0,0xE5B7,
0.342088666666667,0,0xBF25,
0.342104375000000,0,0xE5CC,
0.342112250000000,0,0xC025,
0.342142208333333,0,0x000A,
0.342149875000000,0,0x412D,
0.342166250000000,0,0xDB68,
0.342174125000000,0,0xC125,
0.342189833333333,0,0xDC72,
0.342197708333333,0,0xC225,
0.342213416666667,0,0xDF3C,
0.342221250000000,0,0xC325,
0.342236958333333,0,0xE122,
0.342244833333333,0,0xC425,
0.342260541666667,0,0xA97E,
0.342268416666667,0,0xC525,
0.342284125000000,0,0xFF4D,
0.342292000000000,0,0xC625,
0.342307708333333,0,0xC015,
0.342315541666667,0,0xC725,
0.342331291666667,0,0xA3B7,
0.342339125000000,0,0xC825,
0.342354833333333,0,0x9E39,
0.342362666666667,0,0xC925,
0.342378416666667,0,0x9E3B,
0.342386250000000,0,0xCA25,
0.349831875000000,0,0x6C3F,
0.349839583333333,0,0x0603,
0.349866958333333,0,0x0004,
0.349874625000000,0,0x0315,
0.349891083333333,0,0x0A01,
0.349898958333333,0,0x8315,
0.349914833333333,0,0x0F00,
0.349922750000000,0,0x8415,
0.349938583333333,0,0x0000,
0.349946500000000,0,0x8516,
0.349962333333333,0,0x6F3F,
0.349970250000000,0,0x8615,
0.350001666666667,0,0x0004,
0.350009375000000,0,0x0319,
0.350025708333333,0,0x0A01,
0.350033625000000,0,0x8319,
0.350049500000000,0,0x0F00,
0.350057416666667,0,0x8419,
0.350073250000000,0,0x0000,
0.350081166666667,0,0x8516,
0.350097000000000,0,0x6F3F,
0.350104958333333,0,0x8619,
0.350136125000000,0,0x0004,
0.350143791666667,0,0x031D,
0.350159875000000,0,0x0A01,
0.350167833333333,0,0x831D,
0.350183666666667,0,0x0F00,
0.350191583333333,0,0x841D,
0.350207416666667,0,0x0000,
0.350215333333333,0,0x8516,
0.350231166666667,0,0x6F3F,
0.350239125000000,0,0x861D,
0.350270125000000,0,0x0004,
0.350277833333333,0,0x0311,
0.350294041666667,0,0x0A01,
0.350301958333333,0,0x8311,
0.350317791666667,0,0x0F00,
0.350325708333333,0,0x8411,
0.350341541666667,0,0x0000,
0.350349458333333,0,0x8516,
0.350365333333333,0,0x6F3F,
0.350373208333333,0,0x8611,
0.350403625000000,0,0x0004,
0.350411291666667,0,0x0315,
0.350427625000000,0,0x0A01,
0.350435583333333,0,0x8315,
0.350451416666667,0,0x0F00,
0.350459333333333,0,0x8415,
0.350475166666667,0,0x0000,
0.350483083333333,0,0x8516,
0.350498916666667,0,0x673F,
0.350506833333333,0,0x8615,
0.350536958333333,0,0x0001,
0.350544625000000,0,0x1D19,
0.350560750000000,0,0x1551,
0.350568666666667,0,0x9D19,
0.350597375000000,0,0x0003,
0.350605041666667,0,0x241D,
0.350621125000000,0,0x0048,
0.350629041666667,0,0xA416,
0.350644875000000,0,0x0040,
0.350652791666667,0,0xA516,
0.350668625000000,0,0x8000,
0.350676541666667,0,0xA616,
0.350705583333333,0,0x0005,
0.350713291666667,0,0x2D11,
0.350729500000000,0,0x09C4,
0.350737416666667,0,0xAD16,
0.350753250000000,0,0xFFED,
0.350761166666667,0,0xAE16,
0.350777000000000,0,0x62AA,
0.350784916666667,0,0xAF16,
0.350800750000000,0,0x8000,
0.350808666666667,0,0xB016,
0.350824500000000,0,0x8300,
0.350832416666667,0,0xB116,
0.350862958333333,0,0x0006,
0.350870625000000,0,0x3B15,
0.350886833333333,0,0xB3E1,
0.350894750000000,0,0xBB16,
0.350910583333333,0,0xB32E,
0.350918500000000,0,0xBC16,
0.350934375000000,0,0xB2BE,
0.350942291666667,0,0xBD16,
0.350958125000000,0,0xB200,
0.350966041666667,0,0xBE16,
0.350981875000000,0,0xB202,
0.350989791666667,0,0xBF16,
0.351005625000000,0,0xB275,
0.351013541666667,0,0xC016,
0.351043958333333,0,0x000A,
0.351051625000000,0,0x4119,
0.351067958333333,0,0xC0C5,
0.351075875000000,0,0xC116,
0.351091708333333,0,0xC0C3,
0.351099625000000,0,0xC216,
0.351115458333333,0,0xC0C3,
0.351123375000000,0,0xC316,
0.351139208333333,0,0xC085,
0.351147125000000,0,0xC416,
0.351162958333333,0,0xC0AA,
0.351170875000000,0,0xC516,
0.351186750000000,0,0xDD18,
0.351194625000000,0,0xC616,
0.351210458333333,0,0x8043,
0.351218416666667,0,0xC716,
0.351234250000000,0,0xA3D6,
0.351242166666667,0,0xC816,
0.351258000000000,0,0x9E39,
0.351265916666667,0,0xC916,
0.351281750000000,0,0x9E3C,
0.351289666666667,0,0xCA16,
0.351321083333333,0,0x0004,
0.351328750000000,0,0x032D,
0.351344666666667,0,0x0A01,
0.351352541666667,0,0x832D,
0.351368250000000,0,0x0F00,
0.351376125000000,0,0x842D,
0.351391833333333,0,0x0000,
0.351399708333333,0,0x8526,
0.351415416666667,0,0x673F,
0.351423250000000,0,0x862D,
0.351453541666667,0,0x0001,
0.351461250000000,0,0x1D21,
0.351477250000000,0,0x0055,
0.351485125000000,0,0x9D21,
0.351512958333333,0,0x0003,
0.351520625000000,0,0x2425,
0.351536666666667,0,0x004C,
0.351544541666667,0,0xA426,
0.351560250000000,0,0x0040,
0.351568125000000,0,0xA526,
0.351583833333333,0,0x8000,
0.351591666666667,0,0xA626,
0.351620791666667,0,0x0005,
0.351628458333333,0,0x2D29,
0.351644708333333,0,0x17CA,
0.351652583333333,0,0xAD26,
0.351668250000000,0,0xFFEF,
0.351676125000000,0,0xAE26,
0.351691833333333,0,0xD54C,
0.351699708333333,0,0xAF26,
0.351715416666667,0,0xFFFE,
0.351723250000000,0,0xB026,
0.351738958333333,0,0x830F,
0.351746833333333,0,0xB126,
0.351776833333333,0,0x0006,
0.351784500000000,0,0x3B2D,
0.351800875000000,0,0xE518,
0.351808708333333,0,0xBB26,
0.351824416666667,0,0x8000,
0.351832291666667,0,0xBC26,
0.351848000000000,0,0x8001,
0.351855875000000,0,0xBD26,
0.351871583333333,0,0x8001,
0.351879416666667,0,0xBE26,
0.351895125000000,0,0xE5BB,
0.351903000000000,0,0xBF26,
0.351918708333333,0,0xE5D2,
0.351926583333333,0,0xC026,
0.351957000000000,0,0x000A,
0.351964666666667,0,0x4121,
0.351981083333333,0,0xDB6B,
0.351988916666667,0,0xC126,
0.352004666666667,0,0xDC70,
0.352012500000000,0,0xC226,
0.352028250000000,0,0xDF3D,
0.352036083333333,0,0xC326,
0.352051791666667,0,0xE11F,
0.352059625000000,0,0xC426,
0.352075375000000,0,0xA97C,
0.352083208333333,0,0xC526,
0.352098916666667,0,0xFF4B,
0.352106791666667,0,0xC626,
0.352122500000000,0,0xC013,
0.352130333333333,0,0xC726,
0.352146041666667,0,0xA3B7,
0.352153916666667,0,0xC826,
0.352169625000000,0,0x9E37,
0.352177500000000,0,0xC926,
0.352193208333333,0,0x9E42,
0.352201041666667,0,0xCA26,
0.359867833333333,0,0x7C3F,
0.359875541666667,0,0x0607,
0.359903333333333,0,0x0004,
0.359911041666667,0,0x0319,
0.359927083333333,0,0x0A01,
0.359935041666667,0,0x8319,
0.359950875000000,0,0x0F00,
0.359958791666667,0,0x8419,
0.359974625000000,0,0x0000,
0.359982541666667,0,0x8517,
0.359998375000000,0,0x7F3F,
0.360006291666667,0,0x8619,
0.360037291666667,0,0x0004,
0.360044958333333,0,0x031D,
0.360061208333333,0,0x0A01,
0.360069125000000,0,0x831D,
0.360085000000000,0,0x0F00,
0.360092875000000,0,0x841D,
0.360108750000000,0,0x0000,
0.360116666666667,0,0x8517,
0.360132500000000,0,0x7F3F,
0.360140416666667,0,0x861D,
0.360171291666667,0,0x0004,
0.360178958333333,0,0x0311,
0.360195375000000,0,0x0A01,
0.360203291666667,0,0x8311,
0.360219125000000,0,0x0F00,
0.360227041666667,0,0x8411,
0.360242875000000,0,0x0000,
0.360250791666667,0,0x8517,
0.360266625000000,0,0x7F3F,
0.360274541666667,0,0x8611,
0.360305916666667,0,0x0004,
0.360313583333333,0,0x0315,
0.360330000000000,0,0x0A01,
0.360337916666667,0,0x8315,
0.360353791666667,0,0x0F00,
0.360361666666667,0,0x8415,
0.360377541666667,0,0x0000,
0.360385458333333,0,0x8517,
0.360401291666667,0,0x7F3F,
0.360409250000000,0,0x8615,
0.360440666666667,0,0x0004,
0.360448333333333,0,0x0319,
0.360464625000000,0,0x0A01,
0.360472583333333,0,0x8319,
0.360488416666667,0,0x0F00,
0.360496333333333,0,0x8419,
0.360512166666667,0,0x0000,
0.360520041666667,0,0x8517,
0.360535916666667,0,0x773F,
0.360543833333333,0,0x8619,
0.360574083333333,0,0x0001,
0.360581750000000,0,0x1D1D,
0.360597750000000,0,0x1551,
0.360605666666667,0,0x9D1D,
0.360634541666667,0,0x0003,
0.360642208333333,0,0x2411,
0.360658625000000,0,0x0048,
0.360666541666667,0,0xA417,
0.360682375000000,0,0x0040,
0.360690291666667,0,0xA517,
0.360706125000000,0,0x8000,
0.360714041666667,0,0xA617,
0.360743416666667,0,0x0005,
0.360751125000000,0,0x2D15,
0.360767500000000,0,0x0ACF,
0.360775375000000,0,0xAD17,
0.360791250000000,0,0xFFED,
0.360799166666667,0,0xAE17,
0.360815000000000,0,0x6009,
0.360822916666667,0,0xAF17,
0.360838750000000,0,0x8000,
0.360846666666667,0,0xB017,
0.360862500000000,0,0x8302,
0.360870416666667,0,0xB117,
0.360900833333333,0,0x0006,
0.360908500000000,0,0x3B19,
0.360924833333333,0,0xB3E1,
0.360932791666667,0,0xBB17,
0.360948625000000,0,0xB32D,
0.360956541666667,0,0xBC17,
0.360972375000000,0,0xB2BB,
0.360980291666667,0,0xBD17,
0.360996125000000,0,0xB1FE,
0.361004041666667,0,0xBE17,
0.361019875000000,0,0xB203,
0.361027791666667,0,0xBF17,
0.361043625000000,0,0xB273,
0.361051583333333,0,0xC017,
0.361081791666667,0,0x000A,
0.361089500000000,0,0x411D,
0.361105500000000,0,0xC0C9,
0.361113416666667,0,0xC117,
0.361129250000000,0,0xC0C9,
0.361137208333333,0,0xC217,
0.361153041666667,0,0xC0CA,
0.361160958333333,0,0xC317,
0.361176791666667,0,0xC08B,
0.361184708333333,0,0xC417,
0.361200541666667,0,0xC0AF,
0.361208458333333,0,0xC517,
0.361224291666667,0,0xDD16,
0.361232208333333,0,0xC617,
0.361248041666667,0,0x8047,
0.361255958333333,0,0xC717,
0.361271791666667,0,0xA3D4,
0.361279708333333,0,0xC817,
0.361295541666667,0,0x9E3C,
0.361303458333333,0,0xC917,
0.361319333333333,0,0x9E3D,
0.361327208333333,0,0xCA17,
0.361359458333333,0,0x0004,
0.361367125000000,0,0x0321,
0.361383458333333,0,0x0A01,
0.361391291666667,0,0x8321,
0.361407000000000,0,0x0F00,
0.361414875000000,0,0x8421,
0.361430583333333,0,0x0000,
0.361438416666667,0,0x8527,
0.361454166666667,0,0x773F,
0.361462000000000,0,0x8621,
0.361492125000000,0,0x0001,
0.361499833333333,0,0x1D25,
0.361516000000000,0,0x0055,
0.361523875000000,0,0x9D25,
0.361551750000000,0,0x0003,
0.361559416666667,0,0x2429,
0.361575416666667,0,0x004C,
0.361583250000000,0,0xA427,
0.361599000000000,0,0x0040,
0.361606833333333,0,0xA527,
0.361622541666667,0,0x8000,
0.361630416666667,0,0xA627,
0.361658750000000,0,0x0005,
0.361666458333333,0,0x2D2D,
0.361682458333333,0,0x18D7,
0.361690291666667,0,0xAD27,
0.361706041666667,0,0xFFEF,
0.361713875000000,0,0xAE27,
0.361729625000000,0,0xD33A,
0.361737458333333,0,0xAF27,
0.361753166666667,0,0xFFFF,
0.361761041666667,0,0xB027,
0.361776750000000,0,0x830D,
0.361784625000000,0,0xB127,
0.361813958333333,0,0x0006,
0.361821625000000,0,0x3B21,
0.361837625000000,0,0xE517,
0.361845500000000,0,0xBB27,
0.361861208333333,0,0x8000,
0.361869041666667,0,0xBC27,
0.361884791666667,0,0x8000,
0.361892625000000,0,0xBD27,
0.361908333333333,0,0x8001,
0.361916208333333,0,0xBE27,
0.361931916666667,0,0xE5BC,
0.361939791666667,0,0xBF27,
0.361955500000000,0,0xE5D5,
0.361963333333333,0,0xC027,
0.361993000000000,0,0x000A,
0.362000708333333,0,0x4125,
0.362016875000000,0,0xDB6C,
0.362024708333333,0,0xC127,
0.362040416666667,0,0xDC70,
0.362048291666667,0,0xC227,
0.362064000000000,0,0xDF43,
0.362071833333333,0,0xC327,
0.362087583333333,0,0xE123,
0.362095416666667,0,0xC427,
0.362111125000000,0,0xA97D,
0.362119000000000,0,0xC527,
0.362134708333333,0,0xFF4B,
0.362142541666667,0,0xC627,
0.362158250000000,0,0xC013,
0.362166125000000,0,0xC727,
0.362181833333333,0,0xA3B7,
0.362189708333333,0,0xC827,
0.362205416666667,0,0x9E3B,
0.362213250000000,0,0xC927,
0.362229000000000,0,0x9E40,
0.362236833333333,0,0xCA27,
0.369860458333333,0,0x8C3F,
0.369868125000000,0,0x060B,
0.369895583333333,0,0x0004,
0.369903291666667,0,0x031D,
0.369919666666667,0,0x0A01,
0.369927583333333,0,0x831D,
0.369943416666667,0,0x0F00,
0.369951333333333,0,0x841D,
0.369967208333333,0,0x0000,
0.369975125000000,0,0x8518,
0.369990958333333,0,0x8F3F,
0.369998875000000,0,0x861D,
0.370029125000000,0,0x0004,
0.370036791666667,0,0x0311,
0.370052833333333,0,0x0A01,
0.370060750000000,0,0x8311,
0.370076583333333,0,0x0F00,
0.370084500000000,0,0x8411,
0.370100333333333,0,0x0000,
0.370108250000000,0,0x8518,
0.370124083333333,0,0x8F3F,
0.370132000000000,0,0x8611,
0.370162458333333,0,0x0004,
0.370170166666667,0,0x0315,
0.370186458333333,0,0x0A01,
0.370194375000000,0,0x8315,
0.370210208333333,0,0x0F00,
0.370218125000000,0,0x8415,
0.370233958333333,0,0x0000,
0.370241875000000,0,0x8518,
0.370257750000000,0,0x8F3F,
0.370265625000000,0,0x8615,
0.370296666666667,0,0x0004,
0.370304375000000,0,0x0319,
0.370320583333333,0,0x0A01,
0.370328500000000,0,0x8319,
0.370344333333333,0,0x0F00,
0.370352250000000,0,0x8419,
0.370368125000000,0,0x0000,
0.370376041666667,0,0x8518,
0.370391875000000,0,0x8F3F,
0.370399791666667,0,0x8619,
0.370430041666667,0,0x0004,
0.370437708333333,0,0x031D,
0.370453750000000,0,0x0A01,
0.370461666666667,0,0x831D,
0.370477500000000,0,0x0F00,
0.370485416666667,0,0x841D,
0.370501250000000,0,0x0000,
0.370509166666667,0,0x8518,
0.370525000000000,0,0x873F,
0.370532916666667,0,0x861D,
0.370563958333333,0,0x0001,
0.370571625000000,0,0x1D11,
0.370587833333333,0,0x1551,
0.370595791666667,0,0x9D11,
0.370623875000000,0,0x0003,
0.370631583333333,0,0x2415,
0.370647750000000,0,0x0048,
0.370655666666667,0,0xA418,
0.370671500000000,0,0x0040,
0.370679416666667,0,0xA518,
0.370695250000000,0,0x8000,
0.370703166666667,0,0xA618,
0.370731708333333,0,0x0005,
0.370739416666667,0,0x2D19,
0.370755666666667,0,0x0BD9,
0.370763583333333,0,0xAD18,
0.370779416666667,0,0xFFED,
0.370787333333333,0,0xAE18,
0.370803166666667,0,0x5CF0,
0.370811083333333,0,0xAF18,
0.370826916666667,0,0x8000,
0.370834875000000,0,0xB018,
0.370850708333333,0,0x8302,
0.370858583333333,0,0xB118,
0.370888375000000,0,0x0006,
0.370896041666667,0,0x3B1D,
0.370912083333333,0,0xB3DF,
0.370919958333333,0,0xBB18,
0.370935833333333,0,0xB324,
0.370943750000000,0,0xBC18,
0.370959583333333,0,0xB2BC,
0.370967500000000,0,0xBD18,
0.370983333333333,0,0xB1FF,
0.370991250000000,0,0xBE18,
0.371007083333333,0,0xB1FF,
0.371015000000000,0,0xBF18,
0.371030833333333,0,0xB272,
0.371038750000000,0,0xC018,
0.371068791666667,0,0x000A,
0.371076500000000,0,0x4111,
0.371092666666667,0,0xC0C1,
0.371100625000000,0,0xC118,
0.371116458333333,0,0xC0C6,
0.371124333333333,0,0xC218,
0.371140208333333,0,0xC0C4,
0.371148125000000,0,0xC318,
0.371163958333333,0,0xC084,
0.371171875000000,0,0xC418,
0.371187708333333,0,0xC0A9,
0.371195625000000,0,0xC518,
0.371211458333333,0,0xDD16,
0.371219375000000,0,0xC618,
0.371235208333333,0,0x8049,
0.371243125000000,0,0xC718,
0.371258958333333,0,0xA3D4,
0.371266875000000,0,0xC818,
0.371282708333333,0,0x9E37,
0.371290625000000,0,0xC918,
0.371306458333333,0,0x9E3C,
0.371314375000000,0,0xCA18,
0.371347000000000,0,0x0004,
0.371354708333333,0,0x0325,
0.371370750000000,0,0x0A01,
0.371378583333333,0,0x8325,
0.371394291666667,0,0x0F00,
0.371402166666667,0,0x8425,
0.371417875000000,0,0x0000,
0.371425708333333,0,0x8528,
0.371441416666667,0,0x873F,
0.371449291666667,0,0x8625,
0.371479791666667,0,0x0001,
0.371487458333333,0,0x1D29,
0.371503791666667,0,0x0055,
0.371511666666667,0,0x9D29,
0.371539291666667,0,0x0003,
0.371546958333333,0,0x242D,
0.371563208333333,0,0x004C,
0.371571041666667,0,0xA428,
0.371586750000000,0,0x0040,
0.371594625000000,0,0xA528,
0.371610333333333,0,0x8000,
0.371618166666667,0,0xA628,
0.371647458333333,0,0x0005,
0.371655125000000,0,0x2D21,
0.371671208333333,0,0x19E3,
0.371679083333333,0,0xAD28,
0.371694791666667,0,0xFFEF,
0.371702625000000,0,0xAE28,
0.371718375000000,0,0xD101,
0.371726208333333,0,0xAF28,
0.371741916666667,0,0xFFFF,
0.371749791666667,0,0xB028,
0.371765500000000,0,0x830D,
0.371773375000000,0,0xB128,
0.371804500000000,0,0x0006,
0.371812166666667,0,0x3B25,
0.371828375000000,0,0xE517,
0.371836250000000,0,0xBB28,
0.371851958333333,0,0x8001,
0.371859833333333,0,0xBC28,
0.371875541666667,0,0x8005,
0.371883375000000,0,0xBD28,
0.371899083333333,0,0x8004,
0.371906958333333,0,0xBE28,
0.371922666666667,0,0xE5BD,
0.371930541666667,0,0xBF28,
0.371946208333333,0,0xE5D3,
0.371954083333333,0,0xC028,
0.371984916666667,0,0x000A,
0.371992583333333,0,0x4129,
0.372008583333333,0,0xDB68,
0.372016416666667,0,0xC128,
0.372032125000000,0,0xDC70,
0.372040000000000,0,0xC228,
0.372055708333333,0,0xDF3A,
0.372063541666667,0,0xC328,
0.372079291666667,0,0xE121,
0.372087166666667,0,0xC428,
0.372102875000000,0,0xA97A,
0.372110708333333,0,0xC528,
0.372126416666667,0,0xFF49,
0.372134291666667,0,0xC628,
0.372150000000000,0,0xC015,
0.372157875000000,0,0xC728,
0.372173583333333,0,0xA3B8,
0.372181416666667,0,0xC828,
0.372197125000000,0,0x9E38,
0.372205000000000,0,0xC928,
0.372220708333333,0,0x9E3F,
0.372228583333333,0,0xCA28,
0.379877375000000,0,0x9C3F,
0.379885041666667,0,0x060F,
0.379912583333333,0,0x0004,
0.379920250000000,0,0x0311,
0.379936583333333,0,0x0A01,
0.379944500000000,0,0x8311,
0.379960333333333,0,0x0F00,
0.379968250000000,0,0x8411,
0.379984083333333,0,0x0000,
0.379992000000000,0,0x8519,
0.380007833333333,0,0x9F3F,
0.380015750000000,0,0x8611,
0.380047000000000,0,0x0004,
0.380054708333333,0,0x0315,
0.380071166666667,0,0x0A01,
0.380079083333333,0,0x8315,
0.380094916666667,0,0x0F00,
0.380102875000000,0,0x8415,
0.380118666666667,0,0x0000,
0.380126625000000,0,0x8519,
0.380142458333333,0,0x9F3F,
0.380150375000000,0,0x8615,
0.380180791666667,0,0x0004,
0.380188458333333,0,0x0319,
0.380204833333333,0,0x0A01,
0.380212750000000,0,0x8319,
0.380228583333333,0,0x0F00,
0.380236500000000,0,0x8419,
0.380252333333333,0,0x0000,
0.380260250000000,0,0x8519,
0.380276083333333,0,0x9F3F,
0.380284000000000,0,0x8619,
0.380315958333333,0,0x0004,
0.380323625000000,0,0x031D,
0.380339916666667,0,0x0A01,
0.380347833333333,0,0x831D,
0.380363666666667,0,0x0F00,
0.380371625000000,0,0x841D,
0.380387458333333,0,0x0000,
0.380395375000000,0,0x8519,
0.380411208333333,0,0x9F3F,
0.380419125000000,0,0x861D,
0.380450291666667,0,0x0004,
0.380457958333333,0,0x0311,
0.380474041666667,0,0x0A01,
0.380481958333333,0,0x8311,
0.380497791666667,0,0x0F00,
0.380505708333333,0,0x8411,
0.380521541666667,0,0x0000,
0.380529458333333,0,0x8519,
0.380545291666667,0,0x973F,
0.380553208333333,0,0x8611,
0.380583083333333,0,0x0001,
0.380590750000000,0,0x1D15,
0.380607125000000,0,0x1551,
0.380615041666667,0,0x9D15,
0.380643666666667,0,0x0003,
0.380651375000000,0,0x2419,
0.380667500000000,0,0x0048,
0.380675416666667,0,0xA419,
0.380691250000000,0,0x0040,
0.380699166666667,0,0xA519,
0.380715000000000,0,0x8000,
0.380722916666667,0,0xA619,
0.380751625000000,0,0x0005,
0.380759333333333,0,0x2D1D,
0.380775375000000,0,0x0CE3,
0.380783291666667,0,0xAD19,
0.380799125000000,0,0xFFED,
0.380807000000000,0,0xAE19,
0.380822833333333,0,0x5A74,
0.380830750000000,0,0xAF19,
0.380846625000000,0,0xFFFF,
0.380854541666667,0,0xB019,
0.380870375000000,0,0x8308,
0.380878291666667,0,0xB119,
0.380909208333333,0,0x0006,
0.380916875000000,0,0x3B11,
0.380933208333333,0,0xB3E3,
0.380941166666667,0,0xBB19,
0.380957000000000,0,0xB32A,
0.380964916666667,0,0xBC19,
0.380980750000000,0,0xB2BC,
0.380988666666667,0,0xBD19,
0.381004500000000,0,0xB200,
0.381012416666667,0,0xBE19,
0.381028250000000,0,0xB1FC,
0.381036166666667,0,0xBF19,
0.381052000000000,0,0xB26D,
0.381059916666667,0,0xC019,
0.381090125000000,0,0x000A,
0.381097791666667,0,0x4115,
0.381113875000000,0,0xC0C1,
0.381121791666667,0,0xC119,
0.381137625000000,0,0xC0C4,
0.381145541666667,0,0xC219,
0.381161375000000,0,0xC0C5,
0.381169291666667,0,0xC319,
0.381185125000000,0,0xC086,
0.381193041666667,0,0xC419,
0.381208916666667,0,0xC0AB,
0.381216791666667,0,0xC519,
0.381232666666667,0,0xDD18,
0.381240583333333,0,0xC619,
0.381256416666667,0,0x8045,
0.381264333333333,0,0xC719,
0.381280166666667,0,0xA3D5,
0.381288083333333,0,0xC819,
0.381303916666667,0,0x9E39,
0.381311875000000,0,0xC919,
0.381327666666667,0,0x9E3A,
0.381335583333333,0,0xCA19,
0.381367958333333,0,0x0004,
0.381375625000000,0,0x0329,
0.381391583333333,0,0x0A01,
0.381399458333333,0,0x8329,
0.381415166666667,0,0x0F00,
0.381423000000000,0,0x8429,
0.381438708333333,0,0x0000,
0.381446583333333,0,0x8529,
0.381462333333333,0,0x973F,
0.381470166666667,0,0x8629,
0.381500333333333,0,0x0001,
0.381508000000000,0,0x1D2D,
0.381524166666667,0,0x0055,
0.381532041666667,0,0x9D2D,
0.381559666666667,0,0x0003,
0.381567375000000,0,0x2421,
0.381583625000000,0,0x004C,
0.381591458333333,0,0xA429,
0.381607166666667,0,0x0040,
0.381615000000000,0,0xA529,
0.381630708333333,0,0x8000,
0.381638583333333,0,0xA629,
0.381667625000000,0,0x0005,
0.381675291666667,0,0x2D25,
0.381691625000000,0,0x1AF0,
0.381699500000000,0,0xAD29,
0.381715208333333,0,0xFFEF,
0.381723041666667,0,0xAE29,
0.381738791666667,0,0xCE1B,
0.381746625000000,0,0xAF29,
0.381762333333333,0,0xFFFF,
0.381770208333333,0,0xB029,
0.381785916666667,0,0x830B,
0.381793791666667,0,0xB129,
0.381824958333333,0,0x0006,
0.381832625000000,0,0x3B29,
0.381848750000000,0,0xE51C,
0.381856625000000,0,0xBB29,
0.381872333333333,0,0x8000,
0.381880166666667,0,0xBC29,
0.381895916666667,0,0x8000,
0.381903750000000,0,0xBD29,
0.381919500000000,0,0x8000,
0.381927333333333,0,0xBE29,
0.381943041666667,0,0xE5BC,
0.381950916666667,0,0xBF29,
0.381966625000000,0,0xE5D5,
0.381974458333333,0,0xC029,
0.382003958333333,0,0x000A,
0.382011666666667,0,0x412D,
0.382028000000000,0,0xDB66,
0.382035833333333,0,0xC129,
0.382051541666667,0,0xDC71,
0.382059416666667,0,0xC229,
0.382075125000000,0,0xDF40,
0.382083000000000,0,0xC329,
0.382098708333333,0,0xE123,
0.382106541666667,0,0xC429,
0.382122250000000,0,0xA97E,
0.382130125000000,0,0xC529,
0.382145833333333,0,0xFF4C,
0.382153708333333,0,0xC629,
0.382169416666667,0,0xC016,
0.382177250000000,0,0xC729,
0.382192958333333,0,0xA3B8,
0.382200833333333,0,0xC829,
0.382216541666667,0,0x9E3B,
0.382224375000000,0,0xC929,
0.382240125000000,0,0x9E3B,
0.382247958333333,0,0xCA29,
0.389876541666667,0,0xAC3F,
0.389884208333333,0,0x0603,
0.389911916666667,0,0x0004,
0.389919625000000,0,0x0315,
0.389935958333333,0,0x0A01,
0.389943875000000,0,0x8315,
0.389959708333333,0,0x0F00,
0.389967625000000,0,0x8415,
0.389983458333333,0,0x0000,
0.389991416666667,0,0x851A,
0.390007250000000,0,0xAF3F,
0.390015166666667,0,0x8615,
0.390046375000000,0,0x0004,
0.390054041666667,0,0x0319,
0.390070083333333,0,0x0A01,
0.390078000000000,0,0x8319,
0.390093833333333,0,0x0F00,
0.390101791666667,0,0x8419,
0.390117625000000,0,0x0000,
0.390125541666667,0,0x851A,
0.390141375000000,0,0xAF3F,
0.390149291666667,0,0x8619,
0.390180000000000,0,0x0004,
0.390187666666667,0,0x031D,
0.390203750000000,0,0x0A01,
0.390211666666667,0,0x831D,
0.390227500000000,0,0x0F00,
0.390235416666667,0,0x841D,
0.390251250000000,0,0x0000,
0.390259166666667,0,0x851A,
0.390275041666667,0,0xAF3F,
0.390282958333333,0,0x861D,
0.390314000000000,0,0x0004,
0.390321708333333,0,0x0311,
0.390337875000000,0,0x0A01,
0.390345833333333,0,0x8311,
0.390361625000000,0,0x0F00,
0.390369583333333,0,0x8411,
0.390385416666667,0,0x0000,
0.390393333333333,0,0x851A,
0.390409166666667,0,0xAF3F,
0.390417083333333,0,0x8611,
0.390447708333333,0,0x0004,
0.390455375000000,0,0x0315,
0.390471500000000,0,0x0A01,
0.390479416666667,0,0x8315,
0.390495250000000,0,0x0F00,
0.390503166666667,0,0x8415,
0.390519000000000,0,0x0000,
0.390526916666667,0,0x851A,
0.390542750000000,0,0xA73F,
0.390550666666667,0,0x8615,
0.390581291666667,0,0x0001,
0.390588958333333,0,0x1D19,
0.390605083333333,0,0x1551,
0.390613041666667,0,0x9D19,
0.390640791666667,0,0x0003,
0.390648458333333,0,0x241D,
0.390664458333333,0,0x0048,
0.390672375000000,0,0xA41A,
0.390688208333333,0,0x0040,
0.390696125000000,0,0xA51A,
0.390711958333333,0,0x8000,
0.390719875000000,0,0xA61A,
0.390749000000000,0,0x0005,
0.390756708333333,0,0x2D11,
0.390772791666667,0,0x0DED,
0.390780708333333,0,0xAD1A,
0.390796541666667,0,0xFFED,
0.390804458333333,0,0xAE1A,
0.390820291666667,0,0x58A5,
0.390828208333333,0,0xAF1A,
0.390844041666667,0,0xFFFF,
0.390851958333333,0,0xB01A,
0.390867791666667,0,0x830F,
0.390875708333333,0,0xB11A,
0.390905416666667,0,0x0006,
0.390913125000000,0,0x3B15,
0.390929125000000,0,0xB3E3,
0.390937083333333,0,0xBB1A,
0.390952875000000,0,0xB32E,
0.390960791666667,0,0xBC1A,
0.390976625000000,0,0xB2BB,
0.390984541666667,0,0xBD1A,
0.391000416666667,0,0xB200,
0.391008333333333,0,0xBE1A,
0.391024166666667,0,0xB201,
0.391032041666667,0,0xBF1A,
0.391047916666667,0,0xB273,
0.391055833333333,0,0xC01A,
0.391085750000000,0,0x000A,
0.391093416666667,0,0x4119,
0.391109750000000,0,0xC0C6,
0.391117666666667,0,0xC11A,
0.391133500000000,0,0xC0C5,
0.391141416666667,0,0xC21A,
0.391157250000000,0,0xC0C7,
0.391165166666667,0,0xC31A,
0.391181000000000,0,0xC087,
0.391188916666667,0,0xC41A,
0.391204750000000,0,0xC0A8,
0.391212666666667,0,0xC51A,
0.391228500000000,0,0xDD18,
0.391236416666667,0,0xC61A,
0.391252250000000,0,0x8046,
0.391260166666667,0,0xC71A,
0.391276000000000,0,0xA3D4,
0.391283916666667,0,0xC81A,
0.391299750000000,0,0x9E38,
0.391307666666667,0,0xC91A,
0.391323500000000,0,0x9E3D,
0.391331458333333,0,0xCA1A,
0.391364250000000,0,0x0004,
0.391371958333333,0,0x032D,
0.391388291666667,0,0x0A01,
0.391396166666667,0,0x832D,
0.391411875000000,0,0x0F00,
0.391419750000000,0,0x842D,
0.391435416666667,0,0x0000,
0.391443291666667,0,0x852A,
0.391459000000000,0,0xA73F,
0.391466875000000,0,0x862D,
0.391496916666667,0,0x0001,
0.391504625000000,0,0x1D21,
0.391520875000000,0,0x0055,
0.391528750000000,0,0x9D21,
0.391557375000000,0,0x0003,
0.391565083333333,0,0x2425,
0.391581250000000,0,0x004C,
0.391589125000000,0,0xA42A,
0.391604833333333,0,0x0040,
0.391612708333333,0,0xA52A,
0.391628416666667,0,0x8000,
0.391636250000000,0,0xA62A,
0.391665250000000,0,0x0005,
0.391672916666667,0,0x2D29,
0.391689291666667,0,0x1BFC,
0.391697166666667,0,0xAD2A,
0.391712875000000,0,0xFFEF,
0.391720708333333,0,0xAE2A,
0.391736458333333,0,0xCAEB,
0.391744291666667,0,0xAF2A,
0.391760000000000,0,0x8000,
0.391767875000000,0,0xB02A,
0.391783583333333,0,0x8302,
0.391791458333333,0,0xB12A,
0.391822125000000,0,0x0006,
0.391829791666667,0,0x3B2D,
0.391845958333333,0,0xE51A,
0.391853833333333,0,0xBB2A,
0.391869541666667,0,0x8000,
0.391877375000000,0,0xBC2A,
0.391893083333333,0,0x8000,
0.391900958333333,0,0xBD2A,
0.391916666666667,0,0x8000,
0.391924500000000,0,0xBE2A,
0.391940250000000,0,0xE5BE,
0.391948083333333,0,0xBF2A,
0.391963791666667,0,0xE5D7,
0.391971666666667,0,0xC02A,
0.392001375000000,0,0x000A,
0.392009083333333,0,0x4121,
0.392025166666667,0,0xDB67,
0.392033041666667,0,0xC12A,
0.392048750000000,0,0xDC72,
0.392056583333333,0,0xC22A,
0.392072291666667,0,0xDF44,
0.392080166666667,0,0xC32A,
0.392095875000000,0,0xE125,
0.392103708333333,0,0xC42A,
0.392119458333333,0,0xA97E,
0.392127291666667,0,0xC52A,
0.392143000000000,0,0xFF49,
0.392150875000000,0,0xC62A,
0.392166583333333,0,0xC016,
0.392174458333333,0,0xC72A,
0.392190166666667,0,0xA3B9,
0.392198000000000,0,0xC82A,
0.392213708333333,0,0x9E3B,
0.392221583333333,0,0xC92A,
0.392237291666667,0,0x9E3E,
0.392245166666667,0,0xCA2A,
0.400130208333333,0,0xBC3F,
0.400137875000000,0,0x0607,
0.400166250000000,0,0x0004,
0.400173916666667,0,0x0319,
0.400190166666667,0,0x0A01,
0.400198083333333,0,0x8319,
0.400213916666667,0,0x0F00,
0.400221875000000,0,0x8419,
0.400237708333333,0,0x0000,
0.400245625000000,0,0x851B,
0.400261458333333,0,0xBF3F,
0.400269375000000,0,0x8619,
0.400301583333333,0,0x0004,
0.400309250000000,0,0x031D,
0.400325291666667,0,0x0A01,
0.400333208333333,0,0x831D,
0.400349083333333,0,0x0F00,
0.400357000000000,0,0x841D,
0.400372833333333,0,0x0000,
0.400380750000000,0,0x851B,
0.400396583333333,0,0xBF3F,
0.400404500000000,0,0x861D,
0.400435916666667,0,0x0004,
0.400443583333333,0,0x0311,
0.400459958333333,0,0x0A01,
0.400467875000000,0,0x8311,
0.400483708333333,0,0x0F00,
0.400491625000000,0,0x8411,
0.400507458333333,0,0x0000,
0.400515375000000,0,0x851B,
0.400531208333333,0,0xBF3F,
0.400539125000000,0,0x8611,
0.400569333333333,0,0x0004,
0.400577041666667,0,0x0315,
0.400593041666667,0,0x0A01,
0.400600958333333,0,0x8315,
0.400616791666667,0,0x0F00,
0.400624708333333,0,0x8415,
0.400640541666667,0,0x0000,
0.400648458333333,0,0x851B,
0.400664291666667,0,0xBF3F,
0.400672250000000,0,0x8615,
0.400702333333333,0,0x0004,
0.400710000000000,0,0x0319,
0.400726125000000,0,0x0A01,
0.400734083333333,0,0x8319,
0.400749916666667,0,0x0F00,
0.400757833333333,0,0x8419,
0.400773666666667,0,0x0000,
0.400781583333333,0,0x851B,
0.400797416666667,0,0xB73F,
0.400805333333333,0,0x8619,
0.400836208333333,0,0x0001,
0.400843916666667,0,0x1D1D,
0.400860250000000,0,0x1551,
0.400868166666667,0,0x9D1D,
0.400896375000000,0,0x0003,
0.400904083333333,0,0x2411,
0.400920083333333,0,0x0048,
0.400928000000000,0,0xA41B,
0.400943833333333,0,0x0040,
0.400951750000000,0,0xA51B,
0.400967583333333,0,0x8000,
0.400975500000000,0,0xA61B,
0.401005041666667,0,0x0005,
0.401012708333333,0,0x2D15,
0.401028958333333,0,0x0EFE,
0.401036833333333,0,0xAD1B,
0.401052666666667,0,0xFFED,
0.401060583333333,0,0xAE1B,
0.401076416666667,0,0x55E4,
0.401084333333333,0,0xAF1B,
0.401100166666667,0,0x8000,
0.401108083333333,0,0xB01B,
0.401123916666667,0,0x8300,
0.401131833333333,0,0xB11B,
0.401162083333333,0,0x0006,
0.401169750000000,0,0x3B19,
0.401185750000000,0,0xB3E5,
0.401193666666667,0,0xBB1B,
0.401209500000000,0,0xB32C,
0.401217416666667,0,0xBC1B,
0.401233250000000,0,0xB2C1,
0.401241166666667,0,0xBD1B,
0.401257000000000,0,0xB203,
0.401264916666667,0,0xBE1B,
0.401280750000000,0,0xB1FE,
0.401288666666667,0,0xBF1B,
0.401304500000000,0,0xB270,
0.401312416666667,0,0xC01B,
0.401342958333333,0,0x000A,
0.401350625000000,0,0x411D,
0.401366833333333,0,0xC0C4,
0.401374750000000,0,0xC11B,
0.401390583333333,0,0xC0C6,
0.401398500000000,0,0xC21B,
0.401414333333333,0,0xC0C4,
0.401422250000000,0,0xC31B,
0.401438083333333,0,0xC084,
0.401446000000000,0,0xC41B,
0.401461833333333,0,0xC0A7,
0.401469750000000,0,0xC51B,
0.401485583333333,0,0xDD17,
0.401493500000000,0,0xC61B,
0.401509375000000,0,0x8046,
0.401517291666667,0,0xC71B,
0.401533125000000,0,0xA3D5,
0.401541041666667,0,0xC81B,
0.401556875000000,0,0x9E37,
0.401564791666667,0,0xC91B,
0.401580625000000,0,0x9E3C,
0.401588583333333,0,0xCA1B,
0.401620583333333,0,0x0004,
0.401628250000000,0,0x0321,
0.401644333333333,0,0x0A01,
0.401652208333333,0,0x8321,
0.401667916666667,0,0x0F00,
0.401675750000000,0,0x8421,
0.401691458333333,0,0x0000,
0.401699333333333,0,0x852B,
0.401715041666667,0,0xB73F,
0.401722875000000,0,0x8621,
0.401753333333333,0,0x0001,
0.401761041666667,0,0x1D25,
0.401777416666667,0,0x0055,
0.401785250000000,0,0x9D25,
0.401814083333333,0,0x0003,
0.401821750000000,0,0x2429,
0.401837791666667,0,0x004C,
0.401845666666667,0,0xA42B,
0.401861375000000,0,0x0040,
0.401869250000000,0,0xA52B,
0.401884916666667,0,0x8000,
0.401892791666667,0,0xA62B,
0.401921833333333,0,0x0005,
0.401929500000000,0,0x2D2D,
0.401945833333333,0,0x1D0E,
0.401953666666667,0,0xAD2B,
0.401969375000000,0,0xFFEF,
0.401977250000000,0,0xAE2B,
0.401992958333333,0,0xC817,
0.402000791666667,0,0xAF2B,
0.402016541666667,0,0x8000,
0.402024375000000,0,0xB02B,
0.402040083333333,0,0x8300,
0.402047958333333,0,0xB12B,
0.402077250000000,0,0x0006,
0.402084916666667,0,0x3B21,
0.402100958333333,0,0xE521,
0.402108833333333,0,0xBB2B,
0.402124541666667,0,0x8003,
0.402132375000000,0,0xBC2B,
0.402148125000000,0,0x8000,
0.402155958333333,0,0xBD2B,
0.402171666666667,0,0x8004,
0.402179541666667,0,0xBE2B,
0.402195250000000,0,0xE5BC,
0.402203083333333,0,0xBF2B,
0.402218833333333,0,0xE5D7,
0.402226666666667,0,0xC02B,
0.402256833333333,0,0x000A,
0.402264541666667,0,0x4125,
0.402280666666667,0,0xDB69,
0.402288541666667,0,0xC12B,
0.402304250000000,0,0xDC71,
0.402312125000000,0,0xC22B,
0.402327833333333,0,0xDF3C,
0.402335708333333,0,0xC32B,
0.402351416666667,0,0xE121,
0.402359291666667,0,0xC42B,
0.402374958333333,0,0xA97B,
0.402382833333333,0,0xC52B,
0.402398541666667,0,0xFF4B,
0.402406416666667,0,0xC62B,
0.402422125000000,0,0xC011,
0.402429958333333,0,0xC72B,
0.402445666666667,0,0xA3B8,
0.402453541666667,0,0xC82B,
0.402469250000000,0,0x9E38,
0.402477083333333,0,0xC92B,
0.402492791666667,0,0x9E3F,
0.402500666666667,0,0xCA2B,
0.409874083333333,0,0xCC3F,
0.409881750000000,0,0x060B,
0.409909541666667,0,0x0004,
0.409917208333333,0,0x031D,
0.409933416666667,0,0x0A01,
0.409941375000000,0,0x831D,
0.409957208333333,0,0x0F00,
0.409965125000000,0,0x841D,
0.409980958333333,0,0x0000,
0.409988875000000,0,0x851C,
0.410004708333333,0,0xCF3F,
0.410012625000000,0,0x861D,
0.410043625000000,0,0x0004,
0.410051291666667,0,0x0311,
0.410067583333333,0,0x0A01,
0.410075500000000,0,0x8311,
0.410091333333333,0,0x0F00,
0.410099250000000,0,0x8411,
0.410115083333333,0,0x0000,
0.410123000000000,0,0x851C,
0.410138875000000,0,0xCF3F,
0.410146791666667,0,0x8611,
0.410177666666667,0,0x0004,
0.410185375000000,0,0x0315,
0.410201750000000,0,0x0A01,
0.410209666666667,0,0x8315,
0.410225500000000,0,0x0F00,
0.410233416666667,0,0x8415,
0.410249250000000,0,0x0000,
0.410257166666667,0,0x851C,
0.410273000000000,0,0xCF3F,
0.410280916666667,0,0x8615,
0.410312666666667,0,0x0004,
0.410320333333333,0,0x0319,
0.410336375000000,0,0x0A01,
0.410344291666667,0,0x8319,
0.410360125000000,0,0x0F00,
0.410368041666667,0,0x8419,
0.410383916666667,0,0x0000,
0.410391833333333,0,0x851C,
0.410407666666667,0,0xCF3F,
0.410415583333333,0,0x8619,
0.410446291666667,0,0x0004,
0.410453958333333,0,0x031D,
0.410470041666667,0,0x0A01,
0.410477958333333,0,0x831D,
0.410493791666667,0,0x0F00,
0.410501708333333,0,0x841D,
0.410517541666667,0,0x0000,
0.410525500000000,0,0x851C,
0.410541333333333,0,0xC73F,
0.410549250000000,0,0x861D,
0.410580375000000,0,0x0001,
0.410588041666667,0,0x1D11,
0.410604166666667,0,0x1551,
0.410612083333333,0,0x9D11,
0.410640750000000,0,0x0003,
0.410648416666667,0,0x2415,
0.410664541666667,0,0x0048,
0.410672458333333,0,0xA41C,
0.410688291666667,0,0x0040,
0.410696208333333,0,0xA51C,
0.410712041666667,0,0x8000,
0.410719958333333,0,0xA61C,
0.410748750000000,0,0x0005,
0.410756416666667,0,0x2D19,
0.410772416666667,0,0x1001,
0.410780333333333,0,0xAD1C,
0.410796166666667,0,0xFFED,
0.410804083333333,0,0xAE1C,
0.410819916666667,0,0x524D,
0.410827833333333,0,0xAF1C,
0.410843666666667,0,0xFFFF,
0.410851583333333,0,0xB01C,
0.410867375000000,0,0x830A,
0.410875333333333,0,0xB11C,
0.410905041666667,0,0x0006,
0.410912750000000,0,0x3B1D,
0.410928750000000,0,0xB3E0,
0.410936666666667,0,0xBB1C,
0.410952500000000,0,0xB32B,
0.410960416666667,0,0xBC1C,
0.410976250000000,0,0xB2B9,
0.410984166666667,0,0xBD1C,
0.411000000000000,0,0xB1FE,
0.411007916666667,0,0xBE1C,
0.411023750000000,0,0xB201,
0.411031708333333,0,0xBF1C,
0.411047500000000,0,0xB272,
0.411055458333333,0,0xC01C,
0.411086250000000,0,0x000A,
0.411093916666667,0,0x4111,
0.411110333333333,0,0xC0C8,
0.411118291666667,0,0xC11C,
0.411134083333333,0,0xC0C3,
0.411142000000000,0,0xC21C,
0.411157875000000,0,0xC0C6,
0.411165750000000,0,0xC31C,
0.411181583333333,0,0xC086,
0.411189500000000,0,0xC41C,
0.411205333333333,0,0xC0AB,
0.411213250000000,0,0xC51C,
0.411229083333333,0,0xDD17,
0.411237000000000,0,0xC61C,
0.411252833333333,0,0x8046,
0.411260750000000,0,0xC71C,
0.411276583333333,0,0xA3D7,
0.411284500000000,0,0xC81C,
0.411300333333333,0,0x9E3B,
0.411308250000000,0,0xC91C,
0.411324083333333,0,0x9E37,
0.411332041666667,0,0xCA1C,
0.411363583333333,0,0x0004,
0.411371250000000,0,0x0325,
0.411387541666667,0,0x0A01,
0.411395375000000,0,0x8325,
0.411411125000000,0,0x0F00,
0.411418958333333,0,0x8425,
0.411434666666667,0,0x0000,
0.411442541666667,0,0x852C,
0.411458208333333,0,0xC73F,
0.411466083333333,0,0x8625,
0.411496250000000,0,0x0001,
0.411503958333333,0,0x1D29,
0.411520083333333,0,0x0055,
0.411527958333333,0,0x9D29,
0.411556416666667,0,0x0003,
0.411564083333333,0,0x242D,
0.411580041666667,0,0x004C,
0.411587875000000,0,0xA42C,
0.411603583333333,0,0x0040,
0.411611458333333,0,0xA52C,
0.411627125000000,0,0x8000,
0.411635000000000,0,0xA62C,
0.411663375000000,0,0x0005,
0.411671083333333,0,0x2D21,
0.411687041666667,0,0x1E14,
0.411694916666667,0,0xAD2C,
0.411710625000000,0,0xFFEF,
0.411718458333333,0,0xAE2C,
0.411734166666667,0,0xC574,
0.411742041666667,0,0xAF2C,
0.411757750000000,0,0x8000,
0.411765583333333,0,0xB02C,
0.411781333333333,0,0x8300,
0.411789166666667,0,0xB12C,
0.411818916666667,0,0x0006,
0.411826583333333,0,0x3B25,
0.411842666666667,0,0xE51A,
0.411850541666667,0,0xBB2C,
0.411866250000000,0,0x8000,
0.411874125000000,0,0xBC2C,
0.411889833333333,0,0x8000,
0.411897666666667,0,0xBD2C,
0.411913375000000,0,0x8001,
0.411921250000000,0,0xBE2C,
0.411936958333333,0,0xE5BC,
0.411944791666667,0,0xBF2C,
0.411960541666667,0,0xE5D3,
0.411968375000000,0,0xC02C,
0.411998416666667,0,0x000A,
0.412006083333333,0,0x4129,
0.412022416666667,0,0xDB69,
0.412030250000000,0,0xC12C,
0.412045958333333,0,0xDC73,
0.412053833333333,0,0xC22C,
0.412069541666667,0,0xDF3F,
0.412077375000000,0,0xC32C,
0.412093125000000,0,0xE120,
0.412100958333333,0,0xC42C,
0.412116666666667,0,0xA97B,
0.412124541666667,0,0xC52C,
0.412140250000000,0,0xFF4F,
0.412148125000000,0,0xC62C,
0.412163833333333,0,0xC015,
0.412171666666667,0,0xC72C,
0.412187375000000,0,0xA3B8,
0.412195250000000,0,0xC82C,
0.412210958333333,0,0x9E3B,
0.412218791666667,0,0xC92C,
0.412234500000000,0,0x9E3C,
0.412242375000000,0,0xCA2C,
0.419881000000000,0,0xDC3F,
0.419888666666667,0,0x060F,
0.419916166666667,0,0x0004,
0.419923833333333,0,0x0311,
0.419940083333333,0,0x0A01,
0.419948000000000,0,0x8311,
0.419963833333333,0,0x0F00,
0.419971750000000,0,0x8411,
0.419987583333333,0,0x0000,
0.419995541666667,0,0x851D,
0.420011333333333,0,0xDF3F,
0.420019291666667,0,0x8611,
0.420050125000000,0,0x0004,
0.420057791666667,0,0x0315,
0.420074208333333,0,0x0A01,
0.420082125000000,0,0x8315,
0.420097958333333,0,0x0F00,
0.420105875000000,0,0x8415,
0.420121708333333,0,0x0000,
0.420129625000000,0,0x851D,
0.420145458333333,0,0xDF3F,
0.420153416666667,0,0x8615,
0.420184041666667,0,0x0004,
0.420191708333333,0,0x0319,
0.420207833333333,0,0x0A01,
0.420215750000000,0,0x8319,
0.420231583333333,0,0x0F00,
0.420239500000000,0,0x8419,
0.420255333333333,0,0x0000,
0.420263291666667,0,0x851D,
0.420279083333333,0,0xDF3F,
0.420287041666667,0,0x8619,
0.420318458333333,0,0x0004,
0.420326166666667,0,0x031D,
0.420342458333333,0,0x0A01,
0.420350375000000,0,0x831D,
0.420366208333333,0,0x0F00,
0.420374125000000,0,0x841D,
0.420389958333333,0,0x0000,
0.420397916666667,0,0x851D,
0.420413750000000,0,0xDF3F,
0.420421666666667,0,0x861D,
0.420452666666667,0,0x0004,
0.420460333333333,0,0x0311,
0.420476583333333,0,0x0A01,
0.420484500000000,0,0x8311,
0.420500333333333,0,0x0F00,
0.420508250000000,0,0x8411,
0.420524083333333,0,0x0000,
0.420532000000000,0,0x851D,
0.420547833333333,0,0xD73F,
0.420555750000000,0,0x8611,
0.420585750000000,0,0x0001,
0.420593416666667,0,0x1D15,
0.420609666666667,0,0x1551,
0.420617583333333,0,0x9D15,
0.420646625000000,0,0x0003,
0.420654291666667,0,0x2419,
0.420670541666667,0,0x0048,
0.420678458333333,0,0xA41D,
0.420694250000000,0,0x0040,
0.420702208333333,0,0xA51D,
0.420718041666667,0,0x8000,
0.420725958333333,0,0xA61D,
0.420755041666667,0,0x0005,
0.420762708333333,0,0x2D1D,
0.420778875000000,0,0x110B,
0.420786791666667,0,0xAD1D,
0.420802625000000,0,0xFFED,
0.420810541666667,0,0xAE1D,
0.420826375000000,0,0x4FC9,
0.420834291666667,0,0xAF1D,
0.420850125000000,0,0xFFFF,
0.420858041666667,0,0xB01D,
0.420873875000000,0,0x8305,
0.420881791666667,0,0xB11D,
0.420912250000000,0,0x0006,
0.420919958333333,0,0x3B11,
0.420936208333333,0,0xB3E0,
0.420944125000000,0,0xBB1D,
0.420959958333333,0,0xB32B,
0.420967875000000,0,0xBC1D,
0.420983750000000,0,0xB2BD,
0.420991666666667,0,0xBD1D,
0.421007458333333,0,0xB1FD,
0.421015375000000,0,0xBE1D,
0.421031250000000,0,0xB202,
0.421039125000000,0,0xBF1D,
0.421055000000000,0,0xB272,
0.421062916666667,0,0xC01D,
0.421093375000000,0,0x000A,
0.421101083333333,0,0x4115,
0.421117333333333,0,0xC0C7,
0.421125250000000,0,0xC11D,
0.421141083333333,0,0xC0C5,
0.421149000000000,0,0xC21D,
0.421164875000000,0,0xC0C7,
0.421172791666667,0,0xC31D,
0.421188625000000,0,0xC08A,
0.421196541666667,0,0xC41D,
0.421212375000000,0,0xC0AD,
0.421220291666667,0,0xC51D,
0.421236125000000,0,0xDD17,
0.421244041666667,0,0xC61D,
0.421259875000000,0,0x804A,
0.421267791666667,0,0xC71D,
0.421283625000000,0,0xA3D5,
0.421291541666667,0,0xC81D,
0.421307375000000,0,0x9E3E,
0.421315291666667,0,0xC91D,
0.421331125000000,0,0x9E39,
0.421339041666667,0,0xCA1D,
0.421371583333333,0,0x0004,
0.421379250000000,0,0x0329,
0.421395583333333,0,0x0A01,
0.421403416666667,0,0x8329,
0.421419125000000,0,0x0F00,
0.421427000000000,0,0x8429,
0.421442708333333,0,0x0000,
0.421450583333333,0,0x852D,
0.421466291666667,0,0xD73F,
0.421474125000000,0,0x8629,
0.421504125000000,0,0x0001,
0.421511791666667,0,0x1D2D,
0.421528166666667,0,0x0055,
0.421536000000000,0,0x9D2D,
0.421563750000000,0,0x0003,
0.421571416666667,0,0x2421,
0.421587541666667,0,0x004C,
0.421595416666667,0,0xA42D,
0.421611125000000,0,0x0040,
0.421618958333333,0,0xA52D,
0.421634666666667,0,0x8000,
0.421642541666667,0,0xA62D,
0.421671083333333,0,0x0005,
0.421678791666667,0,0x2D25,
0.421695083333333,0,0x1F20,
0.421702916666667,0,0xAD2D,
0.421718625000000,0,0xFFEF,
0.421726500000000,0,0xAE2D,
0.421742208333333,0,0xC2FF,
0.421750041666667,0,0xAF2D,
0.421765791666667,0,0xFFFF,
0.421773625000000,0,0xB02D,
0.421789333333333,0,0x830D,
0.421797208333333,0,0xB12D,
0.421827958333333,0,0x0006,
0.421835666666667,0,0x3B29,
0.421851708333333,0,0xE51B,
0.421859583333333,0,0xBB2D,
0.421875250000000,0,0x8002,
0.421883125000000,0,0xBC2D,
0.421898833333333,0,0x8000,
0.421906708333333,0,0xBD2D,
0.421922416666667,0,0x8000,
0.421930250000000,0,0xBE2D,
0.421945958333333,0,0xE5BC,
0.421953833333333,0,0xBF2D,
0.421969541666667,0,0xE5D7,
0.421977375000000,0,0xC02D,
0.422006875000000,0,0x000A,
0.422014583333333,0,0x412D,
0.422030916666667,0,0xDB6B,
0.422038750000000,0,0xC12D,
0.422054458333333,0,0xDC72,
0.422062333333333,0,0xC22D,
0.422078041666667,0,0xDF40,
0.422085875000000,0,0xC32D,
0.422101583333333,0,0xE122,
0.422109458333333,0,0xC42D,
0.422125166666667,0,0xA97B,
0.422133000000000,0,0xC52D,
0.422148750000000,0,0xFF4B,
0.422156583333333,0,0xC62D,
0.422172291666667,0,0xC016,
0.422180166666667,0,0xC72D,
0.422195875000000,0,0xA3B6,
0.422203750000000,0,0xC82D,
0.422219458333333,0,0x9E3F,
0.422227291666667,0,0xC92D,
0.422243000000000,0,0x9E3D,
0.422250875000000,0,0xCA2D,
0.429886916666667,0,0xEC3F,
0.429894583333333,0,0x0603,
0.429921291666667,0,0x0004,
0.429928958333333,0,0x0315,
0.429945250000000,0,0x0A01,
0.429953166666667,0,0x8315,
0.429969000000000,0,0x0F00,
0.429976916666667,0,0x8415,
0.429992750000000,0,0x0000,
0.430000666666667,0,0x851E,
0.430016500000000,0,0xEF3F,
0.430024416666667,0,0x8615,
0.430055416666667,0,0x0004,
0.430063083333333,0,0x0319,
0.430079375000000,0,0x0A01,
0.430087291666667,0,0x8319,
0.430103125000000,0,0x0F00,
0.430111041666667,0,0x8419,
0.430126875000000,0,0x0000,
0.430134791666667,0,0x851E,
0.430150625000000,0,0xEF3F,
0.430158541666667,0,0x8619,
0.430188750000000,0,0x0004,
0.430196458333333,0,0x031D,
0.430212500000000,0,0x0A01,
0.430220416666667,0,0x831D,
0.430236250000000,0,0x0F00,
0.430244166666667,0,0x841D,
0.430260000000000,0,0x0000,
0.430267916666667,0,0x851E,
0.430283791666667,0,0xEF3F,
0.430291666666667,0,0x861D,
0.430323041666667,0,0x0004,
0.430330708333333,0,0x0311,
0.430347083333333,0,0x0A01,
0.430355041666667,0,0x8311,
0.430370875000000,0,0x0F00,
0.430378791666667,0,0x8411,
0.430394625000000,0,0x0000,
0.430402541666667,0,0x851E,
0.430418375000000,0,0xEF3F,
0.430426291666667,0,0x8611,
0.430457416666667,0,0x0004,
0.430465083333333,0,0x0315,
0.430481250000000,0,0x0A01,
0.430489166666667,0,0x8315,
0.430504958333333,0,0x0F00,
0.430512916666667,0,0x8415,
0.430528750000000,0,0x0000,
0.430536666666667,0,0x851E,
0.430552500000000,0,0xE73F,
0.430560416666667,0,0x8615,
0.430590750000000,0,0x0001,
0.430598458333333,0,0x1D19,
0.430614833333333,0,0x1551,
0.430622791666667,0,0x9D19,
0.430650458333333,0,0x0003,
0.430658125000000,0,0x241D,
0.430674250000000,0,0x0048,
0.430682166666667,0,0xA41E,
0.430698000000000,0,0x0040,
0.430705916666667,0,0xA51E,
0.430721750000000,0,0x8000,
0.430729666666667,0,0xA61E,
0.430758458333333,0,0x0005,
0.430766166666667,0,0x2D11,
0.430782125000000,0,0x1215,
0.430790041666667,0,0xAD1E,
0.430805875000000,0,0xFFED,
0.430813791666667,0,0xAE1E,
0.430829625000000,0,0x4C27,
0.430837541666667,0,0xAF1E,
0.430853416666667,0,0x8000,
0.430861291666667,0,0xB01E,
0.430877166666667,0,0x8300,
0.430885041666667,0,0xB11E,
0.430915625000000,0,0x0006,
0.430923291666667,0,0x3B15,
0.430939500000000,0,0xB3E0,
0.430947416666667,0,0xBB1E,
0.430963250000000,0,0xB32C,
0.430971166666667,0,0xBC1E,
0.430987000000000,0,0xB2BA,
0.430994958333333,0,0xBD1E,
0.431010791666667,0,0xB1FE,
0.431018708333333,0,0xBE1E,
0.431034541666667,0,0xB200,
0.431042458333333,0,0xBF1E,
0.431058291666667,0,0xB274,
0.431066208333333,0,0xC01E,
0.431096375000000,0,0x000A,
0.431104041666667,0,0x4119,
0.431120166666667,0,0xC0C6,
0.431128083333333,0,0xC11E,
0.431143916666667,0,0xC0C6,
0.431151833333333,0,0xC21E,
0.431167666666667,0,0xC0C5,
0.431175583333333,0,0xC31E,
0.431191375000000,0,0xC084,
0.431199333333333,0,0xC41E,
0.431215166666667,0,0xC0AB,
0.431223083333333,0,0xC51E,
0.431238916666667,0,0xDD14,
0.431246833333333,0,0xC61E,
0.431262666666667,0,0x8047,
0.431270583333333,0,0xC71E,
0.431286416666667,0,0xA3D7,
0.431294333333333,0,0xC81E,
0.431310166666667,0,0x9E39,
0.431318083333333,0,0xC91E,
0.431333916666667,0,0x9E37,
0.431341833333333,0,0xCA1E,
0.431374208333333,0,0x0004,
0.431381875000000,0,0x032D,
0.431398208333333,0,0x0A01,
0.431406083333333,0,0x832D,
0.431421791666667,0,0x0F00,
0.431429666666667,0,0x842D,
0.431445375000000,0,0x0000,
0.431453208333333,0,0x852E,
0.431468916666667,0,0xE73F,
0.431476791666667,0,0x862D,
0.431506541666667,0,0x0001,
0.431514208333333,0,0x1D21,
0.431530291666667,0,0x0055,
0.431538125000000,0,0x9D21,
0.431566208333333,0,0x0003,
0.431573916666667,0,0x2425,
0.431590208333333,0,0x004C,
0.431598083333333,0,0xA42E,
0.431613750000000,0,0x0040,
0.431621625000000,0,0xA52E,
0.431637333333333,0,0x8000,
0.431645208333333,0,0xA62E,
0.431674541666667,0,0x0005,
0.431682208333333,0,0x2D29,
0.431698208333333,0,0x202C,
0.431706083333333,0,0xAD2E,
0.431721791666667,0,0xFFEF,
0.431729625000000,0,0xAE2E,
0.431745333333333,0,0xC06D,
0.431753208333333,0,0xAF2E,
0.431768916666667,0,0x8000,
0.431776750000000,0,0xB02E,
0.431792458333333,0,0x8305,
0.431800333333333,0,0xB12E,
0.431831458333333,0,0x0006,
0.431839125000000,0,0x3B2D,
0.431855291666667,0,0xE517,
0.431863166666667,0,0xBB2E,
0.431878875000000,0,0x8000,
0.431886708333333,0,0xBC2E,
0.431902416666667,0,0x8004,
0.431910291666667,0,0xBD2E,
0.431926000000000,0,0x8001,
0.431933875000000,0,0xBE2E,
0.431949583333333,0,0xE5B6,
0.431957416666667,0,0xBF2E,
0.431973125000000,0,0xE5CF,
0.431981000000000,0,0xC02E,
0.432012125000000,0,0x000A,
0.432019791666667,0,0x4121,
0.432035958333333,0,0xDB65,
0.432043833333333,0,0xC12E,
0.432059541666667,0,0xDC75,
0.432067416666667,0,0xC22E,
0.432083083333333,0,0xDF42,
0.432090958333333,0,0xC32E,
0.432106666666667,0,0xE122,
0.432114500000000,0,0xC42E,
0.432130250000000,0,0xA983,
0.432138083333333,0,0xC52E,
0.432153791666667,0,0xFF4C,
0.432161666666667,0,0xC62E,
0.432177333333333,0,0xC01A,
0.432185208333333,0,0xC72E,
0.432200916666667,0,0xA3B8,
0.432208791666667,0,0xC82E,
0.432224500000000,0,0x9E3B,
0.432232375000000,0,0xC92E,
0.432248041666667,0,0x9E3E,
0.432255916666667,0,0xCA2E,
0.439878708333333,0,0xFC3F,
0.439886375000000,0,0x0607,
0.439913625000000,0,0x0004,
0.439921333333333,0,0x0319,
0.439937791666667,0,0x0A01,
0.439945666666667,0,0x8319,
0.439961541666667,0,0x0F00,
0.439969458333333,0,0x8419,
0.439985291666667,0,0x0000,
0.439993208333333,0,0x851F,
0.440009041666667,0,0xFF3F,
0.440016958333333,0,0x8619,
0.440047833333333,0,0x0004,
0.440055500000000,0,0x031D,
0.440071916666667,0,0x0A01,
0.440079833333333,0,0x831D,
0.440095708333333,0,0x0F00,
0.440103583333333,0,0x841D,
0.440119458333333,0,0x0000,
0.440127375000000,0,0x851F,
0.440143208333333,0,0xFF3F,
0.440151125000000,0,0x861D,
0.440181958333333,0,0x0004,
0.440189625000000,0,0x0311,
0.440206083333333,0,0x0A01,
0.440214041666667,0,0x8311,
0.440229833333333,0,0x0F00,
0.440237791666667,0,0x8411,
0.440253625000000,0,0x0000,
0.440261541666667,0,0x851F,
0.440277416666667,0,0xFF3F,
0.440285333333333,0,0x8611,
0.440315916666667,0,0x0004,
0.440323625000000,0,0x0315,
0.440339791666667,0,0x0A01,
0.440347708333333,0,0x8315,
0.440363541666667,0,0x0F00,
0.440371458333333,0,0x8415,
0.440387291666667,0,0x0000,
0.440395250000000,0,0x851F,
0.440411083333333,0,0xFF3F,
0.440419000000000,0,0x8615,
0.440450291666667,0,0x0004,
0.440458000000000,0,0x0319,
0.440474416666667,0,0x0A01,
0.440482333333333,0,0x8319,
0.440498166666667,0,0x0F00,
0.440506083333333,0,0x8419,
0.440521916666667,0,0x0000,
0.440529833333333,0,0x851F,
0.440545666666667,0,0xF73F,
0.440553583333333,0,0x8619,
0.440584583333333,0,0x0001,
0.440592250000000,0,0x1D1D,
0.440608500000000,0,0x1551,
0.440616458333333,0,0x9D1D,
0.440644125000000,0,0x0003,
0.440651791666667,0,0x2411,
0.440667916666667,0,0x0048,
0.440675833333333,0,0xA41F,
0.440691666666667,0,0x0040,
0.440699583333333,0,0xA51F,
0.440715416666667,0,0x8000,
0.440723333333333,0,0xA61F,
0.440752208333333,0,0x0005,
0.440759875000000,0,0x2D15,
0.440776291666667,0,0x131F,
0.440784208333333,0,0xAD1F,
0.440800041666667,0,0xFFED,
0.440807958333333,0,0xAE1F,
0.440823791666667,0,0x4945,
0.440831708333333,0,0xAF1F,
0.440847541666667,0,0x8000,
0.440855500000000,0,0xB01F,
0.440871333333333,0,0x8305,
0.440879208333333,0,0xB11F,
0.440909500000000,0,0x0006,
0.440917166666667,0,0x3B19,
0.440933166666667,0,0xB3DD,
0.440941041666667,0,0xBB1F,
0.440956875000000,0,0xB326,
0.440964833333333,0,0xBC1F,
0.440980625000000,0,0xB2BD,
0.440988583333333,0,0xBD1F,
0.441004375000000,0,0xB1FF,
0.441012333333333,0,0xBE1F,
0.441028125000000,0,0xB200,
0.441036041666667,0,0xBF1F,
0.441051875000000,0,0xB271,
0.441059791666667,0,0xC01F,
0.441089791666667,0,0x000A,
0.441097500000000,0,0x411D,
0.441113750000000,0,0xC0C5,
0.441121625000000,0,0xC11F,
0.441137458333333,0,0xC0C5,
0.441145416666667,0,0xC21F,
0.441161250000000,0,0xC0C3,
0.441169166666667,0,0xC31F,
0.441184958333333,0,0xC087,
0.441192875000000,0,0xC41F,
0.441208750000000,0,0xC0AB,
0.441216666666667,0,0xC51F,
0.441232500000000,0,0xDD17,
0.441240375000000,0,0xC61F,
0.441256208333333,0,0x8047,
0.441264125000000,0,0xC71F,
0.441279958333333,0,0xA3D6,
0.441287875000000,0,0xC81F,
0.441303708333333,0,0x9E3B,
0.441311625000000,0,0xC91F,
0.441327458333333,0,0x9E3A,
0.441335375000000,0,0xCA1F,
0.441367250000000,0,0x0004,
0.441374916666667,0,0x0321,
0.441390916666667,0,0x0A01,
0.441398750000000,0,0x8321,
0.441414500000000,0,0x0F00,
0.441422333333333,0,0x8421,
0.441438041666667,0,0x0000,
0.441445916666667,0,0x852F,
0.441461625000000,0,0xF73F,
0.441469458333333,0,0x8621,
0.441500208333333,0,0x0001,
0.441507875000000,0,0x1D25,
0.441524000000000,0,0x0055,
0.441531833333333,0,0x9D25,
0.441560208333333,0,0x0003,
0.441567875000000,0,0x2429,
0.441583875000000,0,0x004C,
0.441591708333333,0,0xA42F,
0.441607458333333,0,0x0040,
0.441615291666667,0,0xA52F,
0.441631000000000,0,0x8000,
0.441638875000000,0,0xA62F,
0.441667958333333,0,0x0005,
0.441675625000000,0,0x2D2D,
0.441691875000000,0,0x2138,
0.441699750000000,0,0xAD2F,
0.441715458333333,0,0xFFEF,
0.441723291666667,0,0xAE2F,
0.441739000000000,0,0xBE66,
0.441746875000000,0,0xAF2F,
0.441762583333333,0,0xFFFF,
0.441770416666667,0,0xB02F,
0.441786125000000,0,0x830F,
0.441794000000000,0,0xB12F,
0.441825541666667,0,0x0006,
0.441833250000000,0,0x3B21,
0.441849458333333,0,0xE51A,
0.441857333333333,0,0xBB2F,
0.441873041666667,0,0x8005,
0.441880875000000,0,0xBC2F,
0.441896583333333,0,0x8000,
0.441904416666667,0,0xBD2F,
0.441920125000000,0,0x8001,
0.441928000000000,0,0xBE2F,
0.441943708333333,0,0xE5BD,
0.441951583333333,0,0xBF2F,
0.441967291666667,0,0xE5D3,
0.441975125000000,0,0xC02F,
0.442005250000000,0,0x000A,
0.442012916666667,0,0x4125,
0.442029166666667,0,0xDB6A,
0.442037000000000,0,0xC12F,
0.442052708333333,0,0xDC72,
0.442060583333333,0,0xC22F,
0.442076291666667,0,0xDF40,
0.442084125000000,0,0xC32F,
0.442099833333333,0,0xE11E,
0.442107708333333,0,0xC42F,
0.442123416666667,0,0xA97D,
0.442131291666667,0,0xC52F,
0.442147000000000,0,0xFF4A,
0.442154833333333,0,0xC62F,
0.442170541666667,0,0xC013,
0.442178375000000,0,0xC72F,
0.442194125000000,0,0xA3B8,
0.442201958333333,0,0xC82F,
0.442217666666667,0,0x9E38,
0.442225541666667,0,0xC92F,
0.442241250000000,0,0x9E3D,
0.442249125000000,0,0xCA2F,
0.449842125000000,0,0x0C3F,
0.449849833333333,0,0x060B,
0.449876833333333,0,0x0004,
0.449884500000000,0,0x031D,
0.449900541666667,0,0x0A01,
0.449908458333333,0,0x831D,
0.449924291666667,0,0x0F00,
0.449932208333333,0,0x841D,
0.449948041666667,0,0x0000,
0.449955958333333,0,0x8510,
0.449971791666667,0,0x0F3F,
0.449979708333333,0,0x861D,
0.450010875000000,0,0x0004,
0.450018541666667,0,0x0311,
0.450034625000000,0,0x0A01,
0.450042583333333,0,0x8311,
0.450058416666667,0,0x0F00,
0.450066333333333,0,0x8411,
0.450082166666667,0,0x0000,
0.450090083333333,0,0x8510,
0.450105916666667,0,0x0F3F,
0.450113833333333,0,0x8611,
0.450144583333333,0,0x0004,
0.450152250000000,0,0x0315,
0.450168291666667,0,0x0A01,
0.450176208333333,0,0x8315,
0.450192041666667,0,0x0F00,
0.450200000000000,0,0x8415,
0.450215791666667,0,0x0000,
0.450223750000000,0,0x8510,
0.450239541666667,0,0x0F3F,
0.450247500000000,0,0x8615,
0.450278291666667,0,0x0004,
0.450285958333333,0,0x0319,
0.450302416666667,0,0x0A01,
0.450310333333333,0,0x8319,
0.450326166666667,0,0x0F00,
0.450334083333333,0,0x8419,
0.450349916666667,0,0x0000,
0.450357833333333,0,0x8510,
0.450373666666667,0,0x0F3F,
0.450381583333333,0,0x8619,
0.450412500000000,0,0x0004,
0.450420166666667,0,0x031D,
0.450436500000000,0,0x0A01,
0.450444458333333,0,0x831D,
0.450460250000000,0,0x0F00,
0.450468166666667,0,0x841D,
0.450484041666667,0,0x0000,
0.450491916666667,0,0x8510,
0.450507791666667,0,0x073F,
0.450515708333333,0,0x861D,
0.450545916666667,0,0x0001,
0.450553583333333,0,0x1D11,
0.450569625000000,0,0x1551,
0.450577541666667,0,0x9D11,
0.450605750000000,0,0x0003,
0.450613416666667,0,0x2415,
0.450629458333333,0,0x0048,
0.450637375000000,0,0xA410,
0.450653208333333,0,0x0040,
0.450661166666667,0,0xA510,
0.450676958333333,0,0x8000,
0.450684875000000,0,0xA610,
0.450715000000000,0,0x0005,
0.450722666666667,0,0x2D19,
0.450738833333333,0,0x1428,
0.450746750000000,0,0xAD10,
0.450762541666667,0,0xFFED,
0.450770500000000,0,0xAE10,
0.450786333333333,0,0x46C7,
0.450794250000000,0,0xAF10,
0.450810083333333,0,0xFFFF,
0.450818000000000,0,0xB010,
0.450833791666667,0,0x830E,
0.450841750000000,0,0xB110,
0.450871416666667,0,0x0006,
0.450879083333333,0,0x3B1D,
0.450895166666667,0,0xB3E2,
0.450903083333333,0,0xBB10,
0.450918916666667,0,0xB32A,
0.450926833333333,0,0xBC10,
0.450942666666667,0,0xB2BB,
0.450950625000000,0,0xBD10,
0.450966416666667,0,0xB1FD,
0.450974375000000,0,0xBE10,
0.450990208333333,0,0xB1FC,
0.450998125000000,0,0xBF10,
0.451013958333333,0,0xB270,
0.451021875000000,0,0xC010,
0.451052166666667,0,0x000A,
0.451059833333333,0,0x4111,
0.451075791666667,0,0xC0C3,
0.451083708333333,0,0xC110,
0.451099541666667,0,0xC0C4,
0.451107458333333,0,0xC210,
0.451123291666667,0,0xC0C6,
0.451131208333333,0,0xC310,
0.451147041666667,0,0xC087,
0.451154958333333,0,0xC410,
0.451170791666667,0,0xC0AB,
0.451178708333333,0,0xC510,
0.451194541666667,0,0xDD16,
0.451202458333333,0,0xC610,
0.451218291666667,0,0x8044,
0.451226208333333,0,0xC710,
0.451242041666667,0,0xA3D6,
0.451250000000000,0,0xC810,
0.451265833333333,0,0x9E37,
0.451273750000000,0,0xC910,
0.451289583333333,0,0x9E38,
0.451297500000000,0,0xCA10,
0.451328916666667,0,0x0004,
0.451336583333333,0,0x0325,
0.451352708333333,0,0x0A01,
0.451360583333333,0,0x8325,
0.451376291666667,0,0x0F00,
0.451384166666667,0,0x8425,
0.451399875000000,0,0x0000,
0.451407708333333,0,0x8520,
0.451423416666667,0,0x073F,
0.451431291666667,0,0x8625,
0.451461583333333,0,0x0001,
0.451469291666667,0,0x1D29,
0.451485291666667,0,0x0055,
0.451493166666667,0,0x9D29,
0.451521208333333,0,0x0003,
0.451528875000000,0,0x242D,
0.451545208333333,0,0x004C,
0.451553083333333,0,0xA420,
0.451568750000000,0,0x0040,
0.451576625000000,0,0xA520,
0.451592333333333,0,0x8000,
0.451600166666667,0,0xA620,
0.451628125000000,0,0x0005,
0.451635791666667,0,0x2D21,
0.451651750000000,0,0x2243,
0.451659625000000,0,0xAD20,
0.451675333333333,0,0xFFEF,
0.451683166666667,0,0xAE20,
0.451698875000000,0,0xBC9A,
0.451706750000000,0,0xAF20,
0.451722458333333,0,0xFFFF,
0.451730291666667,0,0xB020,
0.451746000000000,0,0x830A,
0.451753875000000,0,0xB120,
0.451783708333333,0,0x0006,
0.451791416666667,0,0x3B25,
0.451807375000000,0,0xE519,
0.451815208333333,0,0xBB20,
0.451830958333333,0,0x8001,
0.451838791666667,0,0xBC20,
0.451854500000000,0,0x8000,
0.451862375000000,0,0xBD20,
0.451878041666667,0,0x8000,
0.451885916666667,0,0xBE20,
0.451901625000000,0,0xE5BC,
0.451909458333333,0,0xBF20,
0.451925166666667,0,0xE5D2,
0.451933041666667,0,0xC020,
0.451963625000000,0,0x000A,
0.451971291666667,0,0x4129,
0.451987541666667,0,0xDB69,
0.451995416666667,0,0xC120,
0.452011125000000,0,0xDC71,
0.452019000000000,0,0xC220,
0.452034666666667,0,0xDF3F,
0.452042541666667,0,0xC320,
0.452058250000000,0,0xE120,
0.452066125000000,0,0xC420,
0.452081833333333,0,0xA97F,
0.452089708333333,0,0xC520,
0.452105375000000,0,0xFF4A,
0.452113250000000,0,0xC620,
0.452128958333333,0,0xC017,
0.452136833333333,0,0xC720,
0.452152500000000,0,0xA3B7,
0.452160375000000,0,0xC820,
0.452176083333333,0,0x9E37,
0.452183916666667,0,0xC920,
0.452199666666667,0,0x9E40,
0.452207500000000,0,0xCA20,
0.460074083333333,0,0x1C3F,
0.460081750000000,0,0x060F,
0.460108791666667,0,0x0004,
0.460116500000000,0,0x0311,
0.460132625000000,0,0x0A01,
0.460140541666667,0,0x8311,
0.460156375000000,0,0x0F00,
0.460164291666667,0,0x8411,
0.460180166666667,0,0x0000,
0.460188083333333,0,0x8511,
0.460203916666667,0,0x1F3F,
0.460211833333333,0,0x8611,
0.460242250000000,0,0x0004,
0.460249958333333,0,0x0315,
0.460266291666667,0,0x0A01,
0.460274208333333,0,0x8315,
0.460290083333333,0,0x0F00,
0.460297958333333,0,0x8415,
0.460313833333333,0,0x0000,
0.460321750000000,0,0x8511,
0.460337583333333,0,0x1F3F,
0.460345500000000,0,0x8615,
0.460376250000000,0,0x0004,
0.460383916666667,0,0x0319,
0.460399958333333,0,0x0A01,
0.460407875000000,0,0x8319,
0.460423708333333,0,0x0F00,
0.460431666666667,0,0x8419,
0.460447500000000,0,0x0000,
0.460455416666667,0,0x8511,
0.460471291666667,0,0x1F3F,
0.460479208333333,0,0x8619,
0.460509583333333,0,0x0004,
0.460517250000000,0,0x031D,
0.460533666666667,0,0x0A01,
0.460541583333333,0,0x831D,
0.460557416666667,0,0x0F00,
0.460565333333333,0,0x841D,
0.460581166666667,0,0x0000,
0.460589083333333,0,0x8511,
0.460604916666667,0,0x1F3F,
0.460612833333333,0,0x861D,
0.460642708333333,0,0x0004,
0.460650375000000,0,0x0311,
0.460666750000000,0,0x0A01,
0.460674708333333,0,0x8311,
0.460690500000000,0,0x0F00,
0.460698416666667,0,0x8411,
0.460714250000000,0,0x0000,
0.460722166666667,0,0x8511,
0.460738000000000,0,0x173F,
0.460745958333333,0,0x8611,
0.460776833333333,0,0x0001,
0.460784500000000,0,0x1D15,
0.460800833333333,0,0x1551,
0.460808791666667,0,0x9D15,
0.460836875000000,0,0x0003,
0.460844583333333,0,0x2419,
0.460860708333333,0,0x0048,
0.460868625000000,0,0xA411,
0.460884458333333,0,0x0040,
0.460892375000000,0,0xA511,
0.460908208333333,0,0x8000,
0.460916166666667,0,0xA611,
0.460945041666667,0,0x0005,
0.460952708333333,0,0x2D1D,
0.460969083333333,0,0x1538,
0.460977000000000,0,0xAD11,
0.460992833333333,0,0xFFED,
0.461000750000000,0,0xAE11,
0.461016583333333,0,0x443F,
0.461024500000000,0,0xAF11,
0.461040375000000,0,0x8000,
0.461048250000000,0,0xB011,
0.461064083333333,0,0x8305,
0.461072041666667,0,0xB111,
0.461102708333333,0,0x0006,
0.461110375000000,0,0x3B11,
0.461126458333333,0,0xB3E0,
0.461134375000000,0,0xBB11,
0.461150208333333,0,0xB32D,
0.461158125000000,0,0xBC11,
0.461173958333333,0,0xB2BA,
0.461181875000000,0,0xBD11,
0.461197708333333,0,0xB1FF,
0.461205625000000,0,0xBE11,
0.461221458333333,0,0xB200,
0.461229375000000,0,0xBF11,
0.461245208333333,0,0xB272,
0.461253125000000,0,0xC011,
0.461282833333333,0,0x000A,
0.461290500000000,0,0x4115,
0.461306583333333,0,0xC0C3,
0.461314500000000,0,0xC111,
0.461330333333333,0,0xC0C5,
0.461338250000000,0,0xC211,
0.461354083333333,0,0xC0C4,
0.461362041666667,0,0xC311,
0.461377875000000,0,0xC086,
0.461385791666667,0,0xC411,
0.461401625000000,0,0xC0A7,
0.461409541666667,0,0xC511,
0.461425375000000,0,0xDD14,
0.461433291666667,0,0xC611,
0.461449125000000,0,0x8044,
0.461457041666667,0,0xC711,
0.461472875000000,0,0xA3D4,
0.461480791666667,0,0xC811,
0.461496625000000,0,0x9E39,
0.461504541666667,0,0xC911,
0.461520375000000,0,0x9E3D,
0.461528291666667,0,0xCA11,
0.461560541666667,0,0x0004,
0.461568208333333,0,0x0329,
0.461584666666667,0,0x0A01,
0.461592500000000,0,0x8329,
0.461608208333333,0,0x0F00,
0.461616083333333,0,0x8429,
0.461631791666667,0,0x0000,
0.461639666666667,0,0x8521,
0.461655375000000,0,0x173F,
0.461663208333333,0,0x8629,
0.461693458333333,0,0x0001,
0.461701125000000,0,0x1D2D,
0.461717208333333,0,0x0055,
0.461725083333333,0,0x9D2D,
0.461752958333333,0,0x0003,
0.461760625000000,0,0x2421,
0.461776583333333,0,0x004C,
0.461784458333333,0,0xA421,
0.461800166666667,0,0x0040,
0.461808041666667,0,0xA521,
0.461823750000000,0,0x8000,
0.461831625000000,0,0xA621,
0.461861041666667,0,0x0005,
0.461868708333333,0,0x2D25,
0.461885125000000,0,0x2355,
0.461892958333333,0,0xAD21,
0.461908708333333,0,0xFFEF,
0.461916541666667,0,0xAE21,
0.461932250000000,0,0xBAAD,
0.461940125000000,0,0xAF21,
0.461955833333333,0,0x8000,
0.461963708333333,0,0xB021,
0.461979416666667,0,0x8303,
0.461987250000000,0,0xB121,
0.462017750000000,0,0x0006,
0.462025458333333,0,0x3B29,
0.462041750000000,0,0xE515,
0.462049625000000,0,0xBB21,
0.462065291666667,0,0x8000,
0.462073166666667,0,0xBC21,
0.462088875000000,0,0x8000,
0.462096708333333,0,0xBD21,
0.462112458333333,0,0x8000,
0.462120291666667,0,0xBE21,
0.462136000000000,0,0xE5B5,
0.462143875000000,0,0xBF21,
0.462159583333333,0,0xE5D0,
0.462167416666667,0,0xC021,
0.462197500000000,0,0x000A,
0.462205166666667,0,0x412D,
0.462221416666667,0,0xDB68,
0.462229291666667,0,0xC121,
0.462245000000000,0,0xDC71,
0.462252875000000,0,0xC221,
0.462268541666667,0,0xDF3F,
0.462276416666667,0,0xC321,
0.462292125000000,0,0xE120,
0.462300000000000,0,0xC421,
0.462315708333333,0,0xA97D,
0.462323541666667,0,0xC521,
0.462339250000000,0,0xFF49,
0.462347125000000,0,0xC621,
0.462362833333333,0,0xC013,
0.462370708333333,0,0xC721,
0.462386416666667,0,0xA3B7,
0.462394250000000,0,0xC821,
0.462409958333333,0,0x9E38,
0.462417833333333,0,0xC921,
0.462433500000000,0,0x9E3B,
0.462441375000000,0,0xCA21,
0.469867708333333,0,0x2C3F,
0.469875416666667,0,0x0603,
0.469902875000000,0,0x0004,
0.469910541666667,0,0x0315,
0.469926750000000,0,0x0A01,
0.469934666666667,0,0x8315,
0.469950500000000,0,0x0F00,
0.469958416666667,0,0x8415,
0.469974250000000,0,0x0000,
0.469982208333333,0,0x8512,
0.469998041666667,0,0x2F3F,
0.470005958333333,0,0x8615,
0.470036666666667,0,0x0004,
0.470044333333333,0,0x0319,
0.470060416666667,0,0x0A01,
0.470068333333333,0,0x8319,
0.470084166666667,0,0x0F00,
0.470092083333333,0,0x8419,
0.470107916666667,0,0x0000,
0.470115833333333,0,0x8512,
0.470131666666667,0,0x2F3F,
0.470139583333333,0,0x8619,
0.470170375000000,0,0x0004,
0.470178083333333,0,0x031D,
0.470194083333333,0,0x0A01,
0.470201958333333,0,0x831D,
0.470217833333333,0,0x0F00,
0.470225750000000,0,0x841D,
0.470241583333333,0,0x0000,
0.470249500000000,0,0x8512,
0.470265333333333,0,0x2F3F,
0.470273250000000,0,0x861D,
0.470304166666667,0,0x0004,
0.470311875000000,0,0x0311,
0.470328208333333,0,0x0A01,
0.470336125000000,0,0x8311,
0.470351958333333,0,0x0F00,
0.470359875000000,0,0x8411,
0.470375750000000,0,0x0000,
0.470383666666667,0,0x8512,
0.470399458333333,0,0x2F3F,
0.470407416666667,0,0x8611,
0.470438291666667,0,0x0004,
0.470445958333333,0,0x0315,
0.470462333333333,0,0x0A01,
0.470470250000000,0,0x8315,
0.470486083333333,0,0x0F00,
0.470494000000000,0,0x8415,
0.470509833333333,0,0x0000,
0.470517750000000,0,0x8512,
0.470533583333333,0,0x273F,
0.470541500000000,0,0x8615,
0.470572583333333,0,0x0001,
0.470580250000000,0,0x1D19,
0.470596416666667,0,0x1551,
0.470604333333333,0,0x9D19,
0.470632125000000,0,0x0003,
0.470639791666667,0,0x241D,
0.470656250000000,0,0x0048,
0.470664208333333,0,0xA412,
0.470680000000000,0,0x0040,
0.470687916666667,0,0xA512,
0.470703750000000,0,0x8000,
0.470711708333333,0,0xA612,
0.470740500000000,0,0x0005,
0.470748208333333,0,0x2D11,
0.470764625000000,0,0x163D,
0.470772541666667,0,0xAD12,
0.470788375000000,0,0xFFED,
0.470796291666667,0,0xAE12,
0.470812125000000,0,0x41A2,
0.470820041666667,0,0xAF12,
0.470835875000000,0,0xFFFF,
0.470843791666667,0,0xB012,
0.470859625000000,0,0x8308,
0.470867541666667,0,0xB112,
0.470897583333333,0,0x0006,
0.470905250000000,0,0x3B15,
0.470921500000000,0,0xB3DF,
0.470929416666667,0,0xBB12,
0.470945250000000,0,0xB328,
0.470953166666667,0,0xBC12,
0.470969000000000,0,0xB2BD,
0.470976875000000,0,0xBD12,
0.470992750000000,0,0xB1FF,
0.471000625000000,0,0xBE12,
0.471016458333333,0,0xB1FD,
0.471024416666667,0,0xBF12,
0.471040250000000,0,0xB271,
0.471048166666667,0,0xC012,
0.471078125000000,0,0x000A,
0.471085833333333,0,0x4119,
0.471102083333333,0,0xC0C5,
0.471110000000000,0,0xC112,
0.471125833333333,0,0xC0C6,
0.471133750000000,0,0xC212,
0.471149583333333,0,0xC0C4,
0.471157500000000,0,0xC312,
0.471173333333333,0,0xC085,
0.471181250000000,0,0xC412,
0.471197083333333,0,0xC0A9,
0.471205041666667,0,0xC512,
0.471220833333333,0,0xDD14,
0.471228791666667,0,0xC612,
0.471244583333333,0,0x8047,
0.471252541666667,0,0xC712,
0.471268375000000,0,0xA3D8,
0.471276291666667,0,0xC812,
0.471292125000000,0,0x9E38,
0.471300041666667,0,0xC912,
0.471315875000000,0,0x9E3C,
0.471323791666667,0,0xCA12,
0.471356291666667,0,0x0004,
0.471363958333333,0,0x032D,
0.471380041666667,0,0x0A01,
0.471387916666667,0,0x832D,
0.471403625000000,0,0x0F00,
0.471411458333333,0,0x842D,
0.471427166666667,0,0x0000,
0.471435041666667,0,0x8522,
0.471450750000000,0,0x273F,
0.471458583333333,0,0x862D,
0.471489916666667,0,0x0001,
0.471497625000000,0,0x1D21,
0.471513583333333,0,0x0055,
0.471521458333333,0,0x9D21,
0.471549166666667,0,0x0003,
0.471556875000000,0,0x2425,
0.471573000000000,0,0x004C,
0.471580875000000,0,0xA422,
0.471596583333333,0,0x0040,
0.471604458333333,0,0xA522,
0.471620125000000,0,0x8000,
0.471628000000000,0,0xA622,
0.471657333333333,0,0x0005,
0.471665000000000,0,0x2D29,
0.471681041666667,0,0x245B,
0.471688875000000,0,0xAD22,
0.471704583333333,0,0xFFEF,
0.471712458333333,0,0xAE22,
0.471728166666667,0,0xB7B8,
0.471736041666667,0,0xAF22,
0.471751708333333,0,0xFFFF,
0.471759583333333,0,0xB022,
0.471775291666667,0,0x830D,
0.471783166666667,0,0xB122,
0.471814041666667,0,0x0006,
0.471821750000000,0,0x3B2D,
0.471838125000000,0,0xE519,
0.471846000000000,0,0xBB22,
0.471861708333333,0,0x8000,
0.471869583333333,0,0xBC22,
0.471885250000000,0,0x8000,
0.471893125000000,0,0xBD22,
0.471908833333333,0,0x8001,
0.471916666666667,0,0xBE22,
0.471932375000000,0,0xE5BA,
0.471940250000000,0,0xBF22,
0.471955958333333,0,0xE5D4,
0.471963791666667,0,0xC022,
0.471994125000000,0,0x000A,
0.472001833333333,0,0x4121,
0.472017791666667,0,0xDB64,
0.472025666666667,0,0xC122,
0.472041375000000,0,0xDC71,
0.472049250000000,0,0xC222,
0.472064958333333,0,0xDF3C,
0.472072833333333,0,0xC322,
0.472088500000000,0,0xE11F,
0.472096375000000,0,0xC422,
0.472112083333333,0,0xA97C,
0.472119958333333,0,0xC522,
0.472135666666667,0,0xFF47,
0.472143500000000,0,0xC622,
0.472159208333333,0,0xC010,
0.472167083333333,0,0xC722,
0.472182791666667,0,0xA3B7,
0.472190666666667,0,0xC822,
0.472206333333333,0,0x9E35,
0.472214208333333,0,0xC922,
0.472229916666667,0,0x9E3E,
0.472237791666667,0,0xCA22,
0.479901208333333,0,0x3C3F,
0.479908875000000,0,0x0607,
0.479936083333333,0,0x0004,
0.479943791666667,0,0x0319,
0.479960000000000,0,0x0A01,
0.479967916666667,0,0x8319,
0.479983750000000,0,0x0F00,
0.479991666666667,0,0x8419,
0.480007500000000,0,0x0000,
0.480015458333333,0,0x8513,
0.480031291666667,0,0x3F3F,
0.480039208333333,0,0x8619,
0.480069416666667,0,0x0004,
0.480077125000000,0,0x031D,
0.480093166666667,0,0x0A01,
0.480101083333333,0,0x831D,
0.480116916666667,0,0x0F00,
0.480124833333333,0,0x841D,
0.480140666666667,0,0x0000,
0.480148583333333,0,0x8513,
0.480164458333333,0,0x3F3F,
0.480172375000000,0,0x861D,
0.480202916666667,0,0x0004,
0.480210625000000,0,0x0311,
0.480226833333333,0,0x0A01,
0.480234708333333,0,0x8311,
0.480250583333333,0,0x0F00,
0.480258500000000,0,0x8411,
0.480274333333333,0,0x0000,
0.480282250000000,0,0x8513,
0.480298083333333,0,0x3F3F,
0.480306000000000,0,0x8611,
0.480336625000000,0,0x0004,
0.480344291666667,0,0x0315,
0.480360458333333,0,0x0A01,
0.480368375000000,0,0x8315,
0.480384250000000,0,0x0F00,
0.480392125000000,0,0x8415,
0.480408000000000,0,0x0000,
0.480415916666667,0,0x8513,
0.480431750000000,0,0x3F3F,
0.480439666666667,0,0x8615,
0.480470250000000,0,0x0004,
0.480477958333333,0,0x0319,
0.480494083333333,0,0x0A01,
0.480502041666667,0,0x8319,
0.480517875000000,0,0x0F00,
0.480525791666667,0,0x8419,
0.480541625000000,0,0x0000,
0.480549541666667,0,0x8513,
0.480565375000000,0,0x373F,
0.480573291666667,0,0x8619,
0.480604250000000,0,0x0001,
0.480611916666667,0,0x1D1D,
0.480628208333333,0,0x1551,
0.480636125000000,0,0x9D1D,
0.480664583333333,0,0x0003,
0.480672250000000,0,0x2411,
0.480688583333333,0,0x0048,
0.480696500000000,0,0xA413,
0.480712291666667,0,0x0040,
0.480720250000000,0,0xA513,
0.480736041666667,0,0x8000,
0.480744000000000,0,0xA613,
0.480772666666667,0,0x0005,
0.480780375000000,0,0x2D15,
0.480796416666667,0,0x1748,
0.480804333333333,0,0xAD13,
0.480820166666667,0,0xFFED,
0.480828083333333,0,0xAE13,
0.480843916666667,0,0x3F30,
0.480851833333333,0,0xAF13,
0.480867666666667,0,0x8000,
0.480875583333333,0,0xB013,
0.480891416666667,0,0x8301,
0.480899333333333,0,0xB113,
0.480929000000000,0,0x0006,
0.480936708333333,0,0x3B19,
0.480952791666667,0,0xB3E4,
0.480960708333333,0,0xBB13,
0.480976541666667,0,0xB32F,
0.480984458333333,0,0xBC13,
0.481000291666667,0,0xB2BE,
0.481008208333333,0,0xBD13,
0.481024041666667,0,0xB1FE,
0.481031958333333,0,0xBE13,
0.481047791666667,0,0xB204,
0.481055750000000,0,0xBF13,
0.481071541666667,0,0xB276,
0.481079500000000,0,0xC013,
0.481108666666667,0,0x000A,
0.481116333333333,0,0x411D,
0.481132416666667,0,0xC0C5,
0.481140333333333,0,0xC113,
0.481156208333333,0,0xC0C8,
0.481164125000000,0,0xC213,
0.481179916666667,0,0xC0C8,
0.481187833333333,0,0xC313,
0.481203708333333,0,0xC088,
0.481211583333333,0,0xC413,
0.481227458333333,0,0xC0A8,
0.481235333333333,0,0xC513,
0.481251166666667,0,0xDD19,
0.481259083333333,0,0xC613,
0.481274916666667,0,0x804B,
0.481282833333333,0,0xC713,
0.481298666666667,0,0xA3D6,
0.481306583333333,0,0xC813,
0.481322458333333,0,0x9E3C,
0.481330333333333,0,0xC913,
0.481346166666667,0,0x9E3C,
0.481354125000000,0,0xCA13,
0.481386250000000,0,0x0004,
0.481393916666667,0,0x0321,
0.481410083333333,0,0x0A01,
0.481417916666667,0,0x8321,
0.481433625000000,0,0x0F00,
0.481441500000000,0,0x8421,
0.481457208333333,0,0x0000,
0.481465041666667,0,0x8523,
0.481480750000000,0,0x373F,
0.481488625000000,0,0x8621,
0.481519000000000,0,0x0001,
0.481526666666667,0,0x1D25,
0.481542625000000,0,0x0055,
0.481550500000000,0,0x9D25,
0.481578541666667,0,0x0003,
0.481586208333333,0,0x2429,
0.481602583333333,0,0x004C,
0.481610416666667,0,0xA423,
0.481626125000000,0,0x0040,
0.481634000000000,0,0xA523,
0.481649708333333,0,0x8000,
0.481657541666667,0,0xA623,
0.481687083333333,0,0x0005,
0.481694750000000,0,0x2D2D,
0.481711041666667,0,0x2568,
0.481718916666667,0,0xAD23,
0.481734625000000,0,0xFFEF,
0.481742500000000,0,0xAE23,
0.481758208333333,0,0xB5B1,
0.481766041666667,0,0xAF23,
0.481781791666667,0,0xFFFF,
0.481789625000000,0,0xB023,
0.481805333333333,0,0x8307,
0.481813208333333,0,0xB123,
0.481843833333333,0,0x0006,
0.481851500000000,0,0x3B21,
0.481867708333333,0,0xE51E,
0.481875541666667,0,0xBB23,
0.481891250000000,0,0x8004,
0.481899125000000,0,0xBC23,
0.481914833333333,0,0x8002,
0.481922708333333,0,0xBD23,
0.481938416666667,0,0x8000,
0.481946291666667,0,0xBE23,
0.481961958333333,0,0xE5BA,
0.481969833333333,0,0xBF23,
0.481985541666667,0,0xE5D5,
0.481993416666667,0,0xC023,
0.482023416666667,0,0x000A,
0.482031125000000,0,0x4125,
0.482047416666667,0,0xDB68,
0.482055291666667,0,0xC123,
0.482071000000000,0,0xDC6F,
0.482078833333333,0,0xC223,
0.482094541666667,0,0xDF3E,
0.482102416666667,0,0xC323,
0.482118125000000,0,0xE120,
0.482126000000000,0,0xC423,
0.482141708333333,0,0xA97B,
0.482149541666667,0,0xC523,
0.482165250000000,0,0xFF4B,
0.482173125000000,0,0xC623,
0.482188833333333,0,0xC016,
0.482196666666667,0,0xC723,
0.482212416666667,0,0xA3B8,
0.482220250000000,0,0xC823,
0.482235958333333,0,0x9E38,
0.482243833333333,0,0xC923,
0.482259541666667,0,0x9E3E,
0.482267375000000,0,0xCA23,
0.489869708333333,0,0x4C3F,
0.489877416666667,0,0x060B,
0.489904666666667,0,0x0004,
0.489912333333333,0,0x031D,
0.489928541666667,0,0x0A01,
0.489936458333333,0,0x831D,
0.489952291666667,0,0x0F00,
0.489960208333333,0,0x841D,
0.489976041666667,0,0x0000,
0.489983958333333,0,0x8514,
0.489999833333333,0,0x4F3F,
0.490007708333333,0,0x861D,
0.490038791666667,0,0x0004,
0.490046500000000,0,0x0311,
0.490062666666667,0,0x0A01,
0.490070583333333,0,0x8311,
0.490086416666667,0,0x0F00,
0.490094333333333,0,0x8411,
0.490110166666667,0,0x0000,
0.490118125000000,0,0x8514,
0.490133958333333,0,0x4F3F,
0.490141875000000,0,0x8611,
0.490172875000000,0,0x0004,
0.490180541666667,0,0x0315,
0.490196791666667,0,0x0A01,
0.490204708333333,0,0x8315,
0.490220583333333,0,0x0F00,
0.490228500000000,0,0x8415,
0.490244333333333,0,0x0000,
0.490252250000000,0,0x8514,
0.490268083333333,0,0x4F3F,
0.490276000000000,0,0x8615,
0.490306833333333,0,0x0004,
0.490314541666667,0,0x0319,
0.490330958333333,0,0x0A01,
0.490338875000000,0,0x8319,
0.490354708333333,0,0x0F00,
0.490362625000000,0,0x8419,
0.490378458333333,0,0x0000,
0.490386375000000,0,0x8514,
0.490402208333333,0,0x4F3F,
0.490410125000000,0,0x8619,
0.490440875000000,0,0x0004,
0.490448541666667,0,0x031D,
0.490464541666667,0,0x0A01,
0.490472458333333,0,0x831D,
0.490488291666667,0,0x0F00,
0.490496208333333,0,0x841D,
0.490512041666667,0,0x0000,
0.490519958333333,0,0x8514,
0.490535791666667,0,0x473F,
0.490543708333333,0,0x861D,
0.490574625000000,0,0x0001,
0.490582291666667,0,0x1D11,
0.490598666666667,0,0x1551,
0.490606583333333,0,0x9D11,
0.490634500000000,0,0x0003,
0.490642166666667,0,0x2415,
0.490658500000000,0,0x0048,
0.490666416666667,0,0xA414,
0.490682250000000,0,0x0040,
0.490690166666667,0,0xA514,
0.490706000000000,0,0x8000,
0.490713916666667,0,0xA614,
0.490743208333333,0,0x0005,
0.490750875000000,0,0x2D19,
0.490766875000000,0,0x1851,
0.490774791666667,0,0xAD14,
0.490790625000000,0,0xFFED,
0.490798541666667,0,0xAE14,
0.490814375000000,0,0x3C59,
0.490822291666667,0,0xAF14,
0.490838125000000,0,0xFFFF,
0.490846041666667,0,0xB014,
0.490861875000000,0,0x830E,
0.490869791666667,0,0xB114,
0.490899833333333,0,0x0006,
0.490907500000000,0,0x3B1D,
0.490923708333333,0,0xB3DF,
0.490931666666667,0,0xBB14,
0.490947458333333,0,0xB328,
0.490955375000000,0,0xBC14,
0.490971208333333,0,0xB2BB,
0.490979166666667,0,0xBD14,
0.490994958333333,0,0xB1FF,
0.491002916666667,0,0xBE14,
0.491018708333333,0,0xB201,
0.491026666666667,0,0xBF14,
0.491042500000000,0,0xB270,
0.491050416666667,0,0xC014,
0.491080041666667,0,0x000A,
0.491087750000000,0,0x4111,
0.491103833333333,0,0xC0C8,
0.491111750000000,0,0xC114,
0.491127583333333,0,0xC0C8,
0.491135500000000,0,0xC214,
0.491151333333333,0,0xC0C4,
0.491159250000000,0,0xC314,
0.491175083333333,0,0xC087,
0.491183000000000,0,0xC414,
0.491198833333333,0,0xC0AB,
0.491206750000000,0,0xC514,
0.491222583333333,0,0xDD17,
0.491230500000000,0,0xC614,
0.491246333333333,0,0x8047,
0.491254250000000,0,0xC714,
0.491270083333333,0,0xA3D3,
0.491278000000000,0,0xC814,
0.491293833333333,0,0x9E38,
0.491301750000000,0,0xC914,
0.491317583333333,0,0x9E3B,
0.491325500000000,0,0xCA14,
0.491357791666667,0,0x0004,
0.491365458333333,0,0x0325,
0.491381500000000,0,0x0A01,
0.491389375000000,0,0x8325,
0.491405083333333,0,0x0F00,
0.491412916666667,0,0x8425,
0.491428666666667,0,0x0000,
0.491436500000000,0,0x8524,
0.491452208333333,0,0x473F,
0.491460041666667,0,0x8625,
0.491490750000000,0,0x0001,
0.491498416666667,0,0x1D29,
0.491514541666667,0,0x0055,
0.491522416666667,0,0x9D29,
0.491550625000000,0,0x0003,
0.491558291666667,0,0x242D,
0.491574458333333,0,0x004C,
0.491582291666667,0,0xA424,
0.491598000000000,0,0x0040,
0.491605875000000,0,0xA524,
0.491621583333333,0,0x8000,
0.491629458333333,0,0xA624,
0.491658958333333,0,0x0005,
0.491666666666667,0,0x2D21,
0.491682958333333,0,0x2674,
0.491690833333333,0,0xAD24,
0.491706541666667,0,0xFFEF,
0.491714375000000,0,0xAE24,
0.491730083333333,0,0xB390,
0.491737958333333,0,0xAF24,
0.491753625000000,0,0x8000,
0.491761500000000,0,0xB024,
0.491777208333333,0,0x8300,
0.491785083333333,0,0xB124,
0.491815958333333,0,0x0006,
0.491823666666667,0,0x3B25,
0.491840041666667,0,0xE519,
0.491847916666667,0,0xBB24,
0.491863625000000,0,0x8000,
0.491871458333333,0,0xBC24,
0.491887166666667,0,0x8000,
0.491895041666667,0,0xBD24,
0.491910750000000,0,0x8002,
0.491918583333333,0,0xBE24,
0.491934333333333,0,0xE5BE,
0.491942166666667,0,0xBF24,
0.491957875000000,0,0xE5D6,
0.491965750000000,0,0xC024,
0.491996416666667,0,0x000A,
0.492004083333333,0,0x4129,
0.492020250000000,0,0xDB69,
0.492028083333333,0,0xC124,
0.492043791666667,0,0xDC72,
0.492051666666667,0,0xC224,
0.492067375000000,0,0xDF3F,
0.492075250000000,0,0xC324,
0.492090958333333,0,0xE122,
0.492098791666667,0,0xC424,
0.492114500000000,0,0xA97F,
0.492122375000000,0,0xC524,
0.492138083333333,0,0xFF4B,
0.492145958333333,0,0xC624,
0.492161666666667,0,0xC015,
0.492169500000000,0,0xC724,
0.492185208333333,0,0xA3B6,
0.492193083333333,0,0xC824,
0.492208791666667,0,0x9E3C,
0.492216625000000,0,0xC924,
0.492232333333333,0,0x9E40,
0.492240208333333,0,0xCA24,
0.500070333333333,0,0x5C3F,
0.500078000000000,0,0x060F,
0.500105000000000,0,0x0004,
0.500112708333333,0,0x0311,
0.500128666666667,0,0x0A01,
0.500136583333333,0,0x8311,
0.500152458333333,0,0x0F00,
0.500160333333333,0,0x8411,
0.500176208333333,0,0x0000,
0.500184125000000,0,0x8515,
0.500199958333333,0,0x5F3F,
0.500207875000000,0,0x8611,
0.500238458333333,0,0x0004,
0.500246125000000,0,0x0315,
0.500262333333333,0,0x0A01,
0.500270250000000,0,0x8315,
0.500286083333333,0,0x0F00,
0.500294000000000,0,0x8415,
0.500309833333333,0,0x0000,
0.500317750000000,0,0x8515,
0.500333583333333,0,0x5F3F,
0.500341500000000,0,0x8615,
0.500371791666667,0,0x0004,
0.500379458333333,0,0x0319,
0.500395458333333,0,0x0A01,
0.500403416666667,0,0x8319,
0.500419250000000,0,0x0F00,
0.500427166666667,0,0x8419,
0.500443000000000,0,0x0000,
0.500450916666667,0,0x8515,
0.500466750000000,0,0x5F3F,
0.500474708333333,0,0x8619,
0.500505833333333,0,0x0004,
0.500513500000000,0,0x031D,
0.500529625000000,0,0x0A01,
0.500537541666667,0,0x831D,
0.500553375000000,0,0x0F00,
0.500561291666667,0,0x841D,
0.500577125000000,0,0x0000,
0.500585041666667,0,0x8515,
0.500600875000000,0,0x5F3F,
0.500608791666667,0,0x861D,
0.500639500000000,0,0x0004,
0.500647166666667,0,0x0311,
0.500663250000000,0,0x0A01,
0.500671166666667,0,0x8311,
0.500687000000000,0,0x0F00,
0.500694916666667,0,0x8411,
0.500710750000000,0,0x0000,
0.500718666666667,0,0x8515,
0.500734500000000,0,0x573F,
0.500742416666667,0,0x8611,
0.500773333333333,0,0x0001,
0.500781041666667,0,0x1D15,
0.500797333333333,0,0x1551,
0.500805250000000,0,0x9D15,
0.500833458333333,0,0x0003,
0.500841125000000,0,0x2419,
0.500857208333333,0,0x0048,
0.500865125000000,0,0xA415,
0.500880958333333,0,0x0040,
0.500888875000000,0,0xA515,
0.500904708333333,0,0x8000,
0.500912625000000,0,0xA615,
0.500941791666667,0,0x0005,
0.500949458333333,0,0x2D1D,
0.500965541666667,0,0x1960,
0.500973500000000,0,0xAD15,
0.500989291666667,0,0xFFED,
0.500997208333333,0,0xAE15,
0.501013083333333,0,0x391A,
0.501020958333333,0,0xAF15,
0.501036791666667,0,0xFFFF,
0.501044750000000,0,0xB015,
0.501060583333333,0,0x830E,
0.501068458333333,0,0xB115,
0.501098791666667,0,0x0006,
0.501106458333333,0,0x3B11,
0.501122875000000,0,0xB3E2,
0.501130791666667,0,0xBB15,
0.501146625000000,0,0xB32F,
0.501154541666667,0,0xBC15,
0.501170416666667,0,0xB2BF,
0.501178291666667,0,0xBD15,
0.501194166666667,0,0xB201,
0.501202041666667,0,0xBE15,
0.501217916666667,0,0xB207,
0.501225791666667,0,0xBF15,
0.501241666666667,0,0xB276,
0.501249583333333,0,0xC015,
0.501279166666667,0,0x000A,
0.501286833333333,0,0x4115,
0.501303000000000,0,0xC0C0,
0.501310916666667,0,0xC115,
0.501326750000000,0,0xC0C5,
0.501334666666667,0,0xC215,
0.501350500000000,0,0xC0C2,
0.501358416666667,0,0xC315,
0.501374250000000,0,0xC086,
0.501382166666667,0,0xC415,
0.501398000000000,0,0xC0A9,
0.501405916666667,0,0xC515,
0.501421750000000,0,0xDD18,
0.501429666666667,0,0xC615,
0.501445500000000,0,0x8045,
0.501453416666667,0,0xC715,
0.501469250000000,0,0xA3D5,
0.501477166666667,0,0xC815,
0.501493000000000,0,0x9E35,
0.501500916666667,0,0xC915,
0.501516750000000,0,0x9E3C,
0.501524666666667,0,0xCA15,
0.501557000000000,0,0x0004,
0.501564666666667,0,0x0329,
0.501581000000000,0,0x0A01,
0.501588875000000,0,0x8329,
0.501604583333333,0,0x0F00,
0.501612416666667,0,0x8429,
0.501628166666667,0,0x0000,
0.501636000000000,0,0x8525,
0.501651708333333,0,0x573F,
0.501659541666667,0,0x8629,
0.501689541666667,0,0x0001,
0.501697208333333,0,0x1D2D,
0.501713583333333,0,0x0055,
0.501721458333333,0,0x9D2D,
0.501749625000000,0,0x0003,
0.501757291666667,0,0x2421,
0.501773458333333,0,0x004C,
0.501781333333333,0,0xA425,
0.501797041666667,0,0x0040,
0.501804916666667,0,0xA525,
0.501820583333333,0,0x8000,
0.501828458333333,0,0xA625,
0.501858208333333,0,0x0005,
0.501865875000000,0,0x2D25,
0.501881958333333,0,0x2785,
0.501889833333333,0,0xAD25,
0.501905541666667,0,0xFFEF,
0.501913416666667,0,0xAE25,
0.501929125000000,0,0xB18C,
0.501936958333333,0,0xAF25,
0.501952666666667,0,0xFFFF,
0.501960541666667,0,0xB025,
0.501976208333333,0,0x830A,
0.501984083333333,0,0xB125,
0.502013666666667,0,0x0006,
0.502021333333333,0,0x3B29,
0.502037625000000,0,0xE511,
0.502045458333333,0,0xBB25,
0.502061166666667,0,0x8000,
0.502069041666667,0,0xBC25,
0.502084750000000,0,0x8000,
0.502092625000000,0,0xBD25,
0.502108333333333,0,0x8001,
0.502116208333333,0,0xBE25,
0.502131875000000,0,0xE5BF,
0.502139750000000,0,0xBF25,
0.502155458333333,0,0xE5D4,
0.502163333333333,0,0xC025,
0.502193125000000,0,0x000A,
0.502200791666667,0,0x412D,
0.502216875000000,0,0xDB69,
0.502224708333333,0,0xC125,
0.502240416666667,0,0xDC71,
0.502248250000000,0,0xC225,
0.502264000000000,0,0xDF3D,
0.502271833333333,0,0xC325,
0.502287541666667,0,0xE123,
0.502295416666667,0,0xC425,
0.502311125000000,0,0xA97E,
0.502318958333333,0,0xC525,
0.502334666666667,0,0xFF4B,
0.502342541666667,0,0xC625,
0.502358250000000,0,0xC016,
0.502366083333333,0,0xC725,
0.502381791666667,0,0xA3B7,
0.502389666666667,0,0xC825,
0.502405375000000,0,0x9E39,
0.502413250000000,0,0xC925,
0.502428958333333,0,0x9E3E,
0.502436791666667,0,0xCA25,
0.509886458333333,0,0x6C3F,
0.509894125000000,0,0x0603,
0.509922125000000,0,0x0004,
0.509929833333333,0,0x0315,
0.509945916666667,0,0x0A01,
0.509953833333333,0,0x8315,
0.509969666666667,0,0x0F00,
0.509977583333333,0,0x8415,
0.509993458333333,0,0x0000,
0.510001375000000,0,0x8516,
0.510017208333333,0,0x6F3F,
0.510025125000000,0,0x8615,
0.510056041666667,0,0x0004,
0.510063750000000,0,0x0319,
0.510080041666667,0,0x0A01,
0.510088000000000,0,0x8319,
0.510103833333333,0,0x0F00,
0.510111708333333,0,0x8419,
0.510127583333333,0,0x0000,
0.510135500000000,0,0x8516,
0.510151333333333,0,0x6F3F,
0.510159250000000,0,0x8619,
0.510189625000000,0,0x0004,
0.510197291666667,0,0x031D,
0.510213666666667,0,0x0A01,
0.510221583333333,0,0x831D,
0.510237458333333,0,0x0F00,
0.510245375000000,0,0x841D,
0.510261208333333,0,0x0000,
0.510269125000000,0,0x8516,
0.510284958333333,0,0x6F3F,
0.510292875000000,0,0x861D,
0.510323500000000,0,0x0004,
0.510331208333333,0,0x0311,
0.510347333333333,0,0x0A01,
0.510355250000000,0,0x8311,
0.510371083333333,0,0x0F00,
0.510379000000000,0,0x8411,
0.510394833333333,0,0x0000,
0.510402750000000,0,0x8516,
0.510418583333333,0,0x6F3F,
0.510426500000000,0,0x8611,
0.510457000000000,0,0x0004,
0.510464708333333,0,0x0315,
0.510480916666667,0,0x0A01,
0.510488833333333,0,0x8315,
0.510504666666667,0,0x0F00,
0.510512583333333,0,0x8415,
0.510528416666667,0,0x0000,
0.510536333333333,0,0x8516,
0.510552208333333,0,0x673F,
0.510560083333333,0,0x8615,
0.510590708333333,0,0x0001,
0.510598416666667,0,0x1D19,
0.510614541666667,0,0x1551,
0.510622458333333,0,0x9D19,
0.510650208333333,0,0x0003,
0.510657875000000,0,0x241D,
0.510673916666667,0,0x0048,
0.510681875000000,0,0xA416,
0.510697708333333,0,0x0040,
0.510705625000000,0,0xA516,
0.510721458333333,0,0x8000,
0.510729375000000,0,0xA616,
0.510758041666667,0,0x0005,
0.510765708333333,0,0x2D11,
0.510781833333333,0,0x1A65,
0.510789750000000,0,0xAD16,
0.510805583333333,0,0xFFED,
0.510813500000000,0,0xAE16,
0.510829333333333,0,0x36E9,
0.510837250000000,0,0xAF16,
0.510853083333333,0,0xFFFF,
0.510861000000000,0,0xB016,
0.510876833333333,0,0x830E,
0.510884750000000,0,0xB116,
0.510914666666667,0,0x0006,
0.510922333333333,0,0x3B15,
0.510938666666667,0,0xB3E0,
0.510946625000000,0,0xBB16,
0.510962458333333,0,0xB32D,
0.510970333333333,0,0xBC16,
0.510986166666667,0,0xB2BC,
0.510994125000000,0,0xBD16,
0.511009958333333,0,0xB200,
0.511017875000000,0,0xBE16,
0.511033666666667,0,0xB201,
0.511041625000000,0,0xBF16,
0.511057458333333,0,0xB273,
0.511065333333333,0,0xC016,
0.511095875000000,0,0x000A,
0.511103583333333,0,0x4119,
0.511119791666667,0,0xC0BF,
0.511127708333333,0,0xC116,
0.511143541666667,0,0xC0BF,
0.511151458333333,0,0xC216,
0.511167291666667,0,0xC0C3,
0.511175208333333,0,0xC316,
0.511191041666667,0,0xC080,
0.511199000000000,0,0xC416,
0.511214791666667,0,0xC0A7,
0.511222750000000,0,0xC516,
0.511238541666667,0,0xDD14,
0.511246500000000,0,0xC616,
0.511262333333333,0,0x8042,
0.511270250000000,0,0xC716,
0.511286083333333,0,0xA3D5,
0.511294000000000,0,0xC816,
0.511309833333333,0,0x9E32,
0.511317750000000,0,0xC916,
0.511333583333333,0,0x9E3C,
0.511341458333333,0,0xCA16,
0.511373583333333,0,0x0004,
0.511381291666667,0,0x032D,
0.511397625000000,0,0x0A01,
0.511405500000000,0,0x832D,
0.511421208333333,0,0x0F00,
0.511429041666667,0,0x842D,
0.511444791666667,0,0x0000,
0.511452666666667,0,0x8526,
0.511468333333333,0,0x673F,
0.511476208333333,0,0x862D,
0.511506000000000,0,0x0001,
0.511513666666667,0,0x1D21,
0.511529750000000,0,0x0055,
0.511537583333333,0,0x9D21,
0.511565458333333,0,0x0003,
0.511573125000000,0,0x2425,
0.511589166666667,0,0x004C,
0.511597000000000,0,0xA426,
0.511612708333333,0,0x0040,
0.511620583333333,0,0xA526,
0.511636291666667,0,0x8000,
0.511644166666667,0,0xA626,
0.511673166666667,0,0x0005,
0.511680875000000,0,0x2D29,
0.511697166666667,0,0x288C,
0.511705041666667,0,0xAD26,
0.511720750000000,0,0xFFEF,
0.511728583333333,0,0xAE26,
0.511744333333333,0,0xAFC8,
0.511752166666667,0,0xAF26,
0.511767875000000,0,0xFFFF,
0.511775750000000,0,0xB026,
0.511791458333333,0,0x830E,
0.511799333333333,0,0xB126,
0.511830083333333,0,0x0006,
0.511837791666667,0,0x3B2D,
0.511853791666667,0,0xE51C,
0.511861666666667,0,0xBB26,
0.511877375000000,0,0x8000,
0.511885250000000,0,0xBC26,
0.511900958333333,0,0x8000,
0.511908833333333,0,0xBD26,
0.511924541666667,0,0x8000,
0.511932375000000,0,0xBE26,
0.511948083333333,0,0xE5BA,
0.511955958333333,0,0xBF26,
0.511971666666667,0,0xE5D3,
0.511979500000000,0,0xC026,
0.512010041666667,0,0x000A,
0.512017708333333,0,0x4121,
0.512034000000000,0,0xDB69,
0.512041875000000,0,0xC126,
0.512057583333333,0,0xDC71,
0.512065416666667,0,0xC226,
0.512081125000000,0,0xDF40,
0.512089000000000,0,0xC326,
0.512104708333333,0,0xE122,
0.512112583333333,0,0xC426,
0.512128291666667,0,0xA97E,
0.512136125000000,0,0xC526,
0.512151875000000,0,0xFF48,
0.512159708333333,0,0xC626,
0.512175416666667,0,0xC00F,
0.512183291666667,0,0xC726,
0.512199000000000,0,0xA3B6,
0.512206833333333,0,0xC826,
0.512222541666667,0,0x9E3B,
0.512230416666667,0,0xC926,
0.512246125000000,0,0x9E3C,
0.512254000000000,0,0xCA26,
0.520079583333333,0,0x7C3F,
0.520087291666667,0,0x0607,
0.520115000000000,0,0x0004,
0.520122666666667,0,0x0319,
0.520138791666667,0,0x0A01,
0.520146708333333,0,0x8319,
0.520162541666667,0,0x0F00,
0.520170458333333,0,0x8419,
0.520186291666667,0,0x0000,
0.520194250000000,0,0x8517,
0.520210083333333,0,0x7F3F,
0.520218000000000,0,0x8619,
0.520248291666667,0,0x0004,
0.520255958333333,0,0x031D,
0.520272458333333,0,0x0A01,
0.520280375000000,0,0x831D,
0.520296208333333,0,0x0F00,
0.520304125000000,0,0x841D,
0.520319958333333,0,0x0000,
0.520327875000000,0,0x8517,
0.520343750000000,0,0x7F3F,
0.520351625000000,0,0x861D,
0.520382833333333,0,0x0004,
0.520390500000000,0,0x0311,
0.520406625000000,0,0x0A01,
0.520414500000000,0,0x8311,
0.520430375000000,0,0x0F00,
0.520438291666667,0,0x8411,
0.520454125000000,0,0x0000,
0.520462041666667,0,0x8517,
0.520477875000000,0,0x7F3F,
0.520485791666667,0,0x8611,
0.520516875000000,0,0x0004,
0.520524541666667,0,0x0315,
0.520540750000000,0,0x0A01,
0.520548666666667,0,0x8315,
0.520564500000000,0,0x0F00,
0.520572416666667,0,0x8415,
0.520588250000000,0,0x0000,
0.520596166666667,0,0x8517,
0.520612000000000,0,0x7F3F,
0.520619958333333,0,0x8615,
0.520650333333333,0,0x0004,
0.520658041666667,0,0x0319,
0.520674375000000,0,0x0A01,
0.520682291666667,0,0x8319,
0.520698125000000,0,0x0F00,
0.520706041666667,0,0x8419,
0.520721875000000,0,0x0000,
0.520729791666667,0,0x8517,
0.520745625000000,0,0x773F,
0.520753583333333,0,0x8619,
0.520784500000000,0,0x0001,
0.520792166666667,0,0x1D1D,
0.520808500000000,0,0x1551,
0.520816416666667,0,0x9D1D,
0.520844208333333,0,0x0003,
0.520851875000000,0,0x2411,
0.520867875000000,0,0x0048,
0.520875791666667,0,0xA417,
0.520891625000000,0,0x0040,
0.520899541666667,0,0xA517,
0.520915375000000,0,0x8000,
0.520923291666667,0,0xA617,
0.520952500000000,0,0x0005,
0.520960166666667,0,0x2D15,
0.520976208333333,0,0x1B74,
0.520984125000000,0,0xAD17,
0.520999958333333,0,0xFFED,
0.521007875000000,0,0xAE17,
0.521023708333333,0,0x33B2,
0.521031625000000,0,0xAF17,
0.521047458333333,0,0xFFFF,
0.521055375000000,0,0xB017,
0.521071208333333,0,0x830A,
0.521079125000000,0,0xB117,
0.521108791666667,0,0x0006,
0.521116458333333,0,0x3B19,
0.521132583333333,0,0xB3DF,
0.521140500000000,0,0xBB17,
0.521156333333333,0,0xB32C,
0.521164250000000,0,0xBC17,
0.521180083333333,0,0xB2BC,
0.521188000000000,0,0xBD17,
0.521203833333333,0,0xB1FF,
0.521211791666667,0,0xBE17,
0.521227583333333,0,0xB205,
0.521235541666667,0,0xBF17,
0.521251375000000,0,0xB272,
0.521259291666667,0,0xC017,
0.521289458333333,0,0x000A,
0.521297125000000,0,0x411D,
0.521313250000000,0,0xC0C7,
0.521321125000000,0,0xC117,
0.521337000000000,0,0xC0C8,
0.521344875000000,0,0xC217,
0.521360750000000,0,0xC0C5,
0.521368666666667,0,0xC317,
0.521384458333333,0,0xC086,
0.521392416666667,0,0xC417,
0.521408250000000,0,0xC0AA,
0.521416166666667,0,0xC517,
0.521432000000000,0,0xDD16,
0.521439916666667,0,0xC617,
0.521455750000000,0,0x8045,
0.521463666666667,0,0xC717,
0.521479500000000,0,0xA3D9,
0.521487416666667,0,0xC817,
0.521503250000000,0,0x9E3A,
0.521511166666667,0,0xC917,
0.521527000000000,0,0x9E3D,
0.521534958333333,0,0xCA17,
0.521566916666667,0,0x0004,
0.521574583333333,0,0x0321,
0.521590833333333,0,0x0A01,
0.521598708333333,0,0x8321,
0.521614416666667,0,0x0F00,
0.521622250000000,0,0x8421,
0.521638000000000,0,0x0000,
0.521645833333333,0,0x8527,
0.521661541666667,0,0x773F,
0.521669416666667,0,0x8621,
0.521700000000000,0,0x0001,
0.521707708333333,0,0x1D25,
0.521723875000000,0,0x0055,
0.521731750000000,0,0x9D25,
0.521759583333333,0,0x0003,
0.521767250000000,0,0x2429,
0.521783333333333,0,0x004C,
0.521791166666667,0,0xA427,
0.521806875000000,0,0x0040,
0.521814750000000,0,0xA527,
0.521830458333333,0,0x8000,
0.521838291666667,0,0xA627,
0.521867708333333,0,0x0005,
0.521875416666667,0,0x2D2D,
0.521891333333333,0,0x299D,
0.521899208333333,0,0xAD27,
0.521914916666667,0,0xFFEF,
0.521922750000000,0,0xAE27,
0.521938458333333,0,0xAD76,
0.521946291666667,0,0xAF27,
0.521962041666667,0,0x8000,
0.521969875000000,0,0xB027,
0.521985583333333,0,0x8300,
0.521993416666667,0,0xB127,
0.522022875000000,0,0x0006,
0.522030541666667,0,0x3B21,
0.522046958333333,0,0xE519,
0.522054833333333,0,0xBB27,
0.522070541666667,0,0x8002,
0.522078375000000,0,0xBC27,
0.522094083333333,0,0x8000,
0.522101958333333,0,0xBD27,
0.522117666666667,0,0x8000,
0.522125541666667,0,0xBE27,
0.522141208333333,0,0xE5B5,
0.522149083333333,0,0xBF27,
0.522164791666667,0,0xE5D2,
0.522172666666667,0,0xC027,
0.522202583333333,0,0x000A,
0.522210291666667,0,0x4125,
0.522226666666667,0,0xDB64,
0.522234500000000,0,0xC127,
0.522250250000000,0,0xDC70,
0.522258083333333,0,0xC227,
0.522273791666667,0,0xDF3E,
0.522281666666667,0,0xC327,
0.522297375000000,0,0xE124,
0.522305208333333,0,0xC427,
0.522320916666667,0,0xA980,
0.522328791666667,0,0xC527,
0.522344500000000,0,0xFF49,
0.522352375000000,0,0xC627,
0.522368041666667,0,0xC011,
0.522375916666667,0,0xC727,
0.522391625000000,0,0xA3B7,
0.522399500000000,0,0xC827,
0.522415208333333,0,0x9E3A,
0.522423041666667,0,0xC927,
0.522438750000000,0,0x9E41,
0.522446625000000,0,0xCA27,
0.529877833333333,0,0x8C3F,
0.529885500000000,0,0x060B,
0.529913208333333,0,0x0004,
0.529920916666667,0,0x031D,
0.529936916666667,0,0x0A01,
0.529944791666667,0,0x831D,
0.529960625000000,0,0x0F00,
0.529968583333333,0,0x841D,
0.529984416666667,0,0x0000,
0.529992333333333,0,0x8518,
0.530008166666667,0,0x8F3F,
0.530016083333333,0,0x861D,
0.530047125000000,0,0x0004,
0.530054833333333,0,0x0311,
0.530071041666667,0,0x0A01,
0.530078958333333,0,0x8311,
0.530094791666667,0,0x0F00,
0.530102708333333,0,0x8411,
0.530118541666667,0,0x0000,
0.530126458333333,0,0x8518,
0.530142333333333,0,0x8F3F,
0.530150208333333,0,0x8611,
0.530180666666667,0,0x0004,
0.530188333333333,0,0x0315,
0.530204666666667,0,0x0A01,
0.530212583333333,0,0x8315,
0.530228416666667,0,0x0F00,
0.530236333333333,0,0x8415,
0.530252166666667,0,0x0000,
0.530260125000000,0,0x8518,
0.530275958333333,0,0x8F3F,
0.530283875000000,0,0x8615,
0.530314500000000,0,0x0004,
0.530322166666667,0,0x0319,
0.530338333333333,0,0x0A01,
0.530346208333333,0,0x8319,
0.530362083333333,0,0x0F00,
0.530370000000000,0,0x8419,
0.530385833333333,0,0x0000,
0.530393750000000,0,0x8518,
0.530409583333333,0,0x8F3F,
0.530417500000000,0,0x8619,
0.530449416666667,0,0x0004,
0.530457083333333,0,0x031D,
0.530473416666667,0,0x0A01,
0.530481333333333,0,0x831D,
0.530497166666667,0,0x0F00,
0.530505083333333,0,0x841D,
0.530520875000000,0,0x0000,
0.530528833333333,0,0x8518,
0.530544625000000,0,0x873F,
0.530552541666667,0,0x861D,
0.530583500000000,0,0x0001,
0.530591208333333,0,0x1D11,
0.530607416666667,0,0x1551,
0.530615333333333,0,0x9D11,
0.530643541666667,0,0x0003,
0.530651250000000,0,0x2415,
0.530667291666667,0,0x0048,
0.530675208333333,0,0xA418,
0.530691041666667,0,0x0040,
0.530698916666667,0,0xA518,
0.530714750000000,0,0x8000,
0.530722666666667,0,0xA618,
0.530751416666667,0,0x0005,
0.530759125000000,0,0x2D19,
0.530775083333333,0,0x1C79,
0.530783041666667,0,0xAD18,
0.530798875000000,0,0xFFED,
0.530806750000000,0,0xAE18,
0.530822583333333,0,0x30B7,
0.530830500000000,0,0xAF18,
0.530846333333333,0,0xFFFF,
0.530854250000000,0,0xB018,
0.530870083333333,0,0x830C,
0.530878000000000,0,0xB118,
0.530908041666667,0,0x0006,
0.530915708333333,0,0x3B1D,
0.530931958333333,0,0xB3DE,
0.530939833333333,0,0xBB18,
0.530955666666667,0,0xB32A,
0.530963583333333,0,0xBC18,
0.530979458333333,0,0xB2BB,
0.530987333333333,0,0xBD18,
0.531003208333333,0,0xB1FC,
0.531011125000000,0,0xBE18,
0.531026958333333,0,0xB1FE,
0.531034875000000,0,0xBF18,
0.531050708333333,0,0xB270,
0.531058625000000,0,0xC018,
0.531089166666667,0,0x000A,
0.531096833333333,0,0x4111,
0.531113083333333,0,0xC0C7,
0.531120958333333,0,0xC118,
0.531136791666667,0,0xC0C7,
0.531144750000000,0,0xC218,
0.531160583333333,0,0xC0C8,
0.531168500000000,0,0xC318,
0.531184291666667,0,0xC089,
0.531192250000000,0,0xC418,
0.531208041666667,0,0xC0AD,
0.531216000000000,0,0xC518,
0.531231833333333,0,0xDD1A,
0.531239750000000,0,0xC618,
0.531255583333333,0,0x8048,
0.531263500000000,0,0xC718,
0.531279333333333,0,0xA3D5,
0.531287250000000,0,0xC818,
0.531303083333333,0,0x9E3B,
0.531311000000000,0,0xC918,
0.531326833333333,0,0x9E3C,
0.531334750000000,0,0xCA18,
0.531366666666667,0,0x0004,
0.531374375000000,0,0x0325,
0.531390500000000,0,0x0A01,
0.531398333333333,0,0x8325,
0.531414041666667,0,0x0F00,
0.531421916666667,0,0x8425,
0.531437583333333,0,0x0000,
0.531445458333333,0,0x8528,
0.531461166666667,0,0x873F,
0.531469041666667,0,0x8625,
0.531500041666667,0,0x0001,
0.531507708333333,0,0x1D29,
0.531524000000000,0,0x0055,
0.531531875000000,0,0x9D29,
0.531560000000000,0,0x0003,
0.531567708333333,0,0x242D,
0.531583916666667,0,0x004C,
0.531591791666667,0,0xA428,
0.531607458333333,0,0x0040,
0.531615333333333,0,0xA528,
0.531631041666667,0,0x8000,
0.531638916666667,0,0xA628,
0.531667500000000,0,0x0005,
0.531675166666667,0,0x2D21,
0.531691416666667,0,0x2AA4,
0.531699291666667,0,0xAD28,
0.531715000000000,0,0xFFEF,
0.531722833333333,0,0xAE28,
0.531738541666667,0,0xAB05,
0.531746416666667,0,0xAF28,
0.531762125000000,0,0x8000,
0.531770000000000,0,0xB028,
0.531785708333333,0,0x8303,
0.531793541666667,0,0xB128,
0.531824583333333,0,0x0006,
0.531832250000000,0,0x3B25,
0.531848541666667,0,0xE519,
0.531856375000000,0,0xBB28,
0.531872125000000,0,0x8002,
0.531879958333333,0,0xBC28,
0.531895666666667,0,0x8001,
0.531903541666667,0,0xBD28,
0.531919250000000,0,0x8002,
0.531927125000000,0,0xBE28,
0.531942833333333,0,0xE5BA,
0.531950666666667,0,0xBF28,
0.531966375000000,0,0xE5D4,
0.531974250000000,0,0xC028,
0.532005458333333,0,0x000A,
0.532013166666667,0,0x4129,
0.532029208333333,0,0xDB67,
0.532037083333333,0,0xC128,
0.532052791666667,0,0xDC6E,
0.532060625000000,0,0xC228,
0.532076333333333,0,0xDF3F,
0.532084208333333,0,0xC328,
0.532099916666667,0,0xE11D,
0.532107791666667,0,0xC428,
0.532123500000000,0,0xA97B,
0.532131333333333,0,0xC528,
0.532147083333333,0,0xFF49,
0.532154916666667,0,0xC628,
0.532170625000000,0,0xC013,
0.532178500000000,0,0xC728,
0.532194208333333,0,0xA3B7,
0.532202041666667,0,0xC828,
0.532217750000000,0,0x9E35,
0.532225625000000,0,0xC928,
0.532241333333333,0,0x9E41,
0.532249208333333,0,0xCA28,
0.539904458333333,0,0x9C3F,
0.539912125000000,0,0x060F,
0.539939333333333,0,0x0004,
0.539947000000000,0,0x0311,
0.539963416666667,0,0x0A01,
0.539971333333333,0,0x8311,
0.539987166666667,0,0x0F00,
0.539995083333333,0,0x8411,
0.540010916666667,0,0x0000,
0.540018833333333,0,0x8519,
0.540034666666667,0,0x9F3F,
0.540042625000000,0,0x8611,
0.540073625000000,0,0x0004,
0.540081291666667,0,0x0315,
0.540097541666667,0,0x0A01,
0.540105458333333,0,0x8315,
0.540121291666667,0,0x0F00,
0.540129208333333,0,0x8415,
0.540145041666667,0,0x0000,
0.540153000000000,0,0x8519,
0.540168833333333,0,0x9F3F,
0.540176750000000,0,0x8615,
0.540207458333333,0,0x0004,
0.540215125000000,0,0x0319,
0.540231208333333,0,0x0A01,
0.540239125000000,0,0x8319,
0.540254958333333,0,0x0F00,
0.540262875000000,0,0x8419,
0.540278708333333,0,0x0000,
0.540286625000000,0,0x8519,
0.540302458333333,0,0x9F3F,
0.540310375000000,0,0x8619,
0.540341416666667,0,0x0004,
0.540349083333333,0,0x031D,
0.540365291666667,0,0x0A01,
0.540373208333333,0,0x831D,
0.540389041666667,0,0x0F00,
0.540396958333333,0,0x841D,
0.540412791666667,0,0x0000,
0.540420708333333,0,0x8519,
0.540436541666667,0,0x9F3F,
0.540444458333333,0,0x861D,
0.540475583333333,0,0x0004,
0.540483250000000,0,0x0311,
0.540499416666667,0,0x0A01,
0.540507291666667,0,0x8311,
0.540523166666667,0,0x0F00,
0.540531083333333,0,0x8411,
0.540546916666667,0,0x0000,
0.540554833333333,0,0x8519,
0.540570666666667,0,0x973F,
0.540578583333333,0,0x8611,
0.540608875000000,0,0x0001,
0.540616541666667,0,0x1D15,
0.540632958333333,0,0x1551,
0.540640916666667,0,0x9D15,
0.540668708333333,0,0x0003,
0.540676375000000,0,0x2419,
0.540692333333333,0,0x0048,
0.540700291666667,0,0xA419,
0.540716083333333,0,0x0040,
0.540724000000000,0,0xA519,
0.540739833333333,0,0x8000,
0.540747791666667,0,0xA619,
0.540777375000000,0,0x0005,
0.540785083333333,0,0x2D1D,
0.540801208333333,0,0x1D83,
0.540809125000000,0,0xAD19,
0.540824958333333,0,0xFFED,
0.540832875000000,0,0xAE19,
0.540848708333333,0,0x2D9D,
0.540856625000000,0,0xAF19,
0.540872458333333,0,0xFFFF,
0.540880375000000,0,0xB019,
0.540896208333333,0,0x830B,
0.540904125000000,0,0xB119,
0.540934375000000,0,0x0006,
0.540942041666667,0,0x3B11,
0.540958041666667,0,0xB3E1,
0.540965958333333,0,0xBB19,
0.540981791666667,0,0xB32B,
0.540989708333333,0,0xBC19,
0.541005541666667,0,0xB2B6,
0.541013458333333,0,0xBD19,
0.541029291666667,0,0xB1FB,
0.541037208333333,0,0xBE19,
0.541053041666667,0,0xB1FE,
0.541060958333333,0,0xBF19,
0.541076791666667,0,0xB270,
0.541084750000000,0,0xC019,
0.541114875000000,0,0x000A,
0.541122583333333,0,0x4115,
0.541138666666667,0,0xC0C4,
0.541146583333333,0,0xC119,
0.541162416666667,0,0xC0C4,
0.541170333333333,0,0xC219,
0.541186166666667,0,0xC0C5,
0.541194083333333,0,0xC319,
0.541209916666667,0,0xC084,
0.541217833333333,0,0xC419,
0.541233666666667,0,0xC0A8,
0.541241583333333,0,0xC519,
0.541257416666667,0,0xDD13,
0.541265333333333,0,0xC619,
0.541281166666667,0,0x8044,
0.541289083333333,0,0xC719,
0.541304916666667,0,0xA3D5,
0.541312833333333,0,0xC819,
0.541328666666667,0,0x9E3A,
0.541336625000000,0,0xC919,
0.541352458333333,0,0x9E3D,
0.541360333333333,0,0xCA19,
0.541392458333333,0,0x0004,
0.541400166666667,0,0x0329,
0.541416208333333,0,0x0A01,
0.541424041666667,0,0x8329,
0.541439750000000,0,0x0F00,
0.541447625000000,0,0x8429,
0.541463333333333,0,0x0000,
0.541471208333333,0,0x8529,
0.541486916666667,0,0x973F,
0.541494750000000,0,0x8629,
0.541524583333333,0,0x0001,
0.541532250000000,0,0x1D2D,
0.541548291666667,0,0x0055,
0.541556125000000,0,0x9D2D,
0.541584291666667,0,0x0003,
0.541591958333333,0,0x2421,
0.541608166666667,0,0x004C,
0.541616041666667,0,0xA429,
0.541631750000000,0,0x0040,
0.541639625000000,0,0xA529,
0.541655333333333,0,0x8000,
0.541663166666667,0,0xA629,
0.541691833333333,0,0x0005,
0.541699541666667,0,0x2D25,
0.541715708333333,0,0x2BB0,
0.541723583333333,0,0xAD29,
0.541739291666667,0,0xFFEF,
0.541747166666667,0,0xAE29,
0.541762875000000,0,0xA890,
0.541770708333333,0,0xAF29,
0.541786416666667,0,0xFFFF,
0.541794291666667,0,0xB029,
0.541810000000000,0,0x830A,
0.541817833333333,0,0xB129,
0.541847416666667,0,0x0006,
0.541855125000000,0,0x3B29,
0.541871375000000,0,0xE517,
0.541879208333333,0,0xBB29,
0.541894916666667,0,0x8001,
0.541902791666667,0,0xBC29,
0.541918500000000,0,0x8000,
0.541926333333333,0,0xBD29,
0.541942041666667,0,0x8001,
0.541949916666667,0,0xBE29,
0.541965625000000,0,0xE5BA,
0.541973500000000,0,0xBF29,
0.541989208333333,0,0xE5D4,
0.541997041666667,0,0xC029,
0.542026875000000,0,0x000A,
0.542034541666667,0,0x412D,
0.542050541666667,0,0xDB69,
0.542058416666667,0,0xC129,
0.542074125000000,0,0xDC71,
0.542082000000000,0,0xC229,
0.542097708333333,0,0xDF3F,
0.542105541666667,0,0xC329,
0.542121250000000,0,0xE11F,
0.542129125000000,0,0xC429,
0.542144833333333,0,0xA97B,
0.542152708333333,0,0xC529,
0.542168416666667,0,0xFF44,
0.542176291666667,0,0xC629,
0.542192000000000,0,0xC011,
0.542199833333333,0,0xC729,
0.542215541666667,0,0xA3B7,
0.542223416666667,0,0xC829,
0.542239125000000,0,0x9E39,
0.542246958333333,0,0xC929,
0.542262708333333,0,0x9E39,
0.542270541666667,0,0xCA29,
0.549886208333333,0,0xAC3F,
0.549893875000000,0,0x0603,
0.549921083333333,0,0x0004,
0.549928750000000,0,0x0315,
0.549944750000000,0,0x0A01,
0.549952666666667,0,0x8315,
0.549968541666667,0,0x0F00,
0.549976458333333,0,0x8415,
0.549992291666667,0,0x0000,
0.550000208333333,0,0x851A,
0.550016041666667,0,0xAF3F,
0.550023958333333,0,0x8615,
0.550055500000000,0,0x0004,
0.550063166666667,0,0x0319,
0.550079375000000,0,0x0A01,
0.550087291666667,0,0x8319,
0.550103125000000,0,0x0F00,
0.550111041666667,0,0x8419,
0.550126875000000,0,0x0000,
0.550134791666667,0,0x851A,
0.550150625000000,0,0xAF3F,
0.550158583333333,0,0x8619,
0.550189541666667,0,0x0004,
0.550197250000000,0,0x031D,
0.550213500000000,0,0x0A01,
0.550221416666667,0,0x831D,
0.550237250000000,0,0x0F00,
0.550245208333333,0,0x841D,
0.550261041666667,0,0x0000,
0.550268958333333,0,0x851A,
0.550284750000000,0,0xAF3F,
0.550292666666667,0,0x861D,
0.550323583333333,0,0x0004,
0.550331250000000,0,0x0311,
0.550347583333333,0,0x0A01,
0.550355500000000,0,0x8311,
0.550371333333333,0,0x0F00,
0.550379250000000,0,0x8411,
0.550395083333333,0,0x0000,
0.550403000000000,0,0x851A,
0.550418875000000,0,0xAF3F,
0.550426791666667,0,0x8611,
0.550458083333333,0,0x0004,
0.550465750000000,0,0x0315,
0.550482166666667,0,0x0A01,
0.550490083333333,0,0x8315,
0.550505916666667,0,0x0F00,
0.550513833333333,0,0x8415,
0.550529666666667,0,0x0000,
0.550537583333333,0,0x851A,
0.550553416666667,0,0xA73F,
0.550561333333333,0,0x8615,
0.550591875000000,0,0x0001,
0.550599541666667,0,0x1D19,
0.550615750000000,0,0x1551,
0.550623666666667,0,0x9D19,
0.550651500000000,0,0x0003,
0.550659166666667,0,0x241D,
0.550675583333333,0,0x0048,
0.550683541666667,0,0xA41A,
0.550699375000000,0,0x0040,
0.550707250000000,0,0xA51A,
0.550723083333333,0,0x8000,
0.550731000000000,0,0xA61A,
0.550760791666667,0,0x0005,
0.550768458333333,0,0x2D11,
0.550784416666667,0,0x1E8D,
0.550792375000000,0,0xAD1A,
0.550808208333333,0,0xFFED,
0.550816125000000,0,0xAE1A,
0.550831958333333,0,0x2B40,
0.550839875000000,0,0xAF1A,
0.550855708333333,0,0x8000,
0.550863625000000,0,0xB01A,
0.550879458333333,0,0x8302,
0.550887375000000,0,0xB11A,
0.550917375000000,0,0x0006,
0.550925041666667,0,0x3B15,
0.550941333333333,0,0xB3E1,
0.550949250000000,0,0xBB1A,
0.550965041666667,0,0xB329,
0.550973000000000,0,0xBC1A,
0.550988833333333,0,0xB2B8,
0.550996750000000,0,0xBD1A,
0.551012583333333,0,0xB1FD,
0.551020500000000,0,0xBE1A,
0.551036333333333,0,0xB206,
0.551044250000000,0,0xBF1A,
0.551060083333333,0,0xB270,
0.551068000000000,0,0xC01A,
0.551098166666667,0,0x000A,
0.551105833333333,0,0x4119,
0.551121916666667,0,0xC0C7,
0.551129833333333,0,0xC11A,
0.551145666666667,0,0xC0C7,
0.551153583333333,0,0xC21A,
0.551169416666667,0,0xC0C8,
0.551177333333333,0,0xC31A,
0.551193166666667,0,0xC086,
0.551201083333333,0,0xC41A,
0.551216916666667,0,0xC0AC,
0.551224833333333,0,0xC51A,
0.551240666666667,0,0xDD18,
0.551248583333333,0,0xC61A,
0.551264416666667,0,0x8047,
0.551272333333333,0,0xC71A,
0.551288208333333,0,0xA3D6,
0.551296125000000,0,0xC81A,
0.551311958333333,0,0x9E3B,
0.551319875000000,0,0xC91A,
0.551335708333333,0,0x9E3B,
0.551343625000000,0,0xCA1A,
0.551375791666667,0,0x0004,
0.551383500000000,0,0x032D,
0.551399416666667,0,0x0A01,
0.551407291666667,0,0x832D,
0.551423000000000,0,0x0F00,
0.551430833333333,0,0x842D,
0.551446541666667,0,0x0000,
0.551454416666667,0,0x852A,
0.551470125000000,0,0xA73F,
0.551477958333333,0,0x862D,
0.551508791666667,0,0x0001,
0.551516458333333,0,0x1D21,
0.551532458333333,0,0x0055,
0.551540333333333,0,0x9D21,
0.551568458333333,0,0x0003,
0.551576125000000,0,0x2425,
0.551592375000000,0,0x004C,
0.551600250000000,0,0xA42A,
0.551615958333333,0,0x0040,
0.551623791666667,0,0xA52A,
0.551639500000000,0,0x8000,
0.551647375000000,0,0xA62A,
0.551676583333333,0,0x0005,
0.551684250000000,0,0x2D29,
0.551700375000000,0,0x2CBC,
0.551708250000000,0,0xAD2A,
0.551723958333333,0,0xFFEF,
0.551731791666667,0,0xAE2A,
0.551747500000000,0,0xA6C8,
0.551755375000000,0,0xAF2A,
0.551771083333333,0,0xFFFF,
0.551778916666667,0,0xB02A,
0.551794625000000,0,0x830B,
0.551802500000000,0,0xB12A,
0.551834250000000,0,0x0006,
0.551841916666667,0,0x3B2D,
0.551858000000000,0,0xE51B,
0.551865833333333,0,0xBB2A,
0.551881541666667,0,0x8002,
0.551889416666667,0,0xBC2A,
0.551905125000000,0,0x8000,
0.551913000000000,0,0xBD2A,
0.551928708333333,0,0x8000,
0.551936541666667,0,0xBE2A,
0.551952250000000,0,0xE5B8,
0.551960125000000,0,0xBF2A,
0.551975833333333,0,0xE5D0,
0.551983666666667,0,0xC02A,
0.552014125000000,0,0x000A,
0.552021791666667,0,0x4121,
0.552038166666667,0,0xDB64,
0.552046041666667,0,0xC12A,
0.552061750000000,0,0xDC70,
0.552069583333333,0,0xC22A,
0.552085291666667,0,0xDF38,
0.552093166666667,0,0xC32A,
0.552108875000000,0,0xE11F,
0.552116708333333,0,0xC42A,
0.552132416666667,0,0xA979,
0.552140291666667,0,0xC52A,
0.552156000000000,0,0xFF44,
0.552163833333333,0,0xC62A,
0.552179541666667,0,0xC012,
0.552187416666667,0,0xC72A,
0.552203125000000,0,0xA3B9,
0.552210958333333,0,0xC82A,
0.552226708333333,0,0x9E34,
0.552234541666667,0,0xC92A,
0.552250250000000,0,0x9E3D,
0.552258125000000,0,0xCA2A,
0.559895541666667,0,0xBC3F,
0.559903250000000,0,0x0607,
0.559931083333333,0,0x0004,
0.559938750000000,0,0x0319,
0.559954875000000,0,0x0A01,
0.559962750000000,0,0x8319,
0.559978625000000,0,0x0F00,
0.559986541666667,0,0x8419,
0.560002375000000,0,0x0000,
0.560010291666667,0,0x851B,
0.560026125000000,0,0xBF3F,
0.560034041666667,0,0x8619,
0.560064791666667,0,0x0004,
0.560072500000000,0,0x031D,
0.560088500000000,0,0x0A01,
0.560096416666667,0,0x831D,
0.560112291666667,0,0x0F00,
0.560120166666667,0,0x841D,
0.560136041666667,0,0x0000,
0.560143958333333,0,0x851B,
0.560159791666667,0,0xBF3F,
0.560167708333333,0,0x861D,
0.560198000000000,0,0x0004,
0.560205666666667,0,0x0311,
0.560221666666667,0,0x0A01,
0.560229583333333,0,0x8311,
0.560245458333333,0,0x0F00,
0.560253333333333,0,0x8411,
0.560269208333333,0,0x0000,
0.560277125000000,0,0x851B,
0.560292958333333,0,0xBF3F,
0.560300875000000,0,0x8611,
0.560332166666667,0,0x0004,
0.560339833333333,0,0x0315,
0.560355791666667,0,0x0A01,
0.560363750000000,0,0x8315,
0.560379583333333,0,0x0F00,
0.560387500000000,0,0x8415,
0.560403333333333,0,0x0000,
0.560411250000000,0,0x851B,
0.560427083333333,0,0xBF3F,
0.560435041666667,0,0x8615,
0.560465791666667,0,0x0004,
0.560473458333333,0,0x0319,
0.560489458333333,0,0x0A01,
0.560497375000000,0,0x8319,
0.560513208333333,0,0x0F00,
0.560521125000000,0,0x8419,
0.560536958333333,0,0x0000,
0.560544833333333,0,0x851B,
0.560560666666667,0,0xB73F,
0.560568625000000,0,0x8619,
0.560599541666667,0,0x0001,
0.560607208333333,0,0x1D1D,
0.560623500000000,0,0x1551,
0.560631416666667,0,0x9D1D,
0.560660083333333,0,0x0003,
0.560667791666667,0,0x2411,
0.560683875000000,0,0x0048,
0.560691791666667,0,0xA41B,
0.560707625000000,0,0x0040,
0.560715541666667,0,0xA51B,
0.560731375000000,0,0x8000,
0.560739291666667,0,0xA61B,
0.560767666666667,0,0x0005,
0.560775375000000,0,0x2D15,
0.560791708333333,0,0x1F97,
0.560799666666667,0,0xAD1B,
0.560815458333333,0,0xFFED,
0.560823375000000,0,0xAE1B,
0.560839250000000,0,0x285C,
0.560847166666667,0,0xAF1B,
0.560863000000000,0,0xFFFF,
0.560870916666667,0,0xB01B,
0.560886750000000,0,0x8306,
0.560894666666667,0,0xB11B,
0.560925041666667,0,0x0006,
0.560932708333333,0,0x3B19,
0.560949125000000,0,0xB3DD,
0.560957041666667,0,0xBB1B,
0.560972875000000,0,0xB328,
0.560980791666667,0,0xBC1B,
0.560996625000000,0,0xB2BB,
0.561004541666667,0,0xBD1B,
0.561020416666667,0,0xB204,
0.561028333333333,0,0xBE1B,
0.561044166666667,0,0xB201,
0.561052083333333,0,0xBF1B,
0.561067916666667,0,0xB274,
0.561075833333333,0,0xC01B,
0.561105583333333,0,0x000A,
0.561113250000000,0,0x411D,
0.561129291666667,0,0xC0C1,
0.561137208333333,0,0xC11B,
0.561153041666667,0,0xC0C3,
0.561160958333333,0,0xC21B,
0.561176791666667,0,0xC0C5,
0.561184708333333,0,0xC31B,
0.561200541666667,0,0xC084,
0.561208500000000,0,0xC41B,
0.561224333333333,0,0xC0A6,
0.561232250000000,0,0xC51B,
0.561248083333333,0,0xDD14,
0.561256000000000,0,0xC61B,
0.561271833333333,0,0x8042,
0.561279750000000,0,0xC71B,
0.561295583333333,0,0xA3D5,
0.561303541666667,0,0xC81B,
0.561319375000000,0,0x9E38,
0.561327291666667,0,0xC91B,
0.561343083333333,0,0x9E39,
0.561351041666667,0,0xCA1B,
0.561383125000000,0,0x0004,
0.561390833333333,0,0x0321,
0.561407000000000,0,0x0A01,
0.561414875000000,0,0x8321,
0.561430583333333,0,0x0F00,
0.561438416666667,0,0x8421,
0.561454125000000,0,0x0000,
0.561462000000000,0,0x852B,
0.561477708333333,0,0xB73F,
0.561485541666667,0,0x8621,
0.561516166666667,0,0x0001,
0.561523833333333,0,0x1D25,
0.561540083333333,0,0x0055,
0.561547916666667,0,0x9D25,
0.561575625000000,0,0x0003,
0.561583291666667,0,0x2429,
0.561599458333333,0,0x004C,
0.561607333333333,0,0xA42B,
0.561623041666667,0,0x0040,
0.561630916666667,0,0xA52B,
0.561646625000000,0,0x8000,
0.561654500000000,0,0xA62B,
0.561683041666667,0,0x0005,
0.561690750000000,0,0x2D2D,
0.561707000000000,0,0x2DC8,
0.561714875000000,0,0xAD2B,
0.561730583333333,0,0xFFEF,
0.561738458333333,0,0xAE2B,
0.561754166666667,0,0xA4B9,
0.561762000000000,0,0xAF2B,
0.561777708333333,0,0xFFFF,
0.561785583333333,0,0xB02B,
0.561801291666667,0,0x830F,
0.561809166666667,0,0xB12B,
0.561838625000000,0,0x0006,
0.561846291666667,0,0x3B21,
0.561862666666667,0,0xE51C,
0.561870541666667,0,0xBB2B,
0.561886208333333,0,0x8000,
0.561894083333333,0,0xBC2B,
0.561909791666667,0,0x8003,
0.561917666666667,0,0xBD2B,
0.561933375000000,0,0x8001,
0.561941208333333,0,0xBE2B,
0.561956916666667,0,0xE5B8,
0.561964791666667,0,0xBF2B,
0.561980500000000,0,0xE5D6,
0.561988375000000,0,0xC02B,
0.562019000000000,0,0x000A,
0.562026708333333,0,0x4125,
0.562042833333333,0,0xDB68,
0.562050708333333,0,0xC12B,
0.562066416666667,0,0xDC6F,
0.562074250000000,0,0xC22B,
0.562089958333333,0,0xDF3B,
0.562097833333333,0,0xC32B,
0.562113541666667,0,0xE11E,
0.562121375000000,0,0xC42B,
0.562137083333333,0,0xA97A,
0.562144958333333,0,0xC52B,
0.562160666666667,0,0xFF47,
0.562168500000000,0,0xC62B,
0.562184250000000,0,0xC015,
0.562192083333333,0,0xC72B,
0.562207833333333,0,0xA3B7,
0.562215666666667,0,0xC82B,
0.562231375000000,0,0x9E37,
0.562239250000000,0,0xC92B,
0.562254958333333,0,0x9E41,
0.562262791666667,0,0xCA2B,
0.569897458333333,0,0xCC3F,
0.569905125000000,0,0x060B,
0.569932166666667,0,0x0004,
0.569939833333333,0,0x031D,
0.569955916666667,0,0x0A01,
0.569963833333333,0,0x831D,
0.569979666666667,0,0x0F00,
0.569987583333333,0,0x841D,
0.570003416666667,0,0x0000,
0.570011375000000,0,0x851C,
0.570027208333333,0,0xCF3F,
0.570035125000000,0,0x861D,
0.570066500000000,0,0x0004,
0.570074208333333,0,0x0311,
0.570090541666667,0,0x0A01,
0.570098458333333,0,0x8311,
0.570114291666667,0,0x0F00,
0.570122208333333,0,0x8411,
0.570138083333333,0,0x0000,
0.570145958333333,0,0x851C,
0.570161833333333,0,0xCF3F,
0.570169750000000,0,0x8611,
0.570200291666667,0,0x0004,
0.570207958333333,0,0x0315,
0.570224208333333,0,0x0A01,
0.570232125000000,0,0x8315,
0.570247958333333,0,0x0F00,
0.570255875000000,0,0x8415,
0.570271708333333,0,0x0000,
0.570279625000000,0,0x851C,
0.570295458333333,0,0xCF3F,
0.570303375000000,0,0x8615,
0.570334500000000,0,0x0004,
0.570342208333333,0,0x0319,
0.570358291666667,0,0x0A01,
0.570366166666667,0,0x8319,
0.570382041666667,0,0x0F00,
0.570389958333333,0,0x8419,
0.570405791666667,0,0x0000,
0.570413708333333,0,0x851C,
0.570429500000000,0,0xCF3F,
0.570437416666667,0,0x8619,
0.570468291666667,0,0x0004,
0.570476000000000,0,0x031D,
0.570492333333333,0,0x0A01,
0.570500250000000,0,0x831D,
0.570516083333333,0,0x0F00,
0.570524000000000,0,0x841D,
0.570539791666667,0,0x0000,
0.570547708333333,0,0x851C,
0.570563541666667,0,0xC73F,
0.570571458333333,0,0x861D,
0.570601708333333,0,0x0001,
0.570609375000000,0,0x1D11,
0.570625375000000,0,0x1551,
0.570633333333333,0,0x9D11,
0.570661083333333,0,0x0003,
0.570668750000000,0,0x2415,
0.570684750000000,0,0x0048,
0.570692708333333,0,0xA41C,
0.570708541666667,0,0x0040,
0.570716416666667,0,0xA51C,
0.570732291666667,0,0x8000,
0.570740208333333,0,0xA61C,
0.570769416666667,0,0x0005,
0.570777083333333,0,0x2D19,
0.570793125000000,0,0x20A1,
0.570801041666667,0,0xAD1C,
0.570816875000000,0,0xFFED,
0.570824791666667,0,0xAE1C,
0.570840666666667,0,0x25FA,
0.570848541666667,0,0xAF1C,
0.570864416666667,0,0x8000,
0.570872333333333,0,0xB01C,
0.570888166666667,0,0x8301,
0.570896083333333,0,0xB11C,
0.570926458333333,0,0x0006,
0.570934125000000,0,0x3B1D,
0.570950500000000,0,0xB3E3,
0.570958416666667,0,0xBB1C,
0.570974250000000,0,0xB32A,
0.570982208333333,0,0xBC1C,
0.570998041666667,0,0xB2BB,
0.571005958333333,0,0xBD1C,
0.571021791666667,0,0xB1FF,
0.571029708333333,0,0xBE1C,
0.571045541666667,0,0xB200,
0.571053458333333,0,0xBF1C,
0.571069291666667,0,0xB275,
0.571077208333333,0,0xC01C,
0.571107708333333,0,0x000A,
0.571115416666667,0,0x4111,
0.571131625000000,0,0xC0C6,
0.571139583333333,0,0xC11C,
0.571155375000000,0,0xC0C4,
0.571163333333333,0,0xC21C,
0.571179125000000,0,0xC0C3,
0.571187083333333,0,0xC31C,
0.571202916666667,0,0xC086,
0.571210791666667,0,0xC41C,
0.571226666666667,0,0xC0A7,
0.571234541666667,0,0xC51C,
0.571250375000000,0,0xDD17,
0.571258291666667,0,0xC61C,
0.571274166666667,0,0x8045,
0.571282083333333,0,0xC71C,
0.571297916666667,0,0xA3D5,
0.571305791666667,0,0xC81C,
0.571321666666667,0,0x9E39,
0.571329541666667,0,0xC91C,
0.571345416666667,0,0x9E36,
0.571353333333333,0,0xCA1C,
0.571385375000000,0,0x0004,
0.571393083333333,0,0x0325,
0.571409208333333,0,0x0A01,
0.571417083333333,0,0x8325,
0.571432791666667,0,0x0F00,
0.571440666666667,0,0x8425,
0.571456333333333,0,0x0000,
0.571464208333333,0,0x852C,
0.571479916666667,0,0xC73F,
0.571487791666667,0,0x8625,
0.571517875000000,0,0x0001,
0.571525541666667,0,0x1D29,
0.571541750000000,0,0x0055,
0.571549625000000,0,0x9D29,
0.571577500000000,0,0x0003,
0.571585208333333,0,0x242D,
0.571601208333333,0,0x004C,
0.571609041666667,0,0xA42C,
0.571624750000000,0,0x0040,
0.571632625000000,0,0xA52C,
0.571648333333333,0,0x8000,
0.571656166666667,0,0xA62C,
0.571685000000000,0,0x0005,
0.571692666666667,0,0x2D21,
0.571708708333333,0,0x2ED4,
0.571716583333333,0,0xAD2C,
0.571732291666667,0,0xFFEF,
0.571740125000000,0,0xAE2C,
0.571755833333333,0,0xA346,
0.571763708333333,0,0xAF2C,
0.571779416666667,0,0xFFFF,
0.571787250000000,0,0xB02C,
0.571802958333333,0,0x830B,
0.571810833333333,0,0xB12C,
0.571840125000000,0,0x0006,
0.571847791666667,0,0x3B25,
0.571863833333333,0,0xE515,
0.571871708333333,0,0xBB2C,
0.571887416666667,0,0x8000,
0.571895291666667,0,0xBC2C,
0.571911000000000,0,0x8000,
0.571918833333333,0,0xBD2C,
0.571934541666667,0,0x8000,
0.571942416666667,0,0xBE2C,
0.571958125000000,0,0xE5C0,
0.571965958333333,0,0xBF2C,
0.571981666666667,0,0xE5D7,
0.571989541666667,0,0xC02C,
0.572019625000000,0,0x000A,
0.572027333333333,0,0x4129,
0.572043541666667,0,0xDB63,
0.572051416666667,0,0xC12C,
0.572067125000000,0,0xDC6F,
0.572075000000000,0,0xC22C,
0.572090708333333,0,0xDF3A,
0.572098541666667,0,0xC32C,
0.572114250000000,0,0xE120,
0.572122125000000,0,0xC42C,
0.572137833333333,0,0xA97B,
0.572145708333333,0,0xC52C,
0.572161416666667,0,0xFF49,
0.572169250000000,0,0xC62C,
0.572184958333333,0,0xC013,
0.572192833333333,0,0xC72C,
0.572208541666667,0,0xA3B7,
0.572216375000000,0,0xC82C,
0.572232083333333,0,0x9E37,
0.572239958333333,0,0xC92C,
0.572255666666667,0,0x9E3C,
0.572263500000000,0,0xCA2C,
0.580858791666667,0,0xDC3F,
0.580866458333333,0,0x060F,
0.580893625000000,0,0x0004,
0.580901333333333,0,0x0311,
0.580917708333333,0,0x0A01,
0.580925666666667,0,0x8311,
0.580941500000000,0,0x0F00,
0.580949416666667,0,0x8411,
0.580965250000000,0,0x0000,
0.580973166666667,0,0x851D,
0.580989000000000,0,0xDF3F,
0.580996916666667,0,0x8611,
0.581027166666667,0,0x0004,
0.581034833333333,0,0x0315,
0.581050875000000,0,0x0A01,
0.581058791666667,0,0x8315,
0.581074625000000,0,0x0F00,
0.581082541666667,0,0x8415,
0.581098416666667,0,0x0000,
0.581106333333333,0,0x851D,
0.581122166666667,0,0xDF3F,
0.581130083333333,0,0x8615,
0.581160458333333,0,0x0004,
0.581168166666667,0,0x0319,
0.581184541666667,0,0x0A01,
0.581192458333333,0,0x8319,
0.581208291666667,0,0x0F00,
0.581216208333333,0,0x8419,
0.581232041666667,0,0x0000,
0.581240000000000,0,0x851D,
0.581255833333333,0,0xDF3F,
0.581263750000000,0,0x8619,
0.581294208333333,0,0x0004,
0.581301875000000,0,0x031D,
0.581318208333333,0,0x0A01,
0.581326125000000,0,0x831D,
0.581341916666667,0,0x0F00,
0.581349875000000,0,0x841D,
0.581365708333333,0,0x0000,
0.581373625000000,0,0x851D,
0.581389458333333,0,0xDF3F,
0.581397375000000,0,0x861D,
0.581427916666667,0,0x0004,
0.581435583333333,0,0x0311,
0.581451833333333,0,0x0A01,
0.581459708333333,0,0x8311,
0.581475583333333,0,0x0F00,
0.581483500000000,0,0x8411,
0.581499333333333,0,0x0000,
0.581507250000000,0,0x851D,
0.581523083333333,0,0xD73F,
0.581531000000000,0,0x8611,
0.581561333333333,0,0x0001,
0.581569000000000,0,0x1D15,
0.581585458333333,0,0x1551,
0.581593333333333,0,0x9D15,
0.581621666666667,0,0x0003,
0.581629375000000,0,0x2419,
0.581645833333333,0,0x0048,
0.581653750000000,0,0xA41D,
0.581669583333333,0,0x0040,
0.581677500000000,0,0xA51D,
0.581693333333333,0,0x8000,
0.581701250000000,0,0xA61D,
0.581730541666667,0,0x0005,
0.581738250000000,0,0x2D1D,
0.581754666666667,0,0x21C5,
0.581762583333333,0,0xAD1D,
0.581778416666667,0,0xFFED,
0.581786333333333,0,0xAE1D,
0.581802166666667,0,0x22B4,
0.581810083333333,0,0xAF1D,
0.581825916666667,0,0xFFFF,
0.581833833333333,0,0xB01D,
0.581849666666667,0,0x830A,
0.581857583333333,0,0xB11D,
0.581888458333333,0,0x0006,
0.581896166666667,0,0x3B11,
0.581912500000000,0,0xB3E0,
0.581920416666667,0,0xBB1D,
0.581936250000000,0,0xB32C,
0.581944166666667,0,0xBC1D,
0.581960000000000,0,0xB2C1,
0.581967916666667,0,0xBD1D,
0.581983750000000,0,0xB205,
0.581991708333333,0,0xBE1D,
0.582007541666667,0,0xB201,
0.582015458333333,0,0xBF1D,
0.582031291666667,0,0xB277,
0.582039208333333,0,0xC01D,
0.582069625000000,0,0x000A,
0.582077291666667,0,0x4115,
0.582093625000000,0,0xC0C5,
0.582101541666667,0,0xC11D,
0.582117375000000,0,0xC0C7,
0.582125291666667,0,0xC21D,
0.582141125000000,0,0xC0C6,
0.582149041666667,0,0xC31D,
0.582164875000000,0,0xC086,
0.582172791666667,0,0xC41D,
0.582188625000000,0,0xC0AA,
0.582196541666667,0,0xC51D,
0.582212375000000,0,0xDD15,
0.582220291666667,0,0xC61D,
0.582236125000000,0,0x8047,
0.582244041666667,0,0xC71D,
0.582259875000000,0,0xA3D5,
0.582267791666667,0,0xC81D,
0.582283625000000,0,0x9E39,
0.582291541666667,0,0xC91D,
0.582307375000000,0,0x9E3A,
0.582315291666667,0,0xCA1D,
0.582346875000000,0,0x0004,
0.582354541666667,0,0x0329,
0.582370708333333,0,0x0A01,
0.582378583333333,0,0x8329,
0.582394291666667,0,0x0F00,
0.582402166666667,0,0x8429,
0.582417875000000,0,0x0000,
0.582425750000000,0,0x852D,
0.582441458333333,0,0xD73F,
0.582449291666667,0,0x8629,
0.582479791666667,0,0x0001,
0.582487458333333,0,0x1D2D,
0.582503791666667,0,0x0055,
0.582511666666667,0,0x9D2D,
0.582539875000000,0,0x0003,
0.582547541666667,0,0x2421,
0.582563708333333,0,0x004C,
0.582571541666667,0,0xA42D,
0.582587291666667,0,0x0040,
0.582595125000000,0,0xA52D,
0.582610833333333,0,0x8000,
0.582618708333333,0,0xA62D,
0.582647750000000,0,0x0005,
0.582655416666667,0,0x2D25,
0.582671708333333,0,0x2FFA,
0.582679583333333,0,0xAD2D,
0.582695291666667,0,0xFFEF,
0.582703125000000,0,0xAE2D,
0.582718875000000,0,0xA0AB,
0.582726708333333,0,0xAF2D,
0.582742416666667,0,0xFFFF,
0.582750291666667,0,0xB02D,
0.582766000000000,0,0x830E,
0.582773833333333,0,0xB12D,
0.582803666666667,0,0x0006,
0.582811375000000,0,0x3B29,
0.582827333333333,0,0xE51C,
0.582835208333333,0,0xBB2D,
0.582850916666667,0,0x8001,
0.582858791666667,0,0xBC2D,
0.582874500000000,0,0x8000,
0.582882333333333,0,0xBD2D,
0.582898041666667,0,0x8002,
0.582905916666667,0,0xBE2D,
0.582921583333333,0,0xE5C0,
0.582929458333333,0,0xBF2D,
0.582945166666667,0,0xE5D9,
0.582953041666667,0,0xC02D,
0.582983875000000,0,0x000A,
0.582991541666667,0,0x412D,
0.583008000000000,0,0xDB64,
0.583015833333333,0,0xC12D,
0.583031583333333,0,0xDC6D,
0.583039416666667,0,0xC22D,
0.583055125000000,0,0xDF3E,
0.583062958333333,0,0xC32D,
0.583078708333333,0,0xE127,
0.583086541666667,0,0xC42D,
0.583102250000000,0,0xA981,
0.583110125000000,0,0xC52D,
0.583125833333333,0,0xFF4D,
0.583133708333333,0,0xC62D,
0.583149416666667,0,0xC014,
0.583157250000000,0,0xC72D,
0.583172958333333,0,0xA3BB,
0.583180833333333,0,0xC82D,
0.583196541666667,0,0x9E3C,
0.583204375000000,0,0xC92D,
0.583220083333333,0,0x9E3F,
0.583227958333333,0,0xCA2D,
0.589958791666667,0,0xEC3F,
0.589966500000000,0,0x0603,
0.589994208333333,0,0x0004,
0.590001875000000,0,0x0315,
0.590018166666667,0,0x0A01,
0.590026083333333,0,0x8315,
0.590041916666667,0,0x0F00,
0.590049833333333,0,0x8415,
0.590065666666667,0,0x0000,
0.590073583333333,0,0x851E,
0.590089416666667,0,0xEF3F,
0.590097333333333,0,0x8615,
0.590128125000000,0,0x0004,
0.590135791666667,0,0x0319,
0.590151750000000,0,0x0A01,
0.590159708333333,0,0x8319,
0.590175541666667,0,0x0F00,
0.590183458333333,0,0x8419,
0.590199291666667,0,0x0000,
0.590207208333333,0,0x851E,
0.590223041666667,0,0xEF3F,
0.590230958333333,0,0x8619,
0.590261750000000,0,0x0004,
0.590269458333333,0,0x031D,
0.590285916666667,0,0x0A01,
0.590293833333333,0,0x831D,
0.590309666666667,0,0x0F00,
0.590317625000000,0,0x841D,
0.590333416666667,0,0x0000,
0.590341375000000,0,0x851E,
0.590357208333333,0,0xEF3F,
0.590365125000000,0,0x861D,
0.590395458333333,0,0x0004,
0.590403125000000,0,0x0311,
0.590419541666667,0,0x0A01,
0.590427500000000,0,0x8311,
0.590443291666667,0,0x0F00,
0.590451250000000,0,0x8411,
0.590467083333333,0,0x0000,
0.590474958333333,0,0x851E,
0.590490791666667,0,0xEF3F,
0.590498750000000,0,0x8611,
0.590529750000000,0,0x0004,
0.590537416666667,0,0x0315,
0.590553666666667,0,0x0A01,
0.590561541666667,0,0x8315,
0.590577375000000,0,0x0F00,
0.590585333333333,0,0x8415,
0.590601166666667,0,0x0000,
0.590609083333333,0,0x851E,
0.590624916666667,0,0xE73F,
0.590632833333333,0,0x8615,
0.590662875000000,0,0x0001,
0.590670541666667,0,0x1D19,
0.590686750000000,0,0x1551,
0.590694666666667,0,0x9D19,
0.590722708333333,0,0x0003,
0.590730375000000,0,0x241D,
0.590746625000000,0,0x0048,
0.590754541666667,0,0xA41E,
0.590770375000000,0,0x0040,
0.590778291666667,0,0xA51E,
0.590794125000000,0,0x8000,
0.590802041666667,0,0xA61E,
0.590830833333333,0,0x0005,
0.590838541666667,0,0x2D11,
0.590854958333333,0,0x22B7,
0.590862875000000,0,0xAD1E,
0.590878708333333,0,0xFFED,
0.590886625000000,0,0xAE1E,
0.590902458333333,0,0x1FC5,
0.590910375000000,0,0xAF1E,
0.590926208333333,0,0xFFFF,
0.590934125000000,0,0xB01E,
0.590949958333333,0,0x830F,
0.590957875000000,0,0xB11E,
0.590988541666667,0,0x0006,
0.590996250000000,0,0x3B15,
0.591012291666667,0,0xB3E0,
0.591020208333333,0,0xBB1E,
0.591036041666667,0,0xB327,
0.591043958333333,0,0xBC1E,
0.591059791666667,0,0xB2BB,
0.591067708333333,0,0xBD1E,
0.591083541666667,0,0xB200,
0.591091458333333,0,0xBE1E,
0.591107291666667,0,0xB203,
0.591115208333333,0,0xBF1E,
0.591131041666667,0,0xB271,
0.591138958333333,0,0xC01E,
0.591169291666667,0,0x000A,
0.591176958333333,0,0x4119,
0.591193375000000,0,0xC0C6,
0.591201291666667,0,0xC11E,
0.591217125000000,0,0xC0C4,
0.591225041666667,0,0xC21E,
0.591240875000000,0,0xC0C6,
0.591248791666667,0,0xC31E,
0.591264625000000,0,0xC088,
0.591272541666667,0,0xC41E,
0.591288375000000,0,0xC0A8,
0.591296291666667,0,0xC51E,
0.591312125000000,0,0xDD17,
0.591320041666667,0,0xC61E,
0.591335875000000,0,0x8048,
0.591343791666667,0,0xC71E,
0.591359583333333,0,0xA3D7,
0.591367541666667,0,0xC81E,
0.591383333333333,0,0x9E3A,
0.591391291666667,0,0xC91E,
0.591407083333333,0,0x9E3B,
0.591415041666667,0,0xCA1E,
0.591446958333333,0,0x0004,
0.591454666666667,0,0x032D,
0.591470583333333,0,0x0A01,
0.591478458333333,0,0x832D,
0.591494166666667,0,0x0F00,
0.591502041666667,0,0x842D,
0.591517750000000,0,0x0000,
0.591525583333333,0,0x852E,
0.591541291666667,0,0xE73F,
0.591549166666667,0,0x862D,
0.591579041666667,0,0x0001,
0.591586708333333,0,0x1D21,
0.591602666666667,0,0x0055,
0.591610541666667,0,0x9D21,
0.591638500000000,0,0x0003,
0.591646166666667,0,0x2425,
0.591662583333333,0,0x004C,
0.591670416666667,0,0xA42E,
0.591686125000000,0,0x0040,
0.591694000000000,0,0xA52E,
0.591709708333333,0,0x8000,
0.591717583333333,0,0xA62E,
0.591746541666667,0,0x0005,
0.591754208333333,0,0x2D29,
0.591770583333333,0,0x30EE,
0.591778416666667,0,0xAD2E,
0.591794166666667,0,0xFFEF,
0.591802000000000,0,0xAE2E,
0.591817708333333,0,0x9EF5,
0.591825583333333,0,0xAF2E,
0.591841291666667,0,0xFFFF,
0.591849166666667,0,0xB02E,
0.591864875000000,0,0x830D,
0.591872708333333,0,0xB12E,
0.591903250000000,0,0x0006,
0.591910916666667,0,0x3B2D,
0.591927208333333,0,0xE516,
0.591935083333333,0,0xBB2E,
0.591950750000000,0,0x8001,
0.591958625000000,0,0xBC2E,
0.591974333333333,0,0x8000,
0.591982208333333,0,0xBD2E,
0.591997875000000,0,0x8000,
0.592005750000000,0,0xBE2E,
0.592021458333333,0,0xE5BC,
0.592029333333333,0,0xBF2E,
0.592045041666667,0,0xE5D4,
0.592052875000000,0,0xC02E,
0.592082833333333,0,0x000A,
0.592090500000000,0,0x4121,
0.592106875000000,0,0xDB6D,
0.592114750000000,0,0xC12E,
0.592130458333333,0,0xDC75,
0.592138333333333,0,0xC22E,
0.592154000000000,0,0xDF46,
0.592161875000000,0,0xC32E,
0.592177583333333,0,0xE124,
0.592185458333333,0,0xC42E,
0.592201166666667,0,0xA981,
0.592209000000000,0,0xC52E,
0.592224708333333,0,0xFF4A,
0.592232583333333,0,0xC62E,
0.592248291666667,0,0xC017,
0.592256166666667,0,0xC72E,
0.592271875000000,0,0xA3B8,
0.592279708333333,0,0xC82E,
0.592295416666667,0,0x9E3D,
0.592303250000000,0,0xC92E,
0.592319000000000,0,0x9E3C,
0.592326833333333,0,0xCA2E,
0.600076083333333,0,0xFC3F,
0.600083750000000,0,0x0607,
0.600111500000000,0,0x0004,
0.600119208333333,0,0x0319,
0.600135625000000,0,0x0A01,
0.600143541666667,0,0x8319,
0.600159375000000,0,0x0F00,
0.600167291666667,0,0x8419,
0.600183166666667,0,0x0000,
0.600191083333333,0,0x851F,
0.600206916666667,0,0xFF3F,
0.600214833333333,0,0x8619,
0.600246750000000,0,0x0004,
0.600254458333333,0,0x031D,
0.600270750000000,0,0x0A01,
0.600278666666667,0,0x831D,
0.600294500000000,0,0x0F00,
0.600302416666667,0,0x841D,
0.600318250000000,0,0x0000,
0.600326166666667,0,0x851F,
0.600342000000000,0,0xFF3F,
0.600349916666667,0,0x861D,
0.600380291666667,0,0x0004,
0.600387958333333,0,0x0311,
0.600404375000000,0,0x0A01,
0.600412291666667,0,0x8311,
0.600428125000000,0,0x0F00,
0.600436041666667,0,0x8411,
0.600451916666667,0,0x0000,
0.600459833333333,0,0x851F,
0.600475666666667,0,0xFF3F,
0.600483583333333,0,0x8611,
0.600514250000000,0,0x0004,
0.600521916666667,0,0x0315,
0.600538041666667,0,0x0A01,
0.600545958333333,0,0x8315,
0.600561791666667,0,0x0F00,
0.600569708333333,0,0x8415,
0.600585583333333,0,0x0000,
0.600593500000000,0,0x851F,
0.600609333333333,0,0xFF3F,
0.600617250000000,0,0x8615,
0.600647625000000,0,0x0004,
0.600655291666667,0,0x0319,
0.600671708333333,0,0x0A01,
0.600679625000000,0,0x8319,
0.600695458333333,0,0x0F00,
0.600703375000000,0,0x8419,
0.600719208333333,0,0x0000,
0.600727125000000,0,0x851F,
0.600742958333333,0,0xF73F,
0.600750875000000,0,0x8619,
0.600781375000000,0,0x0001,
0.600789041666667,0,0x1D1D,
0.600805291666667,0,0x1551,
0.600813208333333,0,0x9D1D,
0.600841708333333,0,0x0003,
0.600849375000000,0,0x2411,
0.600865666666667,0,0x0048,
0.600873541666667,0,0xA41F,
0.600889416666667,0,0x0040,
0.600897333333333,0,0xA51F,
0.600913166666667,0,0x8000,
0.600921083333333,0,0xA61F,
0.600950791666667,0,0x0005,
0.600958500000000,0,0x2D15,
0.600974500000000,0,0x23C4,
0.600982416666667,0,0xAD1F,
0.600998250000000,0,0xFFED,
0.601006166666667,0,0xAE1F,
0.601022000000000,0,0x1CB6,
0.601029958333333,0,0xAF1F,
0.601045750000000,0,0x8000,
0.601053708333333,0,0xB01F,
0.601069541666667,0,0x8301,
0.601077458333333,0,0xB11F,
0.601107041666667,0,0x0006,
0.601114708333333,0,0x3B19,
0.601130875000000,0,0xB3E1,
0.601138791666667,0,0xBB1F,
0.601154625000000,0,0xB32C,
0.601162541666667,0,0xBC1F,
0.601178375000000,0,0xB2BB,
0.601186291666667,0,0xBD1F,
0.601202125000000,0,0xB200,
0.601210041666667,0,0xBE1F,
0.601225875000000,0,0xB200,
0.601233791666667,0,0xBF1F,
0.601249625000000,0,0xB271,
0.601257541666667,0,0xC01F,
0.601288208333333,0,0x000A,
0.601295875000000,0,0x411D,
0.601311958333333,0,0xC0C5,
0.601319875000000,0,0xC11F,
0.601335708333333,0,0xC0C7,
0.601343625000000,0,0xC21F,
0.601359458333333,0,0xC0C6,
0.601367375000000,0,0xC31F,
0.601383208333333,0,0xC085,
0.601391166666667,0,0xC41F,
0.601406958333333,0,0xC0AB,
0.601414916666667,0,0xC51F,
0.601430750000000,0,0xDD19,
0.601438666666667,0,0xC61F,
0.601454500000000,0,0x8045,
0.601462416666667,0,0xC71F,
0.601478250000000,0,0xA3D5,
0.601486166666667,0,0xC81F,
0.601501958333333,0,0x9E3A,
0.601509916666667,0,0xC91F,
0.601525750000000,0,0x9E3B,
0.601533625000000,0,0xCA1F,
0.601565541666667,0,0x0004,
0.601573208333333,0,0x0321,
0.601589208333333,0,0x0A01,
0.601597083333333,0,0x8321,
0.601612791666667,0,0x0F00,
0.601620625000000,0,0x8421,
0.601636375000000,0,0x0000,
0.601644208333333,0,0x852F,
0.601659916666667,0,0xF73F,
0.601667791666667,0,0x8621,
0.601697833333333,0,0x0001,
0.601705500000000,0,0x1D25,
0.601721791666667,0,0x0055,
0.601729666666667,0,0x9D25,
0.601758000000000,0,0x0003,
0.601765666666667,0,0x2429,
0.601781666666667,0,0x004C,
0.601789541666667,0,0xA42F,
0.601805250000000,0,0x0040,
0.601813083333333,0,0xA52F,
0.601828833333333,0,0x8000,
0.601836666666667,0,0xA62F,
0.601865625000000,0,0x0005,
0.601873291666667,0,0x2D2D,
0.601889666666667,0,0x31FD,
0.601897541666667,0,0xAD2F,
0.601913250000000,0,0xFFEF,
0.601921083333333,0,0xAE2F,
0.601936791666667,0,0x9BC3,
0.601944666666667,0,0xAF2F,
0.601960375000000,0,0xFFFF,
0.601968208333333,0,0xB02F,
0.601983916666667,0,0x8305,
0.601991791666667,0,0xB12F,
0.602020750000000,0,0x0006,
0.602028416666667,0,0x3B21,
0.602044791666667,0,0xE51C,
0.602052666666667,0,0xBB2F,
0.602068375000000,0,0x8000,
0.602076250000000,0,0xBC2F,
0.602091916666667,0,0x8000,
0.602099791666667,0,0xBD2F,
0.602115500000000,0,0x8000,
0.602123333333333,0,0xBE2F,
0.602139083333333,0,0xE5BC,
0.602146916666667,0,0xBF2F,
0.602162625000000,0,0xE5D3,
0.602170458333333,0,0xC02F,
0.602200625000000,0,0x000A,
0.602208333333333,0,0x4125,
0.602224458333333,0,0xDB67,
0.602232333333333,0,0xC12F,
0.602248041666667,0,0xDC71,
0.602255875000000,0,0xC22F,
0.602271583333333,0,0xDF41,
0.602279458333333,0,0xC32F,
0.602295166666667,0,0xE121,
0.602303000000000,0,0xC42F,
0.602318708333333,0,0xA97C,
0.602326583333333,0,0xC52F,
0.602342291666667,0,0xFF4A,
0.602350125000000,0,0xC62F,
0.602365833333333,0,0xC00F,
0.602373708333333,0,0xC72F,
0.602389416666667,0,0xA3B9,
0.602397250000000,0,0xC82F,
0.602412958333333,0,0x9E39,
0.602420833333333,0,0xC92F,
0.602436541666667,0,0x9E3D,
0.602444416666667,0,0xCA2F,
0.609888291666667,0,0x0C3F,
0.609895958333333,0,0x060B,
0.609923083333333,0,0x0004,
0.609930750000000,0,0x031D,
0.609947125000000,0,0x0A01,
0.609955000000000,0,0x831D,
0.609970875000000,0,0x0F00,
0.609978791666667,0,0x841D,
0.609994625000000,0,0x0000,
0.610002541666667,0,0x8510,
0.610018375000000,0,0x0F3F,
0.610026291666667,0,0x861D,
0.610056666666667,0,0x0004,
0.610064375000000,0,0x0311,
0.610080750000000,0,0x0A01,
0.610088666666667,0,0x8311,
0.610104500000000,0,0x0F00,
0.610112416666667,0,0x8411,
0.610128250000000,0,0x0000,
0.610136166666667,0,0x8510,
0.610152041666667,0,0x0F3F,
0.610159958333333,0,0x8611,
0.610191041666667,0,0x0004,
0.610198750000000,0,0x0315,
0.610214875000000,0,0x0A01,
0.610222791666667,0,0x8315,
0.610238625000000,0,0x0F00,
0.610246541666667,0,0x8415,
0.610262375000000,0,0x0000,
0.610270333333333,0,0x8510,
0.610286166666667,0,0x0F3F,
0.610294083333333,0,0x8615,
0.610324416666667,0,0x0004,
0.610332125000000,0,0x0319,
0.610348500000000,0,0x0A01,
0.610356416666667,0,0x8319,
0.610372291666667,0,0x0F00,
0.610380166666667,0,0x8419,
0.610396000000000,0,0x0000,
0.610403958333333,0,0x8510,
0.610419791666667,0,0x0F3F,
0.610427708333333,0,0x8619,
0.610458416666667,0,0x0004,
0.610466083333333,0,0x031D,
0.610482125000000,0,0x0A01,
0.610490041666667,0,0x831D,
0.610505875000000,0,0x0F00,
0.610513791666667,0,0x841D,
0.610529625000000,0,0x0000,
0.610537541666667,0,0x8510,
0.610553375000000,0,0x073F,
0.610561291666667,0,0x861D,
0.610591958333333,0,0x0001,
0.610599625000000,0,0x1D11,
0.610615708333333,0,0x1551,
0.610623625000000,0,0x9D11,
0.610651500000000,0,0x0003,
0.610659166666667,0,0x2415,
0.610675583333333,0,0x0048,
0.610683500000000,0,0xA410,
0.610699333333333,0,0x0040,
0.610707250000000,0,0xA510,
0.610723083333333,0,0x8000,
0.610731000000000,0,0xA610,
0.610759625000000,0,0x0005,
0.610767333333333,0,0x2D19,
0.610783458333333,0,0x24C9,
0.610791375000000,0,0xAD10,
0.610807208333333,0,0xFFED,
0.610815125000000,0,0xAE10,
0.610830916666667,0,0x1A38,
0.610838875000000,0,0xAF10,
0.610854708333333,0,0xFFFF,
0.610862625000000,0,0xB010,
0.610878458333333,0,0x830A,
0.610886375000000,0,0xB110,
0.610916541666667,0,0x0006,
0.610924208333333,0,0x3B1D,
0.610940291666667,0,0xB3DD,
0.610948208333333,0,0xBB10,
0.610964041666667,0,0xB328,
0.610971958333333,0,0xBC10,
0.610987791666667,0,0xB2BB,
0.610995708333333,0,0xBD10,
0.611011541666667,0,0xB1FC,
0.611019458333333,0,0xBE10,
0.611035291666667,0,0xB201,
0.611043208333333,0,0xBF10,
0.611059083333333,0,0xB270,
0.611066958333333,0,0xC010,
0.611096916666667,0,0x000A,
0.611104583333333,0,0x4111,
0.611120916666667,0,0xC0C5,
0.611128833333333,0,0xC110,
0.611144666666667,0,0xC0C4,
0.611152583333333,0,0xC210,
0.611168416666667,0,0xC0C4,
0.611176333333333,0,0xC310,
0.611192166666667,0,0xC088,
0.611200083333333,0,0xC410,
0.611215916666667,0,0xC0AC,
0.611223833333333,0,0xC510,
0.611239666666667,0,0xDD18,
0.611247583333333,0,0xC610,
0.611263375000000,0,0x8049,
0.611271333333333,0,0xC710,
0.611287166666667,0,0xA3D3,
0.611295083333333,0,0xC810,
0.611310916666667,0,0x9E3C,
0.611318833333333,0,0xC910,
0.611334666666667,0,0x9E3A,
0.611342583333333,0,0xCA10,
0.611374375000000,0,0x0004,
0.611382041666667,0,0x0325,
0.611398083333333,0,0x0A01,
0.611405958333333,0,0x8325,
0.611421666666667,0,0x0F00,
0.611429500000000,0,0x8425,
0.611445250000000,0,0x0000,
0.611453083333333,0,0x8520,
0.611468791666667,0,0x073F,
0.611476625000000,0,0x8625,
0.611507250000000,0,0x0001,
0.611514958333333,0,0x1D29,
0.611531125000000,0,0x0055,
0.611539000000000,0,0x9D29,
0.611567125000000,0,0x0003,
0.611574791666667,0,0x242D,
0.611591041666667,0,0x004C,
0.611598875000000,0,0xA420,
0.611614583333333,0,0x0040,
0.611622458333333,0,0xA520,
0.611638166666667,0,0x8000,
0.611646000000000,0,0xA620,
0.611675375000000,0,0x0005,
0.611683041666667,0,0x2D21,
0.611699041666667,0,0x3304,
0.611706875000000,0,0xAD20,
0.611722625000000,0,0xFFEF,
0.611730458333333,0,0xAE20,
0.611746166666667,0,0x9997,
0.611754041666667,0,0xAF20,
0.611769750000000,0,0xFFFF,
0.611777583333333,0,0xB020,
0.611793291666667,0,0x830B,
0.611801166666667,0,0xB120,
0.611830833333333,0,0x0006,
0.611838500000000,0,0x3B25,
0.611854666666667,0,0xE515,
0.611862500000000,0,0xBB20,
0.611878250000000,0,0x8000,
0.611886083333333,0,0xBC20,
0.611901791666667,0,0x8003,
0.611909666666667,0,0xBD20,
0.611925375000000,0,0x8002,
0.611933208333333,0,0xBE20,
0.611948916666667,0,0xE5BA,
0.611956791666667,0,0xBF20,
0.611972500000000,0,0xE5D1,
0.611980375000000,0,0xC020,
0.612011208333333,0,0x000A,
0.612018916666667,0,0x4129,
0.612034875000000,0,0xDB66,
0.612042708333333,0,0xC120,
0.612058416666667,0,0xDC70,
0.612066291666667,0,0xC220,
0.612082000000000,0,0xDF41,
0.612089833333333,0,0xC320,
0.612105541666667,0,0xE120,
0.612113416666667,0,0xC420,
0.612129125000000,0,0xA976,
0.612136958333333,0,0xC520,
0.612152666666667,0,0xFF47,
0.612160541666667,0,0xC620,
0.612176250000000,0,0xC00E,
0.612184083333333,0,0xC720,
0.612199791666667,0,0xA3B8,
0.612207666666667,0,0xC820,
0.612223375000000,0,0x9E34,
0.612231250000000,0,0xC920,
0.612246958333333,0,0x9E3D,
0.612254791666667,0,0xCA20,
0.619910333333333,0,0x1C3F,
0.619918000000000,0,0x060F,
0.619945375000000,0,0x0004,
0.619953083333333,0,0x0311,
0.619969250000000,0,0x0A01,
0.619977166666667,0,0x8311,
0.619993041666667,0,0x0F00,
0.620000958333333,0,0x8411,
0.620016791666667,0,0x0000,
0.620024708333333,0,0x8511,
0.620040541666667,0,0x1F3F,
0.620048458333333,0,0x8611,
0.620079833333333,0,0x0004,
0.620087500000000,0,0x0315,
0.620103875000000,0,0x0A01,
0.620111833333333,0,0x8315,
0.620127666666667,0,0x0F00,
0.620135583333333,0,0x8415,
0.620151416666667,0,0x0000,
0.620159333333333,0,0x8511,
0.620175166666667,0,0x1F3F,
0.620183083333333,0,0x8615,
0.620212833333333,0,0x0004,
0.620220500000000,0,0x0319,
0.620236541666667,0,0x0A01,
0.620244458333333,0,0x8319,
0.620260291666667,0,0x0F00,
0.620268208333333,0,0x8419,
0.620284041666667,0,0x0000,
0.620291958333333,0,0x8511,
0.620307833333333,0,0x1F3F,
0.620315750000000,0,0x8619,
0.620346500000000,0,0x0004,
0.620354208333333,0,0x031D,
0.620370166666667,0,0x0A01,
0.620378125000000,0,0x831D,
0.620393916666667,0,0x0F00,
0.620401875000000,0,0x841D,
0.620417708333333,0,0x0000,
0.620425625000000,0,0x8511,
0.620441458333333,0,0x1F3F,
0.620449375000000,0,0x861D,
0.620480000000000,0,0x0004,
0.620487708333333,0,0x0311,
0.620503791666667,0,0x0A01,
0.620511708333333,0,0x8311,
0.620527541666667,0,0x0F00,
0.620535458333333,0,0x8411,
0.620551291666667,0,0x0000,
0.620559208333333,0,0x8511,
0.620575041666667,0,0x173F,
0.620582958333333,0,0x8611,
0.620612708333333,0,0x0001,
0.620620416666667,0,0x1D15,
0.620636416666667,0,0x1551,
0.620644291666667,0,0x9D15,
0.620673041666667,0,0x0003,
0.620680708333333,0,0x2419,
0.620696791666667,0,0x0048,
0.620704708333333,0,0xA411,
0.620720541666667,0,0x0040,
0.620728458333333,0,0xA511,
0.620744291666667,0,0x8000,
0.620752208333333,0,0xA611,
0.620781666666667,0,0x0005,
0.620789375000000,0,0x2D1D,
0.620805666666667,0,0x25D3,
0.620813583333333,0,0xAD11,
0.620829416666667,0,0xFFED,
0.620837333333333,0,0xAE11,
0.620853166666667,0,0x17B2,
0.620861125000000,0,0xAF11,
0.620876958333333,0,0x8000,
0.620884875000000,0,0xB011,
0.620900708333333,0,0x8302,
0.620908625000000,0,0xB111,
0.620939000000000,0,0x0006,
0.620946666666667,0,0x3B11,
0.620963041666667,0,0xB3E2,
0.620970958333333,0,0xBB11,
0.620986833333333,0,0xB32B,
0.620994708333333,0,0xBC11,
0.621010583333333,0,0xB2BB,
0.621018500000000,0,0xBD11,
0.621034333333333,0,0xB1FD,
0.621042250000000,0,0xBE11,
0.621058083333333,0,0xB200,
0.621066000000000,0,0xBF11,
0.621081833333333,0,0xB275,
0.621089750000000,0,0xC011,
0.621119875000000,0,0x000A,
0.621127583333333,0,0x4115,
0.621143708333333,0,0xC0C0,
0.621151625000000,0,0xC111,
0.621167458333333,0,0xC0C5,
0.621175375000000,0,0xC211,
0.621191208333333,0,0xC0C3,
0.621199125000000,0,0xC311,
0.621214958333333,0,0xC07F,
0.621222875000000,0,0xC411,
0.621238708333333,0,0xC0AB,
0.621246666666667,0,0xC511,
0.621262500000000,0,0xDD19,
0.621270416666667,0,0xC611,
0.621286250000000,0,0x8046,
0.621294166666667,0,0xC711,
0.621310000000000,0,0xA3D6,
0.621317916666667,0,0xC811,
0.621333791666667,0,0x9E37,
0.621341708333333,0,0xC911,
0.621357541666667,0,0x9E3A,
0.621365458333333,0,0xCA11,
0.621397541666667,0,0x0004,
0.621405208333333,0,0x0329,
0.621421250000000,0,0x0A01,
0.621429083333333,0,0x8329,
0.621444791666667,0,0x0F00,
0.621452666666667,0,0x8429,
0.621468375000000,0,0x0000,
0.621476208333333,0,0x8521,
0.621491958333333,0,0x173F,
0.621499791666667,0,0x8629,
0.621529625000000,0,0x0001,
0.621537291666667,0,0x1D2D,
0.621553291666667,0,0x0055,
0.621561166666667,0,0x9D2D,
0.621589666666667,0,0x0003,
0.621597333333333,0,0x2421,
0.621613666666667,0,0x004C,
0.621621541666667,0,0xA421,
0.621637250000000,0,0x0040,
0.621645125000000,0,0xA521,
0.621660833333333,0,0x8000,
0.621668666666667,0,0xA621,
0.621697625000000,0,0x0005,
0.621705291666667,0,0x2D25,
0.621721708333333,0,0x3411,
0.621729583333333,0,0xAD21,
0.621745291666667,0,0xFFEF,
0.621753125000000,0,0xAE21,
0.621768833333333,0,0x96DF,
0.621776708333333,0,0xAF21,
0.621792416666667,0,0xFFFF,
0.621800291666667,0,0xB021,
0.621815958333333,0,0x8309,
0.621823833333333,0,0xB121,
0.621855041666667,0,0x0006,
0.621862708333333,0,0x3B29,
0.621878833333333,0,0xE517,
0.621886666666667,0,0xBB21,
0.621902416666667,0,0x8001,
0.621910250000000,0,0xBC21,
0.621925958333333,0,0x8003,
0.621933833333333,0,0xBD21,
0.621949500000000,0,0x8000,
0.621957375000000,0,0xBE21,
0.621973083333333,0,0xE5BC,
0.621980958333333,0,0xBF21,
0.621996666666667,0,0xE5D0,
0.622004500000000,0,0xC021,
0.622034000000000,0,0x000A,
0.622041666666667,0,0x412D,
0.622058000000000,0,0xDB6A,
0.622065875000000,0,0xC121,
0.622081625000000,0,0xDC72,
0.622089458333333,0,0xC221,
0.622105166666667,0,0xDF3D,
0.622113041666667,0,0xC321,
0.622128750000000,0,0xE121,
0.622136583333333,0,0xC421,
0.622152291666667,0,0xA97C,
0.622160166666667,0,0xC521,
0.622175875000000,0,0xFF49,
0.622183708333333,0,0xC621,
0.622199458333333,0,0xC014,
0.622207291666667,0,0xC721,
0.622223000000000,0,0xA3B7,
0.622230875000000,0,0xC821,
0.622246583333333,0,0x9E39,
0.622254458333333,0,0xC921,
0.622270125000000,0,0x9E42,
0.622278000000000,0,0xCA21,
0.629892208333333,0,0x2C3F,
0.629899916666667,0,0x0603,
0.629928000000000,0,0x0004,
0.629935708333333,0,0x0315,
0.629951750000000,0,0x0A01,
0.629959708333333,0,0x8315,
0.629975541666667,0,0x0F00,
0.629983458333333,0,0x8415,
0.629999291666667,0,0x0000,
0.630007208333333,0,0x8512,
0.630023041666667,0,0x2F3F,
0.630030958333333,0,0x8615,
0.630062333333333,0,0x0004,
0.630070041666667,0,0x0319,
0.630086375000000,0,0x0A01,
0.630094291666667,0,0x8319,
0.630110125000000,0,0x0F00,
0.630118041666667,0,0x8419,
0.630133875000000,0,0x0000,
0.630141833333333,0,0x8512,
0.630157666666667,0,0x2F3F,
0.630165583333333,0,0x8619,
0.630196958333333,0,0x0004,
0.630204666666667,0,0x031D,
0.630221000000000,0,0x0A01,
0.630228958333333,0,0x831D,
0.630244791666667,0,0x0F00,
0.630252708333333,0,0x841D,
0.630268541666667,0,0x0000,
0.630276458333333,0,0x8512,
0.630292333333333,0,0x2F3F,
0.630300208333333,0,0x861D,
0.630330916666667,0,0x0004,
0.630338583333333,0,0x0311,
0.630354666666667,0,0x0A01,
0.630362583333333,0,0x8311,
0.630378416666667,0,0x0F00,
0.630386333333333,0,0x8411,
0.630402166666667,0,0x0000,
0.630410083333333,0,0x8512,
0.630425916666667,0,0x2F3F,
0.630433833333333,0,0x8611,
0.630464458333333,0,0x0004,
0.630472125000000,0,0x0315,
0.630488250000000,0,0x0A01,
0.630496166666667,0,0x8315,
0.630512000000000,0,0x0F00,
0.630519916666667,0,0x8415,
0.630535791666667,0,0x0000,
0.630543666666667,0,0x8512,
0.630559500000000,0,0x273F,
0.630567416666667,0,0x8615,
0.630597708333333,0,0x0001,
0.630605375000000,0,0x1D19,
0.630621375000000,0,0x1551,
0.630629250000000,0,0x9D19,
0.630657375000000,0,0x0003,
0.630665041666667,0,0x241D,
0.630681208333333,0,0x0048,
0.630689125000000,0,0xA412,
0.630704958333333,0,0x0040,
0.630712875000000,0,0xA512,
0.630728750000000,0,0x8000,
0.630736625000000,0,0xA612,
0.630765750000000,0,0x0005,
0.630773416666667,0,0x2D11,
0.630789583333333,0,0x26DD,
0.630797500000000,0,0xAD12,
0.630813333333333,0,0xFFED,
0.630821250000000,0,0xAE12,
0.630837083333333,0,0x152E,
0.630845000000000,0,0xAF12,
0.630860875000000,0,0x8000,
0.630868791666667,0,0xB012,
0.630884625000000,0,0x8302,
0.630892500000000,0,0xB112,
0.630922416666667,0,0x0006,
0.630930083333333,0,0x3B15,
0.630946458333333,0,0xB3E3,
0.630954375000000,0,0xBB12,
0.630970208333333,0,0xB32B,
0.630978125000000,0,0xBC12,
0.630993958333333,0,0xB2BE,
0.631001875000000,0,0xBD12,
0.631017708333333,0,0xB200,
0.631025625000000,0,0xBE12,
0.631041458333333,0,0xB1FC,
0.631049375000000,0,0xBF12,
0.631065208333333,0,0xB272,
0.631073125000000,0,0xC012,
0.631103250000000,0,0x000A,
0.631110958333333,0,0x4119,
0.631127041666667,0,0xC0C6,
0.631134958333333,0,0xC112,
0.631150833333333,0,0xC0C6,
0.631158750000000,0,0xC212,
0.631174583333333,0,0xC0C4,
0.631182500000000,0,0xC312,
0.631198333333333,0,0xC088,
0.631206250000000,0,0xC412,
0.631222125000000,0,0xC0AA,
0.631230041666667,0,0xC512,
0.631245875000000,0,0xDD17,
0.631253791666667,0,0xC612,
0.631269625000000,0,0x8046,
0.631277541666667,0,0xC712,
0.631293375000000,0,0xA3D6,
0.631301291666667,0,0xC812,
0.631317125000000,0,0x9E36,
0.631325041666667,0,0xC912,
0.631340875000000,0,0x9E3B,
0.631348791666667,0,0xCA12,
0.631381000000000,0,0x0004,
0.631388708333333,0,0x032D,
0.631404791666667,0,0x0A01,
0.631412625000000,0,0x832D,
0.631428333333333,0,0x0F00,
0.631436208333333,0,0x842D,
0.631451875000000,0,0x0000,
0.631459750000000,0,0x8522,
0.631475458333333,0,0x273F,
0.631483333333333,0,0x862D,
0.631514375000000,0,0x0001,
0.631522083333333,0,0x1D21,
0.631538333333333,0,0x0055,
0.631546166666667,0,0x9D21,
0.631574375000000,0,0x0003,
0.631582041666667,0,0x2425,
0.631598208333333,0,0x004C,
0.631606083333333,0,0xA422,
0.631621791666667,0,0x0040,
0.631629625000000,0,0xA522,
0.631645375000000,0,0x8000,
0.631653208333333,0,0xA622,
0.631682291666667,0,0x0005,
0.631689958333333,0,0x2D29,
0.631706250000000,0,0x351C,
0.631714125000000,0,0xAD22,
0.631729833333333,0,0xFFEF,
0.631737666666667,0,0xAE22,
0.631753375000000,0,0x94AE,
0.631761250000000,0,0xAF22,
0.631776958333333,0,0x8000,
0.631784791666667,0,0xB022,
0.631800500000000,0,0x8301,
0.631808375000000,0,0xB122,
0.631839583333333,0,0x0006,
0.631847250000000,0,0x3B2D,
0.631863375000000,0,0xE519,
0.631871208333333,0,0xBB22,
0.631886916666667,0,0x8002,
0.631894791666667,0,0xBC22,
0.631910500000000,0,0x8003,
0.631918333333333,0,0xBD22,
0.631934041666667,0,0x8004,
0.631941916666667,0,0xBE22,
0.631957625000000,0,0xE5BD,
0.631965458333333,0,0xBF22,
0.631981208333333,0,0xE5D2,
0.631989041666667,0,0xC022,
0.632018958333333,0,0x000A,
0.632026625000000,0,0x4121,
0.632043041666667,0,0xDB6C,
0.632050916666667,0,0xC122,
0.632066625000000,0,0xDC73,
0.632074500000000,0,0xC222,
0.632090208333333,0,0xDF3F,
0.632098041666667,0,0xC322,
0.632113791666667,0,0xE11F,
0.632121625000000,0,0xC422,
0.632137333333333,0,0xA97B,
0.632145208333333,0,0xC522,
0.632160916666667,0,0xFF48,
0.632168750000000,0,0xC622,
0.632184458333333,0,0xC011,
0.632192333333333,0,0xC722,
0.632208041666667,0,0xA3B5,
0.632215916666667,0,0xC822,
0.632231583333333,0,0x9E38,
0.632239458333333,0,0xC922,
0.632255166666667,0,0x9E3C,
0.632263041666667,0,0xCA22,
0.640074583333333,0,0x3C3F,
0.640082250000000,0,0x0607,
0.640110041666667,0,0x0004,
0.640117708333333,0,0x0319,
0.640134041666667,0,0x0A01,
0.640141958333333,0,0x8319,
0.640157791666667,0,0x0F00,
0.640165708333333,0,0x8419,
0.640181541666667,0,0x0000,
0.640189458333333,0,0x8513,
0.640205333333333,0,0x3F3F,
0.640213250000000,0,0x8619,
0.640243708333333,0,0x0004,
0.640251375000000,0,0x031D,
0.640267666666667,0,0x0A01,
0.640275583333333,0,0x831D,
0.640291416666667,0,0x0F00,
0.640299333333333,0,0x841D,
0.640315166666667,0,0x0000,
0.640323125000000,0,0x8513,
0.640338958333333,0,0x3F3F,
0.640346875000000,0,0x861D,
0.640377375000000,0,0x0004,
0.640385083333333,0,0x0311,
0.640401291666667,0,0x0A01,
0.640409208333333,0,0x8311,
0.640425083333333,0,0x0F00,
0.640433000000000,0,0x8411,
0.640448833333333,0,0x0000,
0.640456750000000,0,0x8513,
0.640472583333333,0,0x3F3F,
0.640480500000000,0,0x8611,
0.640510875000000,0,0x0004,
0.640518541666667,0,0x0315,
0.640534958333333,0,0x0A01,
0.640542875000000,0,0x8315,
0.640558708333333,0,0x0F00,
0.640566625000000,0,0x8415,
0.640582458333333,0,0x0000,
0.640590375000000,0,0x8513,
0.640606208333333,0,0x3F3F,
0.640614125000000,0,0x8615,
0.640644333333333,0,0x0004,
0.640652041666667,0,0x0319,
0.640668041666667,0,0x0A01,
0.640676000000000,0,0x8319,
0.640691833333333,0,0x0F00,
0.640699708333333,0,0x8419,
0.640715541666667,0,0x0000,
0.640723500000000,0,0x8513,
0.640739333333333,0,0x373F,
0.640747250000000,0,0x8619,
0.640777375000000,0,0x0001,
0.640785083333333,0,0x1D1D,
0.640801166666667,0,0x1551,
0.640809083333333,0,0x9D1D,
0.640837375000000,0,0x0003,
0.640845041666667,0,0x2411,
0.640861041666667,0,0x0048,
0.640868958333333,0,0xA413,
0.640884791666667,0,0x0040,
0.640892708333333,0,0xA513,
0.640908541666667,0,0x8000,
0.640916458333333,0,0xA613,
0.640945500000000,0,0x0005,
0.640953166666667,0,0x2D15,
0.640969375000000,0,0x27EB,
0.640977291666667,0,0xAD13,
0.640993125000000,0,0xFFED,
0.641001041666667,0,0xAE13,
0.641016875000000,0,0x11F7,
0.641024791666667,0,0xAF13,
0.641040666666667,0,0xFFFF,
0.641048541666667,0,0xB013,
0.641064416666667,0,0x8309,
0.641072333333333,0,0xB113,
0.641102416666667,0,0x0006,
0.641110125000000,0,0x3B19,
0.641126250000000,0,0xB3E3,
0.641134166666667,0,0xBB13,
0.641150000000000,0,0xB32E,
0.641157916666667,0,0xBC13,
0.641173750000000,0,0xB2BB,
0.641181666666667,0,0xBD13,
0.641197500000000,0,0xB1FC,
0.641205458333333,0,0xBE13,
0.641221250000000,0,0xB1FE,
0.641229166666667,0,0xBF13,
0.641245041666667,0,0xB271,
0.641252916666667,0,0xC013,
0.641283625000000,0,0x000A,
0.641291291666667,0,0x411D,
0.641307375000000,0,0xC0C7,
0.641315291666667,0,0xC113,
0.641331125000000,0,0xC0C8,
0.641339041666667,0,0xC213,
0.641354875000000,0,0xC0C7,
0.641362750000000,0,0xC313,
0.641378625000000,0,0xC088,
0.641386541666667,0,0xC413,
0.641402375000000,0,0xC0AC,
0.641410291666667,0,0xC513,
0.641426125000000,0,0xDD18,
0.641434041666667,0,0xC613,
0.641449875000000,0,0x804A,
0.641457791666667,0,0xC713,
0.641473625000000,0,0xA3D6,
0.641481541666667,0,0xC813,
0.641497375000000,0,0x9E39,
0.641505333333333,0,0xC913,
0.641521125000000,0,0x9E40,
0.641529041666667,0,0xCA13,
0.641561333333333,0,0x0004,
0.641569000000000,0,0x0321,
0.641585125000000,0,0x0A01,
0.641593000000000,0,0x8321,
0.641608708333333,0,0x0F00,
0.641616541666667,0,0x8421,
0.641632250000000,0,0x0000,
0.641640125000000,0,0x8523,
0.641655833333333,0,0x373F,
0.641663708333333,0,0x8621,
0.641694166666667,0,0x0001,
0.641701875000000,0,0x1D25,
0.641718166666667,0,0x0055,
0.641726041666667,0,0x9D25,
0.641754166666667,0,0x0003,
0.641761875000000,0,0x2429,
0.641778083333333,0,0x004C,
0.641785916666667,0,0xA423,
0.641801666666667,0,0x0040,
0.641809500000000,0,0xA523,
0.641825208333333,0,0x8000,
0.641833041666667,0,0xA623,
0.641862083333333,0,0x0005,
0.641869750000000,0,0x2D2D,
0.641886083333333,0,0x362D,
0.641893958333333,0,0xAD23,
0.641909666666667,0,0xFFEF,
0.641917500000000,0,0xAE23,
0.641933208333333,0,0x930E,
0.641941083333333,0,0xAF23,
0.641956791666667,0,0x8000,
0.641964666666667,0,0xB023,
0.641980375000000,0,0x8302,
0.641988208333333,0,0xB123,
0.642018833333333,0,0x0006,
0.642026500000000,0,0x3B21,
0.642042750000000,0,0xE518,
0.642050583333333,0,0xBB23,
0.642066291666667,0,0x8001,
0.642074166666667,0,0xBC23,
0.642089875000000,0,0x8000,
0.642097708333333,0,0xBD23,
0.642113416666667,0,0x8000,
0.642121291666667,0,0xBE23,
0.642137000000000,0,0xE5BA,
0.642144833333333,0,0xBF23,
0.642160541666667,0,0xE5D1,
0.642168416666667,0,0xC023,
0.642198416666667,0,0x000A,
0.642206125000000,0,0x4125,
0.642222416666667,0,0xDB6B,
0.642230291666667,0,0xC123,
0.642246000000000,0,0xDC74,
0.642253833333333,0,0xC223,
0.642269541666667,0,0xDF3F,
0.642277416666667,0,0xC323,
0.642293125000000,0,0xE123,
0.642301000000000,0,0xC423,
0.642316708333333,0,0xA980,
0.642324541666667,0,0xC523,
0.642340250000000,0,0xFF4C,
0.642348125000000,0,0xC623,
0.642363833333333,0,0xC018,
0.642371708333333,0,0xC723,
0.642387375000000,0,0xA3B9,
0.642395250000000,0,0xC823,
0.642410958333333,0,0x9E3B,
0.642418833333333,0,0xC923,
0.642434541666667,0,0x9E3E,
0.642442416666667,0,0xCA23,
0.649890708333333,0,0x4C3F,
0.649898375000000,0,0x060B,
0.649925750000000,0,0x0004,
0.649933416666667,0,0x031D,
0.649949833333333,0,0x0A01,
0.649957750000000,0,0x831D,
0.649973583333333,0,0x0F00,
0.649981500000000,0,0x841D,
0.649997333333333,0,0x0000,
0.650005250000000,0,0x8514,
0.650021083333333,0,0x4F3F,
0.650029000000000,0,0x861D,
0.650059458333333,0,0x0004,
0.650067125000000,0,0x0311,
0.650083416666667,0,0x0A01,
0.650091375000000,0,0x8311,
0.650107208333333,0,0x0F00,
0.650115125000000,0,0x8411,
0.650130958333333,0,0x0000,
0.650138875000000,0,0x8514,
0.650154750000000,0,0x4F3F,
0.650162666666667,0,0x8611,
0.650193625000000,0,0x0004,
0.650201291666667,0,0x0315,
0.650217625000000,0,0x0A01,
0.650225541666667,0,0x8315,
0.650241375000000,0,0x0F00,
0.650249333333333,0,0x8415,
0.650265125000000,0,0x0000,
0.650273083333333,0,0x8514,
0.650288916666667,0,0x4F3F,
0.650296833333333,0,0x8615,
0.650327666666667,0,0x0004,
0.650335333333333,0,0x0319,
0.650351750000000,0,0x0A01,
0.650359666666667,0,0x8319,
0.650375500000000,0,0x0F00,
0.650383416666667,0,0x8419,
0.650399291666667,0,0x0000,
0.650407208333333,0,0x8514,
0.650423041666667,0,0x4F3F,
0.650430958333333,0,0x8619,
0.650462041666667,0,0x0004,
0.650469750000000,0,0x031D,
0.650485875000000,0,0x0A01,
0.650493791666667,0,0x831D,
0.650509625000000,0,0x0F00,
0.650517541666667,0,0x841D,
0.650533375000000,0,0x0000,
0.650541333333333,0,0x8514,
0.650557166666667,0,0x473F,
0.650565041666667,0,0x861D,
0.650594791666667,0,0x0001,
0.650602458333333,0,0x1D11,
0.650618500000000,0,0x1551,
0.650626416666667,0,0x9D11,
0.650654416666667,0,0x0003,
0.650662125000000,0,0x2415,
0.650678375000000,0,0x0048,
0.650686291666667,0,0xA414,
0.650702125000000,0,0x0040,
0.650710041666667,0,0xA514,
0.650725875000000,0,0x8000,
0.650733791666667,0,0xA614,
0.650763041666667,0,0x0005,
0.650770708333333,0,0x2D19,
0.650786750000000,0,0x28F1,
0.650794625000000,0,0xAD14,
0.650810500000000,0,0xFFED,
0.650818416666667,0,0xAE14,
0.650834250000000,0,0x0FB9,
0.650842166666667,0,0xAF14,
0.650858000000000,0,0xFFFF,
0.650865916666667,0,0xB014,
0.650881750000000,0,0x830E,
0.650889666666667,0,0xB114,
0.650919583333333,0,0x0006,
0.650927291666667,0,0x3B1D,
0.650943625000000,0,0xB3E4,
0.650951541666667,0,0xBB14,
0.650967375000000,0,0xB32F,
0.650975291666667,0,0xBC14,
0.650991125000000,0,0xB2BB,
0.650999041666667,0,0xBD14,
0.651014875000000,0,0xB1FE,
0.651022791666667,0,0xBE14,
0.651038625000000,0,0xB202,
0.651046541666667,0,0xBF14,
0.651062375000000,0,0xB272,
0.651070291666667,0,0xC014,
0.651100791666667,0,0x000A,
0.651108458333333,0,0x4111,
0.651124750000000,0,0xC0C2,
0.651132625000000,0,0xC114,
0.651148500000000,0,0xC0C5,
0.651156416666667,0,0xC214,
0.651172250000000,0,0xC0C3,
0.651180166666667,0,0xC314,
0.651196000000000,0,0xC082,
0.651203916666667,0,0xC414,
0.651219750000000,0,0xC0A9,
0.651227666666667,0,0xC514,
0.651243500000000,0,0xDD13,
0.651251458333333,0,0xC614,
0.651267291666667,0,0x8044,
0.651275208333333,0,0xC714,
0.651291041666667,0,0xA3D7,
0.651298958333333,0,0xC814,
0.651314791666667,0,0x9E38,
0.651322750000000,0,0xC914,
0.651338583333333,0,0x9E3B,
0.651346500000000,0,0xCA14,
0.651378333333333,0,0x0004,
0.651386000000000,0,0x0325,
0.651402416666667,0,0x0A01,
0.651410291666667,0,0x8325,
0.651426000000000,0,0x0F00,
0.651433833333333,0,0x8425,
0.651449583333333,0,0x0000,
0.651457416666667,0,0x8524,
0.651473125000000,0,0x473F,
0.651481000000000,0,0x8625,
0.651511625000000,0,0x0001,
0.651519291666667,0,0x1D29,
0.651535458333333,0,0x0055,
0.651543333333333,0,0x9D29,
0.651571458333333,0,0x0003,
0.651579125000000,0,0x242D,
0.651595375000000,0,0x004C,
0.651603250000000,0,0xA424,
0.651618958333333,0,0x0040,
0.651626833333333,0,0xA524,
0.651642541666667,0,0x8000,
0.651650375000000,0,0xA624,
0.651679291666667,0,0x0005,
0.651687000000000,0,0x2D21,
0.651702916666667,0,0x3734,
0.651710750000000,0,0xAD24,
0.651726458333333,0,0xFFEF,
0.651734333333333,0,0xAE24,
0.651750041666667,0,0x90CF,
0.651757875000000,0,0xAF24,
0.651773583333333,0,0xFFFF,
0.651781458333333,0,0xB024,
0.651797166666667,0,0x830D,
0.651805041666667,0,0xB124,
0.651836583333333,0,0x0006,
0.651844250000000,0,0x3B25,
0.651860500000000,0,0xE516,
0.651868333333333,0,0xBB24,
0.651884041666667,0,0x8000,
0.651891916666667,0,0xBC24,
0.651907625000000,0,0x8001,
0.651915500000000,0,0xBD24,
0.651931208333333,0,0x8000,
0.651939041666667,0,0xBE24,
0.651954750000000,0,0xE5BB,
0.651962625000000,0,0xBF24,
0.651978333333333,0,0xE5D3,
0.651986208333333,0,0xC024,
0.652016791666667,0,0x000A,
0.652024500000000,0,0x4129,
0.652040708333333,0,0xDB6C,
0.652048583333333,0,0xC124,
0.652064250000000,0,0xDC71,
0.652072125000000,0,0xC224,
0.652087833333333,0,0xDF40,
0.652095708333333,0,0xC324,
0.652111375000000,0,0xE121,
0.652119250000000,0,0xC424,
0.652134958333333,0,0xA97E,
0.652142833333333,0,0xC524,
0.652158541666667,0,0xFF4A,
0.652166375000000,0,0xC624,
0.652182083333333,0,0xC019,
0.652189916666667,0,0xC724,
0.652205625000000,0,0xA3B9,
0.652213500000000,0,0xC824,
0.652229208333333,0,0x9E3B,
0.652237083333333,0,0xC924,
0.652252791666667,0,0x9E3F,
0.652260666666667,0,0xCA24,
0.659913708333333,0,0x5C3F,
0.659921375000000,0,0x060F,
0.659949250000000,0,0x0004,
0.659956916666667,0,0x0311,
0.659973416666667,0,0x0A01,
0.659981333333333,0,0x8311,
0.659997166666667,0,0x0F00,
0.660005083333333,0,0x8411,
0.660020958333333,0,0x0000,
0.660028875000000,0,0x8515,
0.660044708333333,0,0x5F3F,
0.660052625000000,0,0x8611,
0.660083208333333,0,0x0004,
0.660090875000000,0,0x0315,
0.660107083333333,0,0x0A01,
0.660115000000000,0,0x8315,
0.660130875000000,0,0x0F00,
0.660138791666667,0,0x8415,
0.660154625000000,0,0x0000,
0.660162541666667,0,0x8515,
0.660178375000000,0,0x5F3F,
0.660186333333333,0,0x8615,
0.660216666666667,0,0x0004,
0.660224375000000,0,0x0319,
0.660240750000000,0,0x0A01,
0.660248708333333,0,0x8319,
0.660264541666667,0,0x0F00,
0.660272458333333,0,0x8419,
0.660288291666667,0,0x0000,
0.660296208333333,0,0x8515,
0.660312083333333,0,0x5F3F,
0.660320000000000,0,0x8619,
0.660351041666667,0,0x0004,
0.660358708333333,0,0x031D,
0.660374958333333,0,0x0A01,
0.660382875000000,0,0x831D,
0.660398708333333,0,0x0F00,
0.660406666666667,0,0x841D,
0.660422500000000,0,0x0000,
0.660430416666667,0,0x8515,
0.660446250000000,0,0x5F3F,
0.660454208333333,0,0x861D,
0.660484583333333,0,0x0004,
0.660492291666667,0,0x0311,
0.660508625000000,0,0x0A01,
0.660516583333333,0,0x8311,
0.660532416666667,0,0x0F00,
0.660540333333333,0,0x8411,
0.660556166666667,0,0x0000,
0.660564083333333,0,0x8515,
0.660579916666667,0,0x573F,
0.660587875000000,0,0x8611,
0.660618166666667,0,0x0001,
0.660625875000000,0,0x1D15,
0.660642291666667,0,0x1551,
0.660650208333333,0,0x9D15,
0.660679041666667,0,0x0003,
0.660686750000000,0,0x2419,
0.660703166666667,0,0x0048,
0.660711083333333,0,0xA415,
0.660726916666667,0,0x0040,
0.660734833333333,0,0xA515,
0.660750666666667,0,0x8000,
0.660758583333333,0,0xA615,
0.660787708333333,0,0x0005,
0.660795416666667,0,0x2D1D,
0.660811500000000,0,0x29FB,
0.660819458333333,0,0xAD15,
0.660835291666667,0,0xFFED,
0.660843208333333,0,0xAE15,
0.660859041666667,0,0x0D1A,
0.660866958333333,0,0xAF15,
0.660882791666667,0,0x8000,
0.660890708333333,0,0xB015,
0.660906541666667,0,0x8300,
0.660914458333333,0,0xB115,
0.660945166666667,0,0x0006,
0.660952833333333,0,0x3B11,
0.660968916666667,0,0xB3DC,
0.660976833333333,0,0xBB15,
0.660992666666667,0,0xB32B,
0.661000583333333,0,0xBC15,
0.661016375000000,0,0xB2BC,
0.661024333333333,0,0xBD15,
0.661040166666667,0,0xB1FC,
0.661048083333333,0,0xBE15,
0.661063916666667,0,0xB200,
0.661071791666667,0,0xBF15,
0.661087625000000,0,0xB271,
0.661095583333333,0,0xC015,
0.661125416666667,0,0x000A,
0.661133125000000,0,0x4115,
0.661149500000000,0,0xC0C4,
0.661157416666667,0,0xC115,
0.661173250000000,0,0xC0C4,
0.661181166666667,0,0xC215,
0.661197000000000,0,0xC0C5,
0.661204916666667,0,0xC315,
0.661220750000000,0,0xC086,
0.661228666666667,0,0xC415,
0.661244500000000,0,0xC0A8,
0.661252416666667,0,0xC515,
0.661268250000000,0,0xDD13,
0.661276208333333,0,0xC615,
0.661292000000000,0,0x8043,
0.661299958333333,0,0xC715,
0.661315791666667,0,0xA3D8,
0.661323666666667,0,0xC815,
0.661339541666667,0,0x9E35,
0.661347416666667,0,0xC915,
0.661363250000000,0,0x9E3F,
0.661371208333333,0,0xCA15,
0.661402708333333,0,0x0004,
0.661410375000000,0,0x0329,
0.661426333333333,0,0x0A01,
0.661434208333333,0,0x8329,
0.661449916666667,0,0x0F00,
0.661457791666667,0,0x8429,
0.661473500000000,0,0x0000,
0.661481375000000,0,0x8525,
0.661497041666667,0,0x573F,
0.661504916666667,0,0x8629,
0.661535583333333,0,0x0001,
0.661543250000000,0,0x1D2D,
0.661559416666667,0,0x0055,
0.661567291666667,0,0x9D2D,
0.661595666666667,0,0x0003,
0.661603333333333,0,0x2421,
0.661619333333333,0,0x004C,
0.661627166666667,0,0xA425,
0.661642916666667,0,0x0040,
0.661650750000000,0,0xA525,
0.661666500000000,0,0x8000,
0.661674333333333,0,0xA625,
0.661703166666667,0,0x0005,
0.661710875000000,0,0x2D25,
0.661726875000000,0,0x3841,
0.661734708333333,0,0xAD25,
0.661750416666667,0,0xFFEF,
0.661758291666667,0,0xAE25,
0.661774000000000,0,0x8E58,
0.661781875000000,0,0xAF25,
0.661797583333333,0,0xFFFF,
0.661805416666667,0,0xB025,
0.661821166666667,0,0x830F,
0.661829000000000,0,0xB125,
0.661858916666667,0,0x0006,
0.661866583333333,0,0x3B29,
0.661883000000000,0,0xE51C,
0.661890875000000,0,0xBB25,
0.661906583333333,0,0x8001,
0.661914416666667,0,0xBC25,
0.661930166666667,0,0x8001,
0.661938000000000,0,0xBD25,
0.661953708333333,0,0x8002,
0.661961583333333,0,0xBE25,
0.661977291666667,0,0xE5BE,
0.661985166666667,0,0xBF25,
0.662000875000000,0,0xE5D7,
0.662008708333333,0,0xC025,
0.662038416666667,0,0x000A,
0.662046083333333,0,0x412D,
0.662062250000000,0,0xDB6C,
0.662070083333333,0,0xC125,
0.662085833333333,0,0xDC73,
0.662093666666667,0,0xC225,
0.662109375000000,0,0xDF41,
0.662117250000000,0,0xC325,
0.662132958333333,0,0xE122,
0.662140833333333,0,0xC425,
0.662156541666667,0,0xA97F,
0.662164375000000,0,0xC525,
0.662180083333333,0,0xFF4B,
0.662187916666667,0,0xC625,
0.662203625000000,0,0xC016,
0.662211500000000,0,0xC725,
0.662227208333333,0,0xA3B5,
0.662235083333333,0,0xC825,
0.662250791666667,0,0x9E3E,
0.662258625000000,0,0xC925,
0.662274375000000,0,0x9E3F,
0.662282208333333,0,0xCA25,
0.669859125000000,0,0x6C3F,
0.669866833333333,0,0x0603,
0.669893500000000,0,0x0004,
0.669901166666667,0,0x0315,
0.669917375000000,0,0x0A01,
0.669925291666667,0,0x8315,
0.669941125000000,0,0x0F00,
0.669949083333333,0,0x8415,
0.669964916666667,0,0x0000,
0.669972833333333,0,0x8516,
0.669988666666667,0,0x6F3F,
0.669996583333333,0,0x8615,
0.670027291666667,0,0x0004,
0.670034958333333,0,0x0319,
0.670051041666667,0,0x0A01,
0.670058958333333,0,0x8319,
0.670074833333333,0,0x0F00,
0.670082750000000,0,0x8419,
0.670098583333333,0,0x0000,
0.670106500000000,0,0x8516,
0.670122333333333,0,0x6F3F,
0.670130291666667,0,0x8619,
0.670161041666667,0,0x0004,
0.670168708333333,0,0x031D,
0.670184708333333,0,0x0A01,
0.670192666666667,0,0x831D,
0.670208500000000,0,0x0F00,
0.670216416666667,0,0x841D,
0.670232250000000,0,0x0000,
0.670240166666667,0,0x8516,
0.670256041666667,0,0x6F3F,
0.670263916666667,0,0x861D,
0.670294500000000,0,0x0004,
0.670302166666667,0,0x0311,
0.670318375000000,0,0x0A01,
0.670326333333333,0,0x8311,
0.670342166666667,0,0x0F00,
0.670350083333333,0,0x8411,
0.670365916666667,0,0x0000,
0.670373833333333,0,0x8516,
0.670389666666667,0,0x6F3F,
0.670397583333333,0,0x8611,
0.670427875000000,0,0x0004,
0.670435541666667,0,0x0315,
0.670451541666667,0,0x0A01,
0.670459458333333,0,0x8315,
0.670475250000000,0,0x0F00,
0.670483166666667,0,0x8415,
0.670499041666667,0,0x0000,
0.670506958333333,0,0x8516,
0.670522791666667,0,0x673F,
0.670530666666667,0,0x8615,
0.670561583333333,0,0x0001,
0.670569250000000,0,0x1D19,
0.670585583333333,0,0x1551,
0.670593541666667,0,0x9D19,
0.670621916666667,0,0x0003,
0.670629583333333,0,0x241D,
0.670645958333333,0,0x0048,
0.670653875000000,0,0xA416,
0.670669750000000,0,0x0040,
0.670677666666667,0,0xA516,
0.670693500000000,0,0x8000,
0.670701375000000,0,0xA616,
0.670730166666667,0,0x0005,
0.670737833333333,0,0x2D11,
0.670753833333333,0,0x2B03,
0.670761750000000,0,0xAD16,
0.670777583333333,0,0xFFED,
0.670785500000000,0,0xAE16,
0.670801333333333,0,0x0B29,
0.670809250000000,0,0xAF16,
0.670825083333333,0,0x8000,
0.670833041666667,0,0xB016,
0.670848875000000,0,0x8300,
0.670856791666667,0,0xB116,
0.670886708333333,0,0x0006,
0.670894416666667,0,0x3B15,
0.670910708333333,0,0xB3DE,
0.670918625000000,0,0xBB16,
0.670934458333333,0,0xB32C,
0.670942375000000,0,0xBC16,
0.670958208333333,0,0xB2B9,
0.670966125000000,0,0xBD16,
0.670981958333333,0,0xB1FD,
0.670989916666667,0,0xBE16,
0.671005708333333,0,0xB201,
0.671013625000000,0,0xBF16,
0.671029458333333,0,0xB274,
0.671037375000000,0,0xC016,
0.671066875000000,0,0x000A,
0.671074541666667,0,0x4119,
0.671090833333333,0,0xC0C4,
0.671098750000000,0,0xC116,
0.671114583333333,0,0xC0C5,
0.671122500000000,0,0xC216,
0.671138333333333,0,0xC0C5,
0.671146250000000,0,0xC316,
0.671162083333333,0,0xC089,
0.671170000000000,0,0xC416,
0.671185833333333,0,0xC0AC,
0.671193750000000,0,0xC516,
0.671209583333333,0,0xDD18,
0.671217500000000,0,0xC616,
0.671233333333333,0,0x8046,
0.671241250000000,0,0xC716,
0.671257125000000,0,0xA3D4,
0.671265041666667,0,0xC816,
0.671280875000000,0,0x9E3A,
0.671288791666667,0,0xC916,
0.671304625000000,0,0x9E3E,
0.671312541666667,0,0xCA16,
0.671344875000000,0,0x0004,
0.671352541666667,0,0x032D,
0.671368541666667,0,0x0A01,
0.671376375000000,0,0x832D,
0.671392083333333,0,0x0F00,
0.671399916666667,0,0x842D,
0.671415625000000,0,0x0000,
0.671423500000000,0,0x8526,
0.671439208333333,0,0x673F,
0.671447083333333,0,0x862D,
0.671476958333333,0,0x0001,
0.671484666666667,0,0x1D21,
0.671501083333333,0,0x0055,
0.671508916666667,0,0x9D21,
0.671536583333333,0,0x0003,
0.671544250000000,0,0x2425,
0.671560500000000,0,0x004C,
0.671568375000000,0,0xA426,
0.671584041666667,0,0x0040,
0.671591916666667,0,0xA526,
0.671607625000000,0,0x8000,
0.671615458333333,0,0xA626,
0.671644541666667,0,0x0005,
0.671652208333333,0,0x2D29,
0.671668500000000,0,0x394B,
0.671676375000000,0,0xAD26,
0.671692083333333,0,0xFFEF,
0.671699916666667,0,0xAE26,
0.671715625000000,0,0x8B44,
0.671723500000000,0,0xAF26,
0.671739208333333,0,0xFFFF,
0.671747041666667,0,0xB026,
0.671762750000000,0,0x8309,
0.671770625000000,0,0xB126,
0.671800291666667,0,0x0006,
0.671807958333333,0,0x3B2D,
0.671824125000000,0,0xE516,
0.671832000000000,0,0xBB26,
0.671847708333333,0,0x8000,
0.671855583333333,0,0xBC26,
0.671871250000000,0,0x8000,
0.671879125000000,0,0xBD26,
0.671894833333333,0,0x8000,
0.671902708333333,0,0xBE26,
0.671918416666667,0,0xE5BD,
0.671926250000000,0,0xBF26,
0.671942000000000,0,0xE5D5,
0.671949833333333,0,0xC026,
0.671980250000000,0,0x000A,
0.671987916666667,0,0x4121,
0.672004333333333,0,0xDB68,
0.672012208333333,0,0xC126,
0.672027916666667,0,0xDC6F,
0.672035750000000,0,0xC226,
0.672051458333333,0,0xDF3C,
0.672059333333333,0,0xC326,
0.672075041666667,0,0xE120,
0.672082875000000,0,0xC426,
0.672098583333333,0,0xA97D,
0.672106458333333,0,0xC526,
0.672122166666667,0,0xFF48,
0.672130000000000,0,0xC626,
0.672145750000000,0,0xC015,
0.672153583333333,0,0xC726,
0.672169291666667,0,0xA3B7,
0.672177125000000,0,0xC826,
0.672192875000000,0,0x9E38,
0.672200708333333,0,0xC926,
0.672216458333333,0,0x9E40,
0.672224291666667,0,0xCA26,
0.679926625000000,0,0x7C3F,
0.679934291666667,0,0x0607,
0.679961333333333,0,0x0004,
0.679969000000000,0,0x0319,
0.679985000000000,0,0x0A01,
0.679992958333333,0,0x8319,
0.680008791666667,0,0x0F00,
0.680016708333333,0,0x8419,
0.680032541666667,0,0x0000,
0.680040458333333,0,0x8517,
0.680056291666667,0,0x7F3F,
0.680064208333333,0,0x8619,
0.680095291666667,0,0x0004,
0.680103000000000,0,0x031D,
0.680119166666667,0,0x0A01,
0.680127083333333,0,0x831D,
0.680142916666667,0,0x0F00,
0.680150833333333,0,0x841D,
0.680166666666667,0,0x0000,
0.680174583333333,0,0x8517,
0.680190416666667,0,0x7F3F,
0.680198333333333,0,0x861D,
0.680228666666667,0,0x0004,
0.680236375000000,0,0x0311,
0.680252791666667,0,0x0A01,
0.680260708333333,0,0x8311,
0.680276583333333,0,0x0F00,
0.680284500000000,0,0x8411,
0.680300333333333,0,0x0000,
0.680308250000000,0,0x8517,
0.680324083333333,0,0x7F3F,
0.680332000000000,0,0x8611,
0.680362583333333,0,0x0004,
0.680370291666667,0,0x0315,
0.680386458333333,0,0x0A01,
0.680394375000000,0,0x8315,
0.680410208333333,0,0x0F00,
0.680418125000000,0,0x8415,
0.680433958333333,0,0x0000,
0.680441916666667,0,0x8517,
0.680457750000000,0,0x7F3F,
0.680465666666667,0,0x8615,
0.680496166666667,0,0x0004,
0.680503875000000,0,0x0319,
0.680520083333333,0,0x0A01,
0.680528000000000,0,0x8319,
0.680543833333333,0,0x0F00,
0.680551750000000,0,0x8419,
0.680567583333333,0,0x0000,
0.680575500000000,0,0x8517,
0.680591333333333,0,0x773F,
0.680599250000000,0,0x8619,
0.680629708333333,0,0x0001,
0.680637416666667,0,0x1D1D,
0.680653708333333,0,0x1551,
0.680661625000000,0,0x9D1D,
0.680689583333333,0,0x0003,
0.680697250000000,0,0x2411,
0.680713625000000,0,0x0048,
0.680721541666667,0,0xA417,
0.680737375000000,0,0x0040,
0.680745291666667,0,0xA517,
0.680761125000000,0,0x8000,
0.680769041666667,0,0xA617,
0.680798041666667,0,0x0005,
0.680805708333333,0,0x2D15,
0.680822000000000,0,0x2C0F,
0.680829916666667,0,0xAD17,
0.680845750000000,0,0xFFED,
0.680853708333333,0,0xAE17,
0.680869541666667,0,0x0885,
0.680877458333333,0,0xAF17,
0.680893291666667,0,0x8000,
0.680901208333333,0,0xB017,
0.680917041666667,0,0x8300,
0.680924958333333,0,0xB117,
0.680954833333333,0,0x0006,
0.680962500000000,0,0x3B19,
0.680978916666667,0,0xB3E0,
0.680986833333333,0,0xBB17,
0.681002666666667,0,0xB32A,
0.681010583333333,0,0xBC17,
0.681026416666667,0,0xB2BA,
0.681034333333333,0,0xBD17,
0.681050166666667,0,0xB1FD,
0.681058083333333,0,0xBE17,
0.681073916666667,0,0xB201,
0.681081833333333,0,0xBF17,
0.681097666666667,0,0xB270,
0.681105583333333,0,0xC017,
0.681135583333333,0,0x000A,
0.681143291666667,0,0x411D,
0.681159500000000,0,0xC0C7,
0.681167416666667,0,0xC117,
0.681183291666667,0,0xC0C8,
0.681191166666667,0,0xC217,
0.681207000000000,0,0xC0C6,
0.681214958333333,0,0xC317,
0.681230791666667,0,0xC087,
0.681238708333333,0,0xC417,
0.681254541666667,0,0xC0AD,
0.681262458333333,0,0xC517,
0.681278291666667,0,0xDD1B,
0.681286208333333,0,0xC617,
0.681302041666667,0,0x8047,
0.681309958333333,0,0xC717,
0.681325791666667,0,0xA3D5,
0.681333708333333,0,0xC817,
0.681349541666667,0,0x9E3E,
0.681357500000000,0,0xC917,
0.681373291666667,0,0x9E3B,
0.681381208333333,0,0xCA17,
0.681413083333333,0,0x0004,
0.681420750000000,0,0x0321,
0.681436833333333,0,0x0A01,
0.681444666666667,0,0x8321,
0.681460375000000,0,0x0F00,
0.681468250000000,0,0x8421,
0.681483958333333,0,0x0000,
0.681491833333333,0,0x8527,
0.681507500000000,0,0x773F,
0.681515375000000,0,0x8621,
0.681545125000000,0,0x0001,
0.681552791666667,0,0x1D25,
0.681568875000000,0,0x0055,
0.681576750000000,0,0x9D25,
0.681605041666667,0,0x0003,
0.681612708333333,0,0x2429,
0.681628791666667,0,0x004C,
0.681636625000000,0,0xA427,
0.681652375000000,0,0x0040,
0.681660208333333,0,0xA527,
0.681675916666667,0,0x8000,
0.681683791666667,0,0xA627,
0.681713083333333,0,0x0005,
0.681720750000000,0,0x2D2D,
0.681736791666667,0,0x3A59,
0.681744625000000,0,0xAD27,
0.681760375000000,0,0xFFEF,
0.681768208333333,0,0xAE27,
0.681783916666667,0,0x8890,
0.681791791666667,0,0xAF27,
0.681807500000000,0,0x8000,
0.681815333333333,0,0xB027,
0.681831041666667,0,0x8305,
0.681838916666667,0,0xB127,
0.681869916666667,0,0x0006,
0.681877583333333,0,0x3B21,
0.681893916666667,0,0xE519,
0.681901750000000,0,0xBB27,
0.681917458333333,0,0x8001,
0.681925333333333,0,0xBC27,
0.681941041666667,0,0x8000,
0.681948875000000,0,0xBD27,
0.681964583333333,0,0x8000,
0.681972458333333,0,0xBE27,
0.681988166666667,0,0xE5BA,
0.681996041666667,0,0xBF27,
0.682011708333333,0,0xE5D3,
0.682019583333333,0,0xC027,
0.682050166666667,0,0x000A,
0.682057875000000,0,0x4125,
0.682074083333333,0,0xDB67,
0.682081958333333,0,0xC127,
0.682097666666667,0,0xDC6E,
0.682105500000000,0,0xC227,
0.682121208333333,0,0xDF3D,
0.682129083333333,0,0xC327,
0.682144791666667,0,0xE123,
0.682152625000000,0,0xC427,
0.682168333333333,0,0xA97E,
0.682176208333333,0,0xC527,
0.682191916666667,0,0xFF4A,
0.682199791666667,0,0xC627,
0.682215500000000,0,0xC013,
0.682223333333333,0,0xC727,
0.682239041666667,0,0xA3B8,
0.682246916666667,0,0xC827,
0.682262625000000,0,0x9E38,
0.682270458333333,0,0xC927,
0.682286166666667,0,0x9E3C,
0.682294041666667,0,0xCA27,
0.689869916666667,0,0x8C3F,
0.689877625000000,0,0x060B,
0.689904333333333,0,0x0004,
0.689912000000000,0,0x031D,
0.689928041666667,0,0x0A01,
0.689935958333333,0,0x831D,
0.689951791666667,0,0x0F00,
0.689959708333333,0,0x841D,
0.689975541666667,0,0x0000,
0.689983458333333,0,0x8518,
0.689999333333333,0,0x8F3F,
0.690007250000000,0,0x861D,
0.690038166666667,0,0x0004,
0.690045833333333,0,0x0311,
0.690062166666667,0,0x0A01,
0.690070083333333,0,0x8311,
0.690085916666667,0,0x0F00,
0.690093833333333,0,0x8411,
0.690109666666667,0,0x0000,
0.690117625000000,0,0x8518,
0.690133416666667,0,0x8F3F,
0.690141375000000,0,0x8611,
0.690172041666667,0,0x0004,
0.690179708333333,0,0x0315,
0.690195791666667,0,0x0A01,
0.690203708333333,0,0x8315,
0.690219541666667,0,0x0F00,
0.690227500000000,0,0x8415,
0.690243291666667,0,0x0000,
0.690251250000000,0,0x8518,
0.690267083333333,0,0x8F3F,
0.690275000000000,0,0x8615,
0.690305583333333,0,0x0004,
0.690313250000000,0,0x0319,
0.690329458333333,0,0x0A01,
0.690337375000000,0,0x8319,
0.690353208333333,0,0x0F00,
0.690361125000000,0,0x8419,
0.690376958333333,0,0x0000,
0.690384916666667,0,0x8518,
0.690400708333333,0,0x8F3F,
0.690408666666667,0,0x8619,
0.690439083333333,0,0x0004,
0.690446791666667,0,0x031D,
0.690463083333333,0,0x0A01,
0.690471000000000,0,0x831D,
0.690486833333333,0,0x0F00,
0.690494750000000,0,0x841D,
0.690510583333333,0,0x0000,
0.690518500000000,0,0x8518,
0.690534333333333,0,0x873F,
0.690542250000000,0,0x861D,
0.690573083333333,0,0x0001,
0.690580750000000,0,0x1D11,
0.690597166666667,0,0x1551,
0.690605083333333,0,0x9D11,
0.690633541666667,0,0x0003,
0.690641208333333,0,0x2415,
0.690657541666667,0,0x0048,
0.690665458333333,0,0xA418,
0.690681291666667,0,0x0040,
0.690689208333333,0,0xA518,
0.690705041666667,0,0x8000,
0.690712958333333,0,0xA618,
0.690742666666667,0,0x0005,
0.690750333333333,0,0x2D19,
0.690766375000000,0,0x2D18,
0.690774291666667,0,0xAD18,
0.690790166666667,0,0xFFED,
0.690798083333333,0,0xAE18,
0.690813916666667,0,0x0563,
0.690821833333333,0,0xAF18,
0.690837666666667,0,0xFFFF,
0.690845583333333,0,0xB018,
0.690861416666667,0,0x8305,
0.690869333333333,0,0xB118,
0.690899166666667,0,0x0006,
0.690906875000000,0,0x3B1D,
0.690923291666667,0,0xB3E1,
0.690931208333333,0,0xBB18,
0.690947041666667,0,0xB32D,
0.690955000000000,0,0xBC18,
0.690970791666667,0,0xB2BE,
0.690978750000000,0,0xBD18,
0.690994541666667,0,0xB1FF,
0.691002500000000,0,0xBE18,
0.691018333333333,0,0xB202,
0.691026250000000,0,0xBF18,
0.691042083333333,0,0xB274,
0.691050000000000,0,0xC018,
0.691080125000000,0,0x000A,
0.691087791666667,0,0x4111,
0.691103916666667,0,0xC0C7,
0.691111833333333,0,0xC118,
0.691127666666667,0,0xC0C5,
0.691135583333333,0,0xC218,
0.691151416666667,0,0xC0C7,
0.691159333333333,0,0xC318,
0.691175166666667,0,0xC089,
0.691183083333333,0,0xC418,
0.691198916666667,0,0xC0AA,
0.691206875000000,0,0xC518,
0.691222666666667,0,0xDD17,
0.691230583333333,0,0xC618,
0.691246458333333,0,0x8047,
0.691254375000000,0,0xC718,
0.691270166666667,0,0xA3D6,
0.691278125000000,0,0xC818,
0.691293958333333,0,0x9E37,
0.691301875000000,0,0xC918,
0.691317708333333,0,0x9E3D,
0.691325583333333,0,0xCA18,
0.691357791666667,0,0x0004,
0.691365500000000,0,0x0325,
0.691381833333333,0,0x0A01,
0.691389708333333,0,0x8325,
0.691405416666667,0,0x0F00,
0.691413291666667,0,0x8425,
0.691429000000000,0,0x0000,
0.691436833333333,0,0x8528,
0.691452541666667,0,0x873F,
0.691460416666667,0,0x8625,
0.691490666666667,0,0x0001,
0.691498375000000,0,0x1D29,
0.691514416666667,0,0x0055,
0.691522291666667,0,0x9D29,
0.691550833333333,0,0x0003,
0.691558500000000,0,0x242D,
0.691574791666667,0,0x004C,
0.691582666666667,0,0xA428,
0.691598375000000,0,0x0040,
0.691606250000000,0,0xA528,
0.691621958333333,0,0x8000,
0.691629791666667,0,0xA628,
0.691659208333333,0,0x0005,
0.691666916666667,0,0x2D21,
0.691683291666667,0,0x3B64,
0.691691166666667,0,0xAD28,
0.691706875000000,0,0xFFEF,
0.691714708333333,0,0xAE28,
0.691730458333333,0,0x86A9,
0.691738291666667,0,0xAF28,
0.691754000000000,0,0x8000,
0.691761875000000,0,0xB028,
0.691777583333333,0,0x8306,
0.691785458333333,0,0xB128,
0.691815333333333,0,0x0006,
0.691823000000000,0,0x3B25,
0.691838958333333,0,0xE516,
0.691846791666667,0,0xBB28,
0.691862500000000,0,0x8000,
0.691870375000000,0,0xBC28,
0.691886083333333,0,0x8000,
0.691893916666667,0,0xBD28,
0.691909625000000,0,0x8002,
0.691917500000000,0,0xBE28,
0.691933208333333,0,0xE5BA,
0.691941041666667,0,0xBF28,
0.691956750000000,0,0xE5D1,
0.691964625000000,0,0xC028,
0.691995541666667,0,0x000A,
0.692003208333333,0,0x4129,
0.692019583333333,0,0xDB64,
0.692027458333333,0,0xC128,
0.692043166666667,0,0xDC70,
0.692051041666667,0,0xC228,
0.692066750000000,0,0xDF3E,
0.692074625000000,0,0xC328,
0.692090333333333,0,0xE11A,
0.692098166666667,0,0xC428,
0.692113875000000,0,0xA979,
0.692121750000000,0,0xC528,
0.692137458333333,0,0xFF47,
0.692145333333333,0,0xC628,
0.692161000000000,0,0xC00E,
0.692168875000000,0,0xC728,
0.692184583333333,0,0xA3B7,
0.692192458333333,0,0xC828,
0.692208166666667,0,0x9E35,
0.692216000000000,0,0xC928,
0.692231708333333,0,0x9E3C,
0.692239583333333,0,0xCA28,
0.700195375000000,0,0x9C3F,
0.700203041666667,0,0x060F,
0.700230875000000,0,0x0004,
0.700238583333333,0,0x0311,
0.700254583333333,0,0x0A01,
0.700262500000000,0,0x8311,
0.700278333333333,0,0x0F00,
0.700286250000000,0,0x8411,
0.700302083333333,0,0x0000,
0.700310000000000,0,0x8519,
0.700325833333333,0,0x9F3F,
0.700333750000000,0,0x8611,
0.700366125000000,0,0x0004,
0.700373833333333,0,0x0315,
0.700390208333333,0,0x0A01,
0.700398125000000,0,0x8315,
0.700413958333333,0,0x0F00,
0.700421875000000,0,0x8415,
0.700437708333333,0,0x0000,
0.700445666666667,0,0x8519,
0.700461500000000,0,0x9F3F,
0.700469416666667,0,0x8615,
0.700499750000000,0,0x0004,
0.700507416666667,0,0x0319,
0.700523833333333,0,0x0A01,
0.700531750000000,0,0x8319,
0.700547625000000,0,0x0F00,
0.700555541666667,0,0x8419,
0.700571375000000,0,0x0000,
0.700579291666667,0,0x8519,
0.700595125000000,0,0x9F3F,
0.700603041666667,0,0x8619,
0.700633791666667,0,0x0004,
0.700641458333333,0,0x031D,
0.700657500000000,0,0x0A01,
0.700665416666667,0,0x831D,
0.700681250000000,0,0x0F00,
0.700689166666667,0,0x841D,
0.700705000000000,0,0x0000,
0.700712916666667,0,0x8519,
0.700728750000000,0,0x9F3F,
0.700736708333333,0,0x861D,
0.700767333333333,0,0x0004,
0.700775000000000,0,0x0311,
0.700791083333333,0,0x0A01,
0.700799041666667,0,0x8311,
0.700814875000000,0,0x0F00,
0.700822750000000,0,0x8411,
0.700838583333333,0,0x0000,
0.700846541666667,0,0x8519,
0.700862333333333,0,0x973F,
0.700870250000000,0,0x8611,
0.700900708333333,0,0x0001,
0.700908416666667,0,0x1D15,
0.700924708333333,0,0x1551,
0.700932625000000,0,0x9D15,
0.700961833333333,0,0x0003,
0.700969500000000,0,0x2419,
0.700985583333333,0,0x0048,
0.700993500000000,0,0xA419,
0.701009333333333,0,0x0040,
0.701017250000000,0,0xA519,
0.701033083333333,0,0x8000,
0.701041000000000,0,0xA619,
0.701070416666667,0,0x0005,
0.701078083333333,0,0x2D1D,
0.701094458333333,0,0x2E2A,
0.701102375000000,0,0xAD19,
0.701118208333333,0,0xFFED,
0.701126125000000,0,0xAE19,
0.701141958333333,0,0x0288,
0.701149875000000,0,0xAF19,
0.701165708333333,0,0xFFFF,
0.701173625000000,0,0xB019,
0.701189458333333,0,0x8309,
0.701197375000000,0,0xB119,
0.701227458333333,0,0x0006,
0.701235166666667,0,0x3B11,
0.701251333333333,0,0xB3E1,
0.701259250000000,0,0xBB19,
0.701275083333333,0,0xB32B,
0.701283000000000,0,0xBC19,
0.701298833333333,0,0xB2BD,
0.701306750000000,0,0xBD19,
0.701322583333333,0,0xB202,
0.701330500000000,0,0xBE19,
0.701346333333333,0,0xB200,
0.701354250000000,0,0xBF19,
0.701370041666667,0,0xB272,
0.701378000000000,0,0xC019,
0.701408708333333,0,0x000A,
0.701416375000000,0,0x4115,
0.701432416666667,0,0xC0C2,
0.701440333333333,0,0xC119,
0.701456166666667,0,0xC0C1,
0.701464125000000,0,0xC219,
0.701479958333333,0,0xC0C6,
0.701487833333333,0,0xC319,
0.701503708333333,0,0xC083,
0.701511625000000,0,0xC419,
0.701527458333333,0,0xC0AA,
0.701535375000000,0,0xC519,
0.701551208333333,0,0xDD15,
0.701559166666667,0,0xC619,
0.701574958333333,0,0x8044,
0.701582916666667,0,0xC719,
0.701598750000000,0,0xA3D5,
0.701606666666667,0,0xC819,
0.701622500000000,0,0x9E38,
0.701630416666667,0,0xC919,
0.701646250000000,0,0x9E3B,
0.701654166666667,0,0xCA19,
0.701686125000000,0,0x0004,
0.701693791666667,0,0x0329,
0.701709833333333,0,0x0A01,
0.701717708333333,0,0x8329,
0.701733416666667,0,0x0F00,
0.701741291666667,0,0x8429,
0.701756958333333,0,0x0000,
0.701764833333333,0,0x8529,
0.701780541666667,0,0x973F,
0.701788416666667,0,0x8629,
0.701818833333333,0,0x0001,
0.701826500000000,0,0x1D2D,
0.701842916666667,0,0x0055,
0.701850791666667,0,0x9D2D,
0.701879375000000,0,0x0003,
0.701887083333333,0,0x2421,
0.701903291666667,0,0x004C,
0.701911166666667,0,0xA429,
0.701926875000000,0,0x0040,
0.701934750000000,0,0xA529,
0.701950458333333,0,0x8000,
0.701958333333333,0,0xA629,
0.701987625000000,0,0x0005,
0.701995291666667,0,0x2D25,
0.702011333333333,0,0x3C78,
0.702019166666667,0,0xAD29,
0.702034916666667,0,0xFFEF,
0.702042750000000,0,0xAE29,
0.702058458333333,0,0x840D,
0.702066333333333,0,0xAF29,
0.702082041666667,0,0xFFFF,
0.702089875000000,0,0xB029,
0.702105583333333,0,0x830F,
0.702113458333333,0,0xB129,
0.702142750000000,0,0x0006,
0.702150416666667,0,0x3B29,
0.702166500000000,0,0xE51C,
0.702174333333333,0,0xBB29,
0.702190041666667,0,0x8000,
0.702197916666667,0,0xBC29,
0.702213625000000,0,0x8003,
0.702221458333333,0,0xBD29,
0.702237166666667,0,0x8000,
0.702245041666667,0,0xBE29,
0.702260750000000,0,0xE5BB,
0.702268625000000,0,0xBF29,
0.702284333333333,0,0xE5D1,
0.702292166666667,0,0xC029,
0.702322791666667,0,0x000A,
0.702330458333333,0,0x412D,
0.702346666666667,0,0xDB67,
0.702354541666667,0,0xC129,
0.702370250000000,0,0xDC70,
0.702378083333333,0,0xC229,
0.702393833333333,0,0xDF3D,
0.702401666666667,0,0xC329,
0.702417375000000,0,0xE122,
0.702425250000000,0,0xC429,
0.702440958333333,0,0xA97D,
0.702448833333333,0,0xC529,
0.702464500000000,0,0xFF49,
0.702472375000000,0,0xC629,
0.702488083333333,0,0xC012,
0.702495958333333,0,0xC729,
0.702511666666667,0,0xA3B8,
0.702519500000000,0,0xC829,
0.702535250000000,0,0x9E38,
0.702543083333333,0,0xC929,
0.702558791666667,0,0x9E40,
0.702566666666667,0,0xCA29,
0.709874083333333,0,0xAC3F,
0.709881750000000,0,0x0603,
0.709909541666667,0,0x0004,
0.709917208333333,0,0x0315,
0.709933666666667,0,0x0A01,
0.709941583333333,0,0x8315,
0.709957416666667,0,0x0F00,
0.709965333333333,0,0x8415,
0.709981166666667,0,0x0000,
0.709989083333333,0,0x851A,
0.710004916666667,0,0xAF3F,
0.710012833333333,0,0x8615,
0.710043750000000,0,0x0004,
0.710051458333333,0,0x0319,
0.710067750000000,0,0x0A01,
0.710075666666667,0,0x8319,
0.710091500000000,0,0x0F00,
0.710099416666667,0,0x8419,
0.710115250000000,0,0x0000,
0.710123166666667,0,0x851A,
0.710139000000000,0,0xAF3F,
0.710146916666667,0,0x8619,
0.710177583333333,0,0x0004,
0.710185250000000,0,0x031D,
0.710201333333333,0,0x0A01,
0.710209250000000,0,0x831D,
0.710225083333333,0,0x0F00,
0.710233000000000,0,0x841D,
0.710248833333333,0,0x0000,
0.710256750000000,0,0x851A,
0.710272583333333,0,0xAF3F,
0.710280500000000,0,0x861D,
0.710311500000000,0,0x0004,
0.710319166666667,0,0x0311,
0.710335416666667,0,0x0A01,
0.710343291666667,0,0x8311,
0.710359125000000,0,0x0F00,
0.710367083333333,0,0x8411,
0.710382875000000,0,0x0000,
0.710390833333333,0,0x851A,
0.710406625000000,0,0xAF3F,
0.710414541666667,0,0x8611,
0.710445208333333,0,0x0004,
0.710452875000000,0,0x0315,
0.710468958333333,0,0x0A01,
0.710476875000000,0,0x8315,
0.710492708333333,0,0x0F00,
0.710500625000000,0,0x8415,
0.710516458333333,0,0x0000,
0.710524333333333,0,0x851A,
0.710540166666667,0,0xA73F,
0.710548083333333,0,0x8615,
0.710578416666667,0,0x0001,
0.710586083333333,0,0x1D19,
0.710602500000000,0,0x1551,
0.710610416666667,0,0x9D19,
0.710639416666667,0,0x0003,
0.710647125000000,0,0x241D,
0.710663333333333,0,0x0048,
0.710671291666667,0,0xA41A,
0.710687125000000,0,0x0040,
0.710695041666667,0,0xA51A,
0.710710875000000,0,0x8000,
0.710718791666667,0,0xA61A,
0.710748166666667,0,0x0005,
0.710755875000000,0,0x2D11,
0.710772208333333,0,0x2F2C,
0.710780166666667,0,0xAD1A,
0.710795958333333,0,0xFFEC,
0.710803875000000,0,0xAE1A,
0.710819708333333,0,0xFFCA,
0.710827625000000,0,0xAF1A,
0.710843458333333,0,0x8000,
0.710851375000000,0,0xB01A,
0.710867208333333,0,0x8302,
0.710875125000000,0,0xB11A,
0.710905208333333,0,0x0006,
0.710912875000000,0,0x3B15,
0.710929041666667,0,0xB3E0,
0.710936958333333,0,0xBB1A,
0.710952791666667,0,0xB327,
0.710960708333333,0,0xBC1A,
0.710976541666667,0,0xB2BF,
0.710984500000000,0,0xBD1A,
0.711000333333333,0,0xB201,
0.711008250000000,0,0xBE1A,
0.711024083333333,0,0xB1FE,
0.711032000000000,0,0xBF1A,
0.711047833333333,0,0xB272,
0.711055750000000,0,0xC01A,
0.711086458333333,0,0x000A,
0.711094125000000,0,0x4119,
0.711110208333333,0,0xC0C5,
0.711118125000000,0,0xC11A,
0.711133958333333,0,0xC0C6,
0.711141875000000,0,0xC21A,
0.711157708333333,0,0xC0C6,
0.711165625000000,0,0xC31A,
0.711181458333333,0,0xC087,
0.711189375000000,0,0xC41A,
0.711205208333333,0,0xC0AA,
0.711213125000000,0,0xC51A,
0.711228958333333,0,0xDD14,
0.711236875000000,0,0xC61A,
0.711252708333333,0,0x8046,
0.711260625000000,0,0xC71A,
0.711276458333333,0,0xA3D4,
0.711284375000000,0,0xC81A,
0.711300208333333,0,0x9E3A,
0.711308125000000,0,0xC91A,
0.711324000000000,0,0x9E3A,
0.711331875000000,0,0xCA1A,
0.711363666666667,0,0x0004,
0.711371333333333,0,0x032D,
0.711387500000000,0,0x0A01,
0.711395333333333,0,0x832D,
0.711411041666667,0,0x0F00,
0.711418875000000,0,0x842D,
0.711434625000000,0,0x0000,
0.711442458333333,0,0x852A,
0.711458166666667,0,0xA73F,
0.711466041666667,0,0x862D,
0.711496291666667,0,0x0001,
0.711503958333333,0,0x1D21,
0.711520041666667,0,0x0055,
0.711527875000000,0,0x9D21,
0.711555916666667,0,0x0003,
0.711563583333333,0,0x2425,
0.711579958333333,0,0x004C,
0.711587791666667,0,0xA42A,
0.711603500000000,0,0x0040,
0.711611375000000,0,0xA52A,
0.711627083333333,0,0x8000,
0.711634916666667,0,0xA62A,
0.711663791666667,0,0x0005,
0.711671458333333,0,0x2D29,
0.711687458333333,0,0x3D7C,
0.711695333333333,0,0xAD2A,
0.711711041666667,0,0xFFEF,
0.711718875000000,0,0xAE2A,
0.711734583333333,0,0x81EB,
0.711742458333333,0,0xAF2A,
0.711758166666667,0,0xFFFF,
0.711766041666667,0,0xB02A,
0.711781750000000,0,0x830A,
0.711789625000000,0,0xB12A,
0.711818541666667,0,0x0006,
0.711826208333333,0,0x3B2D,
0.711842166666667,0,0xE51C,
0.711850000000000,0,0xBB2A,
0.711865708333333,0,0x8002,
0.711873583333333,0,0xBC2A,
0.711889291666667,0,0x8000,
0.711897166666667,0,0xBD2A,
0.711912875000000,0,0x8000,
0.711920708333333,0,0xBE2A,
0.711936416666667,0,0xE5BD,
0.711944291666667,0,0xBF2A,
0.711960000000000,0,0xE5D5,
0.711967875000000,0,0xC02A,
0.711998250000000,0,0x000A,
0.712005958333333,0,0x4121,
0.712022375000000,0,0xDB6E,
0.712030208333333,0,0xC12A,
0.712045958333333,0,0xDC72,
0.712053791666667,0,0xC22A,
0.712069500000000,0,0xDF3E,
0.712077375000000,0,0xC32A,
0.712093083333333,0,0xE120,
0.712100916666667,0,0xC42A,
0.712116666666667,0,0xA97D,
0.712124500000000,0,0xC52A,
0.712140208333333,0,0xFF4A,
0.712148083333333,0,0xC62A,
0.712163791666667,0,0xC014,
0.712171625000000,0,0xC72A,
0.712187333333333,0,0xA3B8,
0.712195208333333,0,0xC82A,
0.712210916666667,0,0x9E36,
0.712218791666667,0,0xC92A,
0.712234500000000,0,0x9E3E,
0.712242375000000,0,0xCA2A,
0.719913958333333,0,0xBC3F,
0.719921625000000,0,0x0607,
0.719949208333333,0,0x0004,
0.719956875000000,0,0x0319,
0.719973208333333,0,0x0A01,
0.719981125000000,0,0x8319,
0.719996958333333,0,0x0F00,
0.720004875000000,0,0x8419,
0.720020708333333,0,0x0000,
0.720028625000000,0,0x851B,
0.720044458333333,0,0xBF3F,
0.720052375000000,0,0x8619,
0.720083208333333,0,0x0004,
0.720090875000000,0,0x031D,
0.720107333333333,0,0x0A01,
0.720115208333333,0,0x831D,
0.720131041666667,0,0x0F00,
0.720138958333333,0,0x841D,
0.720154833333333,0,0x0000,
0.720162750000000,0,0x851B,
0.720178541666667,0,0xBF3F,
0.720186500000000,0,0x861D,
0.720217166666667,0,0x0004,
0.720224875000000,0,0x0311,
0.720240916666667,0,0x0A01,
0.720248833333333,0,0x8311,
0.720264666666667,0,0x0F00,
0.720272625000000,0,0x8411,
0.720288458333333,0,0x0000,
0.720296375000000,0,0x851B,
0.720312208333333,0,0xBF3F,
0.720320125000000,0,0x8611,
0.720350833333333,0,0x0004,
0.720358500000000,0,0x0315,
0.720374583333333,0,0x0A01,
0.720382500000000,0,0x8315,
0.720398333333333,0,0x0F00,
0.720406250000000,0,0x8415,
0.720422083333333,0,0x0000,
0.720430000000000,0,0x851B,
0.720445833333333,0,0xBF3F,
0.720453791666667,0,0x8615,
0.720485125000000,0,0x0004,
0.720492791666667,0,0x0319,
0.720509166666667,0,0x0A01,
0.720517083333333,0,0x8319,
0.720532916666667,0,0x0F00,
0.720540833333333,0,0x8419,
0.720556708333333,0,0x0000,
0.720564583333333,0,0x851B,
0.720580416666667,0,0xB73F,
0.720588333333333,0,0x8619,
0.720619875000000,0,0x0001,
0.720627541666667,0,0x1D1D,
0.720643791666667,0,0x1551,
0.720651708333333,0,0x9D1D,
0.720680333333333,0,0x0003,
0.720688041666667,0,0x2411,
0.720704125000000,0,0x0048,
0.720712041666667,0,0xA41B,
0.720727916666667,0,0x0040,
0.720735791666667,0,0xA51B,
0.720751625000000,0,0x8000,
0.720759583333333,0,0xA61B,
0.720788125000000,0,0x0005,
0.720795791666667,0,0x2D15,
0.720812000000000,0,0x3037,
0.720819916666667,0,0xAD1B,
0.720835750000000,0,0xFFEC,
0.720843666666667,0,0xAE1B,
0.720859500000000,0,0xFD24,
0.720867458333333,0,0xAF1B,
0.720883291666667,0,0xFFFF,
0.720891208333333,0,0xB01B,
0.720907041666667,0,0x830A,
0.720914958333333,0,0xB11B,
0.720945208333333,0,0x0006,
0.720952875000000,0,0x3B19,
0.720968875000000,0,0xB3DD,
0.720976833333333,0,0xBB1B,
0.720992666666667,0,0xB329,
0.721000541666667,0,0xBC1B,
0.721016416666667,0,0xB2BB,
0.721024333333333,0,0xBD1B,
0.721040166666667,0,0xB1FF,
0.721048083333333,0,0xBE1B,
0.721063916666667,0,0xB202,
0.721071833333333,0,0xBF1B,
0.721087666666667,0,0xB272,
0.721095583333333,0,0xC01B,
0.721125583333333,0,0x000A,
0.721133250000000,0,0x411D,
0.721149500000000,0,0xC0C6,
0.721157416666667,0,0xC11B,
0.721173250000000,0,0xC0C6,
0.721181208333333,0,0xC21B,
0.721197041666667,0,0xC0C4,
0.721204958333333,0,0xC31B,
0.721220791666667,0,0xC081,
0.721228708333333,0,0xC41B,
0.721244583333333,0,0xC0AC,
0.721252500000000,0,0xC51B,
0.721268333333333,0,0xDD15,
0.721276250000000,0,0xC61B,
0.721292083333333,0,0x8046,
0.721300000000000,0,0xC71B,
0.721315833333333,0,0xA3D6,
0.721323750000000,0,0xC81B,
0.721339625000000,0,0x9E37,
0.721347541666667,0,0xC91B,
0.721363375000000,0,0x9E3A,
0.721371291666667,0,0xCA1B,
0.721403875000000,0,0x0004,
0.721411541666667,0,0x0321,
0.721427750000000,0,0x0A01,
0.721435625000000,0,0x8321,
0.721451333333333,0,0x0F00,
0.721459166666667,0,0x8421,
0.721474916666667,0,0x0000,
0.721482750000000,0,0x852B,
0.721498458333333,0,0xB73F,
0.721506333333333,0,0x8621,
0.721536791666667,0,0x0001,
0.721544458333333,0,0x1D25,
0.721560833333333,0,0x0055,
0.721568708333333,0,0x9D25,
0.721596291666667,0,0x0003,
0.721604000000000,0,0x2429,
0.721620250000000,0,0x004C,
0.721628083333333,0,0xA42B,
0.721643791666667,0,0x0040,
0.721651666666667,0,0xA52B,
0.721667375000000,0,0x8000,
0.721675250000000,0,0xA62B,
0.721703250000000,0,0x0005,
0.721710916666667,0,0x2D2D,
0.721727291666667,0,0x3E89,
0.721735125000000,0,0xAD2B,
0.721750833333333,0,0xFFEF,
0.721758708333333,0,0xAE2B,
0.721774416666667,0,0x7F2D,
0.721782250000000,0,0xAF2B,
0.721798000000000,0,0xFFFF,
0.721805833333333,0,0xB02B,
0.721821541666667,0,0x8309,
0.721829416666667,0,0xB12B,
0.721859583333333,0,0x0006,
0.721867250000000,0,0x3B21,
0.721883416666667,0,0xE51B,
0.721891250000000,0,0xBB2B,
0.721907000000000,0,0x8001,
0.721914833333333,0,0xBC2B,
0.721930541666667,0,0x8005,
0.721938416666667,0,0xBD2B,
0.721954125000000,0,0x8001,
0.721961958333333,0,0xBE2B,
0.721977666666667,0,0xE5B7,
0.721985541666667,0,0xBF2B,
0.722001250000000,0,0xE5D3,
0.722009125000000,0,0xC02B,
0.722039750000000,0,0x000A,
0.722047416666667,0,0x4125,
0.722063583333333,0,0xDB67,
0.722071458333333,0,0xC12B,
0.722087166666667,0,0xDC6E,
0.722095041666667,0,0xC22B,
0.722110750000000,0,0xDF3F,
0.722118625000000,0,0xC32B,
0.722134333333333,0,0xE11E,
0.722142208333333,0,0xC42B,
0.722157916666667,0,0xA97D,
0.722165750000000,0,0xC52B,
0.722181458333333,0,0xFF48,
0.722189333333333,0,0xC62B,
0.722205041666667,0,0xC016,
0.722212875000000,0,0xC72B,
0.722228625000000,0,0xA3B8,
0.722236458333333,0,0xC82B,
0.722252166666667,0,0x9E3A,
0.722260041666667,0,0xC92B,
0.722275750000000,0,0x9E40,
0.722283625000000,0,0xCA2B,
0.729915625000000,0,0xCC3F,
0.729923291666667,0,0x060B,
0.729950416666667,0,0x0004,
0.729958083333333,0,0x031D,
0.729974333333333,0,0x0A01,
0.729982250000000,0,0x831D,
0.729998083333333,0,0x0F00,
0.730006000000000,0,0x841D,
0.730021833333333,0,0x0000,
0.730029791666667,0,0x851C,
0.730045625000000,0,0xCF3F,
0.730053541666667,0,0x861D,
0.730084291666667,0,0x0004,
0.730091958333333,0,0x0311,
0.730107958333333,0,0x0A01,
0.730115875000000,0,0x8311,
0.730131750000000,0,0x0F00,
0.730139666666667,0,0x8411,
0.730155500000000,0,0x0000,
0.730163416666667,0,0x851C,
0.730179250000000,0,0xCF3F,
0.730187208333333,0,0x8611,
0.730217500000000,0,0x0004,
0.730225208333333,0,0x0315,
0.730241666666667,0,0x0A01,
0.730249583333333,0,0x8315,
0.730265416666667,0,0x0F00,
0.730273333333333,0,0x8415,
0.730289166666667,0,0x0000,
0.730297083333333,0,0x851C,
0.730312916666667,0,0xCF3F,
0.730320875000000,0,0x8615,
0.730351541666667,0,0x0004,
0.730359208333333,0,0x0319,
0.730375291666667,0,0x0A01,
0.730383208333333,0,0x8319,
0.730399041666667,0,0x0F00,
0.730406958333333,0,0x8419,
0.730422791666667,0,0x0000,
0.730430708333333,0,0x851C,
0.730446541666667,0,0xCF3F,
0.730454458333333,0,0x8619,
0.730485458333333,0,0x0004,
0.730493166666667,0,0x031D,
0.730509375000000,0,0x0A01,
0.730517291666667,0,0x831D,
0.730533125000000,0,0x0F00,
0.730541041666667,0,0x841D,
0.730556875000000,0,0x0000,
0.730564791666667,0,0x851C,
0.730580625000000,0,0xC73F,
0.730588541666667,0,0x861D,
0.730619458333333,0,0x0001,
0.730627125000000,0,0x1D11,
0.730643458333333,0,0x1551,
0.730651375000000,0,0x9D11,
0.730679250000000,0,0x0003,
0.730686916666667,0,0x2415,
0.730703333333333,0,0x0048,
0.730711250000000,0,0xA41C,
0.730727083333333,0,0x0040,
0.730735000000000,0,0xA51C,
0.730750875000000,0,0x8000,
0.730758791666667,0,0xA61C,
0.730787541666667,0,0x0005,
0.730795208333333,0,0x2D19,
0.730811250000000,0,0x3141,
0.730819166666667,0,0xAD1C,
0.730835000000000,0,0xFFEC,
0.730842916666667,0,0xAE1C,
0.730858750000000,0,0xF9A6,
0.730866666666667,0,0xAF1C,
0.730882500000000,0,0xFFFF,
0.730890416666667,0,0xB01C,
0.730906291666667,0,0x8309,
0.730914166666667,0,0xB11C,
0.730944083333333,0,0x0006,
0.730951708333333,0,0x3B1D,
0.730968125000000,0,0xB3DE,
0.730976041666667,0,0xBB1C,
0.730991875000000,0,0xB32B,
0.730999791666667,0,0xBC1C,
0.731015666666667,0,0xB2BD,
0.731023541666667,0,0xBD1C,
0.731039416666667,0,0xB200,
0.731047291666667,0,0xBE1C,
0.731063166666667,0,0xB201,
0.731071083333333,0,0xBF1C,
0.731086875000000,0,0xB275,
0.731094833333333,0,0xC01C,
0.731125458333333,0,0x000A,
0.731133166666667,0,0x4111,
0.731149250000000,0,0xC0C3,
0.731157166666667,0,0xC11C,
0.731173000000000,0,0xC0C6,
0.731180916666667,0,0xC21C,
0.731196750000000,0,0xC0C6,
0.731204666666667,0,0xC31C,
0.731220500000000,0,0xC087,
0.731228416666667,0,0xC41C,
0.731244250000000,0,0xC0A9,
0.731252166666667,0,0xC51C,
0.731268000000000,0,0xDD16,
0.731275916666667,0,0xC61C,
0.731291750000000,0,0x8042,
0.731299666666667,0,0xC71C,
0.731315500000000,0,0xA3D6,
0.731323416666667,0,0xC81C,
0.731339250000000,0,0x9E37,
0.731347166666667,0,0xC91C,
0.731363000000000,0,0x9E3A,
0.731370916666667,0,0xCA1C,
0.731403583333333,0,0x0004,
0.731411250000000,0,0x0325,
0.731427375000000,0,0x0A01,
0.731435208333333,0,0x8325,
0.731450916666667,0,0x0F00,
0.731458791666667,0,0x8425,
0.731474500000000,0,0x0000,
0.731482375000000,0,0x852C,
0.731498083333333,0,0xC73F,
0.731505916666667,0,0x8625,
0.731535916666667,0,0x0001,
0.731543583333333,0,0x1D29,
0.731559916666667,0,0x0055,
0.731567791666667,0,0x9D29,
0.731595833333333,0,0x0003,
0.731603541666667,0,0x242D,
0.731619833333333,0,0x004C,
0.731627666666667,0,0xA42C,
0.731643416666667,0,0x0040,
0.731651250000000,0,0xA52C,
0.731666958333333,0,0x8000,
0.731674791666667,0,0xA62C,
0.731704083333333,0,0x0005,
0.731711791666667,0,0x2D21,
0.731727833333333,0,0x3F95,
0.731735708333333,0,0xAD2C,
0.731751416666667,0,0xFFEF,
0.731759291666667,0,0xAE2C,
0.731774958333333,0,0x7D0B,
0.731782833333333,0,0xAF2C,
0.731798541666667,0,0xFFFF,
0.731806416666667,0,0xB02C,
0.731822125000000,0,0x830D,
0.731829958333333,0,0xB12C,
0.731861791666667,0,0x0006,
0.731869458333333,0,0x3B25,
0.731885458333333,0,0xE519,
0.731893333333333,0,0xBB2C,
0.731909041666667,0,0x8001,
0.731916916666667,0,0xBC2C,
0.731932583333333,0,0x8000,
0.731940458333333,0,0xBD2C,
0.731956166666667,0,0x8000,
0.731964041666667,0,0xBE2C,
0.731979750000000,0,0xE5B9,
0.731987583333333,0,0xBF2C,
0.732003333333333,0,0xE5D2,
0.732011166666667,0,0xC02C,
0.732041291666667,0,0x000A,
0.732049000000000,0,0x4129,
0.732065208333333,0,0xDB69,
0.732073041666667,0,0xC12C,
0.732088750000000,0,0xDC73,
0.732096625000000,0,0xC22C,
0.732112333333333,0,0xDF42,
0.732120166666667,0,0xC32C,
0.732135875000000,0,0xE121,
0.732143750000000,0,0xC42C,
0.732159458333333,0,0xA97F,
0.732167291666667,0,0xC52C,
0.732183000000000,0,0xFF48,
0.732190875000000,0,0xC62C,
0.732206583333333,0,0xC017,
0.732214458333333,0,0xC72C,
0.732230166666667,0,0xA3BA,
0.732238000000000,0,0xC82C,
0.732253708333333,0,0x9E39,
0.732261583333333,0,0xC92C,
0.732277291666667,0,0x9E41,
0.732285166666667,0,0xCA2C,
0.739932541666667,0,0xDC3F,
0.739940208333333,0,0x060F,
0.739967333333333,0,0x0004,
0.739975000000000,0,0x0311,
0.739991208333333,0,0x0A01,
0.739999125000000,0,0x8311,
0.740014958333333,0,0x0F00,
0.740022875000000,0,0x8411,
0.740038750000000,0,0x0000,
0.740046666666667,0,0x851D,
0.740062500000000,0,0xDF3F,
0.740070416666667,0,0x8611,
0.740101458333333,0,0x0004,
0.740109166666667,0,0x0315,
0.740125375000000,0,0x0A01,
0.740133291666667,0,0x8315,
0.740149125000000,0,0x0F00,
0.740157041666667,0,0x8415,
0.740172875000000,0,0x0000,
0.740180791666667,0,0x851D,
0.740196625000000,0,0xDF3F,
0.740204541666667,0,0x8615,
0.740235041666667,0,0x0004,
0.740242708333333,0,0x0319,
0.740259000000000,0,0x0A01,
0.740266916666667,0,0x8319,
0.740282750000000,0,0x0F00,
0.740290666666667,0,0x8419,
0.740306500000000,0,0x0000,
0.740314416666667,0,0x851D,
0.740330250000000,0,0xDF3F,
0.740338166666667,0,0x8619,
0.740368666666667,0,0x0004,
0.740376333333333,0,0x031D,
0.740392625000000,0,0x0A01,
0.740400541666667,0,0x831D,
0.740416375000000,0,0x0F00,
0.740424291666667,0,0x841D,
0.740440166666667,0,0x0000,
0.740448041666667,0,0x851D,
0.740463916666667,0,0xDF3F,
0.740471833333333,0,0x861D,
0.740502333333333,0,0x0004,
0.740510041666667,0,0x0311,
0.740526250000000,0,0x0A01,
0.740534166666667,0,0x8311,
0.740550000000000,0,0x0F00,
0.740557916666667,0,0x8411,
0.740573750000000,0,0x0000,
0.740581666666667,0,0x851D,
0.740597500000000,0,0xD73F,
0.740605416666667,0,0x8611,
0.740635791666667,0,0x0001,
0.740643500000000,0,0x1D15,
0.740659791666667,0,0x1551,
0.740667750000000,0,0x9D15,
0.740695333333333,0,0x0003,
0.740703000000000,0,0x2419,
0.740719208333333,0,0x0048,
0.740727125000000,0,0xA41D,
0.740742958333333,0,0x0040,
0.740750875000000,0,0xA51D,
0.740766708333333,0,0x8000,
0.740774625000000,0,0xA61D,
0.740803500000000,0,0x0005,
0.740811166666667,0,0x2D1D,
0.740827541666667,0,0x324B,
0.740835458333333,0,0xAD1D,
0.740851291666667,0,0xFFEC,
0.740859208333333,0,0xAE1D,
0.740875041666667,0,0xF76D,
0.740882958333333,0,0xAF1D,
0.740898791666667,0,0xFFFF,
0.740906750000000,0,0xB01D,
0.740922583333333,0,0x830E,
0.740930500000000,0,0xB11D,
0.740960875000000,0,0x0006,
0.740968583333333,0,0x3B11,
0.740984916666667,0,0xB3E1,
0.740992833333333,0,0xBB1D,
0.741008666666667,0,0xB329,
0.741016583333333,0,0xBC1D,
0.741032416666667,0,0xB2BE,
0.741040333333333,0,0xBD1D,
0.741056166666667,0,0xB1FC,
0.741064083333333,0,0xBE1D,
0.741079916666667,0,0xB202,
0.741087833333333,0,0xBF1D,
0.741103666666667,0,0xB271,
0.741111583333333,0,0xC01D,
0.741141458333333,0,0x000A,
0.741149125000000,0,0x4115,
0.741165500000000,0,0xC0C2,
0.741173458333333,0,0xC11D,
0.741189291666667,0,0xC0C6,
0.741197166666667,0,0xC21D,
0.741213000000000,0,0xC0C6,
0.741220958333333,0,0xC31D,
0.741236750000000,0,0xC087,
0.741244708333333,0,0xC41D,
0.741260500000000,0,0xC0AB,
0.741268458333333,0,0xC51D,
0.741284291666667,0,0xDD18,
0.741292208333333,0,0xC61D,
0.741308041666667,0,0x8044,
0.741315958333333,0,0xC71D,
0.741331791666667,0,0xA3D6,
0.741339708333333,0,0xC81D,
0.741355541666667,0,0x9E38,
0.741363458333333,0,0xC91D,
0.741379291666667,0,0x9E3C,
0.741387208333333,0,0xCA1D,
0.741419541666667,0,0x0004,
0.741427208333333,0,0x0329,
0.741443166666667,0,0x0A01,
0.741451041666667,0,0x8329,
0.741466750000000,0,0x0F00,
0.741474583333333,0,0x8429,
0.741490291666667,0,0x0000,
0.741498166666667,0,0x852D,
0.741513875000000,0,0xD73F,
0.741521750000000,0,0x8629,
0.741550916666667,0,0x0001,
0.741558583333333,0,0x1D2D,
0.741574750000000,0,0x0055,
0.741582625000000,0,0x9D2D,
0.741610791666667,0,0x0003,
0.741618458333333,0,0x2421,
0.741634666666667,0,0x004C,
0.741642541666667,0,0xA42D,
0.741658250000000,0,0x0040,
0.741666083333333,0,0xA52D,
0.741681791666667,0,0x8000,
0.741689666666667,0,0xA62D,
0.741718500000000,0,0x0005,
0.741726208333333,0,0x2D25,
0.741742208333333,0,0x40A1,
0.741750083333333,0,0xAD2D,
0.741765750000000,0,0xFFEF,
0.741773625000000,0,0xAE2D,
0.741789333333333,0,0x7A3F,
0.741797208333333,0,0xAF2D,
0.741812916666667,0,0xFFFF,
0.741820750000000,0,0xB02D,
0.741836500000000,0,0x830E,
0.741844333333333,0,0xB12D,
0.741874708333333,0,0x0006,
0.741882416666667,0,0x3B29,
0.741898833333333,0,0xE516,
0.741906666666667,0,0xBB2D,
0.741922416666667,0,0x8000,
0.741930250000000,0,0xBC2D,
0.741945958333333,0,0x8000,
0.741953833333333,0,0xBD2D,
0.741969541666667,0,0x8000,
0.741977375000000,0,0xBE2D,
0.741993083333333,0,0xE5BA,
0.742000958333333,0,0xBF2D,
0.742016666666667,0,0xE5D4,
0.742024500000000,0,0xC02D,
0.742054083333333,0,0x000A,
0.742061750000000,0,0x412D,
0.742078041666667,0,0xDB6C,
0.742085916666667,0,0xC12D,
0.742101625000000,0,0xDC73,
0.742109458333333,0,0xC22D,
0.742125166666667,0,0xDF41,
0.742133000000000,0,0xC32D,
0.742148750000000,0,0xE121,
0.742156583333333,0,0xC42D,
0.742172291666667,0,0xA97E,
0.742180166666667,0,0xC52D,
0.742195833333333,0,0xFF4A,
0.742203708333333,0,0xC62D,
0.742219416666667,0,0xC015,
0.742227291666667,0,0xC72D,
0.742243000000000,0,0xA3B6,
0.742250833333333,0,0xC82D,
0.742266541666667,0,0x9E39,
0.742274416666667,0,0xC92D,
0.742290125000000,0,0x9E3D,
0.742297958333333,0,0xCA2D,
0.749915208333333,0,0xEC3F,
0.749922875000000,0,0x0603,
0.749950375000000,0,0x0004,
0.749958041666667,0,0x0315,
0.749974375000000,0,0x0A01,
0.749982291666667,0,0x8315,
0.749998125000000,0,0x0F00,
0.750006041666667,0,0x8415,
0.750021875000000,0,0x0000,
0.750029833333333,0,0x851E,
0.750045666666667,0,0xEF3F,
0.750053583333333,0,0x8615,
0.750084416666667,0,0x0004,
0.750092083333333,0,0x0319,
0.750108541666667,0,0x0A01,
0.750116416666667,0,0x8319,
0.750132250000000,0,0x0F00,
0.750140208333333,0,0x8419,
0.750156000000000,0,0x0000,
0.750163958333333,0,0x851E,
0.750179791666667,0,0xEF3F,
0.750187708333333,0,0x8619,
0.750218291666667,0,0x0004,
0.750225958333333,0,0x031D,
0.750242166666667,0,0x0A01,
0.750250041666667,0,0x831D,
0.750265875000000,0,0x0F00,
0.750273833333333,0,0x841D,
0.750289666666667,0,0x0000,
0.750297583333333,0,0x851E,
0.750313416666667,0,0xEF3F,
0.750321333333333,0,0x861D,
0.750352708333333,0,0x0004,
0.750360375000000,0,0x0311,
0.750376791666667,0,0x0A01,
0.750384708333333,0,0x8311,
0.750400541666667,0,0x0F00,
0.750408458333333,0,0x8411,
0.750424291666667,0,0x0000,
0.750432208333333,0,0x851E,
0.750448083333333,0,0xEF3F,
0.750455958333333,0,0x8611,
0.750486833333333,0,0x0004,
0.750494500000000,0,0x0315,
0.750510916666667,0,0x0A01,
0.750518833333333,0,0x8315,
0.750534666666667,0,0x0F00,
0.750542541666667,0,0x8415,
0.750558416666667,0,0x0000,
0.750566333333333,0,0x851E,
0.750582166666667,0,0xE73F,
0.750590083333333,0,0x8615,
0.750620541666667,0,0x0001,
0.750628208333333,0,0x1D19,
0.750644500000000,0,0x1551,
0.750652416666667,0,0x9D19,
0.750680208333333,0,0x0003,
0.750687875000000,0,0x241D,
0.750703875000000,0,0x0048,
0.750711791666667,0,0xA41E,
0.750727625000000,0,0x0040,
0.750735541666667,0,0xA51E,
0.750751375000000,0,0x8000,
0.750759291666667,0,0xA61E,
0.750788666666667,0,0x0005,
0.750796375000000,0,0x2D11,
0.750812708333333,0,0x3355,
0.750820625000000,0,0xAD1E,
0.750836458333333,0,0xFFEC,
0.750844375000000,0,0xAE1E,
0.750860250000000,0,0xF4BA,
0.750868125000000,0,0xAF1E,
0.750884000000000,0,0xFFFF,
0.750891916666667,0,0xB01E,
0.750907750000000,0,0x830A,
0.750915666666667,0,0xB11E,
0.750945125000000,0,0x0006,
0.750952833333333,0,0x3B15,
0.750969125000000,0,0xB3DE,
0.750977000000000,0,0xBB1E,
0.750992875000000,0,0xB32B,
0.751000791666667,0,0xBC1E,
0.751016625000000,0,0xB2BD,
0.751024500000000,0,0xBD1E,
0.751040375000000,0,0xB1FF,
0.751048250000000,0,0xBE1E,
0.751064083333333,0,0xB202,
0.751072000000000,0,0xBF1E,
0.751087833333333,0,0xB272,
0.751095791666667,0,0xC01E,
0.751125875000000,0,0x000A,
0.751133541666667,0,0x4119,
0.751149708333333,0,0xC0C5,
0.751157625000000,0,0xC11E,
0.751173458333333,0,0xC0C4,
0.751181416666667,0,0xC21E,
0.751197250000000,0,0xC0C6,
0.751205166666667,0,0xC31E,
0.751221000000000,0,0xC084,
0.751228916666667,0,0xC41E,
0.751244791666667,0,0xC0A8,
0.751252666666667,0,0xC51E,
0.751268541666667,0,0xDD14,
0.751276458333333,0,0xC61E,
0.751292291666667,0,0x8045,
0.751300208333333,0,0xC71E,
0.751316041666667,0,0xA3D8,
0.751323958333333,0,0xC81E,
0.751339791666667,0,0x9E37,
0.751347708333333,0,0xC91E,
0.751363541666667,0,0x9E3C,
0.751371458333333,0,0xCA1E,
0.751404000000000,0,0x0004,
0.751411708333333,0,0x032D,
0.751427916666667,0,0x0A01,
0.751435791666667,0,0x832D,
0.751451500000000,0,0x0F00,
0.751459333333333,0,0x842D,
0.751475041666667,0,0x0000,
0.751482916666667,0,0x852E,
0.751498625000000,0,0xE73F,
0.751506458333333,0,0x862D,
0.751536583333333,0,0x0001,
0.751544250000000,0,0x1D21,
0.751560500000000,0,0x0055,
0.751568333333333,0,0x9D21,
0.751596541666667,0,0x0003,
0.751604208333333,0,0x2425,
0.751620416666667,0,0x004C,
0.751628250000000,0,0xA42E,
0.751643958333333,0,0x0040,
0.751651833333333,0,0xA52E,
0.751667541666667,0,0x8000,
0.751675375000000,0,0xA62E,
0.751704500000000,0,0x0005,
0.751712208333333,0,0x2D29,
0.751728416666667,0,0x41AD,
0.751736250000000,0,0xAD2E,
0.751752000000000,0,0xFFEF,
0.751759833333333,0,0xAE2E,
0.751775541666667,0,0x77A5,
0.751783416666667,0,0xAF2E,
0.751799125000000,0,0xFFFF,
0.751806958333333,0,0xB02E,
0.751822666666667,0,0x830A,
0.751830541666667,0,0xB12E,
0.751862125000000,0,0x0006,
0.751869791666667,0,0x3B2D,
0.751886000000000,0,0xE515,
0.751893875000000,0,0xBB2E,
0.751909541666667,0,0x8000,
0.751917416666667,0,0xBC2E,
0.751933125000000,0,0x8000,
0.751941000000000,0,0xBD2E,
0.751956708333333,0,0x8000,
0.751964583333333,0,0xBE2E,
0.751980291666667,0,0xE5BB,
0.751988125000000,0,0xBF2E,
0.752003833333333,0,0xE5CF,
0.752011708333333,0,0xC02E,
0.752041958333333,0,0x000A,
0.752049666666667,0,0x4121,
0.752065708333333,0,0xDB68,
0.752073541666667,0,0xC12E,
0.752089291666667,0,0xDC75,
0.752097125000000,0,0xC22E,
0.752112833333333,0,0xDF42,
0.752120666666667,0,0xC32E,
0.752136416666667,0,0xE120,
0.752144250000000,0,0xC42E,
0.752159958333333,0,0xA97D,
0.752167833333333,0,0xC52E,
0.752183541666667,0,0xFF4C,
0.752191416666667,0,0xC62E,
0.752207125000000,0,0xC016,
0.752214958333333,0,0xC72E,
0.752230666666667,0,0xA3B8,
0.752238500000000,0,0xC82E,
0.752254250000000,0,0x9E3B,
0.752262083333333,0,0xC92E,
0.752277791666667,0,0x9E40,
0.752285666666667,0,0xCA2E,
0.760068666666667,0,0xFC3F,
0.760076375000000,0,0x0607,
0.760104083333333,0,0x0004,
0.760111750000000,0,0x0319,
0.760127750000000,0,0x0A01,
0.760135666666667,0,0x8319,
0.760151500000000,0,0x0F00,
0.760159458333333,0,0x8419,
0.760175250000000,0,0x0000,
0.760183166666667,0,0x851F,
0.760199041666667,0,0xFF3F,
0.760206958333333,0,0x8619,
0.760237500000000,0,0x0004,
0.760245166666667,0,0x031D,
0.760261416666667,0,0x0A01,
0.760269333333333,0,0x831D,
0.760285166666667,0,0x0F00,
0.760293083333333,0,0x841D,
0.760308916666667,0,0x0000,
0.760316833333333,0,0x851F,
0.760332666666667,0,0xFF3F,
0.760340583333333,0,0x861D,
0.760371708333333,0,0x0004,
0.760379416666667,0,0x0311,
0.760395541666667,0,0x0A01,
0.760403500000000,0,0x8311,
0.760419333333333,0,0x0F00,
0.760427250000000,0,0x8411,
0.760443083333333,0,0x0000,
0.760451041666667,0,0x851F,
0.760466875000000,0,0xFF3F,
0.760474791666667,0,0x8611,
0.760504916666667,0,0x0004,
0.760512583333333,0,0x0315,
0.760528750000000,0,0x0A01,
0.760536666666667,0,0x8315,
0.760552500000000,0,0x0F00,
0.760560416666667,0,0x8415,
0.760576250000000,0,0x0000,
0.760584208333333,0,0x851F,
0.760600041666667,0,0xFF3F,
0.760607958333333,0,0x8615,
0.760638166666667,0,0x0004,
0.760645875000000,0,0x0319,
0.760661875000000,0,0x0A01,
0.760669791666667,0,0x8319,
0.760685625000000,0,0x0F00,
0.760693541666667,0,0x8419,
0.760709375000000,0,0x0000,
0.760717291666667,0,0x851F,
0.760733125000000,0,0xF73F,
0.760741041666667,0,0x8619,
0.760771791666667,0,0x0001,
0.760779500000000,0,0x1D1D,
0.760795458333333,0,0x1551,
0.760803416666667,0,0x9D1D,
0.760831041666667,0,0x0003,
0.760838750000000,0,0x2411,
0.760854875000000,0,0x0048,
0.760862750000000,0,0xA41F,
0.760878583333333,0,0x0040,
0.760886500000000,0,0xA51F,
0.760902375000000,0,0x8000,
0.760910250000000,0,0xA61F,
0.760938833333333,0,0x0005,
0.760946500000000,0,0x2D15,
0.760962708333333,0,0x3463,
0.760970625000000,0,0xAD1F,
0.760986458333333,0,0xFFEC,
0.760994375000000,0,0xAE1F,
0.761010208333333,0,0xF144,
0.761018125000000,0,0xAF1F,
0.761033958333333,0,0x8000,
0.761041875000000,0,0xB01F,
0.761057708333333,0,0x8301,
0.761065625000000,0,0xB11F,
0.761095375000000,0,0x0006,
0.761103083333333,0,0x3B19,
0.761119083333333,0,0xB3E3,
0.761127000000000,0,0xBB1F,
0.761142833333333,0,0xB32D,
0.761150750000000,0,0xBC1F,
0.761166583333333,0,0xB2BC,
0.761174500000000,0,0xBD1F,
0.761190333333333,0,0xB206,
0.761198250000000,0,0xBE1F,
0.761214083333333,0,0xB201,
0.761222000000000,0,0xBF1F,
0.761237833333333,0,0xB276,
0.761245750000000,0,0xC01F,
0.761276166666667,0,0x000A,
0.761283833333333,0,0x411D,
0.761300125000000,0,0xC0C7,
0.761308083333333,0,0xC11F,
0.761323875000000,0,0xC0C7,
0.761331833333333,0,0xC21F,
0.761347666666667,0,0xC0C5,
0.761355583333333,0,0xC31F,
0.761371416666667,0,0xC08A,
0.761379333333333,0,0xC41F,
0.761395166666667,0,0xC0AB,
0.761403083333333,0,0xC51F,
0.761418958333333,0,0xDD15,
0.761426875000000,0,0xC61F,
0.761442708333333,0,0x8046,
0.761450625000000,0,0xC71F,
0.761466458333333,0,0xA3D6,
0.761474375000000,0,0xC81F,
0.761490208333333,0,0x9E37,
0.761498125000000,0,0xC91F,
0.761513916666667,0,0x9E3D,
0.761521875000000,0,0xCA1F,
0.761554000000000,0,0x0004,
0.761561708333333,0,0x0321,
0.761577625000000,0,0x0A01,
0.761585500000000,0,0x8321,
0.761601208333333,0,0x0F00,
0.761609083333333,0,0x8421,
0.761624791666667,0,0x0000,
0.761632625000000,0,0x852F,
0.761648333333333,0,0xF73F,
0.761656208333333,0,0x8621,
0.761686666666667,0,0x0001,
0.761694333333333,0,0x1D25,
0.761710750000000,0,0x0055,
0.761718583333333,0,0x9D25,
0.761746208333333,0,0x0003,
0.761753875000000,0,0x2429,
0.761770125000000,0,0x004C,
0.761778000000000,0,0xA42F,
0.761793708333333,0,0x0040,
0.761801583333333,0,0xA52F,
0.761817291666667,0,0x8000,
0.761825166666667,0,0xA62F,
0.761854375000000,0,0x0005,
0.761862041666667,0,0x2D2D,
0.761878166666667,0,0x42BD,
0.761886041666667,0,0xAD2F,
0.761901750000000,0,0xFFEF,
0.761909583333333,0,0xAE2F,
0.761925291666667,0,0x74CD,
0.761933166666667,0,0xAF2F,
0.761948875000000,0,0xFFFF,
0.761956750000000,0,0xB02F,
0.761972458333333,0,0x830C,
0.761980291666667,0,0xB12F,
0.762010375000000,0,0x0006,
0.762018041666667,0,0x3B21,
0.762034333333333,0,0xE51A,
0.762042166666667,0,0xBB2F,
0.762057875000000,0,0x8002,
0.762065750000000,0,0xBC2F,
0.762081458333333,0,0x8000,
0.762089333333333,0,0xBD2F,
0.762105000000000,0,0x8001,
0.762112875000000,0,0xBE2F,
0.762128583333333,0,0xE5B8,
0.762136458333333,0,0xBF2F,
0.762152166666667,0,0xE5D4,
0.762160041666667,0,0xC02F,
0.762190166666667,0,0x000A,
0.762197833333333,0,0x4125,
0.762214041666667,0,0xDB67,
0.762221875000000,0,0xC12F,
0.762237583333333,0,0xDC72,
0.762245458333333,0,0xC22F,
0.762261166666667,0,0xDF3D,
0.762269041666667,0,0xC32F,
0.762284750000000,0,0xE121,
0.762292583333333,0,0xC42F,
0.762308333333333,0,0xA97B,
0.762316166666667,0,0xC52F,
0.762331875000000,0,0xFF4A,
0.762339750000000,0,0xC62F,
0.762355458333333,0,0xC015,
0.762363333333333,0,0xC72F,
0.762379041666667,0,0xA3B6,
0.762386916666667,0,0xC82F,
0.762402625000000,0,0x9E35,
0.762410458333333,0,0xC92F,
0.762426166666667,0,0x9E3B,
0.762434041666667,0,0xCA2F,
0.769901916666667,0,0x0C3F,
0.769909583333333,0,0x060B,
0.769936708333333,0,0x0004,
0.769944375000000,0,0x031D,
0.769960791666667,0,0x0A01,
0.769968708333333,0,0x831D,
0.769984541666667,0,0x0F00,
0.769992500000000,0,0x841D,
0.770008333333333,0,0x0000,
0.770016250000000,0,0x8510,
0.770032083333333,0,0x0F3F,
0.770040000000000,0,0x861D,
0.770071208333333,0,0x0004,
0.770078916666667,0,0x0311,
0.770094958333333,0,0x0A01,
0.770102875000000,0,0x8311,
0.770118708333333,0,0x0F00,
0.770126625000000,0,0x8411,
0.770142458333333,0,0x0000,
0.770150375000000,0,0x8510,
0.770166208333333,0,0x0F3F,
0.770174125000000,0,0x8611,
0.770205125000000,0,0x0004,
0.770212791666667,0,0x0315,
0.770229083333333,0,0x0A01,
0.770237000000000,0,0x8315,
0.770252833333333,0,0x0F00,
0.770260750000000,0,0x8415,
0.770276583333333,0,0x0000,
0.770284500000000,0,0x8510,
0.770300333333333,0,0x0F3F,
0.770308250000000,0,0x8615,
0.770339125000000,0,0x0004,
0.770346791666667,0,0x0319,
0.770363208333333,0,0x0A01,
0.770371125000000,0,0x8319,
0.770386958333333,0,0x0F00,
0.770394875000000,0,0x8419,
0.770410708333333,0,0x0000,
0.770418666666667,0,0x8510,
0.770434500000000,0,0x0F3F,
0.770442416666667,0,0x8619,
0.770473708333333,0,0x0004,
0.770481375000000,0,0x031D,
0.770497791666667,0,0x0A01,
0.770505750000000,0,0x831D,
0.770521583333333,0,0x0F00,
0.770529500000000,0,0x841D,
0.770545333333333,0,0x0000,
0.770553250000000,0,0x8510,
0.770569083333333,0,0x073F,
0.770577000000000,0,0x861D,
0.770608041666667,0,0x0001,
0.770615708333333,0,0x1D11,
0.770631916666667,0,0x1551,
0.770639833333333,0,0x9D11,
0.770667958333333,0,0x0003,
0.770675666666667,0,0x2415,
0.770691791666667,0,0x0048,
0.770699708333333,0,0xA410,
0.770715541666667,0,0x0040,
0.770723416666667,0,0xA510,
0.770739291666667,0,0x8000,
0.770747208333333,0,0xA610,
0.770775666666667,0,0x0005,
0.770783375000000,0,0x2D19,
0.770799625000000,0,0x3568,
0.770807541666667,0,0xAD10,
0.770823375000000,0,0xFFEC,
0.770831333333333,0,0xAE10,
0.770847125000000,0,0xEEEA,
0.770855041666667,0,0xAF10,
0.770870916666667,0,0xFFFF,
0.770878791666667,0,0xB010,
0.770894625000000,0,0x830E,
0.770902541666667,0,0xB110,
0.770932916666667,0,0x0006,
0.770940583333333,0,0x3B1D,
0.770957000000000,0,0xB3E1,
0.770964916666667,0,0xBB10,
0.770980750000000,0,0xB32D,
0.770988666666667,0,0xBC10,
0.771004500000000,0,0xB2C0,
0.771012416666667,0,0xBD10,
0.771028250000000,0,0xB202,
0.771036166666667,0,0xBE10,
0.771052000000000,0,0xB1FA,
0.771059916666667,0,0xBF10,
0.771075750000000,0,0xB270,
0.771083666666667,0,0xC010,
0.771113833333333,0,0x000A,
0.771121541666667,0,0x4111,
0.771137625000000,0,0xC0C7,
0.771145541666667,0,0xC110,
0.771161375000000,0,0xC0C7,
0.771169291666667,0,0xC210,
0.771185125000000,0,0xC0C9,
0.771193041666667,0,0xC310,
0.771208875000000,0,0xC08A,
0.771216791666667,0,0xC410,
0.771232666666667,0,0xC0AF,
0.771240583333333,0,0xC510,
0.771256416666667,0,0xDD18,
0.771264333333333,0,0xC610,
0.771280166666667,0,0x8046,
0.771288083333333,0,0xC710,
0.771303916666667,0,0xA3D5,
0.771311833333333,0,0xC810,
0.771327666666667,0,0x9E38,
0.771335583333333,0,0xC910,
0.771351416666667,0,0x9E3B,
0.771359333333333,0,0xCA10,
0.771392166666667,0,0x0004,
0.771399833333333,0,0x0325,
0.771415791666667,0,0x0A01,
0.771423625000000,0,0x8325,
0.771439333333333,0,0x0F00,
0.771447208333333,0,0x8425,
0.771462916666667,0,0x0000,
0.771470791666667,0,0x8520,
0.771486500000000,0,0x073F,
0.771494333333333,0,0x8625,
0.771524541666667,0,0x0001,
0.771532208333333,0,0x1D29,
0.771548333333333,0,0x0055,
0.771556208333333,0,0x9D29,
0.771584208333333,0,0x0003,
0.771591875000000,0,0x242D,
0.771608250000000,0,0x004C,
0.771616083333333,0,0xA420,
0.771631791666667,0,0x0040,
0.771639666666667,0,0xA520,
0.771655375000000,0,0x8000,
0.771663250000000,0,0xA620,
0.771692583333333,0,0x0005,
0.771700250000000,0,0x2D21,
0.771716291666667,0,0x43C4,
0.771724125000000,0,0xAD20,
0.771739833333333,0,0xFFEF,
0.771747708333333,0,0xAE20,
0.771763416666667,0,0x7230,
0.771771291666667,0,0xAF20,
0.771787000000000,0,0xFFFF,
0.771794833333333,0,0xB020,
0.771810541666667,0,0x830D,
0.771818416666667,0,0xB120,
0.771849791666667,0,0x0006,
0.771857500000000,0,0x3B25,
0.771873875000000,0,0xE519,
0.771881750000000,0,0xBB20,
0.771897458333333,0,0x8000,
0.771905333333333,0,0xBC20,
0.771921041666667,0,0x8000,
0.771928875000000,0,0xBD20,
0.771944583333333,0,0x8000,
0.771952458333333,0,0xBE20,
0.771968166666667,0,0xE5BE,
0.771976041666667,0,0xBF20,
0.771991750000000,0,0xE5D5,
0.771999625000000,0,0xC020,
0.772030291666667,0,0x000A,
0.772038000000000,0,0x4129,
0.772054083333333,0,0xDB6B,
0.772061958333333,0,0xC120,
0.772077666666667,0,0xDC6F,
0.772085541666667,0,0xC220,
0.772101250000000,0,0xDF3E,
0.772109083333333,0,0xC320,
0.772124833333333,0,0xE120,
0.772132666666667,0,0xC420,
0.772148375000000,0,0xA97A,
0.772156250000000,0,0xC520,
0.772171958333333,0,0xFF49,
0.772179833333333,0,0xC620,
0.772195500000000,0,0xC013,
0.772203375000000,0,0xC720,
0.772219083333333,0,0xA3B7,
0.772226958333333,0,0xC820,
0.772242666666667,0,0x9E39,
0.772250500000000,0,0xC920,
0.772266208333333,0,0x9E3C,
0.772274083333333,0,0xCA20,
0.779931583333333,0,0x1C3F,
0.779939250000000,0,0x060F,
0.779966166666667,0,0x0004,
0.779973833333333,0,0x0311,
0.779990208333333,0,0x0A01,
0.779998125000000,0,0x8311,
0.780013958333333,0,0x0F00,
0.780021916666667,0,0x8411,
0.780037750000000,0,0x0000,
0.780045666666667,0,0x8511,
0.780061500000000,0,0x1F3F,
0.780069416666667,0,0x8611,
0.780100333333333,0,0x0004,
0.780108000000000,0,0x0315,
0.780124375000000,0,0x0A01,
0.780132291666667,0,0x8315,
0.780148125000000,0,0x0F00,
0.780156083333333,0,0x8415,
0.780171916666667,0,0x0000,
0.780179833333333,0,0x8511,
0.780195666666667,0,0x1F3F,
0.780203583333333,0,0x8615,
0.780233708333333,0,0x0004,
0.780241375000000,0,0x0319,
0.780257541666667,0,0x0A01,
0.780265458333333,0,0x8319,
0.780281291666667,0,0x0F00,
0.780289250000000,0,0x8419,
0.780305083333333,0,0x0000,
0.780313000000000,0,0x8511,
0.780328833333333,0,0x1F3F,
0.780336791666667,0,0x8619,
0.780367125000000,0,0x0004,
0.780374791666667,0,0x031D,
0.780391208333333,0,0x0A01,
0.780399125000000,0,0x831D,
0.780414958333333,0,0x0F00,
0.780422916666667,0,0x841D,
0.780438750000000,0,0x0000,
0.780446666666667,0,0x8511,
0.780462500000000,0,0x1F3F,
0.780470416666667,0,0x861D,
0.780501291666667,0,0x0004,
0.780509000000000,0,0x0311,
0.780525333333333,0,0x0A01,
0.780533250000000,0,0x8311,
0.780549083333333,0,0x0F00,
0.780557000000000,0,0x8411,
0.780572833333333,0,0x0000,
0.780580750000000,0,0x8511,
0.780596625000000,0,0x173F,
0.780604541666667,0,0x8611,
0.780634583333333,0,0x0001,
0.780642250000000,0,0x1D15,
0.780658458333333,0,0x1551,
0.780666375000000,0,0x9D15,
0.780694416666667,0,0x0003,
0.780702083333333,0,0x2419,
0.780718333333333,0,0x0048,
0.780726250000000,0,0xA411,
0.780742083333333,0,0x0040,
0.780750000000000,0,0xA511,
0.780765833333333,0,0x8000,
0.780773750000000,0,0xA611,
0.780803083333333,0,0x0005,
0.780810750000000,0,0x2D1D,
0.780827166666667,0,0x3673,
0.780835083333333,0,0xAD11,
0.780850916666667,0,0xFFEC,
0.780858833333333,0,0xAE11,
0.780874666666667,0,0xEBCA,
0.780882583333333,0,0xAF11,
0.780898416666667,0,0xFFFF,
0.780906375000000,0,0xB011,
0.780922166666667,0,0x830E,
0.780930083333333,0,0xB111,
0.780960000000000,0,0x0006,
0.780967708333333,0,0x3B11,
0.780984000000000,0,0xB3E3,
0.780991958333333,0,0xBB11,
0.781007750000000,0,0xB32A,
0.781015666666667,0,0xBC11,
0.781031500000000,0,0xB2C1,
0.781039416666667,0,0xBD11,
0.781055250000000,0,0xB202,
0.781063166666667,0,0xBE11,
0.781079000000000,0,0xB204,
0.781086916666667,0,0xBF11,
0.781102750000000,0