Time [s],Packet ID,MOSI,MISO
0.002164250000000,0,0x0001,
0.002171916666667,0,0x0115,
0.002426958333333,0,0x0001,
0.002434625000000,0,0x0109,
0.002450625000000,0,0x0000,
0.002458541666667,0,0x8109,
0.002800333333333,0,0x0001,
0.002808041666667,0,0x010E,
0.002824041666667,0,0x0001,
0.002831958333333,0,0x811E,
0.003062291666667,0,0x0001,
0.003069958333333,0,0x0111,
0.003085958333333,0,0x0001,
0.003093916666667,0,0x8111,
0.003324833333333,0,0x0011,
0.003332541666667,0,0x0116,
0.003348916666667,0,0x0011,
0.003356833333333,0,0x8116,
0.007990500000000,0,0x0001,
0.007998166666667,0,0x0129,
0.008255708333333,0,0x0001,
0.008263375000000,0,0x010D,
0.008279625000000,0,0x0000,
0.008287500000000,0,0x810D,
0.008524166666667,0,0x0002,
0.008531833333333,0,0x0102,
0.008547916666667,0,0x0002,
0.008555791666667,0,0x8122,
0.008786166666667,0,0x0001,
0.008793833333333,0,0x0125,
0.008809833333333,0,0x0002,
0.008817666666667,0,0x8125,
0.010128583333333,0,0x0A01,
0.010136250000000,0,0x030B,
0.010164666666667,0,0x0300,
0.010172333333333,0,0x040F,
0.010200041666667,0,0x04BF,
0.010207750000000,0,0x0603,
0.010234583333333,0,0x0000,
0.010242250000000,0,0x0807,
0.010269708333333,0,0x4000,
0.010277375000000,0,0x071A,
0.010293666666667,0,0x4000,
0.010301625000000,0,0x871A,
0.010329791666667,0,0x1551,
0.010337500000000,0,0x1D1E,
0.010353625000000,0,0x1551,
0.010361541666667,0,0x9D1E,
0.010389750000000,0,0x0055,
0.010397416666667,0,0x1D22,
0.010413541666667,0,0x0055,
0.010421416666667,0,0x9D22,
0.010449083333333,0,0x0C3F,
0.010456750000000,0,0x0607,
0.013148041666667,0,0x0801,
0.013155750000000,0,0x031A,
0.013171708333333,0,0x0801,
0.013179583333333,0,0x831A,
0.013207625000000,0,0x0841,
0.013215291666667,0,0x031E,
0.013231625000000,0,0x0801,
0.013239541666667,0,0x831E,
0.013267291666667,0,0x0600,
0.013274958333333,0,0x0512,
0.013291041666667,0,0x0600,
0.013298958333333,0,0x8512,
0.013326958333333,0,0x0801,
0.013334666666667,0,0x0326,
0.013350791666667,0,0x0801,
0.013358666666667,0,0x8326,
0.013386958333333,0,0x0841,
0.013394625000000,0,0x032A,
0.013410750000000,0,0x0801,
0.013418583333333,0,0x832A,
0.013446541666667,0,0x0600,
0.013454208333333,0,0x052E,
0.013470208333333,0,0x0600,
0.013478041666667,0,0x852E,
0.048979125000000,0,0x0010,
0.048986791666667,0,0x0303,
0.057147375000000,0,0x0001,
0.057155041666667,0,0x0115,
0.057409666666667,0,0x0001,
0.057417333333333,0,0x0109,
0.057433708333333,0,0x0000,
0.057441666666667,0,0x8109,
0.057672250000000,0,0x0001,
0.057679916666667,0,0x010E,
0.057696250000000,0,0x0001,
0.057704166666667,0,0x811E,
0.057934250000000,0,0x0001,
0.057941958333333,0,0x0111,
0.057958291666667,0,0x0001,
0.057966208333333,0,0x8111,
0.058196291666667,0,0x0011,
0.058203958333333,0,0x0116,
0.058220250000000,0,0x0011,
0.058228208333333,0,0x8116,
0.062861250000000,0,0x0001,
0.062868916666667,0,0x0129,
0.063123875000000,0,0x0001,
0.063131583333333,0,0x010D,
0.063147541666667,0,0x0000,
0.063155416666667,0,0x810D,
0.063388208333333,0,0x0002,
0.063395916666667,0,0x0102,
0.063411875000000,0,0x0002,
0.063419750000000,0,0x8122,
0.063650583333333,0,0x0001,
0.063658250000000,0,0x0125,
0.063674291666667,0,0x0002,
0.063682166666667,0,0x8125,
0.064921708333333,0,0x0A01,
0.064929416666667,0,0x030B,
0.064956500000000,0,0x0300,
0.064964208333333,0,0x040F,
0.064991666666667,0,0x04BF,
0.064999375000000,0,0x0603,
0.065026458333333,0,0x0000,
0.065034125000000,0,0x0807,
0.065061875000000,0,0x4000,
0.065069583333333,0,0x071A,
0.065086000000000,0,0x4000,
0.065093916666667,0,0x871A,
0.065122166666667,0,0x1551,
0.065129875000000,0,0x1D1E,
0.065145916666667,0,0x1551,
0.065153833333333,0,0x9D1E,
0.065181833333333,0,0x0055,
0.065189500000000,0,0x1D22,
0.065205875000000,0,0x0055,
0.065213750000000,0,0x9D22,
0.065241083333333,0,0x0C3F,
0.065248750000000,0,0x0607,
0.067951625000000,0,0x0801,
0.067959333333333,0,0x031A,
0.067975500000000,0,0x0801,
0.067983416666667,0,0x831A,
0.068011250000000,0,0x0841,
0.068018916666667,0,0x031E,
0.068034958333333,0,0x0801,
0.068042833333333,0,0x831E,
0.068070875000000,0,0x0600,
0.068078541666667,0,0x0512,
0.068094833333333,0,0x0600,
0.068102791666667,0,0x8512,
0.068131250000000,0,0x0801,
0.068138916666667,0,0x0326,
0.068155333333333,0,0x0801,
0.068163208333333,0,0x8326,
0.068191000000000,0,0x0841,
0.068198708333333,0,0x032A,
0.068214791666667,0,0x0801,
0.068222625000000,0,0x832A,
0.068250750000000,0,0x0600,
0.068258458333333,0,0x052E,
0.068274750000000,0,0x0600,
0.068282583333333,0,0x852E,
0.122402208333333,0,0x0005,
0.122409916666667,0,0x2111,
0.122426250000000,0,0x0001,
0.122434166666667,0,0xA111,
0.122450000000000,0,0x0C00,
0.122457958333333,0,0xA211,
0.122473791666667,0,0x0400,
0.122481708333333,0,0xA311,
0.122497541666667,0,0xC248,
0.122505500000000,0,0xA410,
0.122521375000000,0,0x0040,
0.122529291666667,0,0xA510,
0.123415458333333,0,0x0005,
0.123423125000000,0,0x2125,
0.123439083333333,0,0x0050,
0.123446916666667,0,0xA125,
0.123462625000000,0,0x0C00,
0.123470500000000,0,0xA225,
0.123486250000000,0,0x0200,
0.123494083333333,0,0xA325,
0.123509833333333,0,0xC244,
0.123517666666667,0,0xA420,
0.123533416666667,0,0x0040,
0.123541250000000,0,0xA520,
0.125435083333333,0,0x0000,
0.125442750000000,0,0x051A,
0.125459125000000,0,0x0000,
0.125467041666667,0,0x851A,
0.125494916666667,0,0x0A01,
0.125502625000000,0,0x031E,
0.125519041666667,0,0x0A41,
0.125526958333333,0,0x831E,
0.125554750000000,0,0x0000,
0.125562458333333,0,0x0522,
0.125578791666667,0,0x0000,
0.125586625000000,0,0x8522,
0.125615000000000,0,0x0A01,
0.125622666666667,0,0x0326,
0.125638708333333,0,0x0A41,
0.125646583333333,0,0x8326,
0.129068375000000,0,0x0000,
0.129076041666667,0,0x240B,
0.129104083333333,0,0x0000,
0.129111750000000,0,0x250F,
0.129139833333333,0,0x0000,
0.129147500000000,0,0x2603,
0.129175458333333,0,0x1C3F,
0.129183125000000,0,0x0607,
0.129211125000000,0,0x0004,
0.129218791666667,0,0x0319,
0.129235041666667,0,0x0A01,
0.129242958333333,0,0x8319,
0.129258833333333,0,0x0F00,
0.129266750000000,0,0x8419,
0.129282625000000,0,0x0000,
0.129290541666667,0,0x8511,
0.129306375000000,0,0x1F3F,
0.129314291666667,0,0x8619,
0.129344750000000,0,0x0004,
0.129352416666667,0,0x031D,
0.129368791666667,0,0x0A01,
0.129376708333333,0,0x831D,
0.129392583333333,0,0x0F00,
0.129400500000000,0,0x841D,
0.129416375000000,0,0x0000,
0.129424291666667,0,0x8511,
0.129440166666667,0,0x1F3F,
0.129448083333333,0,0x861D,
0.129478625000000,0,0x0004,
0.129486291666667,0,0x0311,
0.129502583333333,0,0x0A01,
0.129510541666667,0,0x8311,
0.129526375000000,0,0x0F00,
0.129534333333333,0,0x8411,
0.129550208333333,0,0x0000,
0.129558125000000,0,0x8511,
0.129573958333333,0,0x1F3F,
0.129581916666667,0,0x8611,
0.129612583333333,0,0x0004,
0.129620250000000,0,0x0315,
0.129636416666667,0,0x0A01,
0.129644333333333,0,0x8315,
0.129660166666667,0,0x0F00,
0.129668125000000,0,0x8415,
0.129683958333333,0,0x0000,
0.129691916666667,0,0x8511,
0.129707750000000,0,0x1F3F,
0.129715666666667,0,0x8615,
0.129746458333333,0,0x0004,
0.129754125000000,0,0x0319,
0.129770166666667,0,0x0A01,
0.129778083333333,0,0x8319,
0.129793958333333,0,0x0F00,
0.129801875000000,0,0x8419,
0.129817708333333,0,0x0000,
0.129825625000000,0,0x8511,
0.129841500000000,0,0x173F,
0.129849416666667,0,0x8619,
0.129880958333333,0,0x0001,
0.129888625000000,0,0x1D1D,
0.129904916666667,0,0x1551,
0.129912833333333,0,0x9D1D,
0.129941458333333,0,0x0003,
0.129949166666667,0,0x2411,
0.129965333333333,0,0x0048,
0.129973250000000,0,0xA411,
0.129989125000000,0,0x0040,
0.129997041666667,0,0xA511,
0.130012875000000,0,0x0000,
0.130020833333333,0,0xA611,
0.130049541666667,0,0x0005,
0.130057208333333,0,0x2D15,
0.130073333333333,0,0x00C5,
0.130081250000000,0,0xAD11,
0.130097125000000,0,0xFFFF,
0.130105041666667,0,0xAE11,
0.130120875000000,0,0xEED4,
0.130128833333333,0,0xAF11,
0.130144666666667,0,0xFFFE,
0.130152583333333,0,0xB011,
0.130168416666667,0,0x830D,
0.130176375000000,0,0xB111,
0.130206750000000,0,0x0006,
0.130214416666667,0,0x3B19,
0.130230833333333,0,0xB38C,
0.130238750000000,0,0xBB11,
0.130254625000000,0,0xB360,
0.130262541666667,0,0xBC11,
0.130278416666667,0,0xB301,
0.130286333333333,0,0xBD11,
0.130302166666667,0,0xB24C,
0.130310083333333,0,0xBE11,
0.130325958333333,0,0xB24D,
0.130333875000000,0,0xBF11,
0.130349750000000,0,0xB2C4,
0.130357666666667,0,0xC011,
0.130388416666667,0,0x000A,
0.130396083333333,0,0x411D,
0.130412125000000,0,0xB4D0,
0.130420083333333,0,0xC111,
0.130435916666667,0,0xB437,
0.130443833333333,0,0xC211,
0.130459708333333,0,0xB4C0,
0.130467625000000,0,0xC311,
0.130483458333333,0,0xB431,
0.130491375000000,0,0xC411,
0.130507250000000,0,0xB482,
0.130515166666667,0,0xC511,
0.130531041666667,0,0xBD31,
0.130538958333333,0,0xC611,
0.130554791666667,0,0x8058,
0.130562708333333,0,0xC711,
0.130578583333333,0,0xA2F0,
0.130586500000000,0,0xC811,
0.130602333333333,0,0x9E39,
0.130610291666667,0,0xC911,
0.130626125000000,0,0x9E3D,
0.130634041666667,0,0xCA11,
0.130665708333333,0,0x0004,
0.130673375000000,0,0x0321,
0.130689375000000,0,0x0A01,
0.130697250000000,0,0x8321,
0.130712958333333,0,0x0F00,
0.130720833333333,0,0x8421,
0.130736541666667,0,0x0000,
0.130744416666667,0,0x8521,
0.130760125000000,0,0x173F,
0.130768000000000,0,0x8621,
0.130798958333333,0,0x0001,
0.130806625000000,0,0x1D25,
0.130823041666667,0,0x0055,
0.130830916666667,0,0x9D25,
0.130859166666667,0,0x0003,
0.130866833333333,0,0x2429,
0.130883000000000,0,0x004C,
0.130890833333333,0,0xA421,
0.130906583333333,0,0x0040,
0.130914416666667,0,0xA521,
0.130930166666667,0,0x0000,
0.130938041666667,0,0xA621,
0.130966166666667,0,0x0005,
0.130973875000000,0,0x2D2D,
0.130990125000000,0,0x00E0,
0.130998000000000,0,0xAD21,
0.131013708333333,0,0xFFFF,
0.131021583333333,0,0xAE21,
0.131037291666667,0,0xF3C9,
0.131045166666667,0,0xAF21,
0.131060916666667,0,0x8000,
0.131068750000000,0,0xB021,
0.131084500000000,0,0x8300,
0.131092333333333,0,0xB121,
0.131122375000000,0,0x0006,
0.131130041666667,0,0x3B21,
0.131146416666667,0,0xE571,
0.131154291666667,0,0xBB21,
0.131170000000000,0,0x8004,
0.131177875000000,0,0xBC21,
0.131193583333333,0,0x8001,
0.131201458333333,0,0xBD21,
0.131217208333333,0,0x8001,
0.131225041666667,0,0xBE21,
0.131240791666667,0,0xE609,
0.131248625000000,0,0xBF21,
0.131264375000000,0,0xE61F,
0.131272250000000,0,0xC021,
0.131302333333333,0,0x000A,
0.131310041666667,0,0x4125,
0.131326291666667,0,0x99EE,
0.131334166666667,0,0xC121,
0.131349875000000,0,0xBDB8,
0.131357750000000,0,0xC221,
0.131373500000000,0,0x9FA7,
0.131381375000000,0,0xC321,
0.131397083333333,0,0xD40A,
0.131404958333333,0,0xC421,
0.131420666666667,0,0xA179,
0.131428541666667,0,0xC521,
0.131444250000000,0,0xE5E3,
0.131452125000000,0,0xC621,
0.131467833333333,0,0xB2B9,
0.131475708333333,0,0xC721,
0.131491458333333,0,0xA2D4,
0.131499291666667,0,0xC821,
0.131515041666667,0,0x9E3B,
0.131522875000000,0,0xC921,
0.131538625000000,0,0x9E40,
0.131546458333333,0,0xCA21,
0.139296625000000,0,0x2C3F,
0.139304333333333,0,0x060B,
0.139331541666667,0,0x0004,
0.139339208333333,0,0x031D,
0.139355375000000,0,0x0A01,
0.139363291666667,0,0x831D,
0.139379125000000,0,0x0F00,
0.139387083333333,0,0x841D,
0.139402916666667,0,0x0000,
0.139410833333333,0,0x8512,
0.139426708333333,0,0x2F3F,
0.139434625000000,0,0x861D,
0.139465500000000,0,0x0004,
0.139473166666667,0,0x0311,
0.139489625000000,0,0x0A01,
0.139497583333333,0,0x8311,
0.139513416666667,0,0x0F00,
0.139521375000000,0,0x8411,
0.139537208333333,0,0x0000,
0.139545125000000,0,0x8512,
0.139561000000000,0,0x2F3F,
0.139568916666667,0,0x8611,
0.139599875000000,0,0x0004,
0.139607541666667,0,0x0315,
0.139623916666667,0,0x0A01,
0.139631833333333,0,0x8315,
0.139647708333333,0,0x0F00,
0.139655625000000,0,0x8415,
0.139671500000000,0,0x0000,
0.139679416666667,0,0x8512,
0.139695250000000,0,0x2F3F,
0.139703166666667,0,0x8615,
0.139733875000000,0,0x0004,
0.139741583333333,0,0x0319,
0.139757708333333,0,0x0A01,
0.139765625000000,0,0x8319,
0.139781458333333,0,0x0F00,
0.139789416666667,0,0x8419,
0.139805250000000,0,0x0000,
0.139813166666667,0,0x8512,
0.139829041666667,0,0x2F3F,
0.139836958333333,0,0x8619,
0.139867250000000,0,0x0004,
0.139874958333333,0,0x031D,
0.139890958333333,0,0x0A01,
0.139898916666667,0,0x831D,
0.139914750000000,0,0x0F00,
0.139922666666667,0,0x841D,
0.139938541666667,0,0x0000,
0.139946458333333,0,0x8512,
0.139962333333333,0,0x273F,
0.139970250000000,0,0x861D,
0.140000833333333,0,0x0001,
0.140008500000000,0,0x1D11,
0.140024750000000,0,0x1551,
0.140032666666667,0,0x9D11,
0.140061000000000,0,0x0003,
0.140068666666667,0,0x2415,
0.140084666666667,0,0x0048,
0.140092625000000,0,0xA412,
0.140108458333333,0,0x0040,
0.140116375000000,0,0xA512,
0.140132250000000,0,0x0000,
0.140140125000000,0,0xA612,
0.140168833333333,0,0x0005,
0.140176500000000,0,0x2D19,
0.140192666666667,0,0x01D2,
0.140200583333333,0,0xAD12,
0.140216416666667,0,0xFFFF,
0.140224333333333,0,0xAE12,
0.140240166666667,0,0xE879,
0.140248083333333,0,0xAF12,
0.140263958333333,0,0x8000,
0.140271875000000,0,0xB012,
0.140287708333333,0,0x8301,
0.140295625000000,0,0xB112,
0.140326916666667,0,0x0006,
0.140334583333333,0,0x3B1D,
0.140350583333333,0,0xB3D6,
0.140358500000000,0,0xBB12,
0.140374375000000,0,0xB351,
0.140382291666667,0,0xBC12,
0.140398166666667,0,0xB2E4,
0.140406083333333,0,0xBD12,
0.140421916666667,0,0xB22B,
0.140429833333333,0,0xBE12,
0.140445708333333,0,0xB22C,
0.140453625000000,0,0xBF12,
0.140469458333333,0,0xB2A2,
0.140477416666667,0,0xC012,
0.140507375000000,0,0x000A,
0.140515041666667,0,0x4111,
0.140531375000000,0,0xBFED,
0.140539291666667,0,0xC112,
0.140555125000000,0,0xBF10,
0.140563041666667,0,0xC212,
0.140578916666667,0,0xBFF0,
0.140586833333333,0,0xC312,
0.140602666666667,0,0xBFD6,
0.140610583333333,0,0xC412,
0.140626458333333,0,0xBFEC,
0.140634375000000,0,0xC512,
0.140650208333333,0,0xD5E1,
0.140658125000000,0,0xC612,
0.140674000000000,0,0x8006,
0.140681916666667,0,0xC712,
0.140697750000000,0,0xA2F2,
0.140705708333333,0,0xC812,
0.140721541666667,0,0x9E3B,
0.140729458333333,0,0xC912,
0.140745333333333,0,0x9E3D,
0.140753250000000,0,0xCA12,
0.140786250000000,0,0x0004,
0.140793916666667,0,0x0325,
0.140810125000000,0,0x0A01,
0.140818000000000,0,0x8325,
0.140833708333333,0,0x0F00,
0.140841583333333,0,0x8425,
0.140857291666667,0,0x0000,
0.140865166666667,0,0x8522,
0.140880916666667,0,0x273F,
0.140888750000000,0,0x8625,
0.140918833333333,0,0x0001,
0.140926541666667,0,0x1D29,
0.140942791666667,0,0x0055,
0.140950666666667,0,0x9D29,
0.140978541666667,0,0x0003,
0.140986208333333,0,0x242D,
0.141002250000000,0,0x004C,
0.141010125000000,0,0xA422,
0.141025875000000,0,0x0040,
0.141033708333333,0,0xA522,
0.141049458333333,0,0x0000,
0.141057291666667,0,0xA622,
0.141086000000000,0,0x0005,
0.141093708333333,0,0x2D21,
0.141109875000000,0,0x01EF,
0.141117750000000,0,0xAD22,
0.141133500000000,0,0xFFFF,
0.141141333333333,0,0xAE22,
0.141157083333333,0,0xF20F,
0.141164916666667,0,0xAF22,
0.141180666666667,0,0x8000,
0.141188500000000,0,0xB022,
0.141204250000000,0,0x8309,
0.141212125000000,0,0xB122,
0.141242208333333,0,0x0006,
0.141249916666667,0,0x3B25,
0.141266166666667,0,0xE566,
0.141274000000000,0,0xBB22,
0.141289750000000,0,0x8000,
0.141297625000000,0,0xBC22,
0.141313333333333,0,0x8004,
0.141321208333333,0,0xBD22,
0.141336916666667,0,0x8002,
0.141344791666667,0,0xBE22,
0.141360541666667,0,0xE60A,
0.141368375000000,0,0xBF22,
0.141384125000000,0,0xE61E,
0.141391958333333,0,0xC022,
0.141422208333333,0,0x000A,
0.141429916666667,0,0x4129,
0.141446041666667,0,0xADEE,
0.141453916666667,0,0xC122,
0.141469625000000,0,0xD639,
0.141477500000000,0,0xC222,
0.141493208333333,0,0xB879,
0.141501083333333,0,0xC322,
0.141516791666667,0,0xE05B,
0.141524666666667,0,0xC422,
0.141540375000000,0,0xA870,
0.141548250000000,0,0xC522,
0.141563958333333,0,0xFC8D,
0.141571833333333,0,0xC622,
0.141587541666667,0,0xBE3B,
0.141595416666667,0,0xC722,
0.141611166666667,0,0xA2D4,
0.141619000000000,0,0xC822,
0.141634750000000,0,0x9E39,
0.141642583333333,0,0xC922,
0.141658333333333,0,0x9E40,
0.141666208333333,0,0xCA22,
0.149283041666667,0,0x3C3F,
0.149290750000000,0,0x060F,
0.149318250000000,0,0x0004,
0.149325916666667,0,0x0311,
0.149342125000000,0,0x0A01,
0.149350041666667,0,0x8311,
0.149365875000000,0,0x0F00,
0.149373833333333,0,0x8411,
0.149389666666667,0,0x0000,
0.149397625000000,0,0x8513,
0.149413458333333,0,0x3F3F,
0.149421375000000,0,0x8611,
0.149452958333333,0,0x0004,
0.149460625000000,0,0x0315,
0.149476875000000,0,0x0A01,
0.149484791666667,0,0x8315,
0.149500666666667,0,0x0F00,
0.149508583333333,0,0x8415,
0.149524458333333,0,0x0000,
0.149532416666667,0,0x8513,
0.149548250000000,0,0x3F3F,
0.149556166666667,0,0x8615,
0.149586833333333,0,0x0004,
0.149594500000000,0,0x0319,
0.149610708333333,0,0x0A01,
0.149618625000000,0,0x8319,
0.149634500000000,0,0x0F00,
0.149642416666667,0,0x8419,
0.149658291666667,0,0x0000,
0.149666208333333,0,0x8513,
0.149682083333333,0,0x3F3F,
0.149690000000000,0,0x8619,
0.149720041666667,0,0x0004,
0.149727708333333,0,0x031D,
0.149744041666667,0,0x0A01,
0.149751958333333,0,0x831D,
0.149767791666667,0,0x0F00,
0.149775750000000,0,0x841D,
0.149791583333333,0,0x0000,
0.149799541666667,0,0x8513,
0.149815375000000,0,0x3F3F,
0.149823333333333,0,0x861D,
0.149853875000000,0,0x0004,
0.149861541666667,0,0x0311,
0.149877833333333,0,0x0A01,
0.149885750000000,0,0x8311,
0.149901625000000,0,0x0F00,
0.149909541666667,0,0x8411,
0.149925416666667,0,0x0000,
0.149933333333333,0,0x8513,
0.149949166666667,0,0x373F,
0.149957125000000,0,0x8611,
0.149987750000000,0,0x0001,
0.149995458333333,0,0x1D15,
0.150011583333333,0,0x1551,
0.150019500000000,0,0x9D15,
0.150047458333333,0,0x0003,
0.150055125000000,0,0x2419,
0.150071500000000,0,0x0048,
0.150079416666667,0,0xA413,
0.150095291666667,0,0x0040,
0.150103250000000,0,0xA513,
0.150119083333333,0,0x0000,
0.150127000000000,0,0xA613,
0.150156041666667,0,0x0005,
0.150163708333333,0,0x2D1D,
0.150180000000000,0,0x02DB,
0.150187916666667,0,0xAD13,
0.150203750000000,0,0xFFFF,
0.150211666666667,0,0xAE13,
0.150227541666667,0,0xE61A,
0.150235458333333,0,0xAF13,
0.150251291666667,0,0xFFFF,
0.150259250000000,0,0xB013,
0.150275083333333,0,0x8308,
0.150283000000000,0,0xB113,
0.150313583333333,0,0x0006,
0.150321250000000,0,0x3B11,
0.150337458333333,0,0xB3EE,
0.150345416666667,0,0xBB13,
0.150361250000000,0,0xB34C,
0.150369166666667,0,0xBC13,
0.150385041666667,0,0xB2DD,
0.150392958333333,0,0xBD13,
0.150408791666667,0,0xB21E,
0.150416708333333,0,0xBE13,
0.150432583333333,0,0xB223,
0.150440500000000,0,0xBF13,
0.150456375000000,0,0xB299,
0.150464291666667,0,0xC013,
0.150494083333333,0,0x000A,
0.150501791666667,0,0x4115,
0.150517791666667,0,0xC0AC,
0.150525708333333,0,0xC113,
0.150541583333333,0,0xC06E,
0.150549500000000,0,0xC213,
0.150565333333333,0,0xC0AE,
0.150573250000000,0,0xC313,
0.150589125000000,0,0xC0A9,
0.150597041666667,0,0xC413,
0.150612875000000,0,0xC0AF,
0.150620791666667,0,0xC513,
0.150636666666667,0,0xDD14,
0.150644583333333,0,0xC613,
0.150660416666667,0,0x8004,
0.150668375000000,0,0xC713,
0.150684208333333,0,0xA2F4,
0.150692125000000,0,0xC813,
0.150708000000000,0,0x9E3A,
0.150715916666667,0,0xC913,
0.150731791666667,0,0x9E40,
0.150739708333333,0,0xCA13,
0.150772375000000,0,0x0004,
0.150780041666667,0,0x0329,
0.150796041666667,0,0x0A01,
0.150803875000000,0,0x8329,
0.150819625000000,0,0x0F00,
0.150827458333333,0,0x8429,
0.150843208333333,0,0x0000,
0.150851041666667,0,0x8523,
0.150866791666667,0,0x373F,
0.150874625000000,0,0x8629,
0.150905083333333,0,0x0001,
0.150912750000000,0,0x1D2D,
0.150929166666667,0,0x0055,
0.150937041666667,0,0x9D2D,
0.150964666666667,0,0x0003,
0.150972375000000,0,0x2421,
0.150988625000000,0,0x004C,
0.150996500000000,0,0xA423,
0.151012250000000,0,0x0040,
0.151020083333333,0,0xA523,
0.151035791666667,0,0x0000,
0.151043666666667,0,0xA623,
0.151072500000000,0,0x0005,
0.151080208333333,0,0x2D25,
0.151096250000000,0,0x02FB,
0.151104125000000,0,0xAD23,
0.151119833333333,0,0xFFFF,
0.151127708333333,0,0xAE23,
0.151143416666667,0,0xF167,
0.151151291666667,0,0xAF23,
0.151167000000000,0,0x8000,
0.151174875000000,0,0xB023,
0.151190583333333,0,0x8303,
0.151198458333333,0,0xB123,
0.151229583333333,0,0x0006,
0.151237250000000,0,0x3B29,
0.151253500000000,0,0xE565,
0.151261375000000,0,0xBB23,
0.151277083333333,0,0x8000,
0.151284916666667,0,0xBC23,
0.151300666666667,0,0x8000,
0.151308541666667,0,0xBD23,
0.151324250000000,0,0x8001,
0.151332125000000,0,0xBE23,
0.151347875000000,0,0xE602,
0.151355708333333,0,0xBF23,
0.151371458333333,0,0xE619,
0.151379291666667,0,0xC023,
0.151410083333333,0,0x000A,
0.151417750000000,0,0x412D,
0.151433875000000,0,0xBD5A,
0.151441708333333,0,0xC123,
0.151457458333333,0,0xDD12,
0.151465291666667,0,0xC223,
0.151481041666667,0,0xC6FD,
0.151488875000000,0,0xC323,
0.151504625000000,0,0xE11E,
0.151512500000000,0,0xC423,
0.151528208333333,0,0xA951,
0.151536083333333,0,0xC523,
0.151551791666667,0,0xFEDF,
0.151559666666667,0,0xC623,
0.151575375000000,0,0xBFB9,
0.151583250000000,0,0xC723,
0.151598958333333,0,0xA2D6,
0.151606833333333,0,0xC823,
0.151622541666667,0,0x9E37,
0.151630416666667,0,0xC923,
0.151646125000000,0,0x9E3E,
0.151654000000000,0,0xCA23,
0.159427625000000,0,0x4C3F,
0.159435291666667,0,0x0603,
0.159462250000000,0,0x0004,
0.159469958333333,0,0x0315,
0.159486083333333,0,0x0A01,
0.159494041666667,0,0x8315,
0.159509875000000,0,0x0F00,
0.159517791666667,0,0x8415,
0.159533666666667,0,0x0000,
0.159541583333333,0,0x8514,
0.159557458333333,0,0x4F3F,
0.159565375000000,0,0x8615,
0.159596500000000,0,0x0004,
0.159604166666667,0,0x0319,
0.159620375000000,0,0x0A01,
0.159628291666667,0,0x8319,
0.159644166666667,0,0x0F00,
0.159652083333333,0,0x8419,
0.159667958333333,0,0x0000,
0.159675875000000,0,0x8514,
0.159691750000000,0,0x4F3F,
0.159699666666667,0,0x8619,
0.159731375000000,0,0x0004,
0.159739041666667,0,0x031D,
0.159755166666667,0,0x0A01,
0.159763083333333,0,0x831D,
0.159778958333333,0,0x0F00,
0.159786875000000,0,0x841D,
0.159802750000000,0,0x0000,
0.159810666666667,0,0x8514,
0.159826541666667,0,0x4F3F,
0.159834458333333,0,0x861D,
0.159865208333333,0,0x0004,
0.159872875000000,0,0x0311,
0.159889000000000,0,0x0A01,
0.159896916666667,0,0x8311,
0.159912791666667,0,0x0F00,
0.159920708333333,0,0x8411,
0.159936541666667,0,0x0000,
0.159944500000000,0,0x8514,
0.159960333333333,0,0x4F3F,
0.159968250000000,0,0x8611,
0.159998833333333,0,0x0004,
0.160006500000000,0,0x0315,
0.160022750000000,0,0x0A01,
0.160030666666667,0,0x8315,
0.160046541666667,0,0x0F00,
0.160054458333333,0,0x8415,
0.160070291666667,0,0x0000,
0.160078208333333,0,0x8514,
0.160094041666667,0,0x473F,
0.160102000000000,0,0x8615,
0.160133250000000,0,0x0001,
0.160140916666667,0,0x1D19,
0.160156958333333,0,0x1551,
0.160164875000000,0,0x9D19,
0.160192583333333,0,0x0003,
0.160200250000000,0,0x241D,
0.160216416666667,0,0x0048,
0.160224333333333,0,0xA414,
0.160240166666667,0,0x0040,
0.160248125000000,0,0xA514,
0.160263958333333,0,0x0000,
0.160271916666667,0,0xA614,
0.160301041666667,0,0x0005,
0.160308708333333,0,0x2D11,
0.160324916666667,0,0x03E9,
0.160332833333333,0,0xAD14,
0.160348708333333,0,0xFFFF,
0.160356625000000,0,0xAE14,
0.160372458333333,0,0xE3FE,
0.160380416666667,0,0xAF14,
0.160396250000000,0,0xFFFF,
0.160404208333333,0,0xB014,
0.160420041666667,0,0x830C,
0.160427958333333,0,0xB114,
0.160458666666667,0,0x0006,
0.160466375000000,0,0x3B15,
0.160482458333333,0,0xB3F1,
0.160490375000000,0,0xBB14,
0.160506208333333,0,0xB348,
0.160514166666667,0,0xBC14,
0.160530000000000,0,0xB2DB,
0.160537916666667,0,0xBD14,
0.160553791666667,0,0xB218,
0.160561708333333,0,0xBE14,
0.160577541666667,0,0xB21D,
0.160585458333333,0,0xBF14,
0.160601333333333,0,0xB292,
0.160609250000000,0,0xC014,
0.160639458333333,0,0x000A,
0.160647125000000,0,0x4119,
0.160663250000000,0,0xC0BD,
0.160671166666667,0,0xC114,
0.160687000000000,0,0xC0A1,
0.160694916666667,0,0xC214,
0.160710791666667,0,0xC0BE,
0.160718708333333,0,0xC314,
0.160734541666667,0,0xC0C0,
0.160742500000000,0,0xC414,
0.160758333333333,0,0xC0C0,
0.160766250000000,0,0xC514,
0.160782125000000,0,0xDF42,
0.160790041666667,0,0xC614,
0.160805916666667,0,0x8000,
0.160813833333333,0,0xC714,
0.160829666666667,0,0xA2F2,
0.160837583333333,0,0xC814,
0.160853458333333,0,0x9E3E,
0.160861375000000,0,0xC914,
0.160877208333333,0,0x9E3C,
0.160885166666667,0,0xCA14,
0.160918250000000,0,0x0004,
0.160925916666667,0,0x032D,
0.160942208333333,0,0x0A01,
0.160950083333333,0,0x832D,
0.160965791666667,0,0x0F00,
0.160973666666667,0,0x842D,
0.160989416666667,0,0x0000,
0.160997250000000,0,0x8524,
0.161013000000000,0,0x473F,
0.161020875000000,0,0x862D,
0.161051166666667,0,0x0001,
0.161058833333333,0,0x1D21,
0.161074916666667,0,0x0055,
0.161082791666667,0,0x9D21,
0.161110458333333,0,0x0003,
0.161118125000000,0,0x2425,
0.161134375000000,0,0x004C,
0.161142250000000,0,0xA424,
0.161158000000000,0,0x0040,
0.161165833333333,0,0xA524,
0.161181583333333,0,0x0000,
0.161189416666667,0,0xA624,
0.161218000000000,0,0x0005,
0.161225666666667,0,0x2D29,
0.161242041666667,0,0x040A,
0.161249875000000,0,0xAD24,
0.161265625000000,0,0xFFFF,
0.161273500000000,0,0xAE24,
0.161289208333333,0,0xF15A,
0.161297083333333,0,0xAF24,
0.161312791666667,0,0x8000,
0.161320666666667,0,0xB024,
0.161336375000000,0,0x8302,
0.161344250000000,0,0xB124,
0.161374416666667,0,0x0006,
0.161382125000000,0,0x3B2D,
0.161398333333333,0,0xE562,
0.161406166666667,0,0xBB24,
0.161421916666667,0,0x8001,
0.161429791666667,0,0xBC24,
0.161445500000000,0,0x8000,
0.161453375000000,0,0xBD24,
0.161469083333333,0,0x8000,
0.161476958333333,0,0xBE24,
0.161492666666667,0,0xE5FD,
0.161500541666667,0,0xBF24,
0.161516250000000,0,0xE613,
0.161524125000000,0,0xC024,
0.161554333333333,0,0x000A,
0.161562041666667,0,0x4121,
0.161578166666667,0,0xC8AA,
0.161586041666667,0,0xC124,
0.161601750000000,0,0xDF0C,
0.161609625000000,0,0xC224,
0.161625375000000,0,0xD073,
0.161633208333333,0,0xC324,
0.161648958333333,0,0xE134,
0.161656791666667,0,0xC424,
0.161672541666667,0,0xA979,
0.161680416666667,0,0xC524,
0.161696166666667,0,0xFF2A,
0.161704000000000,0,0xC624,
0.161719750000000,0,0xBFF4,
0.161727625000000,0,0xC724,
0.161743333333333,0,0xA2D7,
0.161751208333333,0,0xC824,
0.161766916666667,0,0x9E3A,
0.161774791666667,0,0xC924,
0.161790500000000,0,0x9E41,
0.161798375000000,0,0xCA24,
0.169318333333333,0,0x5C3F,
0.169326041666667,0,0x0607,
0.169353041666667,0,0x0004,
0.169360750000000,0,0x0319,
0.169376750000000,0,0x0A01,
0.169384666666667,0,0x8319,
0.169400541666667,0,0x0F00,
0.169408458333333,0,0x8419,
0.169424333333333,0,0x0000,
0.169432250000000,0,0x8515,
0.169448083333333,0,0x5F3F,
0.169456000000000,0,0x8619,
0.169487291666667,0,0x0004,
0.169495000000000,0,0x031D,
0.169511000000000,0,0x0A01,
0.169518916666667,0,0x831D,
0.169534750000000,0,0x0F00,
0.169542708333333,0,0x841D,
0.169558541666667,0,0x0000,
0.169566500000000,0,0x8515,
0.169582333333333,0,0x5F3F,
0.169590250000000,0,0x861D,
0.169620791666667,0,0x0004,
0.169628500000000,0,0x0311,
0.169644791666667,0,0x0A01,
0.169652708333333,0,0x8311,
0.169668541666667,0,0x0F00,
0.169676500000000,0,0x8411,
0.169692333333333,0,0x0000,
0.169700291666667,0,0x8515,
0.169716125000000,0,0x5F3F,
0.169724083333333,0,0x8611,
0.169754541666667,0,0x0004,
0.169762208333333,0,0x0315,
0.169778583333333,0,0x0A01,
0.169786500000000,0,0x8315,
0.169802333333333,0,0x0F00,
0.169810250000000,0,0x8415,
0.169826125000000,0,0x0000,
0.169834041666667,0,0x8515,
0.169849875000000,0,0x5F3F,
0.169857833333333,0,0x8615,
0.169888333333333,0,0x0004,
0.169896000000000,0,0x0319,
0.169912291666667,0,0x0A01,
0.169920208333333,0,0x8319,
0.169936083333333,0,0x0F00,
0.169944000000000,0,0x8419,
0.169959833333333,0,0x0000,
0.169967791666667,0,0x8515,
0.169983625000000,0,0x573F,
0.169991541666667,0,0x8619,
0.170021916666667,0,0x0001,
0.170029583333333,0,0x1D1D,
0.170046041666667,0,0x1551,
0.170053958333333,0,0x9D1D,
0.170082083333333,0,0x0003,
0.170089750000000,0,0x2411,
0.170106000000000,0,0x0048,
0.170113916666667,0,0xA415,
0.170129750000000,0,0x0040,
0.170137708333333,0,0xA515,
0.170153541666667,0,0x0000,
0.170161500000000,0,0xA615,
0.170190750000000,0,0x0005,
0.170198416666667,0,0x2D15,
0.170214500000000,0,0x04F0,
0.170222416666667,0,0xAD15,
0.170238250000000,0,0xFFFF,
0.170246166666667,0,0xAE15,
0.170262041666667,0,0xE1EC,
0.170269958333333,0,0xAF15,
0.170285833333333,0,0xFFFF,
0.170293750000000,0,0xB015,
0.170309625000000,0,0x830D,
0.170317541666667,0,0xB115,
0.170348458333333,0,0x0006,
0.170356125000000,0,0x3B19,
0.170372541666667,0,0xB3EE,
0.170380458333333,0,0xBB15,
0.170396333333333,0,0xB345,
0.170404250000000,0,0xBC15,
0.170420083333333,0,0xB2D4,
0.170428000000000,0,0xBD15,
0.170443875000000,0,0xB216,
0.170451791666667,0,0xBE15,
0.170467666666667,0,0xB218,
0.170475583333333,0,0xBF15,
0.170491416666667,0,0xB28B,
0.170499333333333,0,0xC015,
0.170529750000000,0,0x000A,
0.170537416666667,0,0x411D,
0.170553833333333,0,0xC0BF,
0.170561750000000,0,0xC115,
0.170577583333333,0,0xC0AE,
0.170585541666667,0,0xC215,
0.170601375000000,0,0xC0BF,
0.170609333333333,0,0xC315,
0.170625166666667,0,0xC0BE,
0.170633083333333,0,0xC415,
0.170648916666667,0,0xC0C0,
0.170656875000000,0,0xC515,
0.170672708333333,0,0xDFE3,
0.170680625000000,0,0xC615,
0.170696458333333,0,0x8000,
0.170704416666667,0,0xC715,
0.170720250000000,0,0xA2F3,
0.170728166666667,0,0xC815,
0.170744041666667,0,0x9E3D,
0.170751958333333,0,0xC915,
0.170767791666667,0,0x9E3F,
0.170775750000000,0,0xCA15,
0.170807833333333,0,0x0004,
0.170815541666667,0,0x0321,
0.170831458333333,0,0x0A01,
0.170839333333333,0,0x8321,
0.170855083333333,0,0x0F00,
0.170862916666667,0,0x8421,
0.170878666666667,0,0x0000,
0.170886500000000,0,0x8525,
0.170902250000000,0,0x573F,
0.170910083333333,0,0x8621,
0.170939916666667,0,0x0001,
0.170947583333333,0,0x1D25,
0.170963666666667,0,0x0055,
0.170971541666667,0,0x9D25,
0.170999041666667,0,0x0003,
0.171006708333333,0,0x2429,
0.171023125000000,0,0x004C,
0.171031000000000,0,0xA425,
0.171046750000000,0,0x0040,
0.171054583333333,0,0xA525,
0.171070333333333,0,0x0000,
0.171078208333333,0,0xA625,
0.171106750000000,0,0x0005,
0.171114416666667,0,0x2D2D,
0.171130791666667,0,0x0513,
0.171138666666667,0,0xAD25,
0.171154375000000,0,0xFFFF,
0.171162250000000,0,0xAE25,
0.171177958333333,0,0xF0FE,
0.171185833333333,0,0xAF25,
0.171201583333333,0,0xFFFF,
0.171209416666667,0,0xB025,
0.171225166666667,0,0x830A,
0.171233000000000,0,0xB125,
0.171262625000000,0,0x0006,
0.171270291666667,0,0x3B21,
0.171286583333333,0,0xE55C,
0.171294458333333,0,0xBB25,
0.171310208333333,0,0x8001,
0.171318041666667,0,0xBC25,
0.171333750000000,0,0x8000,
0.171341625000000,0,0xBD25,
0.171357333333333,0,0x8000,
0.171365208333333,0,0xBE25,
0.171380958333333,0,0xE600,
0.171388791666667,0,0xBF25,
0.171404500000000,0,0xE614,
0.171412375000000,0,0xC025,
0.171442166666667,0,0x000A,
0.171449833333333,0,0x4125,
0.171465958333333,0,0xD078,
0.171473833333333,0,0xC125,
0.171489541666667,0,0xDF98,
0.171497416666667,0,0xC225,
0.171513125000000,0,0xD684,
0.171521000000000,0,0xC325,
0.171536708333333,0,0xE137,
0.171544583333333,0,0xC425,
0.171560333333333,0,0xA97F,
0.171568208333333,0,0xC525,
0.171583916666667,0,0xFF33,
0.171591791666667,0,0xC625,
0.171607500000000,0,0xBFFE,
0.171615375000000,0,0xC725,
0.171631083333333,0,0xA2D8,
0.171638958333333,0,0xC825,
0.171654666666667,0,0x9E39,
0.171662541666667,0,0xC925,
0.171678291666667,0,0x9E40,
0.171686125000000,0,0xCA25,
0.179340583333333,0,0x6C3F,
0.179348250000000,0,0x060B,
0.179376458333333,0,0x0004,
0.179384125000000,0,0x031D,
0.179400416666667,0,0x0A01,
0.179408333333333,0,0x831D,
0.179424208333333,0,0x0F00,
0.179432125000000,0,0x841D,
0.179448000000000,0,0x0000,
0.179455916666667,0,0x8516,
0.179471791666667,0,0x6F3F,
0.179479708333333,0,0x861D,
0.179510333333333,0,0x0004,
0.179518041666667,0,0x0311,
0.179534208333333,0,0x0A01,
0.179542125000000,0,0x8311,
0.179558000000000,0,0x0F00,
0.179565916666667,0,0x8411,
0.179581750000000,0,0x0000,
0.179589708333333,0,0x8516,
0.179605541666667,0,0x6F3F,
0.179613500000000,0,0x8611,
0.179643625000000,0,0x0004,
0.179651291666667,0,0x0315,
0.179667458333333,0,0x0A01,
0.179675416666667,0,0x8315,
0.179691291666667,0,0x0F00,
0.179699166666667,0,0x8415,
0.179715041666667,0,0x0000,
0.179722958333333,0,0x8516,
0.179738833333333,0,0x6F3F,
0.179746750000000,0,0x8615,
0.179777125000000,0,0x0004,
0.179784791666667,0,0x0319,
0.179801250000000,0,0x0A01,
0.179809166666667,0,0x8319,
0.179825041666667,0,0x0F00,
0.179832958333333,0,0x8419,
0.179848833333333,0,0x0000,
0.179856750000000,0,0x8516,
0.179872625000000,0,0x6F3F,
0.179880541666667,0,0x8619,
0.179911166666667,0,0x0004,
0.179918875000000,0,0x031D,
0.179935041666667,0,0x0A01,
0.179942958333333,0,0x831D,
0.179958791666667,0,0x0F00,
0.179966750000000,0,0x841D,
0.179982583333333,0,0x0000,
0.179990541666667,0,0x8516,
0.180006375000000,0,0x673F,
0.180014291666667,0,0x861D,
0.180044625000000,0,0x0001,
0.180052291666667,0,0x1D11,
0.180068291666667,0,0x1551,
0.180076250000000,0,0x9D11,
0.180104375000000,0,0x0003,
0.180112083333333,0,0x2415,
0.180128250000000,0,0x0048,
0.180136208333333,0,0xA416,
0.180152041666667,0,0x0040,
0.180159958333333,0,0xA516,
0.180175833333333,0,0x0000,
0.180183750000000,0,0xA616,
0.180213208333333,0,0x0005,
0.180220875000000,0,0x2D19,
0.180237250000000,0,0x05FA,
0.180245166666667,0,0xAD16,
0.180261041666667,0,0xFFFF,
0.180268958333333,0,0xAE16,
0.180284833333333,0,0xDF52,
0.180292750000000,0,0xAF16,
0.180308583333333,0,0x8000,
0.180316500000000,0,0xB016,
0.180332375000000,0,0x8304,
0.180340333333333,0,0xB116,
0.180370875000000,0,0x0006,
0.180378583333333,0,0x3B1D,
0.180394791666667,0,0xB3F2,
0.180402708333333,0,0xBB16,
0.180418583333333,0,0xB347,
0.180426500000000,0,0xBC16,
0.180442375000000,0,0xB2D5,
0.180450291666667,0,0xBD16,
0.180466166666667,0,0xB21B,
0.180474083333333,0,0xBE16,
0.180489916666667,0,0xB21B,
0.180497875000000,0,0xBF16,
0.180513708333333,0,0xB28D,
0.180521625000000,0,0xC016,
0.180552333333333,0,0x000A,
0.180560041666667,0,0x4111,
0.180576125000000,0,0xC0BE,
0.180584041666667,0,0xC116,
0.180599875000000,0,0xC0AF,
0.180607791666667,0,0xC216,
0.180623666666667,0,0xC0BE,
0.180631583333333,0,0xC316,
0.180647458333333,0,0xC0BD,
0.180655375000000,0,0xC416,
0.180671250000000,0,0xC0BE,
0.180679166666667,0,0xC516,
0.180695000000000,0,0xE015,
0.180702958333333,0,0xC616,
0.180718791666667,0,0x8000,
0.180726750000000,0,0xC716,
0.180742583333333,0,0xA2F3,
0.180750500000000,0,0xC816,
0.180766375000000,0,0x9E37,
0.180774291666667,0,0xC916,
0.180790125000000,0,0x9E40,
0.180798041666667,0,0xCA16,
0.180829458333333,0,0x0004,
0.180837125000000,0,0x0325,
0.180853083333333,0,0x0A01,
0.180860958333333,0,0x8325,
0.180876708333333,0,0x0F00,
0.180884541666667,0,0x8425,
0.180900291666667,0,0x0000,
0.180908166666667,0,0x8526,
0.180923875000000,0,0x673F,
0.180931708333333,0,0x8625,
0.180962666666667,0,0x0001,
0.180970333333333,0,0x1D29,
0.180986750000000,0,0x0055,
0.180994625000000,0,0x9D29,
0.181023333333333,0,0x0003,
0.181031000000000,0,0x242D,
0.181047208333333,0,0x004C,
0.181055083333333,0,0xA426,
0.181070791666667,0,0x0040,
0.181078666666667,0,0xA526,
0.181094375000000,0,0x0000,
0.181102250000000,0,0xA626,
0.181131041666667,0,0x0005,
0.181138750000000,0,0x2D21,
0.181154833333333,0,0x0620,
0.181162708333333,0,0xAD26,
0.181178458333333,0,0xFFFF,
0.181186291666667,0,0xAE26,
0.181202041666667,0,0xF0D1,
0.181209875000000,0,0xAF26,
0.181225583333333,0,0x8000,
0.181233458333333,0,0xB026,
0.181249208333333,0,0x8304,
0.181257041666667,0,0xB126,
0.181287250000000,0,0x0006,
0.181294958333333,0,0x3B25,
0.181311125000000,0,0xE55C,
0.181319000000000,0,0xBB26,
0.181334750000000,0,0x8000,
0.181342583333333,0,0xBC26,
0.181358333333333,0,0x8002,
0.181366166666667,0,0xBD26,
0.181381916666667,0,0x8003,
0.181389791666667,0,0xBE26,
0.181405500000000,0,0xE5F9,
0.181413333333333,0,0xBF26,
0.181429083333333,0,0xE60E,
0.181436958333333,0,0xC026,
0.181466708333333,0,0x000A,
0.181474416666667,0,0x4129,
0.181490500000000,0,0xD59C,
0.181498375000000,0,0xC126,
0.181514125000000,0,0xDFC9,
0.181521958333333,0,0xC226,
0.181537708333333,0,0xDA4D,
0.181545541666667,0,0xC326,
0.181561291666667,0,0xE138,
0.181569125000000,0,0xC426,
0.181584875000000,0,0xA980,
0.181592708333333,0,0xC526,
0.181608458333333,0,0xFF3F,
0.181616333333333,0,0xC626,
0.181632041666667,0,0xC004,
0.181639916666667,0,0xC726,
0.181655666666667,0,0xA2D7,
0.181663500000000,0,0xC826,
0.181679250000000,0,0x9E3B,
0.181687083333333,0,0xC926,
0.181702833333333,0,0x9E40,
0.181710708333333,0,0xCA26,
0.189290875000000,0,0x7C3F,
0.189298541666667,0,0x060F,
0.189325666666667,0,0x0004,
0.189333375000000,0,0x0311,
0.189349625000000,0,0x0A01,
0.189357541666667,0,0x8311,
0.189373416666667,0,0x0F00,
0.189381333333333,0,0x8411,
0.189397208333333,0,0x0000,
0.189405125000000,0,0x8517,
0.189420958333333,0,0x7F3F,
0.189428916666667,0,0x8611,
0.189460083333333,0,0x0004,
0.189467750000000,0,0x0315,
0.189483875000000,0,0x0A01,
0.189491791666667,0,0x8315,
0.189507666666667,0,0x0F00,
0.189515583333333,0,0x8415,
0.189531458333333,0,0x0000,
0.189539375000000,0,0x8517,
0.189555208333333,0,0x7F3F,
0.189563166666667,0,0x8615,
0.189593750000000,0,0x0004,
0.189601416666667,0,0x0319,
0.189617666666667,0,0x0A01,
0.189625583333333,0,0x8319,
0.189641458333333,0,0x0F00,
0.189649375000000,0,0x8419,
0.189665250000000,0,0x0000,
0.189673166666667,0,0x8517,
0.189689041666667,0,0x7F3F,
0.189696958333333,0,0x8619,
0.189727083333333,0,0x0004,
0.189734750000000,0,0x031D,
0.189750958333333,0,0x0A01,
0.189758916666667,0,0x831D,
0.189774750000000,0,0x0F00,
0.189782666666667,0,0x841D,
0.189798541666667,0,0x0000,
0.189806500000000,0,0x8517,
0.189822333333333,0,0x7F3F,
0.189830250000000,0,0x861D,
0.189860333333333,0,0x0004,
0.189868000000000,0,0x0311,
0.189884250000000,0,0x0A01,
0.189892166666667,0,0x8311,
0.189908041666667,0,0x0F00,
0.189915958333333,0,0x8411,
0.189931791666667,0,0x0000,
0.189939750000000,0,0x8517,
0.189955583333333,0,0x773F,
0.189963500000000,0,0x8611,
0.189993916666667,0,0x0001,
0.190001625000000,0,0x1D15,
0.190018000000000,0,0x1551,
0.190025916666667,0,0x9D15,
0.190054083333333,0,0x0003,
0.190061750000000,0,0x2419,
0.190077958333333,0,0x0048,
0.190085875000000,0,0xA417,
0.190101750000000,0,0x0040,
0.190109625000000,0,0xA517,
0.190125500000000,0,0x0000,
0.190133416666667,0,0xA617,
0.190162583333333,0,0x0005,
0.190170250000000,0,0x2D1D,
0.190186416666667,0,0x0702,
0.190194375000000,0,0xAD17,
0.190210208333333,0,0xFFFF,
0.190218125000000,0,0xAE17,
0.190234000000000,0,0xDD7B,
0.190241916666667,0,0xAF17,
0.190257750000000,0,0x8000,
0.190265666666667,0,0xB017,
0.190281541666667,0,0x8304,
0.190289458333333,0,0xB117,
0.190319791666667,0,0x0006,
0.190327458333333,0,0x3B11,
0.190343916666667,0,0xB3F0,
0.190351833333333,0,0xBB17,
0.190367708333333,0,0xB341,
0.190375625000000,0,0xBC17,
0.190391458333333,0,0xB2D4,
0.190399375000000,0,0xBD17,
0.190415250000000,0,0xB212,
0.190423166666667,0,0xBE17,
0.190439000000000,0,0xB219,
0.190446958333333,0,0xBF17,
0.190462791666667,0,0xB28A,
0.190470708333333,0,0xC017,
0.190500958333333,0,0x000A,
0.190508625000000,0,0x4115,
0.190524708333333,0,0xC0C2,
0.190532625000000,0,0xC117,
0.190548500000000,0,0xC0B1,
0.190556416666667,0,0xC217,
0.190572250000000,0,0xC0BF,
0.190580166666667,0,0xC317,
0.190596041666667,0,0xC0BE,
0.190603958333333,0,0xC417,
0.190619833333333,0,0xC0C0,
0.190627750000000,0,0xC517,
0.190643583333333,0,0xE02B,
0.190651541666667,0,0xC617,
0.190667375000000,0,0x8000,
0.190675291666667,0,0xC717,
0.190691166666667,0,0xA2F4,
0.190699083333333,0,0xC817,
0.190714916666667,0,0x9E38,
0.190722833333333,0,0xC917,
0.190738708333333,0,0x9E3C,
0.190746625000000,0,0xCA17,
0.190777916666667,0,0x0004,
0.190785625000000,0,0x0329,
0.190802041666667,0,0x0A01,
0.190809875000000,0,0x8329,
0.190825625000000,0,0x0F00,
0.190833458333333,0,0x8429,
0.190849208333333,0,0x0000,
0.190857083333333,0,0x8527,
0.190872791666667,0,0x773F,
0.190880666666667,0,0x8629,
0.190910750000000,0,0x0001,
0.190918416666667,0,0x1D2D,
0.190934750000000,0,0x0055,
0.190942625000000,0,0x9D2D,
0.190971041666667,0,0x0003,
0.190978750000000,0,0x2421,
0.190994708333333,0,0x004C,
0.191002583333333,0,0xA427,
0.191018291666667,0,0x0040,
0.191026166666667,0,0xA527,
0.191041916666667,0,0x0000,
0.191049750000000,0,0xA627,
0.191078041666667,0,0x0005,
0.191085708333333,0,0x2D25,
0.191101833333333,0,0x072A,
0.191109708333333,0,0xAD27,
0.191125458333333,0,0xFFFF,
0.191133291666667,0,0xAE27,
0.191149041666667,0,0xEF7F,
0.191156875000000,0,0xAF27,
0.191172625000000,0,0xFFFF,
0.191180458333333,0,0xB027,
0.191196208333333,0,0x830E,
0.191204083333333,0,0xB127,
0.191233625000000,0,0x0006,
0.191241291666667,0,0x3B29,
0.191257625000000,0,0xE55D,
0.191265500000000,0,0xBB27,
0.191281208333333,0,0x8001,
0.191289083333333,0,0xBC27,
0.191304791666667,0,0x8000,
0.191312666666667,0,0xBD27,
0.191328416666667,0,0x8003,
0.191336250000000,0,0xBE27,
0.191352000000000,0,0xE5F7,
0.191359833333333,0,0xBF27,
0.191375583333333,0,0xE60C,
0.191383416666667,0,0xC027,
0.191413333333333,0,0x000A,
0.191421000000000,0,0x412D,
0.191437000000000,0,0xD8F9,
0.191444875000000,0,0xC127,
0.191460583333333,0,0xDFDC,
0.191468458333333,0,0xC227,
0.191484166666667,0,0xDC9E,
0.191492041666667,0,0xC327,
0.191507750000000,0,0xE13A,
0.191515625000000,0,0xC427,
0.191531333333333,0,0xA985,
0.191539208333333,0,0xC527,
0.191554916666667,0,0xFF45,
0.191562791666667,0,0xC627,
0.191578541666667,0,0xC00A,
0.191586375000000,0,0xC727,
0.191602083333333,0,0xA2D6,
0.191609958333333,0,0xC827,
0.191625708333333,0,0x9E3C,
0.191633541666667,0,0xC927,
0.191649291666667,0,0x9E42,
0.191657166666667,0,0xCA27,
0.199297458333333,0,0x8C3F,
0.199305125000000,0,0x0603,
0.199332458333333,0,0x0004,
0.199340125000000,0,0x0315,
0.199356500000000,0,0x0A01,
0.199364416666667,0,0x8315,
0.199380291666667,0,0x0F00,
0.199388208333333,0,0x8415,
0.199404041666667,0,0x0000,
0.199412000000000,0,0x8518,
0.199427833333333,0,0x8F3F,
0.199435791666667,0,0x8615,
0.199467083333333,0,0x0004,
0.199474750000000,0,0x0319,
0.199490791666667,0,0x0A01,
0.199498666666667,0,0x8319,
0.199514541666667,0,0x0F00,
0.199522458333333,0,0x8419,
0.199538333333333,0,0x0000,
0.199546250000000,0,0x8518,
0.199562125000000,0,0x8F3F,
0.199570041666667,0,0x8619,
0.199600791666667,0,0x0004,
0.199608500000000,0,0x031D,
0.199624541666667,0,0x0A01,
0.199632458333333,0,0x831D,
0.199648333333333,0,0x0F00,
0.199656250000000,0,0x841D,
0.199672125000000,0,0x0000,
0.199680041666667,0,0x8518,
0.199695875000000,0,0x8F3F,
0.199703833333333,0,0x861D,
0.199734750000000,0,0x0004,
0.199742416666667,0,0x0311,
0.199758833333333,0,0x0A01,
0.199766750000000,0,0x8311,
0.199782625000000,0,0x0F00,
0.199790583333333,0,0x8411,
0.199806416666667,0,0x0000,
0.199814333333333,0,0x8518,
0.199830208333333,0,0x8F3F,
0.199838125000000,0,0x8611,
0.199869125000000,0,0x0004,
0.199876791666667,0,0x0315,
0.199893125000000,0,0x0A01,
0.199901041666667,0,0x8315,
0.199916916666667,0,0x0F00,
0.199924833333333,0,0x8415,
0.199940666666667,0,0x0000,
0.199948583333333,0,0x8518,
0.199964458333333,0,0x873F,
0.199972375000000,0,0x8615,
0.200003000000000,0,0x0001,
0.200010666666667,0,0x1D19,
0.200026875000000,0,0x1551,
0.200034833333333,0,0x9D19,
0.200063041666667,0,0x0003,
0.200070750000000,0,0x241D,
0.200086833333333,0,0x0048,
0.200094750000000,0,0xA418,
0.200110625000000,0,0x0040,
0.200118541666667,0,0xA518,
0.200134416666667,0,0x0000,
0.200142333333333,0,0xA618,
0.200171416666667,0,0x0005,
0.200179125000000,0,0x2D11,
0.200195333333333,0,0x080C,
0.200203250000000,0,0xAD18,
0.200219125000000,0,0xFFFF,
0.200227041666667,0,0xAE18,
0.200242875000000,0,0xDB1D,
0.200250833333333,0,0xAF18,
0.200266666666667,0,0xFFFF,
0.200274625000000,0,0xB018,
0.200290458333333,0,0x830F,
0.200298416666667,0,0xB118,
0.200328041666667,0,0x0006,
0.200335708333333,0,0x3B15,
0.200351916666667,0,0xB3F3,
0.200359833333333,0,0xBB18,
0.200375666666667,0,0xB343,
0.200383625000000,0,0xBC18,
0.200399458333333,0,0xB2D3,
0.200407416666667,0,0xBD18,
0.200423250000000,0,0xB215,
0.200431208333333,0,0xBE18,
0.200447041666667,0,0xB216,
0.200454958333333,0,0xBF18,
0.200470833333333,0,0xB28B,
0.200478750000000,0,0xC018,
0.200509083333333,0,0x000A,
0.200516791666667,0,0x4119,
0.200532750000000,0,0xC0C1,
0.200540666666667,0,0xC118,
0.200556541666667,0,0xC0B5,
0.200564458333333,0,0xC218,
0.200580291666667,0,0xC0C3,
0.200588250000000,0,0xC318,
0.200604083333333,0,0xC0C1,
0.200612000000000,0,0xC418,
0.200627875000000,0,0xC0C1,
0.200635791666667,0,0xC518,
0.200651625000000,0,0xE038,
0.200659583333333,0,0xC618,
0.200675416666667,0,0x8001,
0.200683333333333,0,0xC718,
0.200699208333333,0,0xA2F5,
0.200707125000000,0,0xC818,
0.200722958333333,0,0x9E3A,
0.200730875000000,0,0xC918,
0.200746750000000,0,0x9E3E,
0.200754666666667,0,0xCA18,
0.200786833333333,0,0x0004,
0.200794541666667,0,0x032D,
0.200810458333333,0,0x0A01,
0.200818333333333,0,0x832D,
0.200834083333333,0,0x0F00,
0.200841958333333,0,0x842D,
0.200857666666667,0,0x0000,
0.200865500000000,0,0x8528,
0.200881250000000,0,0x873F,
0.200889125000000,0,0x862D,
0.200919583333333,0,0x0001,
0.200927250000000,0,0x1D21,
0.200943666666667,0,0x0055,
0.200951541666667,0,0x9D21,
0.200979041666667,0,0x0003,
0.200986708333333,0,0x2425,
0.201003125000000,0,0x004C,
0.201011000000000,0,0xA428,
0.201026708333333,0,0x0040,
0.201034583333333,0,0xA528,
0.201050291666667,0,0x0000,
0.201058166666667,0,0xA628,
0.201087208333333,0,0x0005,
0.201094916666667,0,0x2D29,
0.201111250000000,0,0x0836,
0.201119083333333,0,0xAD28,
0.201134833333333,0,0xFFFF,
0.201142708333333,0,0xAE28,
0.201158416666667,0,0xEF21,
0.201166291666667,0,0xAF28,
0.201182000000000,0,0x8000,
0.201189875000000,0,0xB028,
0.201205625000000,0,0x8305,
0.201213500000000,0,0xB128,
0.201244916666667,0,0x0006,
0.201252583333333,0,0x3B2D,
0.201268541666667,0,0xE55C,
0.201276416666667,0,0xBB28,
0.201292125000000,0,0x8000,
0.201300000000000,0,0xBC28,
0.201315708333333,0,0x8002,
0.201323583333333,0,0xBD28,
0.201339291666667,0,0x8002,
0.201347166666667,0,0xBE28,
0.201362875000000,0,0xE5F9,
0.201370750000000,0,0xBF28,
0.201386500000000,0,0xE60D,
0.201394333333333,0,0xC028,
0.201424833333333,0,0x000A,
0.201432500000000,0,0x4121,
0.201448875000000,0,0xDB25,
0.201456750000000,0,0xC128,
0.201472458333333,0,0xDFE8,
0.201480333333333,0,0xC228,
0.201496083333333,0,0xDDFF,
0.201503916666667,0,0xC328,
0.201519625000000,0,0xE139,
0.201527500000000,0,0xC428,
0.201543250000000,0,0xA987,
0.201551083333333,0,0xC528,
0.201566833333333,0,0xFF41,
0.201574708333333,0,0xC628,
0.201590416666667,0,0xC009,
0.201598291666667,0,0xC728,
0.201614000000000,0,0xA2D8,
0.201621875000000,0,0xC828,
0.201637583333333,0,0x9E3E,
0.201645458333333,0,0xC928,
0.201661208333333,0,0x9E3E,
0.201669041666667,0,0xCA28,
0.209313875000000,0,0x9C3F,
0.209321541666667,0,0x0607,
0.209349416666667,0,0x0004,
0.209357083333333,0,0x0319,
0.209373458333333,0,0x0A01,
0.209381375000000,0,0x8319,
0.209397208333333,0,0x0F00,
0.209405125000000,0,0x8419,
0.209421000000000,0,0x0000,
0.209428916666667,0,0x8519,
0.209444791666667,0,0x9F3F,
0.209452708333333,0,0x8619,
0.209483791666667,0,0x0004,
0.209491458333333,0,0x031D,
0.209507666666667,0,0x0A01,
0.209515625000000,0,0x831D,
0.209531458333333,0,0x0F00,
0.209539375000000,0,0x841D,
0.209555250000000,0,0x0000,
0.209563166666667,0,0x8519,
0.209579000000000,0,0x9F3F,
0.209586958333333,0,0x861D,
0.209618208333333,0,0x0004,
0.209625875000000,0,0x0311,
0.209641916666667,0,0x0A01,
0.209649833333333,0,0x8311,
0.209665666666667,0,0x0F00,
0.209673625000000,0,0x8411,
0.209689458333333,0,0x0000,
0.209697375000000,0,0x8519,
0.209713250000000,0,0x9F3F,
0.209721166666667,0,0x8611,
0.209752625000000,0,0x0004,
0.209760333333333,0,0x0315,
0.209776625000000,0,0x0A01,
0.209784541666667,0,0x8315,
0.209800416666667,0,0x0F00,
0.209808333333333,0,0x8415,
0.209824208333333,0,0x0000,
0.209832125000000,0,0x8519,
0.209847958333333,0,0x9F3F,
0.209855875000000,0,0x8615,
0.209886541666667,0,0x0004,
0.209894250000000,0,0x0319,
0.209910333333333,0,0x0A01,
0.209918250000000,0,0x8319,
0.209934083333333,0,0x0F00,
0.209942041666667,0,0x8419,
0.209957875000000,0,0x0000,
0.209965791666667,0,0x8519,
0.209981625000000,0,0x973F,
0.209989541666667,0,0x8619,
0.210020666666667,0,0x0001,
0.210028333333333,0,0x1D1D,
0.210044500000000,0,0x1551,
0.210052416666667,0,0x9D1D,
0.210080375000000,0,0x0003,
0.210088041666667,0,0x2411,
0.210104416666667,0,0x0048,
0.210112333333333,0,0xA419,
0.210128166666667,0,0x0040,
0.210136125000000,0,0xA519,
0.210151958333333,0,0x0000,
0.210159875000000,0,0xA619,
0.210188416666667,0,0x0005,
0.210196125000000,0,0x2D15,
0.210212333333333,0,0x0916,
0.210220291666667,0,0xAD19,
0.210236125000000,0,0xFFFF,
0.210244041666667,0,0xAE19,
0.210259875000000,0,0xD8E5,
0.210267791666667,0,0xAF19,
0.210283666666667,0,0x8000,
0.210291583333333,0,0xB019,
0.210307416666667,0,0x8300,
0.210315333333333,0,0xB119,
0.210345250000000,0,0x0006,
0.210352916666667,0,0x3B19,
0.210369333333333,0,0xB3F1,
0.210377291666667,0,0xBB19,
0.210393125000000,0,0xB344,
0.210401083333333,0,0xBC19,
0.210416916666667,0,0xB2D5,
0.210424833333333,0,0xBD19,
0.210440708333333,0,0xB219,
0.210448625000000,0,0xBE19,
0.210464500000000,0,0xB216,
0.210472416666667,0,0xBF19,
0.210488250000000,0,0xB28A,
0.210496208333333,0,0xC019,
0.210526041666667,0,0x000A,
0.210533750000000,0,0x411D,
0.210549708333333,0,0xC0BF,
0.210557625000000,0,0xC119,
0.210573458333333,0,0xC0B5,
0.210581416666667,0,0xC219,
0.210597250000000,0,0xC0BD,
0.210605166666667,0,0xC319,
0.210621000000000,0,0xC0C0,
0.210628958333333,0,0xC419,
0.210644791666667,0,0xC0C1,
0.210652708333333,0,0xC519,
0.210668583333333,0,0xE038,
0.210676500000000,0,0xC619,
0.210692375000000,0,0x8000,
0.210700291666667,0,0xC719,
0.210716125000000,0,0xA2F3,
0.210724083333333,0,0xC819,
0.210739916666667,0,0x9E38,
0.210747833333333,0,0xC919,
0.210763708333333,0,0x9E39,
0.210771625000000,0,0xCA19,
0.210804458333333,0,0x0004,
0.210812125000000,0,0x0321,
0.210828458333333,0,0x0A01,
0.210836291666667,0,0x8321,
0.210852041666667,0,0x0F00,
0.210859916666667,0,0x8421,
0.210875625000000,0,0x0000,
0.210883500000000,0,0x8529,
0.210899208333333,0,0x973F,
0.210907083333333,0,0x8621,
0.210938458333333,0,0x0001,
0.210946125000000,0,0x1D25,
0.210962125000000,0,0x0055,
0.210969958333333,0,0x9D25,
0.210997041666667,0,0x0003,
0.211004708333333,0,0x2429,
0.211021041666667,0,0x004C,
0.211028916666667,0,0xA429,
0.211044666666667,0,0x0040,
0.211052500000000,0,0xA529,
0.211068250000000,0,0x0000,
0.211076083333333,0,0xA629,
0.211105000000000,0,0x0005,
0.211112666666667,0,0x2D2D,
0.211128666666667,0,0x0942,
0.211136541666667,0,0xAD29,
0.211152250000000,0,0xFFFF,
0.211160125000000,0,0xAE29,
0.211175833333333,0,0xEE76,
0.211183708333333,0,0xAF29,
0.211199416666667,0,0x8000,
0.211207291666667,0,0xB029,
0.211223041666667,0,0x8301,
0.211230875000000,0,0xB129,
0.211261291666667,0,0x0006,
0.211269000000000,0,0x3B21,
0.211284958333333,0,0xE55F,
0.211292833333333,0,0xBB29,
0.211308541666667,0,0x8003,
0.211316416666667,0,0xBC29,
0.211332125000000,0,0x8003,
0.211340000000000,0,0xBD29,
0.211355708333333,0,0x8004,
0.211363583333333,0,0xBE29,
0.211379291666667,0,0xE5FC,
0.211387166666667,0,0xBF29,
0.211402916666667,0,0xE60D,
0.211410791666667,0,0xC029,
0.211441000000000,0,0x000A,
0.211448708333333,0,0x4125,
0.211464833333333,0,0xDC81,
0.211472708333333,0,0xC129,
0.211488416666667,0,0xDFEE,
0.211496291666667,0,0xC229,
0.211512000000000,0,0xDED0,
0.211519875000000,0,0xC329,
0.211535583333333,0,0xE13D,
0.211543458333333,0,0xC429,
0.211559166666667,0,0xA988,
0.211567041666667,0,0xC529,
0.211582750000000,0,0xFF49,
0.211590625000000,0,0xC629,
0.211606333333333,0,0xC00D,
0.211614208333333,0,0xC729,
0.211629958333333,0,0xA2D8,
0.211637791666667,0,0xC829,
0.211653541666667,0,0x9E3A,
0.211661375000000,0,0xC929,
0.211677125000000,0,0x9E3D,
0.211685000000000,0,0xCA29,
0.219309666666667,0,0xAC3F,
0.219317333333333,0,0x060B,
0.219345208333333,0,0x0004,
0.219352875000000,0,0x031D,
0.219369208333333,0,0x0A01,
0.219377125000000,0,0x831D,
0.219393000000000,0,0x0F00,
0.219400916666667,0,0x841D,
0.219416791666667,0,0x0000,
0.219424708333333,0,0x851A,
0.219440583333333,0,0xAF3F,
0.219448500000000,0,0x861D,
0.219479500000000,0,0x0004,
0.219487166666667,0,0x0311,
0.219503500000000,0,0x0A01,
0.219511416666667,0,0x8311,
0.219527291666667,0,0x0F00,
0.219535208333333,0,0x8411,
0.219551083333333,0,0x0000,
0.219559000000000,0,0x851A,
0.219574833333333,0,0xAF3F,
0.219582791666667,0,0x8611,
0.219614041666667,0,0x0004,
0.219621708333333,0,0x0315,
0.219637750000000,0,0x0A01,
0.219645708333333,0,0x8315,
0.219661541666667,0,0x0F00,
0.219669458333333,0,0x8415,
0.219685333333333,0,0x0000,
0.219693250000000,0,0x851A,
0.219709125000000,0,0xAF3F,
0.219717041666667,0,0x8615,
0.219747666666667,0,0x0004,
0.219755333333333,0,0x0319,
0.219771541666667,0,0x0A01,
0.219779458333333,0,0x8319,
0.219795333333333,0,0x0F00,
0.219803250000000,0,0x8419,
0.219819125000000,0,0x0000,
0.219827041666667,0,0x851A,
0.219842875000000,0,0xAF3F,
0.219850833333333,0,0x8619,
0.219882166666667,0,0x0004,
0.219889833333333,0,0x031D,
0.219906291666667,0,0x0A01,
0.219914208333333,0,0x831D,
0.219930041666667,0,0x0F00,
0.219937958333333,0,0x841D,
0.219953833333333,0,0x0000,
0.219961750000000,0,0x851A,
0.219977583333333,0,0xA73F,
0.219985541666667,0,0x861D,
0.220016666666667,0,0x0001,
0.220024375000000,0,0x1D11,
0.220040500000000,0,0x1551,
0.220048416666667,0,0x9D11,
0.220077000000000,0,0x0003,
0.220084666666667,0,0x2415,
0.220100916666667,0,0x0048,
0.220108875000000,0,0xA41A,
0.220124708333333,0,0x0040,
0.220132666666667,0,0xA51A,
0.220148500000000,0,0x0000,
0.220156416666667,0,0xA61A,
0.220185625000000,0,0x0005,
0.220193333333333,0,0x2D19,
0.220209416666667,0,0x0A20,
0.220217375000000,0,0xAD1A,
0.220233208333333,0,0xFFFF,
0.220241125000000,0,0xAE1A,
0.220257000000000,0,0xD6FB,
0.220264916666667,0,0xAF1A,
0.220280791666667,0,0xFFFF,
0.220288708333333,0,0xB01A,
0.220304583333333,0,0x830E,
0.220312500000000,0,0xB11A,
0.220343083333333,0,0x0006,
0.220350791666667,0,0x3B1D,
0.220366958333333,0,0xB3F1,
0.220374916666667,0,0xBB1A,
0.220390750000000,0,0xB342,
0.220398708333333,0,0xBC1A,
0.220414541666667,0,0xB2D7,
0.220422458333333,0,0xBD1A,
0.220438333333333,0,0xB217,
0.220446250000000,0,0xBE1A,
0.220462083333333,0,0xB217,
0.220470041666667,0,0xBF1A,
0.220485875000000,0,0xB28D,
0.220493791666667,0,0xC01A,
0.220523583333333,0,0x000A,
0.220531250000000,0,0x4111,
0.220547291666667,0,0xC0C1,
0.220555250000000,0,0xC11A,
0.220571083333333,0,0xC0BA,
0.220579041666667,0,0xC21A,
0.220594875000000,0,0xC0C1,
0.220602791666667,0,0xC31A,
0.220618625000000,0,0xC0C3,
0.220626583333333,0,0xC41A,
0.220642416666667,0,0xC0C1,
0.220650375000000,0,0xC51A,
0.220666208333333,0,0xE03E,
0.220674125000000,0,0xC61A,
0.220690000000000,0,0x8001,
0.220697916666667,0,0xC71A,
0.220713750000000,0,0xA2F6,
0.220721666666667,0,0xC81A,
0.220737541666667,0,0x9E3C,
0.220745458333333,0,0xC91A,
0.220761291666667,0,0x9E3D,
0.220769250000000,0,0xCA1A,
0.220802083333333,0,0x0004,
0.220809750000000,0,0x0325,
0.220825708333333,0,0x0A01,
0.220833583333333,0,0x8325,
0.220849333333333,0,0x0F00,
0.220857166666667,0,0x8425,
0.220872916666667,0,0x0000,
0.220880750000000,0,0x852A,
0.220896500000000,0,0xA73F,
0.220904333333333,0,0x8625,
0.220934750000000,0,0x0001,
0.220942458333333,0,0x1D29,
0.220958416666667,0,0x0055,
0.220966291666667,0,0x9D29,
0.220993833333333,0,0x0003,
0.221001500000000,0,0x242D,
0.221017875000000,0,0x004C,
0.221025750000000,0,0xA42A,
0.221041500000000,0,0x0040,
0.221049333333333,0,0xA52A,
0.221065083333333,0,0x0000,
0.221072916666667,0,0xA62A,
0.221101583333333,0,0x0005,
0.221109250000000,0,0x2D21,
0.221125500000000,0,0x0A4E,
0.221133375000000,0,0xAD2A,
0.221149083333333,0,0xFFFF,
0.221156958333333,0,0xAE2A,
0.221172666666667,0,0xEDC7,
0.221180541666667,0,0xAF2A,
0.221196250000000,0,0x8000,
0.221204125000000,0,0xB02A,
0.221219833333333,0,0x8308,
0.221227708333333,0,0xB12A,
0.221259083333333,0,0x0006,
0.221266750000000,0,0x3B25,
0.221282750000000,0,0xE561,
0.221290583333333,0,0xBB2A,
0.221306333333333,0,0x8000,
0.221314208333333,0,0xBC2A,
0.221329916666667,0,0x8000,
0.221337791666667,0,0xBD2A,
0.221353500000000,0,0x8000,
0.221361375000000,0,0xBE2A,
0.221377083333333,0,0xE5F6,
0.221384958333333,0,0xBF2A,
0.221400666666667,0,0xE613,
0.221408541666667,0,0xC02A,
0.221438625000000,0,0x000A,
0.221446291666667,0,0x4129,
0.221462583333333,0,0xDD60,
0.221470458333333,0,0xC12A,
0.221486166666667,0,0xDFE6,
0.221494041666667,0,0xC22A,
0.221509750000000,0,0xDF4C,
0.221517625000000,0,0xC32A,
0.221533333333333,0,0xE13F,
0.221541208333333,0,0xC42A,
0.221556958333333,0,0xA98B,
0.221564791666667,0,0xC52A,
0.221580541666667,0,0xFF4A,
0.221588375000000,0,0xC62A,
0.221604083333333,0,0xC00E,
0.221611958333333,0,0xC72A,
0.221627708333333,0,0xA2D9,
0.221635541666667,0,0xC82A,
0.221651291666667,0,0x9E40,
0.221659166666667,0,0xC92A,
0.221674875000000,0,0x9E3F,
0.221682750000000,0,0xCA2A,
0.229316208333333,0,0xBC3F,
0.229323916666667,0,0x060F,
0.229351375000000,0,0x0004,
0.229359041666667,0,0x0311,
0.229375250000000,0,0x0A01,
0.229383166666667,0,0x8311,
0.229399041666667,0,0x0F00,
0.229406958333333,0,0x8411,
0.229422791666667,0,0x0000,
0.229430750000000,0,0x851B,
0.229446583333333,0,0xBF3F,
0.229454500000000,0,0x8611,
0.229485041666667,0,0x0004,
0.229492708333333,0,0x0315,
0.229509000000000,0,0x0A01,
0.229516916666667,0,0x8315,
0.229532750000000,0,0x0F00,
0.229540708333333,0,0x8415,
0.229556541666667,0,0x0000,
0.229564458333333,0,0x851B,
0.229580333333333,0,0xBF3F,
0.229588250000000,0,0x8615,
0.229619541666667,0,0x0004,
0.229627250000000,0,0x0319,
0.229643250000000,0,0x0A01,
0.229651166666667,0,0x8319,
0.229667000000000,0,0x0F00,
0.229674958333333,0,0x8419,
0.229690791666667,0,0x0000,
0.229698750000000,0,0x851B,
0.229714583333333,0,0xBF3F,
0.229722500000000,0,0x8619,
0.229753208333333,0,0x0004,
0.229760875000000,0,0x031D,
0.229777000000000,0,0x0A01,
0.229784916666667,0,0x831D,
0.229800750000000,0,0x0F00,
0.229808666666667,0,0x841D,
0.229824541666667,0,0x0000,
0.229832458333333,0,0x851B,
0.229848291666667,0,0xBF3F,
0.229856250000000,0,0x861D,
0.229886625000000,0,0x0004,
0.229894291666667,0,0x0311,
0.229910708333333,0,0x0A01,
0.229918625000000,0,0x8311,
0.229934458333333,0,0x0F00,
0.229942416666667,0,0x8411,
0.229958250000000,0,0x0000,
0.229966166666667,0,0x851B,
0.229982041666667,0,0xB73F,
0.229989916666667,0,0x8611,
0.230020791666667,0,0x0001,
0.230028458333333,0,0x1D15,
0.230044916666667,0,0x1551,
0.230052833333333,0,0x9D15,
0.230080708333333,0,0x0003,
0.230088375000000,0,0x2419,
0.230104833333333,0,0x0048,
0.230112750000000,0,0xA41B,
0.230128583333333,0,0x0040,
0.230136500000000,0,0xA51B,
0.230152333333333,0,0x0000,
0.230160291666667,0,0xA61B,
0.230188708333333,0,0x0005,
0.230196375000000,0,0x2D1D,
0.230212750000000,0,0x0B2A,
0.230220666666667,0,0xAD1B,
0.230236541666667,0,0xFFFF,
0.230244458333333,0,0xAE1B,
0.230260291666667,0,0xD485,
0.230268208333333,0,0xAF1B,
0.230284041666667,0,0xFFFF,
0.230291958333333,0,0xB01B,
0.230307791666667,0,0x8307,
0.230315750000000,0,0xB11B,
0.230345916666667,0,0x0006,
0.230353583333333,0,0x3B11,
0.230369708333333,0,0xB3F3,
0.230377625000000,0,0xBB1B,
0.230393458333333,0,0xB345,
0.230401375000000,0,0xBC1B,
0.230417250000000,0,0xB2D8,
0.230425166666667,0,0xBD1B,
0.230441000000000,0,0xB21A,
0.230448916666667,0,0xBE1B,
0.230464791666667,0,0xB21A,
0.230472708333333,0,0xBF1B,
0.230488541666667,0,0xB289,
0.230496458333333,0,0xC01B,
0.230527125000000,0,0x000A,
0.230534791666667,0,0x4115,
0.230550958333333,0,0xC0C3,
0.230558875000000,0,0xC11B,
0.230574708333333,0,0xC0BB,
0.230582625000000,0,0xC21B,
0.230598500000000,0,0xC0C5,
0.230606416666667,0,0xC31B,
0.230622250000000,0,0xC0C4,
0.230630166666667,0,0xC41B,
0.230646041666667,0,0xC0C5,
0.230653958333333,0,0xC51B,
0.230669791666667,0,0xE043,
0.230677750000000,0,0xC61B,
0.230693583333333,0,0x8003,
0.230701500000000,0,0xC71B,
0.230717333333333,0,0xA2F4,
0.230725291666667,0,0xC81B,
0.230741125000000,0,0x9E3F,
0.230749041666667,0,0xC91B,
0.230764875000000,0,0x9E3C,
0.230772833333333,0,0xCA1B,
0.230805708333333,0,0x0004,
0.230813416666667,0,0x0329,
0.230829375000000,0,0x0A01,
0.230837250000000,0,0x8329,
0.230852958333333,0,0x0F00,
0.230860833333333,0,0x8429,
0.230876541666667,0,0x0000,
0.230884416666667,0,0x852B,
0.230900125000000,0,0xB73F,
0.230908000000000,0,0x8629,
0.230938458333333,0,0x0001,
0.230946166666667,0,0x1D2D,
0.230962541666667,0,0x0055,
0.230970416666667,0,0x9D2D,
0.230998416666667,0,0x0003,
0.231006083333333,0,0x2421,
0.231022000000000,0,0x004C,
0.231029833333333,0,0xA42B,
0.231045583333333,0,0x0040,
0.231053458333333,0,0xA52B,
0.231069166666667,0,0x0000,
0.231077041666667,0,0xA62B,
0.231105750000000,0,0x0005,
0.231113416666667,0,0x2D25,
0.231129625000000,0,0x0B5A,
0.231137500000000,0,0xAD2B,
0.231153208333333,0,0xFFFF,
0.231161041666667,0,0xAE2B,
0.231176750000000,0,0xED0F,
0.231184625000000,0,0xAF2B,
0.231200375000000,0,0xFFFF,
0.231208250000000,0,0xB02B,
0.231223958333333,0,0x8309,
0.231231791666667,0,0xB12B,
0.231263000000000,0,0x0006,
0.231270666666667,0,0x3B29,
0.231286833333333,0,0xE55C,
0.231294708333333,0,0xBB2B,
0.231310416666667,0,0x8000,
0.231318291666667,0,0xBC2B,
0.231334000000000,0,0x8000,
0.231341875000000,0,0xBD2B,
0.231357583333333,0,0x8002,
0.231365458333333,0,0xBE2B,
0.231381166666667,0,0xE5FA,
0.231389041666667,0,0xBF2B,
0.231404750000000,0,0xE611,
0.231412625000000,0,0xC02B,
0.231443250000000,0,0x000A,
0.231450916666667,0,0x412D,
0.231467166666667,0,0xDDEE,
0.231475041666667,0,0xC12B,
0.231490750000000,0,0xDFEF,
0.231498625000000,0,0xC22B,
0.231514333333333,0,0xDF8F,
0.231522208333333,0,0xC32B,
0.231537916666667,0,0xE140,
0.231545791666667,0,0xC42B,
0.231561500000000,0,0xA98A,
0.231569375000000,0,0xC52B,
0.231585083333333,0,0xFF49,
0.231592958333333,0,0xC62B,
0.231608666666667,0,0xC00C,
0.231616541666667,0,0xC72B,
0.231632250000000,0,0xA2D8,
0.231640125000000,0,0xC82B,
0.231655875000000,0,0x9E37,
0.231663750000000,0,0xC92B,
0.231679458333333,0,0x9E40,
0.231687333333333,0,0xCA2B,
0.239313583333333,0,0xCC3F,
0.239321250000000,0,0x0603,
0.239347916666667,0,0x0004,
0.239355583333333,0,0x0315,
0.239371833333333,0,0x0A01,
0.239379750000000,0,0x8315,
0.239395625000000,0,0x0F00,
0.239403541666667,0,0x8415,
0.239419375000000,0,0x0000,
0.239427333333333,0,0x851C,
0.239443166666667,0,0xCF3F,
0.239451083333333,0,0x8615,
0.239481791666667,0,0x0004,
0.239489458333333,0,0x0319,
0.239505583333333,0,0x0A01,
0.239513500000000,0,0x8319,
0.239529375000000,0,0x0F00,
0.239537291666667,0,0x8419,
0.239553166666667,0,0x0000,
0.239561083333333,0,0x851C,
0.239576958333333,0,0xCF3F,
0.239584875000000,0,0x8619,
0.239615958333333,0,0x0004,
0.239623625000000,0,0x031D,
0.239639875000000,0,0x0A01,
0.239647791666667,0,0x831D,
0.239663625000000,0,0x0F00,
0.239671583333333,0,0x841D,
0.239687416666667,0,0x0000,
0.239695375000000,0,0x851C,
0.239711208333333,0,0xCF3F,
0.239719125000000,0,0x861D,
0.239750000000000,0,0x0004,
0.239757708333333,0,0x0311,
0.239774125000000,0,0x0A01,
0.239782041666667,0,0x8311,
0.239797875000000,0,0x0F00,
0.239805833333333,0,0x8411,
0.239821666666667,0,0x0000,
0.239829625000000,0,0x851C,
0.239845458333333,0,0xCF3F,
0.239853375000000,0,0x8611,
0.239884791666667,0,0x0004,
0.239892458333333,0,0x0315,
0.239908875000000,0,0x0A01,
0.239916791666667,0,0x8315,
0.239932625000000,0,0x0F00,
0.239940541666667,0,0x8415,
0.239956416666667,0,0x0000,
0.239964291666667,0,0x851C,
0.239980166666667,0,0xC73F,
0.239988083333333,0,0x8615,
0.240020041666667,0,0x0001,
0.240027708333333,0,0x1D19,
0.240044000000000,0,0x1551,
0.240051916666667,0,0x9D19,
0.240079958333333,0,0x0003,
0.240087625000000,0,0x241D,
0.240103875000000,0,0x0048,
0.240111791666667,0,0xA41C,
0.240127625000000,0,0x0040,
0.240135541666667,0,0xA51C,
0.240151375000000,0,0x0000,
0.240159291666667,0,0xA61C,
0.240188000000000,0,0x0005,
0.240195666666667,0,0x2D11,
0.240211750000000,0,0x0C33,
0.240219666666667,0,0xAD1C,
0.240235500000000,0,0xFFFF,
0.240243416666667,0,0xAE1C,
0.240259250000000,0,0xD1CA,
0.240267208333333,0,0xAF1C,
0.240283041666667,0,0xFFFF,
0.240290958333333,0,0xB01C,
0.240306791666667,0,0x830B,
0.240314708333333,0,0xB11C,
0.240345291666667,0,0x0006,
0.240352958333333,0,0x3B15,
0.240369166666667,0,0xB3EF,
0.240377083333333,0,0xBB1C,
0.240392916666667,0,0xB343,
0.240400833333333,0,0xBC1C,
0.240416666666667,0,0xB2D2,
0.240424583333333,0,0xBD1C,
0.240440416666667,0,0xB216,
0.240448333333333,0,0xBE1C,
0.240464166666667,0,0xB218,
0.240472083333333,0,0xBF1C,
0.240487916666667,0,0xB28E,
0.240495833333333,0,0xC01C,
0.240525208333333,0,0x000A,
0.240532875000000,0,0x4119,
0.240549291666667,0,0xC0C1,
0.240557166666667,0,0xC11C,
0.240573041666667,0,0xC0B7,
0.240580916666667,0,0xC21C,
0.240596750000000,0,0xC0C0,
0.240604708333333,0,0xC31C,
0.240620541666667,0,0xC0C1,
0.240628458333333,0,0xC41C,
0.240644291666667,0,0xC0C1,
0.240652208333333,0,0xC51C,
0.240668041666667,0,0xE040,
0.240675958333333,0,0xC61C,
0.240691791666667,0,0x8000,
0.240699708333333,0,0xC71C,
0.240715583333333,0,0xA2F6,
0.240723500000000,0,0xC81C,
0.240739333333333,0,0x9E38,
0.240747250000000,0,0xC91C,
0.240763083333333,0,0x9E3B,
0.240771000000000,0,0xCA1C,
0.240804291666667,0,0x0004,
0.240812000000000,0,0x032D,
0.240828416666667,0,0x0A01,
0.240836291666667,0,0x832D,
0.240852000000000,0,0x0F00,
0.240859875000000,0,0x842D,
0.240875583333333,0,0x0000,
0.240883458333333,0,0x852C,
0.240899208333333,0,0xC73F,
0.240907083333333,0,0x862D,
0.240937375000000,0,0x0001,
0.240945041666667,0,0x1D21,
0.240961125000000,0,0x0055,
0.240969000000000,0,0x9D21,
0.240996708333333,0,0x0003,
0.241004375000000,0,0x2425,
0.241020541666667,0,0x004C,
0.241028416666667,0,0xA42C,
0.241044166666667,0,0x0040,
0.241052000000000,0,0xA52C,
0.241067750000000,0,0x0000,
0.241075625000000,0,0xA62C,
0.241104500000000,0,0x0005,
0.241112208333333,0,0x2D29,
0.241128166666667,0,0x0C65,
0.241136041666667,0,0xAD2C,
0.241151750000000,0,0xFFFF,
0.241159625000000,0,0xAE2C,
0.241175375000000,0,0xEC9E,
0.241183208333333,0,0xAF2C,
0.241198958333333,0,0xFFFF,
0.241206791666667,0,0xB02C,
0.241222541666667,0,0x830F,
0.241230375000000,0,0xB12C,
0.241261041666667,0,0x0006,
0.241268708333333,0,0x3B2D,
0.241284916666667,0,0xE55A,
0.241292791666667,0,0xBB2C,
0.241308541666667,0,0x8000,
0.241316375000000,0,0xBC2C,
0.241332083333333,0,0x8000,
0.241339958333333,0,0xBD2C,
0.241355708333333,0,0x8000,
0.241363583333333,0,0xBE2C,
0.241379291666667,0,0xE5F9,
0.241387166666667,0,0xBF2C,
0.241402875000000,0,0xE610,
0.241410708333333,0,0xC02C,
0.241440958333333,0,0x000A,
0.241448666666667,0,0x4121,
0.241464791666667,0,0xDE49,
0.241472625000000,0,0xC12C,
0.241488375000000,0,0xDFEF,
0.241496250000000,0,0xC22C,
0.241511958333333,0,0xDFC0,
0.241519833333333,0,0xC32C,
0.241535541666667,0,0xE140,
0.241543416666667,0,0xC42C,
0.241559125000000,0,0xA98C,
0.241567000000000,0,0xC52C,
0.241582708333333,0,0xFF48,
0.241590583333333,0,0xC62C,
0.241606291666667,0,0xC00F,
0.241614166666667,0,0xC72C,
0.241629875000000,0,0xA2D7,
0.241637750000000,0,0xC82C,
0.241653500000000,0,0x9E3D,
0.241661333333333,0,0xC92C,
0.241677083333333,0,0x9E3E,
0.241684916666667,0,0xCA2C,
0.249310458333333,0,0xDC3F,
0.249318125000000,0,0x0607,
0.249345000000000,0,0x0004,
0.249352666666667,0,0x0319,
0.249368791666667,0,0x0A01,
0.249376708333333,0,0x8319,
0.249392583333333,0,0x0F00,
0.249400500000000,0,0x8419,
0.249416375000000,0,0x0000,
0.249424291666667,0,0x851D,
0.249440125000000,0,0xDF3F,
0.249448083333333,0,0x8619,
0.249478708333333,0,0x0004,
0.249486375000000,0,0x031D,
0.249502583333333,0,0x0A01,
0.249510541666667,0,0x831D,
0.249526375000000,0,0x0F00,
0.249534333333333,0,0x841D,
0.249550166666667,0,0x0000,
0.249558125000000,0,0x851D,
0.249573958333333,0,0xDF3F,
0.249581916666667,0,0x861D,
0.249612958333333,0,0x0004,
0.249620666666667,0,0x0311,
0.249636916666667,0,0x0A01,
0.249644833333333,0,0x8311,
0.249660708333333,0,0x0F00,
0.249668625000000,0,0x8411,
0.249684458333333,0,0x0000,
0.249692416666667,0,0x851D,
0.249708291666667,0,0xDF3F,
0.249716208333333,0,0x8611,
0.249746458333333,0,0x0004,
0.249754125000000,0,0x0315,
0.249770208333333,0,0x0A01,
0.249778166666667,0,0x8315,
0.249794000000000,0,0x0F00,
0.249801916666667,0,0x8415,
0.249817791666667,0,0x0000,
0.249825708333333,0,0x851D,
0.249841583333333,0,0xDF3F,
0.249849500000000,0,0x8615,
0.249880666666667,0,0x0004,
0.249888291666667,0,0x0319,
0.249904458333333,0,0x0A01,
0.249912416666667,0,0x8319,
0.249928250000000,0,0x0F00,
0.249936166666667,0,0x8419,
0.249952041666667,0,0x0000,
0.249959958333333,0,0x851D,
0.249975791666667,0,0xD73F,
0.249983708333333,0,0x8619,
0.250013791666667,0,0x0001,
0.250021458333333,0,0x1D1D,
0.250037708333333,0,0x1551,
0.250045625000000,0,0x9D1D,
0.250073916666667,0,0x0003,
0.250081625000000,0,0x2411,
0.250097625000000,0,0x0048,
0.250105541666667,0,0xA41D,
0.250121416666667,0,0x0040,
0.250129333333333,0,0xA51D,
0.250145166666667,0,0x0000,
0.250153125000000,0,0xA61D,
0.250182625000000,0,0x0005,
0.250190291666667,0,0x2D15,
0.250206625000000,0,0x0D3D,
0.250214541666667,0,0xAD1D,
0.250230375000000,0,0xFFFF,
0.250238291666667,0,0xAE1D,
0.250254166666667,0,0xCF3C,
0.250262083333333,0,0xAF1D,
0.250277916666667,0,0xFFFF,
0.250285875000000,0,0xB01D,
0.250301708333333,0,0x830C,
0.250309666666667,0,0xB11D,
0.250339833333333,0,0x0006,
0.250347541666667,0,0x3B19,
0.250363625000000,0,0xB3F4,
0.250371541666667,0,0xBB1D,
0.250387416666667,0,0xB348,
0.250395333333333,0,0xBC1D,
0.250411208333333,0,0xB2D4,
0.250419083333333,0,0xBD1D,
0.250434958333333,0,0xB216,
0.250442875000000,0,0xBE1D,
0.250458708333333,0,0xB217,
0.250466666666667,0,0xBF1D,
0.250482500000000,0,0xB28C,
0.250490416666667,0,0xC01D,
0.250520833333333,0,0x000A,
0.250528500000000,0,0x411D,
0.250544916666667,0,0xC0C1,
0.250552833333333,0,0xC11D,
0.250568666666667,0,0xC0B8,
0.250576625000000,0,0xC21D,
0.250592500000000,0,0xC0C4,
0.250600416666667,0,0xC31D,
0.250616250000000,0,0xC0C5,
0.250624208333333,0,0xC41D,
0.250640083333333,0,0xC0C4,
0.250647958333333,0,0xC51D,
0.250663833333333,0,0xE046,
0.250671791666667,0,0xC61D,
0.250687625000000,0,0x8000,
0.250695541666667,0,0xC71D,
0.250711416666667,0,0xA2F6,
0.250719375000000,0,0xC81D,
0.250735208333333,0,0x9E3C,
0.250743166666667,0,0xC91D,
0.250759000000000,0,0x9E39,
0.250766916666667,0,0xCA1D,
0.250799833333333,0,0x0004,
0.250807500000000,0,0x0321,
0.250823583333333,0,0x0A01,
0.250831416666667,0,0x8321,
0.250847125000000,0,0x0F00,
0.250855000000000,0,0x8421,
0.250870750000000,0,0x0000,
0.250878583333333,0,0x852D,
0.250894333333333,0,0xD73F,
0.250902166666667,0,0x8621,
0.250932916666667,0,0x0001,
0.250940583333333,0,0x1D25,
0.250956750000000,0,0x0055,
0.250964583333333,0,0x9D25,
0.250992458333333,0,0x0003,
0.251000166666667,0,0x2429,
0.251016208333333,0,0x004C,
0.251024041666667,0,0xA42D,
0.251039791666667,0,0x0040,
0.251047666666667,0,0xA52D,
0.251063375000000,0,0x0000,
0.251071250000000,0,0xA62D,
0.251100250000000,0,0x0005,
0.251107916666667,0,0x2D2D,
0.251124291666667,0,0x0D71,
0.251132166666667,0,0xAD2D,
0.251147875000000,0,0xFFFF,
0.251155750000000,0,0xAE2D,
0.251171458333333,0,0xEB57,
0.251179333333333,0,0xAF2D,
0.251195041666667,0,0x8000,
0.251202916666667,0,0xB02D,
0.251218625000000,0,0x8301,
0.251226500000000,0,0xB12D,
0.251257291666667,0,0x0006,
0.251264958333333,0,0x3B21,
0.251281041666667,0,0xE559,
0.251288916666667,0,0xBB2D,
0.251304625000000,0,0x8001,
0.251312500000000,0,0xBC2D,
0.251328208333333,0,0x8000,
0.251336083333333,0,0xBD2D,
0.251351791666667,0,0x8002,
0.251359666666667,0,0xBE2D,
0.251375375000000,0,0xE5FA,
0.251383250000000,0,0xBF2D,
0.251398958333333,0,0xE614,
0.251406833333333,0,0xC02D,
0.251437250000000,0,0x000A,
0.251444916666667,0,0x4125,
0.251460916666667,0,0xDE81,
0.251468750000000,0,0xC12D,
0.251484500000000,0,0xDFF3,
0.251492333333333,0,0xC22D,
0.251508041666667,0,0xDFDD,
0.251515916666667,0,0xC32D,
0.251531666666667,0,0xE149,
0.251539500000000,0,0xC42D,
0.251555250000000,0,0xA98B,
0.251563083333333,0,0xC52D,
0.251578833333333,0,0xFF4C,
0.251586666666667,0,0xC62D,
0.251602416666667,0,0xC010,
0.251610291666667,0,0xC72D,
0.251626000000000,0,0xA2D9,
0.251633875000000,0,0xC82D,
0.251649583333333,0,0x9E3D,
0.251657458333333,0,0xC92D,
0.251673166666667,0,0x9E40,
0.251681041666667,0,0xCA2D,
0.259472916666667,0,0xEC3F,
0.259480583333333,0,0x060B,
0.259508083333333,0,0x0004,
0.259515791666667,0,0x031D,
0.259531875000000,0,0x0A01,
0.259539791666667,0,0x831D,
0.259555625000000,0,0x0F00,
0.259563583333333,0,0x841D,
0.259579416666667,0,0x0000,
0.259587375000000,0,0x851E,
0.259603208333333,0,0xEF3F,
0.259611166666667,0,0x861D,
0.259641291666667,0,0x0004,
0.259648958333333,0,0x0311,
0.259665125000000,0,0x0A01,
0.259673083333333,0,0x8311,
0.259688916666667,0,0x0F00,
0.259696833333333,0,0x8411,
0.259712708333333,0,0x0000,
0.259720625000000,0,0x851E,
0.259736500000000,0,0xEF3F,
0.259744416666667,0,0x8611,
0.259775000000000,0,0x0004,
0.259782666666667,0,0x0315,
0.259798958333333,0,0x0A01,
0.259806875000000,0,0x8315,
0.259822708333333,0,0x0F00,
0.259830666666667,0,0x8415,
0.259846500000000,0,0x0000,
0.259854458333333,0,0x851E,
0.259870291666667,0,0xEF3F,
0.259878250000000,0,0x8615,
0.259908458333333,0,0x0004,
0.259916166666667,0,0x0319,
0.259932250000000,0,0x0A01,
0.259940166666667,0,0x8319,
0.259956041666667,0,0x0F00,
0.259963958333333,0,0x8419,
0.259979791666667,0,0x0000,
0.259987750000000,0,0x851E,
0.260003583333333,0,0xEF3F,
0.260011500000000,0,0x8619,
0.260041583333333,0,0x0004,
0.260049250000000,0,0x031D,
0.260065500000000,0,0x0A01,
0.260073458333333,0,0x831D,
0.260089291666667,0,0x0F00,
0.260097208333333,0,0x841D,
0.260113041666667,0,0x0000,
0.260121000000000,0,0x851E,
0.260136833333333,0,0xE73F,
0.260144791666667,0,0x861D,
0.260175791666667,0,0x0001,
0.260183458333333,0,0x1D11,
0.260199708333333,0,0x1551,
0.260207666666667,0,0x9D11,
0.260235375000000,0,0x0003,
0.260243041666667,0,0x2415,
0.260259166666667,0,0x0048,
0.260267125000000,0,0xA41E,
0.260282958333333,0,0x0040,
0.260290875000000,0,0xA51E,
0.260306750000000,0,0x0000,
0.260314666666667,0,0xA61E,
0.260344208333333,0,0x0005,
0.260351916666667,0,0x2D19,
0.260368166666667,0,0x0E4B,
0.260376083333333,0,0xAD1E,
0.260391958333333,0,0xFFFF,
0.260399875000000,0,0xAE1E,
0.260415708333333,0,0xCE0D,
0.260423625000000,0,0xAF1E,
0.260439500000000,0,0xFFFF,
0.260447416666667,0,0xB01E,
0.260463250000000,0,0x830F,
0.260471166666667,0,0xB11E,
0.260501125000000,0,0x0006,
0.260508791666667,0,0x3B1D,
0.260525166666667,0,0xB3F4,
0.260533125000000,0,0xBB1E,
0.260548958333333,0,0xB346,
0.260556875000000,0,0xBC1E,
0.260572750000000,0,0xB2D7,
0.260580666666667,0,0xBD1E,
0.260596500000000,0,0xB21A,
0.260604458333333,0,0xBE1E,
0.260620291666667,0,0xB21A,
0.260628250000000,0,0xBF1E,
0.260644083333333,0,0xB28B,
0.260652041666667,0,0xC01E,
0.260682583333333,0,0x000A,
0.260690250000000,0,0x4111,
0.260706500000000,0,0xC0C2,
0.260714458333333,0,0xC11E,
0.260730291666667,0,0xC0BE,
0.260738250000000,0,0xC21E,
0.260754083333333,0,0xC0C1,
0.260762000000000,0,0xC31E,
0.260777833333333,0,0xC0C5,
0.260785750000000,0,0xC41E,
0.260801625000000,0,0xC0C6,
0.260809541666667,0,0xC51E,
0.260825416666667,0,0xE046,
0.260833333333333,0,0xC61E,
0.260849208333333,0,0x8002,
0.260857125000000,0,0xC71E,
0.260873000000000,0,0xA2F6,
0.260880916666667,0,0xC81E,
0.260896750000000,0,0x9E3D,
0.260904708333333,0,0xC91E,
0.260920541666667,0,0x9E3A,
0.260928458333333,0,0xCA1E,
0.260960875000000,0,0x0004,
0.260968583333333,0,0x0325,
0.260984833333333,0,0x0A01,
0.260992708333333,0,0x8325,
0.261008416666667,0,0x0F00,
0.261016291666667,0,0x8425,
0.261032000000000,0,0x0000,
0.261039875000000,0,0x852E,
0.261055583333333,0,0xE73F,
0.261063458333333,0,0x8625,
0.261093833333333,0,0x0001,
0.261101541666667,0,0x1D29,
0.261117541666667,0,0x0055,
0.261125416666667,0,0x9D29,
0.261153416666667,0,0x0003,
0.261161083333333,0,0x242D,
0.261177500000000,0,0x004C,
0.261185375000000,0,0xA42E,
0.261201083333333,0,0x0040,
0.261208958333333,0,0xA52E,
0.261224666666667,0,0x0000,
0.261232541666667,0,0xA62E,
0.261261000000000,0,0x0005,
0.261268666666667,0,0x2D21,
0.261284625000000,0,0x0E81,
0.261292500000000,0,0xAD2E,
0.261308208333333,0,0xFFFF,
0.261316083333333,0,0xAE2E,
0.261331791666667,0,0xEB13,
0.261339666666667,0,0xAF2E,
0.261355375000000,0,0xFFFF,
0.261363250000000,0,0xB02E,
0.261379000000000,0,0x8308,
0.261386875000000,0,0xB12E,
0.261417416666667,0,0x0006,
0.261425083333333,0,0x3B25,
0.261441416666667,0,0xE55B,
0.261449291666667,0,0xBB2E,
0.261465000000000,0,0x8002,
0.261472875000000,0,0xBC2E,
0.261488583333333,0,0x8000,
0.261496458333333,0,0xBD2E,
0.261512208333333,0,0x8000,
0.261520083333333,0,0xBE2E,
0.261535791666667,0,0xE5FE,
0.261543625000000,0,0xBF2E,
0.261559375000000,0,0xE614,
0.261567250000000,0,0xC02E,
0.261597208333333,0,0x000A,
0.261604875000000,0,0x4129,
0.261620791666667,0,0xDEA8,
0.261628666666667,0,0xC12E,
0.261644375000000,0,0xDFF7,
0.261652250000000,0,0xC22E,
0.261668000000000,0,0xDFEC,
0.261675833333333,0,0xC32E,
0.261691583333333,0,0xE145,
0.261699416666667,0,0xC42E,
0.261715166666667,0,0xA98E,
0.261723041666667,0,0xC52E,
0.261738750000000,0,0xFF4E,
0.261746625000000,0,0xC62E,
0.261762333333333,0,0xC010,
0.261770208333333,0,0xC72E,
0.261785916666667,0,0xA2D9,
0.261793791666667,0,0xC82E,
0.261809500000000,0,0x9E3B,
0.261817375000000,0,0xC92E,
0.261833125000000,0,0x9E40,
0.261840958333333,0,0xCA2E,
0.269374000000000,0,0xFC3F,
0.269381666666667,0,0x060F,
0.269409291666667,0,0x0004,
0.269416958333333,0,0x0311,
0.269433041666667,0,0x0A01,
0.269440958333333,0,0x8311,
0.269456833333333,0,0x0F00,
0.269464750000000,0,0x8411,
0.269480625000000,0,0x0000,
0.269488541666667,0,0x851F,
0.269504375000000,0,0xFF3F,
0.269512333333333,0,0x8611,
0.269543250000000,0,0x0004,
0.269550916666667,0,0x0315,
0.269567291666667,0,0x0A01,
0.269575208333333,0,0x8315,
0.269591083333333,0,0x0F00,
0.269599000000000,0,0x8415,
0.269614875000000,0,0x0000,
0.269622791666667,0,0x851F,
0.269638666666667,0,0xFF3F,
0.269646583333333,0,0x8615,
0.269676541666667,0,0x0004,
0.269684250000000,0,0x0319,
0.269700583333333,0,0x0A01,
0.269708500000000,0,0x8319,
0.269724375000000,0,0x0F00,
0.269732291666667,0,0x8419,
0.269748166666667,0,0x0000,
0.269756083333333,0,0x851F,
0.269771916666667,0,0xFF3F,
0.269779875000000,0,0x8619,
0.269810291666667,0,0x0004,
0.269818000000000,0,0x031D,
0.269834375000000,0,0x0A01,
0.269842291666667,0,0x831D,
0.269858125000000,0,0x0F00,
0.269866083333333,0,0x841D,
0.269881916666667,0,0x0000,
0.269889833333333,0,0x851F,
0.269905708333333,0,0xFF3F,
0.269913625000000,0,0x861D,
0.269944291666667,0,0x0004,
0.269951958333333,0,0x0311,
0.269968125000000,0,0x0A01,
0.269976041666667,0,0x8311,
0.269991916666667,0,0x0F00,
0.269999833333333,0,0x8411,
0.270015666666667,0,0x0000,
0.270023625000000,0,0x851F,
0.270039458333333,0,0xF73F,
0.270047375000000,0,0x8611,
0.270077291666667,0,0x0001,
0.270084958333333,0,0x1D15,
0.270101375000000,0,0x1551,
0.270109291666667,0,0x9D15,
0.270138500000000,0,0x0003,
0.270146166666667,0,0x2419,
0.270162291666667,0,0x0048,
0.270170208333333,0,0xA41F,
0.270186083333333,0,0x0040,
0.270194000000000,0,0xA51F,
0.270209833333333,0,0x0000,
0.270217750000000,0,0xA61F,
0.270246833333333,0,0x0005,
0.270254500000000,0,0x2D1D,
0.270270791666667,0,0x0F52,
0.270278708333333,0,0xAD1F,
0.270294541666667,0,0xFFFF,
0.270302458333333,0,0xAE1F,
0.270318291666667,0,0xCB8C,
0.270326250000000,0,0xAF1F,
0.270342125000000,0,0x8000,
0.270350000000000,0,0xB01F,
0.270365875000000,0,0x8301,
0.270373791666667,0,0xB11F,
0.270404250000000,0,0x0006,
0.270411916666667,0,0x3B11,
0.270428291666667,0,0xB3EF,
0.270436208333333,0,0xBB1F,
0.270452041666667,0,0xB345,
0.270459958333333,0,0xBC1F,
0.270475833333333,0,0xB2D8,
0.270483750000000,0,0xBD1F,
0.270499625000000,0,0xB21B,
0.270507541666667,0,0xBE1F,
0.270523375000000,0,0xB21A,
0.270531333333333,0,0xBF1F,
0.270547166666667,0,0xB28B,
0.270555083333333,0,0xC01F,
0.270585583333333,0,0x000A,
0.270593250000000,0,0x4115,
0.270609583333333,0,0xC0C5,
0.270617500000000,0,0xC11F,
0.270633333333333,0,0xC0BD,
0.270641291666667,0,0xC21F,
0.270657125000000,0,0xC0C8,
0.270665041666667,0,0xC31F,
0.270680916666667,0,0xC0C5,
0.270688833333333,0,0xC41F,
0.270704666666667,0,0xC0C8,
0.270712583333333,0,0xC51F,
0.270728458333333,0,0xE048,
0.270736375000000,0,0xC61F,
0.270752250000000,0,0x8000,
0.270760166666667,0,0xC71F,
0.270776000000000,0,0xA2F6,
0.270783958333333,0,0xC81F,
0.270799791666667,0,0x9E3F,
0.270807750000000,0,0xC91F,
0.270823583333333,0,0x9E3D,
0.270831500000000,0,0xCA1F,
0.270863708333333,0,0x0004,
0.270871375000000,0,0x0329,
0.270887333333333,0,0x0A01,
0.270895208333333,0,0x8329,
0.270910916666667,0,0x0F00,
0.270918791666667,0,0x8429,
0.270934500000000,0,0x0000,
0.270942375000000,0,0x852F,
0.270958083333333,0,0xF73F,
0.270965958333333,0,0x8629,
0.270996000000000,0,0x0001,
0.271003666666667,0,0x1D2D,
0.271020000000000,0,0x0055,
0.271027875000000,0,0x9D2D,
0.271055791666667,0,0x0003,
0.271063458333333,0,0x2421,
0.271079500000000,0,0x004C,
0.271087333333333,0,0xA42F,
0.271103083333333,0,0x0040,
0.271110958333333,0,0xA52F,
0.271126666666667,0,0x0000,
0.271134541666667,0,0xA62F,
0.271163500000000,0,0x0005,
0.271171166666667,0,0x2D25,
0.271187125000000,0,0x0F8A,
0.271195000000000,0,0xAD2F,
0.271210708333333,0,0xFFFF,
0.271218541666667,0,0xAE2F,
0.271234291666667,0,0xEA61,
0.271242166666667,0,0xAF2F,
0.271257875000000,0,0xFFFF,
0.271265750000000,0,0xB02F,
0.271281500000000,0,0x830F,
0.271289333333333,0,0xB12F,
0.271319500000000,0,0x0006,
0.271327166666667,0,0x3B29,
0.271343375000000,0,0xE55C,
0.271351250000000,0,0xBB2F,
0.271367000000000,0,0x8000,
0.271374833333333,0,0xBC2F,
0.271390583333333,0,0x8000,
0.271398416666667,0,0xBD2F,
0.271414166666667,0,0x8000,
0.271422000000000,0,0xBE2F,
0.271437750000000,0,0xE5FB,
0.271445583333333,0,0xBF2F,
0.271461333333333,0,0xE614,
0.271469166666667,0,0xC02F,
0.271498958333333,0,0x000A,
0.271506625000000,0,0x412D,
0.271522750000000,0,0xDEBF,
0.271530625000000,0,0xC12F,
0.271546333333333,0,0xDFF4,
0.271554208333333,0,0xC22F,
0.271569916666667,0,0xDFF9,
0.271577791666667,0,0xC32F,
0.271593500000000,0,0xE148,
0.271601375000000,0,0xC42F,
0.271617083333333,0,0xA98F,
0.271624958333333,0,0xC52F,
0.271640708333333,0,0xFF4C,
0.271648541666667,0,0xC62F,
0.271664291666667,0,0xC00F,
0.271672166666667,0,0xC72F,
0.271687875000000,0,0xA2DA,
0.271695708333333,0,0xC82F,
0.271711458333333,0,0x9E3D,
0.271719291666667,0,0xC92F,
0.271735041666667,0,0x9E3E,
0.271742916666667,0,0xCA2F,
0.279301000000000,0,0x0C3F,
0.279308708333333,0,0x0603,
0.279336208333333,0,0x0004,
0.279343875000000,0,0x0315,
0.279359916666667,0,0x0A01,
0.279367875000000,0,0x8315,
0.279383708333333,0,0x0F00,
0.279391625000000,0,0x8415,
0.279407458333333,0,0x0000,
0.279415416666667,0,0x8510,
0.279431250000000,0,0x0F3F,
0.279439208333333,0,0x8615,
0.279470375000000,0,0x0004,
0.279478041666667,0,0x0319,
0.279494166666667,0,0x0A01,
0.279502125000000,0,0x8319,
0.279517958333333,0,0x0F00,
0.279525875000000,0,0x8419,
0.279541750000000,0,0x0000,
0.279549666666667,0,0x8510,
0.279565541666667,0,0x0F3F,
0.279573458333333,0,0x8619,
0.279604250000000,0,0x0004,
0.279611916666667,0,0x031D,
0.279627958333333,0,0x0A01,
0.279635875000000,0,0x831D,
0.279651708333333,0,0x0F00,
0.279659625000000,0,0x841D,
0.279675500000000,0,0x0000,
0.279683416666667,0,0x8510,
0.279699291666667,0,0x0F3F,
0.279707208333333,0,0x861D,
0.279737083333333,0,0x0004,
0.279744750000000,0,0x0311,
0.279761208333333,0,0x0A01,
0.279769125000000,0,0x8311,
0.279785000000000,0,0x0F00,
0.279792916666667,0,0x8411,
0.279808750000000,0,0x0000,
0.279816708333333,0,0x8510,
0.279832541666667,0,0x0F3F,
0.279840458333333,0,0x8611,
0.279870416666667,0,0x0004,
0.279878083333333,0,0x0315,
0.279894458333333,0,0x0A01,
0.279902375000000,0,0x8315,
0.279918250000000,0,0x0F00,
0.279926166666667,0,0x8415,
0.279942000000000,0,0x0000,
0.279949958333333,0,0x8510,
0.279965791666667,0,0x073F,
0.279973708333333,0,0x8615,
0.280004166666667,0,0x0001,
0.280011875000000,0,0x1D19,
0.280028166666667,0,0x1551,
0.280036083333333,0,0x9D19,
0.280063916666667,0,0x0003,
0.280071583333333,0,0x241D,
0.280087625000000,0,0x0048,
0.280095541666667,0,0xA410,
0.280111375000000,0,0x0040,
0.280119291666667,0,0xA510,
0.280135166666667,0,0x0000,
0.280143083333333,0,0xA610,
0.280172208333333,0,0x0005,
0.280179875000000,0,0x2D11,
0.280196083333333,0,0x105A,
0.280204000000000,0,0xAD10,
0.280219833333333,0,0xFFFF,
0.280227791666667,0,0xAE10,
0.280243625000000,0,0xC999,
0.280251541666667,0,0xAF10,
0.280267416666667,0,0xFFFF,
0.280275291666667,0,0xB010,
0.280291166666667,0,0x830C,
0.280299083333333,0,0xB110,
0.280329041666667,0,0x0006,
0.280336708333333,0,0x3B15,
0.280353083333333,0,0xB3F0,
0.280361000000000,0,0xBB10,
0.280376833333333,0,0xB344,
0.280384791666667,0,0xBC10,
0.280400625000000,0,0xB2D5,
0.280408541666667,0,0xBD10,
0.280424416666667,0,0xB21B,
0.280432333333333,0,0xBE10,
0.280448166666667,0,0xB219,
0.280456083333333,0,0xBF10,
0.280471958333333,0,0xB288,
0.280479875000000,0,0xC010,
0.280509250000000,0,0x000A,
0.280516916666667,0,0x4119,
0.280533375000000,0,0xC0C1,
0.280541291666667,0,0xC110,
0.280557125000000,0,0xC0BC,
0.280565083333333,0,0xC210,
0.280580916666667,0,0xC0C3,
0.280588833333333,0,0xC310,
0.280604666666667,0,0xC0C5,
0.280612625000000,0,0xC410,
0.280628458333333,0,0xC0C2,
0.280636375000000,0,0xC510,
0.280652250000000,0,0xE048,
0.280660166666667,0,0xC610,
0.280676000000000,0,0x8000,
0.280683916666667,0,0xC710,
0.280699791666667,0,0xA2F7,
0.280707708333333,0,0xC810,
0.280723583333333,0,0x9E39,
0.280731500000000,0,0xC910,
0.280747333333333,0,0x9E3D,
0.280755291666667,0,0xCA10,
0.280787375000000,0,0x0004,
0.280795083333333,0,0x032D,
0.280811000000000,0,0x0A01,
0.280818875000000,0,0x832D,
0.280834583333333,0,0x0F00,
0.280842458333333,0,0x842D,
0.280858166666667,0,0x0000,
0.280866041666667,0,0x8520,
0.280881750000000,0,0x073F,
0.280889625000000,0,0x862D,
0.280920333333333,0,0x0001,
0.280928000000000,0,0x1D21,
0.280944166666667,0,0x0055,
0.280952000000000,0,0x9D21,
0.280980000000000,0,0x0003,
0.280987708333333,0,0x2425,
0.281003625000000,0,0x004C,
0.281011500000000,0,0xA420,
0.281027208333333,0,0x0040,
0.281035083333333,0,0xA520,
0.281050791666667,0,0x0000,
0.281058625000000,0,0xA620,
0.281087500000000,0,0x0005,
0.281095166666667,0,0x2D29,
0.281111250000000,0,0x1094,
0.281119083333333,0,0xAD20,
0.281134833333333,0,0xFFFF,
0.281142666666667,0,0xAE20,
0.281158416666667,0,0xE969,
0.281166291666667,0,0xAF20,
0.281182000000000,0,0x8000,
0.281189833333333,0,0xB020,
0.281205541666667,0,0x8301,
0.281213416666667,0,0xB120,
0.281243833333333,0,0x0006,
0.281251500000000,0,0x3B2D,
0.281267500000000,0,0xE55F,
0.281275333333333,0,0xBB20,
0.281291083333333,0,0x8004,
0.281298958333333,0,0xBC20,
0.281314666666667,0,0x8000,
0.281322541666667,0,0xBD20,
0.281338250000000,0,0x8001,
0.281346125000000,0,0xBE20,
0.281361875000000,0,0xE5F8,
0.281369750000000,0,0xBF20,
0.281385458333333,0,0xE613,
0.281393291666667,0,0xC020,
0.281424166666667,0,0x000A,
0.281431833333333,0,0x4121,
0.281447875000000,0,0xDECE,
0.281455750000000,0,0xC120,
0.281471458333333,0,0xDFF6,
0.281479333333333,0,0xC220,
0.281495041666667,0,0xDFFB,
0.281502916666667,0,0xC320,
0.281518625000000,0,0xE148,
0.281526500000000,0,0xC420,
0.281542250000000,0,0xA98C,
0.281550083333333,0,0xC520,
0.281565791666667,0,0xFF4B,
0.281573666666667,0,0xC620,
0.281589375000000,0,0xC00F,
0.281597250000000,0,0xC720,
0.281613000000000,0,0xA2DC,
0.281620833333333,0,0xC820,
0.281636541666667,0,0x9E3E,
0.281644416666667,0,0xC920,
0.281660166666667,0,0x9E3F,
0.281668000000000,0,0xCA20,
0.289324000000000,0,0x1C3F,
0.289331666666667,0,0x0607,
0.289359208333333,0,0x0004,
0.289366875000000,0,0x0319,
0.289383208333333,0,0x0A01,
0.289391125000000,0,0x8319,
0.289407000000000,0,0x0F00,
0.289414916666667,0,0x8419,
0.289430791666667,0,0x0000,
0.289438708333333,0,0x8511,
0.289454541666667,0,0x1F3F,
0.289462500000000,0,0x8619,
0.289493500000000,0,0x0004,
0.289501208333333,0,0x031D,
0.289517500000000,0,0x0A01,
0.289525416666667,0,0x831D,
0.289541291666667,0,0x0F00,
0.289549208333333,0,0x841D,
0.289565083333333,0,0x0000,
0.289573000000000,0,0x8511,
0.289588875000000,0,0x1F3F,
0.289596791666667,0,0x861D,
0.289627166666667,0,0x0004,
0.289634833333333,0,0x0311,
0.289650833333333,0,0x0A01,
0.289658750000000,0,0x8311,
0.289674583333333,0,0x0F00,
0.289682541666667,0,0x8411,
0.289698375000000,0,0x0000,
0.289706291666667,0,0x8511,
0.289722166666667,0,0x1F3F,
0.289730083333333,0,0x8611,
0.289761250000000,0,0x0004,
0.289768916666667,0,0x0315,
0.289785083333333,0,0x0A01,
0.289793000000000,0,0x8315,
0.289808833333333,0,0x0F00,
0.289816791666667,0,0x8415,
0.289832625000000,0,0x0000,
0.289840541666667,0,0x8511,
0.289856416666667,0,0x1F3F,
0.289864333333333,0,0x8615,
0.289895250000000,0,0x0004,
0.289902916666667,0,0x0319,
0.289919333333333,0,0x0A01,
0.289927250000000,0,0x8319,
0.289943083333333,0,0x0F00,
0.289951041666667,0,0x8419,
0.289966875000000,0,0x0000,
0.289974791666667,0,0x8511,
0.289990666666667,0,0x173F,
0.289998583333333,0,0x8619,
0.290030083333333,0,0x0001,
0.290037750000000,0,0x1D1D,
0.290054041666667,0,0x1551,
0.290062000000000,0,0x9D1D,
0.290090333333333,0,0x0003,
0.290098041666667,0,0x2411,
0.290114000000000,0,0x0048,
0.290121916666667,0,0xA411,
0.290137750000000,0,0x0040,
0.290145708333333,0,0xA511,
0.290161541666667,0,0x0000,
0.290169458333333,0,0xA611,
0.290198666666667,0,0x0005,
0.290206333333333,0,0x2D15,
0.290222458333333,0,0x1164,
0.290230416666667,0,0xAD11,
0.290246250000000,0,0xFFFF,
0.290254166666667,0,0xAE11,
0.290270041666667,0,0xC772,
0.290277958333333,0,0xAF11,
0.290293791666667,0,0xFFFF,
0.290301750000000,0,0xB011,
0.290317583333333,0,0x830D,
0.290325500000000,0,0xB111,
0.290355125000000,0,0x0006,
0.290362791666667,0,0x3B19,
0.290379041666667,0,0xB3F5,
0.290386958333333,0,0xBB11,
0.290402833333333,0,0xB348,
0.290410708333333,0,0xBC11,
0.290426583333333,0,0xB2DC,
0.290434541666667,0,0xBD11,
0.290450375000000,0,0xB21B,
0.290458291666667,0,0xBE11,
0.290474166666667,0,0xB21A,
0.290482083333333,0,0xBF11,
0.290497958333333,0,0xB290,
0.290505875000000,0,0xC011,
0.290536250000000,0,0x000A,
0.290543916666667,0,0x411D,
0.290560375000000,0,0xC0BF,
0.290568291666667,0,0xC111,
0.290584125000000,0,0xC0BB,
0.290592041666667,0,0xC211,
0.290607916666667,0,0xC0C0,
0.290615833333333,0,0xC311,
0.290631666666667,0,0xC0C0,
0.290639625000000,0,0xC411,
0.290655458333333,0,0xC0C0,
0.290663375000000,0,0xC511,
0.290679250000000,0,0xE044,
0.290687166666667,0,0xC611,
0.290703041666667,0,0x8000,
0.290710958333333,0,0xC711,
0.290726791666667,0,0xA2F9,
0.290734708333333,0,0xC811,
0.290750583333333,0,0x9E39,
0.290758541666667,0,0xC911,
0.290774375000000,0,0x9E3E,
0.290782291666667,0,0xCA11,
0.290815250000000,0,0x0004,
0.290822916666667,0,0x0321,
0.290838916666667,0,0x0A01,
0.290846791666667,0,0x8321,
0.290862541666667,0,0x0F00,
0.290870375000000,0,0x8421,
0.290886125000000,0,0x0000,
0.290893958333333,0,0x8521,
0.290909708333333,0,0x173F,
0.290917583333333,0,0x8621,
0.290947708333333,0,0x0001,
0.290955375000000,0,0x1D25,
0.290971625000000,0,0x0055,
0.290979500000000,0,0x9D25,
0.291007208333333,0,0x0003,
0.291014875000000,0,0x2429,
0.291031083333333,0,0x004C,
0.291038958333333,0,0xA421,
0.291054666666667,0,0x0040,
0.291062541666667,0,0xA521,
0.291078250000000,0,0x0000,
0.291086125000000,0,0xA621,
0.291114958333333,0,0x0005,
0.291122625000000,0,0x2D2D,
0.291138708333333,0,0x11A0,
0.291146583333333,0,0xAD21,
0.291162291666667,0,0xFFFF,
0.291170166666667,0,0xAE21,
0.291185875000000,0,0xE94F,
0.291193750000000,0,0xAF21,
0.291209458333333,0,0xFFFF,
0.291217333333333,0,0xB021,
0.291233041666667,0,0x830D,
0.291240916666667,0,0xB121,
0.291271750000000,0,0x0006,
0.291279416666667,0,0x3B21,
0.291295458333333,0,0xE55A,
0.291303333333333,0,0xBB21,
0.291319083333333,0,0x8000,
0.291326916666667,0,0xBC21,
0.291342666666667,0,0x8002,
0.291350541666667,0,0xBD21,
0.291366250000000,0,0x8004,
0.291374125000000,0,0xBE21,
0.291389833333333,0,0xE5FA,
0.291397666666667,0,0xBF21,
0.291413416666667,0,0xE60D,
0.291421291666667,0,0xC021,
0.291451625000000,0,0x000A,
0.291459291666667,0,0x4125,
0.291475333333333,0,0xDED9,
0.291483208333333,0,0xC121,
0.291498916666667,0,0xDFF5,
0.291506791666667,0,0xC221,
0.291522500000000,0,0xE003,
0.291530375000000,0,0xC321,
0.291546083333333,0,0xE149,
0.291553958333333,0,0xC421,
0.291569666666667,0,0xA992,
0.291577541666667,0,0xC521,
0.291593291666667,0,0xFF4E,
0.291601125000000,0,0xC621,
0.291616875000000,0,0xC00F,
0.291624750000000,0,0xC721,
0.291640458333333,0,0xA2D9,
0.291648333333333,0,0xC821,
0.291664041666667,0,0x9E3A,
0.291671916666667,0,0xC921,
0.291687625000000,0,0x9E43,
0.291695500000000,0,0xCA21,
0.299329750000000,0,0x2C3F,
0.299337458333333,0,0x060B,
0.299364791666667,0,0x0004,
0.299372458333333,0,0x031D,
0.299388833333333,0,0x0A01,
0.299396791666667,0,0x831D,
0.299412625000000,0,0x0F00,
0.299420583333333,0,0x841D,
0.299436416666667,0,0x0000,
0.299444333333333,0,0x8512,
0.299460208333333,0,0x2F3F,
0.299468125000000,0,0x861D,
0.299499291666667,0,0x0004,
0.299507000000000,0,0x0311,
0.299523166666667,0,0x0A01,
0.299531083333333,0,0x8311,
0.299546916666667,0,0x0F00,
0.299554875000000,0,0x8411,
0.299570708333333,0,0x0000,
0.299578625000000,0,0x8512,
0.299594500000000,0,0x2F3F,
0.299602416666667,0,0x8611,
0.299633416666667,0,0x0004,
0.299641083333333,0,0x0315,
0.299657416666667,0,0x0A01,
0.299665333333333,0,0x8315,
0.299681208333333,0,0x0F00,
0.299689125000000,0,0x8415,
0.299705000000000,0,0x0000,
0.299712916666667,0,0x8512,
0.299728791666667,0,0x2F3F,
0.299736708333333,0,0x8615,
0.299768125000000,0,0x0004,
0.299775833333333,0,0x0319,
0.299792208333333,0,0x0A01,
0.299800125000000,0,0x8319,
0.299816000000000,0,0x0F00,
0.299823958333333,0,0x8419,
0.299839791666667,0,0x0000,
0.299847708333333,0,0x8512,
0.299863583333333,0,0x2F3F,
0.299871500000000,0,0x8619,
0.299902750000000,0,0x0004,
0.299910416666667,0,0x031D,
0.299926500000000,0,0x0A01,
0.299934416666667,0,0x831D,
0.299950250000000,0,0x0F00,
0.299958208333333,0,0x841D,
0.299974041666667,0,0x0000,
0.299982000000000,0,0x8512,
0.299997833333333,0,0x273F,
0.300005750000000,0,0x861D,
0.300036750000000,0,0x0001,
0.300044416666667,0,0x1D11,
0.300060750000000,0,0x1551,
0.300068666666667,0,0x9D11,
0.300096750000000,0,0x0003,
0.300104458333333,0,0x2415,
0.300120708333333,0,0x0048,
0.300128625000000,0,0xA412,
0.300144458333333,0,0x0040,
0.300152375000000,0,0xA512,
0.300168250000000,0,0x0000,
0.300176166666667,0,0xA612,
0.300204875000000,0,0x0005,
0.300212541666667,0,0x2D19,
0.300228666666667,0,0x126E,
0.300236625000000,0,0xAD12,
0.300252458333333,0,0xFFFF,
0.300260416666667,0,0xAE12,
0.300276250000000,0,0xC52F,
0.300284208333333,0,0xAF12,
0.300300041666667,0,0xFFFF,
0.300308000000000,0,0xB012,
0.300323833333333,0,0x8308,
0.300331791666667,0,0xB112,
0.300361625000000,0,0x0006,
0.300369333333333,0,0x3B1D,
0.300385291666667,0,0xB3F4,
0.300393208333333,0,0xBB12,
0.300409041666667,0,0xB347,
0.300417000000000,0,0xBC12,
0.300432833333333,0,0xB2D9,
0.300440791666667,0,0xBD12,
0.300456625000000,0,0xB21B,
0.300464583333333,0,0xBE12,
0.300480416666667,0,0xB21B,
0.300488333333333,0,0xBF12,
0.300504208333333,0,0xB28E,
0.300512125000000,0,0xC012,
0.300542333333333,0,0x000A,
0.300550041666667,0,0x4111,
0.300566125000000,0,0xC0C2,
0.300574041666667,0,0xC112,
0.300589916666667,0,0xC0BE,
0.300597833333333,0,0xC212,
0.300613708333333,0,0xC0C4,
0.300621625000000,0,0xC312,
0.300637458333333,0,0xC0C6,
0.300645375000000,0,0xC412,
0.300661250000000,0,0xC0C8,
0.300669166666667,0,0xC512,
0.300685041666667,0,0xE04C,
0.300692958333333,0,0xC612,
0.300708791666667,0,0x8000,
0.300716750000000,0,0xC712,
0.300732583333333,0,0xA2F8,
0.300740500000000,0,0xC812,
0.300756333333333,0,0x9E3C,
0.300764291666667,0,0xC912,
0.300780125000000,0,0x9E3D,
0.300788041666667,0,0xCA12,
0.300820666666667,0,0x0004,
0.300828375000000,0,0x0325,
0.300844666666667,0,0x0A01,
0.300852500000000,0,0x8325,
0.300868250000000,0,0x0F00,
0.300876083333333,0,0x8425,
0.300891833333333,0,0x0000,
0.300899708333333,0,0x8522,
0.300915416666667,0,0x273F,
0.300923291666667,0,0x8625,
0.300953375000000,0,0x0001,
0.300961041666667,0,0x1D29,
0.300977375000000,0,0x0055,
0.300985208333333,0,0x9D29,
0.301013375000000,0,0x0003,
0.301021041666667,0,0x242D,
0.301037291666667,0,0x004C,
0.301045166666667,0,0xA422,
0.301060916666667,0,0x0040,
0.301068791666667,0,0xA522,
0.301084500000000,0,0x0000,
0.301092375000000,0,0xA622,
0.301121166666667,0,0x0005,
0.301128833333333,0,0x2D21,
0.301144958333333,0,0x12AC,
0.301152833333333,0,0xAD22,
0.301168541666667,0,0xFFFF,
0.301176416666667,0,0xAE22,
0.301192125000000,0,0xE8B0,
0.301200000000000,0,0xAF22,
0.301215750000000,0,0xFFFF,
0.301223625000000,0,0xB022,
0.301239333333333,0,0x830E,
0.301247208333333,0,0xB122,
0.301277375000000,0,0x0006,
0.301285083333333,0,0x3B25,
0.301301250000000,0,0xE55F,
0.301309125000000,0,0xBB22,
0.301324833333333,0,0x8000,
0.301332708333333,0,0xBC22,
0.301348458333333,0,0x8000,
0.301356291666667,0,0xBD22,
0.301372000000000,0,0x8004,
0.301379875000000,0,0xBE22,
0.301395625000000,0,0xE5FB,
0.301403500000000,0,0xBF22,
0.301419208333333,0,0xE611,
0.301427083333333,0,0xC022,
0.301456708333333,0,0x000A,
0.301464375000000,0,0x4129,
0.301480625000000,0,0xDEDF,
0.301488500000000,0,0xC122,
0.301504208333333,0,0xDFF5,
0.301512083333333,0,0xC222,
0.301527791666667,0,0xE003,
0.301535666666667,0,0xC322,
0.301551416666667,0,0xE148,
0.301559250000000,0,0xC422,
0.301575000000000,0,0xA98D,
0.301582875000000,0,0xC522,
0.301598583333333,0,0xFF4E,
0.301606458333333,0,0xC622,
0.301622166666667,0,0xC00F,
0.301630041666667,0,0xC722,
0.301645750000000,0,0xA2DC,
0.301653625000000,0,0xC822,
0.301669375000000,0,0x9E3B,
0.301677208333333,0,0xC922,
0.301692958333333,0,0x9E3E,
0.301700791666667,0,0xCA22,
0.309329458333333,0,0x3C3F,
0.309337125000000,0,0x060F,
0.309364458333333,0,0x0004,
0.309372125000000,0,0x0311,
0.309388083333333,0,0x0A01,
0.309396041666667,0,0x8311,
0.309411875000000,0,0x0F00,
0.309419791666667,0,0x8411,
0.309435666666667,0,0x0000,
0.309443583333333,0,0x8513,
0.309459416666667,0,0x3F3F,
0.309467375000000,0,0x8611,
0.309498416666667,0,0x0004,
0.309506083333333,0,0x0315,
0.309522375000000,0,0x0A01,
0.309530291666667,0,0x8315,
0.309546166666667,0,0x0F00,
0.309554083333333,0,0x8415,
0.309569958333333,0,0x0000,
0.309577875000000,0,0x8513,
0.309593750000000,0,0x3F3F,
0.309601666666667,0,0x8615,
0.309632708333333,0,0x0004,
0.309640375000000,0,0x0319,
0.309656666666667,0,0x0A01,
0.309664625000000,0,0x8319,
0.309680458333333,0,0x0F00,
0.309688416666667,0,0x8419,
0.309704250000000,0,0x0000,
0.309712208333333,0,0x8513,
0.309728041666667,0,0x3F3F,
0.309735958333333,0,0x8619,
0.309766375000000,0,0x0004,
0.309774041666667,0,0x031D,
0.309790458333333,0,0x0A01,
0.309798416666667,0,0x831D,
0.309814250000000,0,0x0F00,
0.309822208333333,0,0x841D,
0.309838041666667,0,0x0000,
0.309845958333333,0,0x8513,
0.309861833333333,0,0x3F3F,
0.309869750000000,0,0x861D,
0.309900833333333,0,0x0004,
0.309908500000000,0,0x0311,
0.309924750000000,0,0x0A01,
0.309932666666667,0,0x8311,
0.309948541666667,0,0x0F00,
0.309956458333333,0,0x8411,
0.309972291666667,0,0x0000,
0.309980208333333,0,0x8513,
0.309996083333333,0,0x373F,
0.310004000000000,0,0x8611,
0.310035083333333,0,0x0001,
0.310042791666667,0,0x1D15,
0.310058958333333,0,0x1551,
0.310066875000000,0,0x9D15,
0.310095666666667,0,0x0003,
0.310103333333333,0,0x2419,
0.310119416666667,0,0x0048,
0.310127291666667,0,0xA413,
0.310143166666667,0,0x0040,
0.310151083333333,0,0xA513,
0.310166958333333,0,0x0000,
0.310174875000000,0,0xA613,
0.310203458333333,0,0x0005,
0.310211166666667,0,0x2D1D,
0.310227375000000,0,0x1378,
0.310235291666667,0,0xAD13,
0.310251166666667,0,0xFFFF,
0.310259041666667,0,0xAE13,
0.310274916666667,0,0xC28C,
0.310282833333333,0,0xAF13,
0.310298708333333,0,0x8000,
0.310306625000000,0,0xB013,
0.310322458333333,0,0x8300,
0.310330416666667,0,0xB113,
0.310360416666667,0,0x0006,
0.310368125000000,0,0x3B11,
0.310384375000000,0,0xB3F6,
0.310392333333333,0,0xBB13,
0.310408166666667,0,0xB347,
0.310416083333333,0,0xBC13,
0.310431916666667,0,0xB2D6,
0.310439833333333,0,0xBD13,
0.310455708333333,0,0xB21A,
0.310463625000000,0,0xBE13,
0.310479500000000,0,0xB219,
0.310487416666667,0,0xBF13,
0.310503250000000,0,0xB28C,
0.310511166666667,0,0xC013,
0.310541375000000,0,0x000A,
0.310549041666667,0,0x4115,
0.310565166666667,0,0xC0C2,
0.310573083333333,0,0xC113,
0.310588916666667,0,0xC0BA,
0.310596875000000,0,0xC213,
0.310612708333333,0,0xC0C5,
0.310620625000000,0,0xC313,
0.310636458333333,0,0xC0C0,
0.310644416666667,0,0xC413,
0.310660250000000,0,0xC0C1,
0.310668166666667,0,0xC513,
0.310684041666667,0,0xE047,
0.310691958333333,0,0xC613,
0.310707791666667,0,0x8000,
0.310715708333333,0,0xC713,
0.310731583333333,0,0xA2FA,
0.310739500000000,0,0xC813,
0.310755333333333,0,0x9E38,
0.310763291666667,0,0xC913,
0.310779125000000,0,0x9E3B,
0.310787041666667,0,0xCA13,
0.310819291666667,0,0x0004,
0.310827000000000,0,0x0329,
0.310843333333333,0,0x0A01,
0.310851208333333,0,0x8329,
0.310866958333333,0,0x0F00,
0.310874791666667,0,0x8429,
0.310890500000000,0,0x0000,
0.310898375000000,0,0x8523,
0.310914083333333,0,0x373F,
0.310921958333333,0,0x8629,
0.310952833333333,0,0x0001,
0.310960500000000,0,0x1D2D,
0.310976500000000,0,0x0055,
0.310984375000000,0,0x9D2D,
0.311012541666667,0,0x0003,
0.311020208333333,0,0x2421,
0.311036458333333,0,0x004C,
0.311044333333333,0,0xA423,
0.311060041666667,0,0x0040,
0.311067916666667,0,0xA523,
0.311083666666667,0,0x0000,
0.311091500000000,0,0xA623,
0.311120458333333,0,0x0005,
0.311128125000000,0,0x2D25,
0.311144583333333,0,0x13B8,
0.311152458333333,0,0xAD23,
0.311168166666667,0,0xFFFF,
0.311176041666667,0,0xAE23,
0.311191791666667,0,0xE832,
0.311199625000000,0,0xAF23,
0.311215375000000,0,0x8000,
0.311223208333333,0,0xB023,
0.311238958333333,0,0x8303,
0.311246833333333,0,0xB123,
0.311277250000000,0,0x0006,
0.311284958333333,0,0x3B29,
0.311300875000000,0,0xE55E,
0.311308750000000,0,0xBB23,
0.311324458333333,0,0x8000,
0.311332333333333,0,0xBC23,
0.311348041666667,0,0x8000,
0.311355916666667,0,0xBD23,
0.311371625000000,0,0x8002,
0.311379500000000,0,0xBE23,
0.311395208333333,0,0xE5FA,
0.311403083333333,0,0xBF23,
0.311418791666667,0,0xE610,
0.311426666666667,0,0xC023,
0.311457166666667,0,0x000A,
0.311464833333333,0,0x412D,
0.311481208333333,0,0xDEE9,
0.311489083333333,0,0xC123,
0.311504791666667,0,0xDFEF,
0.311512666666667,0,0xC223,
0.311528375000000,0,0xE00B,
0.311536208333333,0,0xC323,
0.311551958333333,0,0xE14A,
0.311559791666667,0,0xC423,
0.311575541666667,0,0xA995,
0.311583416666667,0,0xC523,
0.311599125000000,0,0xFF51,
0.311606958333333,0,0xC623,
0.311622708333333,0,0xC00E,
0.311630583333333,0,0xC723,
0.311646291666667,0,0xA2DC,
0.311654166666667,0,0xC823,
0.311669875000000,0,0x9E3E,
0.311677750000000,0,0xC923,
0.311693458333333,0,0x9E3D,
0.311701333333333,0,0xCA23,
0.319308750000000,0,0x4C3F,
0.319316458333333,0,0x0603,
0.319344041666667,0,0x0004,
0.319351708333333,0,0x0315,
0.319367666666667,0,0x0A01,
0.319375625000000,0,0x8315,
0.319391458333333,0,0x0F00,
0.319399375000000,0,0x8415,
0.319415250000000,0,0x0000,
0.319423166666667,0,0x8514,
0.319439000000000,0,0x4F3F,
0.319446916666667,0,0x8615,
0.319477750000000,0,0x0004,
0.319485416666667,0,0x0319,
0.319501416666667,0,0x0A01,
0.319509375000000,0,0x8319,
0.319525208333333,0,0x0F00,
0.319533125000000,0,0x8419,
0.319549000000000,0,0x0000,
0.319556916666667,0,0x8514,
0.319572791666667,0,0x4F3F,
0.319580708333333,0,0x8619,
0.319611791666667,0,0x0004,
0.319619458333333,0,0x031D,
0.319635666666667,0,0x0A01,
0.319643583333333,0,0x831D,
0.319659458333333,0,0x0F00,
0.319667375000000,0,0x841D,
0.319683208333333,0,0x0000,
0.319691166666667,0,0x8514,
0.319707000000000,0,0x4F3F,
0.319714916666667,0,0x861D,
0.319745208333333,0,0x0004,
0.319752875000000,0,0x0311,
0.319768916666667,0,0x0A01,
0.319776833333333,0,0x8311,
0.319792666666667,0,0x0F00,
0.319800583333333,0,0x8411,
0.319816416666667,0,0x0000,
0.319824375000000,0,0x8514,
0.319840208333333,0,0x4F3F,
0.319848125000000,0,0x8611,
0.319879166666667,0,0x0004,
0.319886833333333,0,0x0315,
0.319903083333333,0,0x0A01,
0.319911041666667,0,0x8315,
0.319926875000000,0,0x0F00,
0.319934791666667,0,0x8415,
0.319950666666667,0,0x0000,
0.319958583333333,0,0x8514,
0.319974416666667,0,0x473F,
0.319982333333333,0,0x8615,
0.320013083333333,0,0x0001,
0.320020791666667,0,0x1D19,
0.320036833333333,0,0x1551,
0.320044750000000,0,0x9D19,
0.320072958333333,0,0x0003,
0.320080666666667,0,0x241D,
0.320096750000000,0,0x0048,
0.320104666666667,0,0xA414,
0.320120500000000,0,0x0040,
0.320128416666667,0,0xA514,
0.320144291666667,0,0x0000,
0.320152208333333,0,0xA614,
0.320180875000000,0,0x0005,
0.320188541666667,0,0x2D11,
0.320204666666667,0,0x1481,
0.320212583333333,0,0xAD14,
0.320228416666667,0,0xFFFF,
0.320236375000000,0,0xAE14,
0.320252208333333,0,0xC0D1,
0.320260125000000,0,0xAF14,
0.320275958333333,0,0x8000,
0.320283916666667,0,0xB014,
0.320299750000000,0,0x8306,
0.320307666666667,0,0xB114,
0.320337416666667,0,0x0006,
0.320345083333333,0,0x3B15,
0.320361125000000,0,0xB3F7,
0.320369041666667,0,0xBB14,
0.320384916666667,0,0xB34A,
0.320392833333333,0,0xBC14,
0.320408666666667,0,0xB2D7,
0.320416583333333,0,0xBD14,
0.320432416666667,0,0xB216,
0.320440375000000,0,0xBE14,
0.320456208333333,0,0xB21E,
0.320464125000000,0,0xBF14,
0.320479958333333,0,0xB28F,
0.320487916666667,0,0xC014,
0.320517750000000,0,0x000A,
0.320525416666667,0,0x4119,
0.320541875000000,0,0xC0C1,
0.320549791666667,0,0xC114,
0.320565625000000,0,0xC0BF,
0.320573583333333,0,0xC214,
0.320589416666667,0,0xC0C0,
0.320597333333333,0,0xC314,
0.320613166666667,0,0xC0C2,
0.320621083333333,0,0xC414,
0.320636958333333,0,0xC0BE,
0.320644875000000,0,0xC514,
0.320660750000000,0,0xE049,
0.320668666666667,0,0xC614,
0.320684500000000,0,0x8000,
0.320692458333333,0,0xC714,
0.320708291666667,0,0xA2FA,
0.320716250000000,0,0xC814,
0.320732083333333,0,0x9E38,
0.320740000000000,0,0xC914,
0.320755875000000,0,0x9E3B,
0.320763791666667,0,0xCA14,
0.320797208333333,0,0x0004,
0.320804916666667,0,0x032D,
0.320820875000000,0,0x0A01,
0.320828750000000,0,0x832D,
0.320844458333333,0,0x0F00,
0.320852333333333,0,0x842D,
0.320868041666667,0,0x0000,
0.320875916666667,0,0x8524,
0.320891625000000,0,0x473F,
0.320899500000000,0,0x862D,
0.320929583333333,0,0x0001,
0.320937250000000,0,0x1D21,
0.320953541666667,0,0x0055,
0.320961416666667,0,0x9D21,
0.320989250000000,0,0x0003,
0.320996916666667,0,0x2425,
0.321013041666667,0,0x004C,
0.321020875000000,0,0xA424,
0.321036583333333,0,0x0040,
0.321044458333333,0,0xA524,
0.321060166666667,0,0x0000,
0.321068041666667,0,0xA624,
0.321096791666667,0,0x0005,
0.321104458333333,0,0x2D29,
0.321120666666667,0,0x14C3,
0.321128500000000,0,0xAD24,
0.321144208333333,0,0xFFFF,
0.321152083333333,0,0xAE24,
0.321167791666667,0,0xE7BC,
0.321175666666667,0,0xAF24,
0.321191375000000,0,0x8000,
0.321199250000000,0,0xB024,
0.321214958333333,0,0x8305,
0.321222833333333,0,0xB124,
0.321253708333333,0,0x0006,
0.321261375000000,0,0x3B2D,
0.321277375000000,0,0xE55E,
0.321285250000000,0,0xBB24,
0.321300958333333,0,0x8000,
0.321308833333333,0,0xBC24,
0.321324541666667,0,0x8000,
0.321332416666667,0,0xBD24,
0.321348125000000,0,0x8001,
0.321356000000000,0,0xBE24,
0.321371708333333,0,0xE5FC,
0.321379583333333,0,0xBF24,
0.321395333333333,0,0xE612,
0.321403166666667,0,0xC024,
0.321433875000000,0,0x000A,
0.321441541666667,0,0x4121,
0.321457708333333,0,0xDEE7,
0.321465583333333,0,0xC124,
0.321481333333333,0,0xDFF6,
0.321489166666667,0,0xC224,
0.321504875000000,0,0xE00A,
0.321512750000000,0,0xC324,
0.321528500000000,0,0xE14A,
0.321536333333333,0,0xC424,
0.321552083333333,0,0xA994,
0.321559916666667,0,0xC524,
0.321575625000000,0,0xFF51,
0.321583500000000,0,0xC624,
0.321599208333333,0,0xC00F,
0.321607083333333,0,0xC724,
0.321622833333333,0,0xA2DB,
0.321630666666667,0,0xC824,
0.321646416666667,0,0x9E3C,
0.321654250000000,0,0xC924,
0.321670000000000,0,0x9E40,
0.321677875000000,0,0xCA24,
0.329313375000000,0,0x5C3F,
0.329321041666667,0,0x0607,
0.329348750000000,0,0x0004,
0.329356458333333,0,0x0319,
0.329372708333333,0,0x0A01,
0.329380625000000,0,0x8319,
0.329396458333333,0,0x0F00,
0.329404375000000,0,0x8419,
0.329420291666667,0,0x0000,
0.329428208333333,0,0x8515,
0.329444083333333,0,0x5F3F,
0.329452000000000,0,0x8619,
0.329482625000000,0,0x0004,
0.329490333333333,0,0x031D,
0.329506500000000,0,0x0A01,
0.329514458333333,0,0x831D,
0.329530291666667,0,0x0F00,
0.329538250000000,0,0x841D,
0.329554083333333,0,0x0000,
0.329562000000000,0,0x8515,
0.329577875000000,0,0x5F3F,
0.329585791666667,0,0x861D,
0.329617416666667,0,0x0004,
0.329625125000000,0,0x0311,
0.329641291666667,0,0x0A01,
0.329649250000000,0,0x8311,
0.329665125000000,0,0x0F00,
0.329673041666667,0,0x8411,
0.329688875000000,0,0x0000,
0.329696833333333,0,0x8515,
0.329712708333333,0,0x5F3F,
0.329720625000000,0,0x8611,
0.329751125000000,0,0x0004,
0.329758791666667,0,0x0315,
0.329775125000000,0,0x0A01,
0.329783083333333,0,0x8315,
0.329798916666667,0,0x0F00,
0.329806833333333,0,0x8415,
0.329822708333333,0,0x0000,
0.329830625000000,0,0x8515,
0.329846500000000,0,0x5F3F,
0.329854416666667,0,0x8615,
0.329885083333333,0,0x0004,
0.329892750000000,0,0x0319,
0.329908916666667,0,0x0A01,
0.329916833333333,0,0x8319,
0.329932666666667,0,0x0F00,
0.329940583333333,0,0x8419,
0.329956458333333,0,0x0000,
0.329964375000000,0,0x8515,
0.329980208333333,0,0x573F,
0.329988166666667,0,0x8619,
0.330019708333333,0,0x0001,
0.330027375000000,0,0x1D1D,
0.330043625000000,0,0x1551,
0.330051583333333,0,0x9D1D,
0.330079666666667,0,0x0003,
0.330087375000000,0,0x2411,
0.330103541666667,0,0x0048,
0.330111500000000,0,0xA415,
0.330127333333333,0,0x0040,
0.330135250000000,0,0xA515,
0.330151125000000,0,0x0000,
0.330159041666667,0,0xA615,
0.330188041666667,0,0x0005,
0.330195708333333,0,0x2D15,
0.330212041666667,0,0x158B,
0.330219958333333,0,0xAD15,
0.330235791666667,0,0xFFFF,
0.330243708333333,0,0xAE15,
0.330259583333333,0,0xBEFD,
0.330267500000000,0,0xAF15,
0.330283375000000,0,0xFFFF,
0.330291291666667,0,0xB015,
0.330307166666667,0,0x830E,
0.330315083333333,0,0xB115,
0.330345541666667,0,0x0006,
0.330353208333333,0,0x3B19,
0.330369541666667,0,0xB3F5,
0.330377500000000,0,0xBB15,
0.330393333333333,0,0xB349,
0.330401250000000,0,0xBC15,
0.330417125000000,0,0xB2D7,
0.330425041666667,0,0xBD15,
0.330440916666667,0,0xB21E,
0.330448833333333,0,0xBE15,
0.330464666666667,0,0xB21C,
0.330472625000000,0,0xBF15,
0.330488458333333,0,0xB290,
0.330496375000000,0,0xC015,
0.330526125000000,0,0x000A,
0.330533833333333,0,0x411D,
0.330549875000000,0,0xC0C2,
0.330557791666667,0,0xC115,
0.330573625000000,0,0xC0BD,
0.330581541666667,0,0xC215,
0.330597416666667,0,0xC0C4,
0.330605333333333,0,0xC315,
0.330621208333333,0,0xC0C5,
0.330629125000000,0,0xC415,
0.330645000000000,0,0xC0C5,
0.330652916666667,0,0xC515,
0.330668750000000,0,0xE04D,
0.330676708333333,0,0xC615,
0.330692541666667,0,0x8000,
0.330700458333333,0,0xC715,
0.330716291666667,0,0xA2FA,
0.330724208333333,0,0xC815,
0.330740083333333,0,0x9E3B,
0.330748000000000,0,0xC915,
0.330763833333333,0,0x9E40,
0.330771791666667,0,0xCA15,
0.330804166666667,0,0x0004,
0.330811833333333,0,0x0321,
0.330828083333333,0,0x0A01,
0.330835958333333,0,0x8321,
0.330851666666667,0,0x0F00,
0.330859541666667,0,0x8421,
0.330875250000000,0,0x0000,
0.330883125000000,0,0x8525,
0.330898875000000,0,0x573F,
0.330906708333333,0,0x8621,
0.330937708333333,0,0x0001,
0.330945375000000,0,0x1D25,
0.330961750000000,0,0x0055,
0.330969625000000,0,0x9D25,
0.330997666666667,0,0x0003,
0.331005375000000,0,0x2429,
0.331021708333333,0,0x004C,
0.331029541666667,0,0xA425,
0.331045291666667,0,0x0040,
0.331053166666667,0,0xA525,
0.331068875000000,0,0x0000,
0.331076750000000,0,0xA625,
0.331105750000000,0,0x0005,
0.331113416666667,0,0x2D2D,
0.331129833333333,0,0x15CF,
0.331137666666667,0,0xAD25,
0.331153375000000,0,0xFFFF,
0.331161250000000,0,0xAE25,
0.331177000000000,0,0xE719,
0.331184875000000,0,0xAF25,
0.331200583333333,0,0xFFFF,
0.331208416666667,0,0xB025,
0.331224166666667,0,0x8309,
0.331232000000000,0,0xB125,
0.331263041666667,0,0x0006,
0.331270750000000,0,0x3B21,
0.331287041666667,0,0xE561,
0.331294916666667,0,0xBB25,
0.331310625000000,0,0x8004,
0.331318500000000,0,0xBC25,
0.331334208333333,0,0x8001,
0.331342083333333,0,0xBD25,
0.331357791666667,0,0x8000,
0.331365666666667,0,0xBE25,
0.331381375000000,0,0xE5FF,
0.331389250000000,0,0xBF25,
0.331404958333333,0,0xE613,
0.331412833333333,0,0xC025,
0.331443166666667,0,0x000A,
0.331450875000000,0,0x4125,
0.331466916666667,0,0xDEE6,
0.331474750000000,0,0xC125,
0.331490500000000,0,0xDFF2,
0.331498375000000,0,0xC225,
0.331514083333333,0,0xE00A,
0.331521916666667,0,0xC325,
0.331537666666667,0,0xE149,
0.331545541666667,0,0xC425,
0.331561250000000,0,0xA993,
0.331569125000000,0,0xC525,
0.331584833333333,0,0xFF4C,
0.331592708333333,0,0xC625,
0.331608416666667,0,0xC010,
0.331616291666667,0,0xC725,
0.331632041666667,0,0xA2DA,
0.331639916666667,0,0xC825,
0.331655625000000,0,0x9E3A,
0.331663500000000,0,0xC925,
0.331679208333333,0,0x9E43,
0.331687041666667,0,0xCA25,
0.339330041666667,0,0x6C3F,
0.339337708333333,0,0x060B,
0.339365041666667,0,0x0004,
0.339372708333333,0,0x031D,
0.339388958333333,0,0x0A01,
0.339396875000000,0,0x831D,
0.339412750000000,0,0x0F00,
0.339420666666667,0,0x841D,
0.339436541666667,0,0x0000,
0.339444458333333,0,0x8516,
0.339460333333333,0,0x6F3F,
0.339468250000000,0,0x861D,
0.339499291666667,0,0x0004,
0.339506958333333,0,0x0311,
0.339523250000000,0,0x0A01,
0.339531166666667,0,0x8311,
0.339547000000000,0,0x0F00,
0.339554958333333,0,0x8411,
0.339570791666667,0,0x0000,
0.339578750000000,0,0x8516,
0.339594583333333,0,0x6F3F,
0.339602541666667,0,0x8611,
0.339632708333333,0,0x0004,
0.339640375000000,0,0x0315,
0.339656541666667,0,0x0A01,
0.339664458333333,0,0x8315,
0.339680291666667,0,0x0F00,
0.339688250000000,0,0x8415,
0.339704083333333,0,0x0000,
0.339712000000000,0,0x8516,
0.339727875000000,0,0x6F3F,
0.339735791666667,0,0x8615,
0.339766666666667,0,0x0004,
0.339774333333333,0,0x0319,
0.339790791666667,0,0x0A01,
0.339798708333333,0,0x8319,
0.339814541666667,0,0x0F00,
0.339822500000000,0,0x8419,
0.339838333333333,0,0x0000,
0.339846291666667,0,0x8516,
0.339862166666667,0,0x6F3F,
0.339870083333333,0,0x8619,
0.339900750000000,0,0x0004,
0.339908458333333,0,0x031D,
0.339924541666667,0,0x0A01,
0.339932500000000,0,0x831D,
0.339948333333333,0,0x0F00,
0.339956250000000,0,0x841D,
0.339972125000000,0,0x0000,
0.339980041666667,0,0x8516,
0.339995875000000,0,0x673F,
0.340003791666667,0,0x861D,
0.340034333333333,0,0x0001,
0.340042000000000,0,0x1D11,
0.340058291666667,0,0x1551,
0.340066208333333,0,0x9D11,
0.340094000000000,0,0x0003,
0.340101708333333,0,0x2415,
0.340117708333333,0,0x0048,
0.340125666666667,0,0xA416,
0.340141500000000,0,0x0040,
0.340149458333333,0,0xA516,
0.340165291666667,0,0x0000,
0.340173208333333,0,0xA616,
0.340202750000000,0,0x0005,
0.340210416666667,0,0x2D19,
0.340226666666667,0,0x1695,
0.340234625000000,0,0xAD16,
0.340250458333333,0,0xFFFF,
0.340258375000000,0,0xAE16,
0.340274208333333,0,0xBD93,
0.340282166666667,0,0xAF16,
0.340298000000000,0,0x8000,
0.340305916666667,0,0xB016,
0.340321750000000,0,0x8301,
0.340329708333333,0,0xB116,
0.340360166666667,0,0x0006,
0.340367875000000,0,0x3B1D,
0.340384166666667,0,0xB3F6,
0.340392125000000,0,0xBB16,
0.340407958333333,0,0xB348,
0.340415875000000,0,0xBC16,
0.340431750000000,0,0xB2D5,
0.340439666666667,0,0xBD16,
0.340455500000000,0,0xB21B,
0.340463458333333,0,0xBE16,
0.340479291666667,0,0xB21A,
0.340487208333333,0,0xBF16,
0.340503083333333,0,0xB28E,
0.340511000000000,0,0xC016,
0.340541125000000,0,0x000A,
0.340548791666667,0,0x4111,
0.340565000000000,0,0xC0C2,
0.340572916666667,0,0xC116,
0.340588791666667,0,0xC0BB,
0.340596708333333,0,0xC216,
0.340612541666667,0,0xC0C2,
0.340620500000000,0,0xC316,
0.340636333333333,0,0xC0C2,
0.340644250000000,0,0xC416,
0.340660125000000,0,0xC0C3,
0.340668041666667,0,0xC516,
0.340683916666667,0,0xE048,
0.340691833333333,0,0xC616,
0.340707708333333,0,0x8000,
0.340715625000000,0,0xC716,
0.340731500000000,0,0xA2FB,
0.340739416666667,0,0xC816,
0.340755291666667,0,0x9E37,
0.340763208333333,0,0xC916,
0.340779041666667,0,0x9E3D,
0.340787000000000,0,0xCA16,
0.340819166666667,0,0x0004,
0.340826875000000,0,0x0325,
0.340843083333333,0,0x0A01,
0.340850958333333,0,0x8325,
0.340866666666667,0,0x0F00,
0.340874541666667,0,0x8425,
0.340890250000000,0,0x0000,
0.340898125000000,0,0x8526,
0.340913833333333,0,0x673F,
0.340921708333333,0,0x8625,
0.340951958333333,0,0x0001,
0.340959666666667,0,0x1D29,
0.340975750000000,0,0x0055,
0.340983625000000,0,0x9D29,
0.341012208333333,0,0x0003,
0.341019875000000,0,0x242D,
0.341036166666667,0,0x004C,
0.341044041666667,0,0xA426,
0.341059791666667,0,0x0040,
0.341067666666667,0,0xA526,
0.341083375000000,0,0x0000,
0.341091250000000,0,0xA626,
0.341120291666667,0,0x0005,
0.341127958333333,0,0x2D21,
0.341144333333333,0,0x16DB,
0.341152166666667,0,0xAD26,
0.341167916666667,0,0xFFFF,
0.341175750000000,0,0xAE26,
0.341191458333333,0,0xE663,
0.341199333333333,0,0xAF26,
0.341215083333333,0,0x8000,
0.341222916666667,0,0xB026,
0.341238666666667,0,0x8300,
0.341246500000000,0,0xB126,
0.341276791666667,0,0x0006,
0.341284458333333,0,0x3B25,
0.341300583333333,0,0xE560,
0.341308458333333,0,0xBB26,
0.341324166666667,0,0x8001,
0.341332041666667,0,0xBC26,
0.341347750000000,0,0x8000,
0.341355625000000,0,0xBD26,
0.341371375000000,0,0x8002,
0.341379250000000,0,0xBE26,
0.341394958333333,0,0xE5FF,
0.341402791666667,0,0xBF26,
0.341418541666667,0,0xE616,
0.341426375000000,0,0xC026,
0.341456083333333,0,0x000A,
0.341463750000000,0,0x4129,
0.341479958333333,0,0xDEEC,
0.341487833333333,0,0xC126,
0.341503541666667,0,0xDFF5,
0.341511416666667,0,0xC226,
0.341527125000000,0,0xE009,
0.341535000000000,0,0xC326,
0.341550708333333,0,0xE14C,
0.341558583333333,0,0xC426,
0.341574291666667,0,0xA994,
0.341582166666667,0,0xC526,
0.341597875000000,0,0xFF4B,
0.341605750000000,0,0xC626,
0.341621458333333,0,0xC00D,
0.341629333333333,0,0xC726,
0.341645041666667,0,0xA2DC,
0.341652916666667,0,0xC826,
0.341668625000000,0,0x9E37,
0.341676500000000,0,0xC926,
0.341692250000000,0,0x9E44,
0.341700083333333,0,0xCA26,
0.349313958333333,0,0x7C3F,
0.349321625000000,0,0x060F,
0.349348625000000,0,0x0004,
0.349356333333333,0,0x0311,
0.349372666666667,0,0x0A01,
0.349380583333333,0,0x8311,
0.349396458333333,0,0x0F00,
0.349404375000000,0,0x8411,
0.349420250000000,0,0x0000,
0.349428166666667,0,0x8517,
0.349444041666667,0,0x7F3F,
0.349451958333333,0,0x8611,
0.349483250000000,0,0x0004,
0.349490916666667,0,0x0315,
0.349506958333333,0,0x0A01,
0.349514875000000,0,0x8315,
0.349530750000000,0,0x0F00,
0.349538666666667,0,0x8415,
0.349554500000000,0,0x0000,
0.349562458333333,0,0x8517,
0.349578291666667,0,0x7F3F,
0.349586208333333,0,0x8615,
0.349617000000000,0,0x0004,
0.349624666666667,0,0x0319,
0.349640708333333,0,0x0A01,
0.349648666666667,0,0x8319,
0.349664541666667,0,0x0F00,
0.349672458333333,0,0x8419,
0.349688291666667,0,0x0000,
0.349696250000000,0,0x8517,
0.349712083333333,0,0x7F3F,
0.349720041666667,0,0x8619,
0.349750208333333,0,0x0004,
0.349757916666667,0,0x031D,
0.349774041666667,0,0x0A01,
0.349781958333333,0,0x831D,
0.349797833333333,0,0x0F00,
0.349805750000000,0,0x841D,
0.349821583333333,0,0x0000,
0.349829541666667,0,0x8517,
0.349845375000000,0,0x7F3F,
0.349853291666667,0,0x861D,
0.349884375000000,0,0x0004,
0.349892041666667,0,0x0311,
0.349908291666667,0,0x0A01,
0.349916208333333,0,0x8311,
0.349932041666667,0,0x0F00,
0.349940000000000,0,0x8411,
0.349955833333333,0,0x0000,
0.349963750000000,0,0x8517,
0.349979625000000,0,0x773F,
0.349987541666667,0,0x8611,
0.350018083333333,0,0x0001,
0.350025791666667,0,0x1D15,
0.350042041666667,0,0x1551,
0.350049958333333,0,0x9D15,
0.350078166666667,0,0x0003,
0.350085833333333,0,0x2419,
0.350101958333333,0,0x0048,
0.350109916666667,0,0xA417,
0.350125750000000,0,0x0040,
0.350133666666667,0,0xA517,
0.350149541666667,0,0x0000,
0.350157458333333,0,0xA617,
0.350186958333333,0,0x0005,
0.350194666666667,0,0x2D1D,
0.350210958333333,0,0x179E,
0.350218875000000,0,0xAD17,
0.350234750000000,0,0xFFFF,
0.350242625000000,0,0xAE17,
0.350258500000000,0,0xBB44,
0.350266416666667,0,0xAF17,
0.350282291666667,0,0xFFFF,
0.350290208333333,0,0xB017,
0.350306041666667,0,0x8305,
0.350314000000000,0,0xB117,
0.350344583333333,0,0x0006,
0.350352250000000,0,0x3B11,
0.350368416666667,0,0xB3F7,
0.350376375000000,0,0xBB17,
0.350392208333333,0,0xB347,
0.350400125000000,0,0xBC17,
0.350416000000000,0,0xB2DB,
0.350423916666667,0,0xBD17,
0.350439750000000,0,0xB21A,
0.350447708333333,0,0xBE17,
0.350463541666667,0,0xB219,
0.350471458333333,0,0xBF17,
0.350487333333333,0,0xB28E,
0.350495250000000,0,0xC017,
0.350525833333333,0,0x000A,
0.350533500000000,0,0x4115,
0.350549750000000,0,0xC0C3,
0.350557666666667,0,0xC117,
0.350573541666667,0,0xC0BE,
0.350581458333333,0,0xC217,
0.350597291666667,0,0xC0C4,
0.350605250000000,0,0xC317,
0.350621083333333,0,0xC0C5,
0.350629000000000,0,0xC417,
0.350644875000000,0,0xC0C6,
0.350652791666667,0,0xC517,
0.350668625000000,0,0xE04A,
0.350676541666667,0,0xC617,
0.350692416666667,0,0x8002,
0.350700333333333,0,0xC717,
0.350716208333333,0,0xA2FB,
0.350724083333333,0,0xC817,
0.350739958333333,0,0x9E3A,
0.350747875000000,0,0xC917,
0.350763750000000,0,0x9E3B,
0.350771666666667,0,0xCA17,
0.350804125000000,0,0x0004,
0.350811791666667,0,0x0329,
0.350827833333333,0,0x0A01,
0.350835708333333,0,0x8329,
0.350851416666667,0,0x0F00,
0.350859291666667,0,0x8429,
0.350875041666667,0,0x0000,
0.350882875000000,0,0x8527,
0.350898625000000,0,0x773F,
0.350906458333333,0,0x8629,
0.350936583333333,0,0x0001,
0.350944250000000,0,0x1D2D,
0.350960541666667,0,0x0055,
0.350968416666667,0,0x9D2D,
0.350996666666667,0,0x0003,
0.351004375000000,0,0x2421,
0.351020500000000,0,0x004C,
0.351028375000000,0,0xA427,
0.351044083333333,0,0x0040,
0.351051958333333,0,0xA527,
0.351067666666667,0,0x0000,
0.351075541666667,0,0xA627,
0.351104500000000,0,0x0005,
0.351112208333333,0,0x2D25,
0.351128625000000,0,0x17E7,
0.351136458333333,0,0xAD27,
0.351152208333333,0,0xFFFF,
0.351160083333333,0,0xAE27,
0.351175791666667,0,0xE52F,
0.351183666666667,0,0xAF27,
0.351199375000000,0,0x8000,
0.351207250000000,0,0xB027,
0.351222958333333,0,0x8305,
0.351230833333333,0,0xB127,
0.351262083333333,0,0x0006,
0.351269791666667,0,0x3B29,
0.351285875000000,0,0xE55B,
0.351293708333333,0,0xBB27,
0.351309458333333,0,0x8003,
0.351317333333333,0,0xBC27,
0.351333041666667,0,0x8005,
0.351340916666667,0,0xBD27,
0.351356625000000,0,0x8003,
0.351364500000000,0,0xBE27,
0.351380208333333,0,0xE5F7,
0.351388083333333,0,0xBF27,
0.351403833333333,0,0xE60E,
0.351411666666667,0,0xC027,
0.351442333333333,0,0x000A,
0.351450041666667,0,0x412D,
0.351466208333333,0,0xDEEF,
0.351474083333333,0,0xC127,
0.351489791666667,0,0xDFF7,
0.351497666666667,0,0xC227,
0.351513375000000,0,0xE00E,
0.351521250000000,0,0xC327,
0.351536958333333,0,0xE150,
0.351544833333333,0,0xC427,
0.351560541666667,0,0xA991,
0.351568416666667,0,0xC527,
0.351584166666667,0,0xFF50,
0.351592000000000,0,0xC627,
0.351607708333333,0,0xC011,
0.351615583333333,0,0xC727,
0.351631291666667,0,0xA2DD,
0.351639166666667,0,0xC827,
0.351654916666667,0,0x9E3F,
0.351662750000000,0,0xC927,
0.351678500000000,0,0x9E41,
0.351686333333333,0,0xCA27,
0.359457750000000,0,0x8C3F,
0.359465416666667,0,0x0603,
0.359493041666667,0,0x0004,
0.359500708333333,0,0x0315,
0.359516875000000,0,0x0A01,
0.359524791666667,0,0x8315,
0.359540625000000,0,0x0F00,
0.359548541666667,0,0x8415,
0.359564416666667,0,0x0000,
0.359572333333333,0,0x8518,
0.359588208333333,0,0x8F3F,
0.359596125000000,0,0x8615,
0.359626958333333,0,0x0004,
0.359634666666667,0,0x0319,
0.359651125000000,0,0x0A01,
0.359659041666667,0,0x8319,
0.359674875000000,0,0x0F00,
0.359682833333333,0,0x8419,
0.359698666666667,0,0x0000,
0.359706583333333,0,0x8518,
0.359722458333333,0,0x8F3F,
0.359730375000000,0,0x8619,
0.359760958333333,0,0x0004,
0.359768625000000,0,0x031D,
0.359784875000000,0,0x0A01,
0.359792791666667,0,0x831D,
0.359808666666667,0,0x0F00,
0.359816583333333,0,0x841D,
0.359832458333333,0,0x0000,
0.359840375000000,0,0x8518,
0.359856250000000,0,0x8F3F,
0.359864166666667,0,0x861D,
0.359894916666667,0,0x0004,
0.359902583333333,0,0x0311,
0.359918666666667,0,0x0A01,
0.359926583333333,0,0x8311,
0.359942416666667,0,0x0F00,
0.359950375000000,0,0x8411,
0.359966208333333,0,0x0000,
0.359974166666667,0,0x8518,
0.359990000000000,0,0x8F3F,
0.359997916666667,0,0x8611,
0.360028458333333,0,0x0004,
0.360036125000000,0,0x0315,
0.360052416666667,0,0x0A01,
0.360060333333333,0,0x8315,
0.360076166666667,0,0x0F00,
0.360084083333333,0,0x8415,
0.360099958333333,0,0x0000,
0.360107875000000,0,0x8518,
0.360123708333333,0,0x873F,
0.360131625000000,0,0x8615,
0.360162166666667,0,0x0001,
0.360169833333333,0,0x1D19,
0.360186125000000,0,0x1551,
0.360194041666667,0,0x9D19,
0.360221791666667,0,0x0003,
0.360229500000000,0,0x241D,
0.360245541666667,0,0x0048,
0.360253500000000,0,0xA418,
0.360269333333333,0,0x0040,
0.360277250000000,0,0xA518,
0.360293125000000,0,0x0000,
0.360301041666667,0,0xA618,
0.360330125000000,0,0x0005,
0.360337833333333,0,0x2D11,
0.360354041666667,0,0x18AB,
0.360362000000000,0,0xAD18,
0.360377833333333,0,0xFFFF,
0.360385791666667,0,0xAE18,
0.360401625000000,0,0xB912,
0.360409541666667,0,0xAF18,
0.360425416666667,0,0xFFFF,
0.360433333333333,0,0xB018,
0.360449166666667,0,0x8309,
0.360457125000000,0,0xB118,
0.360487791666667,0,0x0006,
0.360495458333333,0,0x3B15,
0.360511583333333,0,0xB3FB,
0.360519500000000,0,0xBB18,
0.360535375000000,0,0xB349,
0.360543291666667,0,0xBC18,
0.360559125000000,0,0xB2DB,
0.360567041666667,0,0xBD18,
0.360582916666667,0,0xB21B,
0.360590833333333,0,0xBE18,
0.360606666666667,0,0xB21A,
0.360614583333333,0,0xBF18,
0.360630458333333,0,0xB289,
0.360638375000000,0,0xC018,
0.360669166666667,0,0x000A,
0.360676833333333,0,0x4119,
0.360692833333333,0,0xC0C4,
0.360700750000000,0,0xC118,
0.360716625000000,0,0xC0BC,
0.360724541666667,0,0xC218,
0.360740375000000,0,0xC0C1,
0.360748291666667,0,0xC318,
0.360764166666667,0,0xC0C3,
0.360772083333333,0,0xC418,
0.360787916666667,0,0xC0C6,
0.360795833333333,0,0xC518,
0.360811708333333,0,0xE04B,
0.360819625000000,0,0xC618,
0.360835458333333,0,0x8000,
0.360843375000000,0,0xC718,
0.360859250000000,0,0xA2FA,
0.360867166666667,0,0xC818,
0.360883000000000,0,0x9E3C,
0.360890958333333,0,0xC918,
0.360906791666667,0,0x9E3A,
0.360914708333333,0,0xCA18,
0.360947875000000,0,0x0004,
0.360955541666667,0,0x032D,
0.360971833333333,0,0x0A01,
0.360979708333333,0,0x832D,
0.360995416666667,0,0x0F00,
0.361003291666667,0,0x842D,
0.361019000000000,0,0x0000,
0.361026875000000,0,0x8528,
0.361042583333333,0,0x873F,
0.361050458333333,0,0x862D,
0.361081000000000,0,0x0001,
0.361088708333333,0,0x1D21,
0.361105000000000,0,0x0055,
0.361112875000000,0,0x9D21,
0.361141708333333,0,0x0003,
0.361149416666667,0,0x2425,
0.361165458333333,0,0x004C,
0.361173291666667,0,0xA428,
0.361189041666667,0,0x0040,
0.361196916666667,0,0xA528,
0.361212625000000,0,0x0000,
0.361220500000000,0,0xA628,
0.361249000000000,0,0x0005,
0.361256708333333,0,0x2D29,
0.361273083333333,0,0x18F6,
0.361280916666667,0,0xAD28,
0.361296666666667,0,0xFFFF,
0.361304500000000,0,0xAE28,
0.361320250000000,0,0xE503,
0.361328125000000,0,0xAF28,
0.361343833333333,0,0x8000,
0.361351708333333,0,0xB028,
0.361367416666667,0,0x8301,
0.361375291666667,0,0xB128,
0.361405083333333,0,0x0006,
0.361412791666667,0,0x3B2D,
0.361428833333333,0,0xE55C,
0.361436708333333,0,0xBB28,
0.361452416666667,0,0x8001,
0.361460291666667,0,0xBC28,
0.361476041666667,0,0x8001,
0.361483875000000,0,0xBD28,
0.361499583333333,0,0x8000,
0.361507458333333,0,0xBE28,
0.361523208333333,0,0xE5F4,
0.361531041666667,0,0xBF28,
0.361546791666667,0,0xE608,
0.361554666666667,0,0xC028,
0.361584541666667,0,0x000A,
0.361592208333333,0,0x4121,
0.361608208333333,0,0xDEED,
0.361616083333333,0,0xC128,
0.361631791666667,0,0xDFF9,
0.361639666666667,0,0xC228,
0.361655375000000,0,0xE00D,
0.361663250000000,0,0xC328,
0.361678958333333,0,0xE149,
0.361686833333333,0,0xC428,
0.361702541666667,0,0xA990,
0.361710416666667,0,0xC528,
0.361726125000000,0,0xFF50,
0.361734000000000,0,0xC628,
0.361749750000000,0,0xC015,
0.361757583333333,0,0xC728,
0.361773333333333,0,0xA2DB,
0.361781166666667,0,0xC828,
0.361796916666667,0,0x9E3B,
0.361804750000000,0,0xC928,
0.361820500000000,0,0x9E43,
0.361828333333333,0,0xCA28,
0.369327708333333,0,0x9C3F,
0.369335375000000,0,0x0607,
0.369362666666667,0,0x0004,
0.369370333333333,0,0x0319,
0.369386666666667,0,0x0A01,
0.369394583333333,0,0x8319,
0.369410416666667,0,0x0F00,
0.369418375000000,0,0x8419,
0.369434208333333,0,0x0000,
0.369442166666667,0,0x8519,
0.369458000000000,0,0x9F3F,
0.369465916666667,0,0x8619,
0.369496041666667,0,0x0004,
0.369503708333333,0,0x031D,
0.369519916666667,0,0x0A01,
0.369527875000000,0,0x831D,
0.369543708333333,0,0x0F00,
0.369551625000000,0,0x841D,
0.369567500000000,0,0x0000,
0.369575416666667,0,0x8519,
0.369591291666667,0,0x9F3F,
0.369599208333333,0,0x861D,
0.369630125000000,0,0x0004,
0.369637833333333,0,0x0311,
0.369654208333333,0,0x0A01,
0.369662125000000,0,0x8311,
0.369678000000000,0,0x0F00,
0.369685916666667,0,0x8411,
0.369701791666667,0,0x0000,
0.369709708333333,0,0x8519,
0.369725583333333,0,0x9F3F,
0.369733500000000,0,0x8611,
0.369764708333333,0,0x0004,
0.369772375000000,0,0x0315,
0.369788500000000,0,0x0A01,
0.369796458333333,0,0x8315,
0.369812291666667,0,0x0F00,
0.369820250000000,0,0x8415,
0.369836083333333,0,0x0000,
0.369844000000000,0,0x8519,
0.369859875000000,0,0x9F3F,
0.369867791666667,0,0x8615,
0.369898958333333,0,0x0004,
0.369906666666667,0,0x0319,
0.369922791666667,0,0x0A01,
0.369930708333333,0,0x8319,
0.369946583333333,0,0x0F00,
0.369954500000000,0,0x8419,
0.369970375000000,0,0x0000,
0.369978291666667,0,0x8519,
0.369994125000000,0,0x973F,
0.370002083333333,0,0x8619,
0.370033458333333,0,0x0001,
0.370041125000000,0,0x1D1D,
0.370057041666667,0,0x1551,
0.370065000000000,0,0x9D1D,
0.370093541666667,0,0x0003,
0.370101250000000,0,0x2411,
0.370117500000000,0,0x0048,
0.370125458333333,0,0xA419,
0.370141291666667,0,0x0040,
0.370149208333333,0,0xA519,
0.370165083333333,0,0x0000,
0.370173000000000,0,0xA619,
0.370202166666667,0,0x0005,
0.370209833333333,0,0x2D15,
0.370226000000000,0,0x19B2,
0.370233916666667,0,0xAD19,
0.370249750000000,0,0xFFFF,
0.370257708333333,0,0xAE19,
0.370273541666667,0,0xB65B,
0.370281458333333,0,0xAF19,
0.370297333333333,0,0xFFFF,
0.370305208333333,0,0xB019,
0.370321083333333,0,0x830E,
0.370329000000000,0,0xB119,
0.370359333333333,0,0x0006,
0.370367000000000,0,0x3B19,
0.370383000000000,0,0xB3F6,
0.370390916666667,0,0xBB19,
0.370406750000000,0,0xB346,
0.370414708333333,0,0xBC19,
0.370430541666667,0,0xB2D6,
0.370438458333333,0,0xBD19,
0.370454333333333,0,0xB217,
0.370462250000000,0,0xBE19,
0.370478083333333,0,0xB21B,
0.370486041666667,0,0xBF19,
0.370501875000000,0,0xB28D,
0.370509791666667,0,0xC019,
0.370540125000000,0,0x000A,
0.370547791666667,0,0x411D,
0.370563791666667,0,0xC0C6,
0.370571708333333,0,0xC119,
0.370587583333333,0,0xC0C0,
0.370595500000000,0,0xC219,
0.370611333333333,0,0xC0C2,
0.370619291666667,0,0xC319,
0.370635125000000,0,0xC0C5,
0.370643041666667,0,0xC419,
0.370658875000000,0,0xC0C5,
0.370666833333333,0,0xC519,
0.370682666666667,0,0xE04A,
0.370690583333333,0,0xC619,
0.370706458333333,0,0x8000,
0.370714375000000,0,0xC719,
0.370730208333333,0,0xA2FB,
0.370738166666667,0,0xC819,
0.370754000000000,0,0x9E3A,
0.370761916666667,0,0xC919,
0.370777791666667,0,0x9E3D,
0.370785708333333,0,0xCA19,
0.370817958333333,0,0x0004,
0.370825666666667,0,0x0321,
0.370842000000000,0,0x0A01,
0.370849833333333,0,0x8321,
0.370865583333333,0,0x0F00,
0.370873458333333,0,0x8421,
0.370889166666667,0,0x0000,
0.370897041666667,0,0x8529,
0.370912750000000,0,0x973F,
0.370920625000000,0,0x8621,
0.370950708333333,0,0x0001,
0.370958416666667,0,0x1D25,
0.370974666666667,0,0x0055,
0.370982541666667,0,0x9D25,
0.371010416666667,0,0x0003,
0.371018125000000,0,0x2429,
0.371034125000000,0,0x004C,
0.371042000000000,0,0xA429,
0.371057708333333,0,0x0040,
0.371065583333333,0,0xA529,
0.371081291666667,0,0x0000,
0.371089166666667,0,0xA629,
0.371117750000000,0,0x0005,
0.371125416666667,0,0x2D2D,
0.371141750000000,0,0x19FF,
0.371149625000000,0,0xAD29,
0.371165333333333,0,0xFFFF,
0.371173208333333,0,0xAE29,
0.371188958333333,0,0xE46F,
0.371196791666667,0,0xAF29,
0.371212500000000,0,0x8000,
0.371220375000000,0,0xB029,
0.371236083333333,0,0x8302,
0.371243958333333,0,0xB129,
0.371275416666667,0,0x0006,
0.371283083333333,0,0x3B21,
0.371299500000000,0,0xE553,
0.371307333333333,0,0xBB29,
0.371323083333333,0,0x8001,
0.371330958333333,0,0xBC29,
0.371346666666667,0,0x8000,
0.371354541666667,0,0xBD29,
0.371370250000000,0,0x8000,
0.371378125000000,0,0xBE29,
0.371393833333333,0,0xE5F2,
0.371401708333333,0,0xBF29,
0.371417458333333,0,0xE609,
0.371425291666667,0,0xC029,
0.371455083333333,0,0x000A,
0.371462750000000,0,0x4125,
0.371478875000000,0,0xDEF1,
0.371486708333333,0,0xC129,
0.371502458333333,0,0xDFF9,
0.371510333333333,0,0xC229,
0.371526041666667,0,0xE010,
0.371533916666667,0,0xC329,
0.371549625000000,0,0xE14A,
0.371557500000000,0,0xC429,
0.371573208333333,0,0xA992,
0.371581083333333,0,0xC529,
0.371596791666667,0,0xFF51,
0.371604666666667,0,0xC629,
0.371620375000000,0,0xC012,
0.371628250000000,0,0xC729,
0.371643958333333,0,0xA2DC,
0.371651833333333,0,0xC829,
0.371667541666667,0,0x9E3D,
0.371675416666667,0,0xC929,
0.371691125000000,0,0x9E40,
0.371699000000000,0,0xCA29,
0.379329041666667,0,0xAC3F,
0.379336708333333,0,0x060B,
0.379363875000000,0,0x0004,
0.379371583333333,0,0x031D,
0.379387750000000,0,0x0A01,
0.379395708333333,0,0x831D,
0.379411541666667,0,0x0F00,
0.379419458333333,0,0x841D,
0.379435333333333,0,0x0000,
0.379443250000000,0,0x851A,
0.379459125000000,0,0xAF3F,
0.379467083333333,0,0x861D,
0.379497250000000,0,0x0004,
0.379504916666667,0,0x0311,
0.379521083333333,0,0x0A01,
0.379529000000000,0,0x8311,
0.379544833333333,0,0x0F00,
0.379552791666667,0,0x8411,
0.379568625000000,0,0x0000,
0.379576541666667,0,0x851A,
0.379592416666667,0,0xAF3F,
0.379600333333333,0,0x8611,
0.379631875000000,0,0x0004,
0.379639541666667,0,0x0315,
0.379655833333333,0,0x0A01,
0.379663750000000,0,0x8315,
0.379679625000000,0,0x0F00,
0.379687541666667,0,0x8415,
0.379703416666667,0,0x0000,
0.379711333333333,0,0x851A,
0.379727208333333,0,0xAF3F,
0.379735125000000,0,0x8615,
0.379765708333333,0,0x0004,
0.379773375000000,0,0x0319,
0.379789666666667,0,0x0A01,
0.379797583333333,0,0x8319,
0.379813458333333,0,0x0F00,
0.379821375000000,0,0x8419,
0.379837208333333,0,0x0000,
0.379845166666667,0,0x851A,
0.379861000000000,0,0xAF3F,
0.379868916666667,0,0x8619,
0.379899791666667,0,0x0004,
0.379907500000000,0,0x031D,
0.379923916666667,0,0x0A01,
0.379931833333333,0,0x831D,
0.379947708333333,0,0x0F00,
0.379955625000000,0,0x841D,
0.379971500000000,0,0x0000,
0.379979416666667,0,0x851A,
0.379995291666667,0,0xA73F,
0.380003208333333,0,0x861D,
0.380034291666667,0,0x0001,
0.380042000000000,0,0x1D11,
0.380058166666667,0,0x1551,
0.380066125000000,0,0x9D11,
0.380093833333333,0,0x0003,
0.380101500000000,0,0x2415,
0.380117625000000,0,0x0048,
0.380125583333333,0,0xA41A,
0.380141416666667,0,0x0040,
0.380149333333333,0,0xA51A,
0.380165208333333,0,0x0000,
0.380173125000000,0,0xA61A,
0.380202791666667,0,0x0005,
0.380210458333333,0,0x2D19,
0.380226625000000,0,0x1ABB,
0.380234541666667,0,0xAD1A,
0.380250416666667,0,0xFFFF,
0.380258333333333,0,0xAE1A,
0.380274208333333,0,0xB487,
0.380282125000000,0,0xAF1A,
0.380297958333333,0,0x8000,
0.380305875000000,0,0xB01A,
0.380321750000000,0,0x8304,
0.380329666666667,0,0xB11A,
0.380359625000000,0,0x0006,
0.380367291666667,0,0x3B1D,
0.380383666666667,0,0xB3F1,
0.380391583333333,0,0xBB1A,
0.380407416666667,0,0xB345,
0.380415375000000,0,0xBC1A,
0.380431208333333,0,0xB2D6,
0.380439125000000,0,0xBD1A,
0.380455000000000,0,0xB21A,
0.380462916666667,0,0xBE1A,
0.380478750000000,0,0xB21A,
0.380486708333333,0,0xBF1A,
0.380502541666667,0,0xB28F,
0.380510458333333,0,0xC01A,
0.380541041666667,0,0x000A,
0.380548750000000,0,0x4111,
0.380564958333333,0,0xC0BF,
0.380572875000000,0,0xC11A,
0.380588708333333,0,0xC0BD,
0.380596666666667,0,0xC21A,
0.380612500000000,0,0xC0C1,
0.380620416666667,0,0xC31A,
0.380636291666667,0,0xC0C0,
0.380644208333333,0,0xC41A,
0.380660041666667,0,0xC0C2,
0.380667958333333,0,0xC51A,
0.380683833333333,0,0xE04C,
0.380691750000000,0,0xC61A,
0.380707583333333,0,0x8001,
0.380715500000000,0,0xC71A,
0.380731375000000,0,0xA2F8,
0.380739291666667,0,0xC81A,
0.380755166666667,0,0x9E39,
0.380763083333333,0,0xC91A,
0.380778916666667,0,0x9E39,
0.380786875000000,0,0xCA1A,
0.380819291666667,0,0x0004,
0.380826958333333,0,0x0325,
0.380843333333333,0,0x0A01,
0.380851208333333,0,0x8325,
0.380866958333333,0,0x0F00,
0.380874791666667,0,0x8425,
0.380890541666667,0,0x0000,
0.380898375000000,0,0x852A,
0.380914125000000,0,0xA73F,
0.380921958333333,0,0x8625,
0.380953708333333,0,0x0001,
0.380961416666667,0,0x1D29,
0.380977500000000,0,0x0055,
0.380985375000000,0,0x9D29,
0.381012583333333,0,0x0003,
0.381020250000000,0,0x242D,
0.381036458333333,0,0x004C,
0.381044333333333,0,0xA42A,
0.381060083333333,0,0x0040,
0.381067916666667,0,0xA52A,
0.381083666666667,0,0x0000,
0.381091500000000,0,0xA62A,
0.381120333333333,0,0x0005,
0.381128041666667,0,0x2D21,
0.381144125000000,0,0x1B0A,
0.381151958333333,0,0xAD2A,
0.381167708333333,0,0xFFFF,
0.381175583333333,0,0xAE2A,
0.381191291666667,0,0xE451,
0.381199166666667,0,0xAF2A,
0.381214875000000,0,0x8000,
0.381222750000000,0,0xB02A,
0.381238458333333,0,0x8302,
0.381246333333333,0,0xB12A,
0.381277250000000,0,0x0006,
0.381284916666667,0,0x3B25,
0.381300875000000,0,0xE550,
0.381308750000000,0,0xBB2A,
0.381324500000000,0,0x8000,
0.381332333333333,0,0xBC2A,
0.381348041666667,0,0x8000,
0.381355916666667,0,0xBD2A,
0.381371666666667,0,0x8002,
0.381379500000000,0,0xBE2A,
0.381395250000000,0,0xE5F6,
0.381403125000000,0,0xBF2A,
0.381418833333333,0,0xE609,
0.381426708333333,0,0xC02A,
0.381457208333333,0,0x000A,
0.381464875000000,0,0x4129,
0.381481250000000,0,0xDEEE,
0.381489125000000,0,0xC12A,
0.381504875000000,0,0xDFF9,
0.381512708333333,0,0xC22A,
0.381528416666667,0,0xE010,
0.381536291666667,0,0xC32A,
0.381552041666667,0,0xE148,
0.381559875000000,0,0xC42A,
0.381575625000000,0,0xA992,
0.381583458333333,0,0xC52A,
0.381599208333333,0,0xFF52,
0.381607083333333,0,0xC62A,
0.381622791666667,0,0xC014,
0.381630625000000,0,0xC72A,
0.381646375000000,0,0xA2DE,
0.381654250000000,0,0xC82A,
0.381669958333333,0,0x9E3E,
0.381677833333333,0,0xC92A,
0.381693541666667,0,0x9E43,
0.381701416666667,0,0xCA2A,
0.389308333333333,0,0xBC3F,
0.389316000000000,0,0x060F,
0.389343750000000,0,0x0004,
0.389351416666667,0,0x0311,
0.389367666666667,0,0x0A01,
0.389375625000000,0,0x8311,
0.389391458333333,0,0x0F00,
0.389399416666667,0,0x8411,
0.389415250000000,0,0x0000,
0.389423166666667,0,0x851B,
0.389439041666667,0,0xBF3F,
0.389446958333333,0,0x8611,
0.389478208333333,0,0x0004,
0.389485916666667,0,0x0315,
0.389501958333333,0,0x0A01,
0.389509875000000,0,0x8315,
0.389525750000000,0,0x0F00,
0.389533666666667,0,0x8415,
0.389549541666667,0,0x0000,
0.389557458333333,0,0x851B,
0.389573333333333,0,0xBF3F,
0.389581250000000,0,0x8615,
0.389612416666667,0,0x0004,
0.389620083333333,0,0x0319,
0.389636250000000,0,0x0A01,
0.389644166666667,0,0x8319,
0.389660000000000,0,0x0F00,
0.389667958333333,0,0x8419,
0.389683791666667,0,0x0000,
0.389691750000000,0,0x851B,
0.389707583333333,0,0xBF3F,
0.389715541666667,0,0x8619,
0.389745208333333,0,0x0004,
0.389752916666667,0,0x031D,
0.389769000000000,0,0x0A01,
0.389776958333333,0,0x831D,
0.389792833333333,0,0x0F00,
0.389800750000000,0,0x841D,
0.389816583333333,0,0x0000,
0.389824500000000,0,0x851B,
0.389840375000000,0,0xBF3F,
0.389848291666667,0,0x861D,
0.389878458333333,0,0x0004,
0.389886166666667,0,0x0311,
0.389902291666667,0,0x0A01,
0.389910208333333,0,0x8311,
0.389926083333333,0,0x0F00,
0.389933958333333,0,0x8411,
0.389949833333333,0,0x0000,
0.389957750000000,0,0x851B,
0.389973625000000,0,0xB73F,
0.389981541666667,0,0x8611,
0.390012375000000,0,0x0001,
0.390020083333333,0,0x1D15,
0.390036500000000,0,0x1551,
0.390044458333333,0,0x9D15,
0.390072500000000,0,0x0003,
0.390080166666667,0,0x2419,
0.390096416666667,0,0x0048,
0.390104375000000,0,0xA41B,
0.390120208333333,0,0x0040,
0.390128166666667,0,0xA51B,
0.390144000000000,0,0x0000,
0.390151916666667,0,0xA61B,
0.390180916666667,0,0x0005,
0.390188625000000,0,0x2D1D,
0.390204916666667,0,0x1BC5,
0.390212875000000,0,0xAD1B,
0.390228708333333,0,0xFFFF,
0.390236625000000,0,0xAE1B,
0.390252458333333,0,0xB1F5,
0.390260416666667,0,0xAF1B,
0.390276250000000,0,0xFFFF,
0.390284166666667,0,0xB01B,
0.390300041666667,0,0x830D,
0.390307958333333,0,0xB11B,
0.390337958333333,0,0x0006,
0.390345625000000,0,0x3B11,
0.390361958333333,0,0xB3F4,
0.390369875000000,0,0xBB1B,
0.390385750000000,0,0xB345,
0.390393666666667,0,0xBC1B,
0.390409500000000,0,0xB2D4,
0.390417458333333,0,0xBD1B,
0.390433291666667,0,0xB216,
0.390441208333333,0,0xBE1B,
0.390457083333333,0,0xB217,
0.390464958333333,0,0xBF1B,
0.390480833333333,0,0xB287,
0.390488750000000,0,0xC01B,
0.390519291666667,0,0x000A,
0.390526958333333,0,0x4115,
0.390543250000000,0,0xC0C7,
0.390551166666667,0,0xC11B,
0.390567041666667,0,0xC0C2,
0.390574958333333,0,0xC21B,
0.390590791666667,0,0xC0C5,
0.390598750000000,0,0xC31B,
0.390614583333333,0,0xC0C2,
0.390622500000000,0,0xC41B,
0.390638375000000,0,0xC0C9,
0.390646291666667,0,0xC51B,
0.390662166666667,0,0xE049,
0.390670083333333,0,0xC61B,
0.390685916666667,0,0x8000,
0.390693875000000,0,0xC71B,
0.390709708333333,0,0xA2FD,
0.390717625000000,0,0xC81B,
0.390733500000000,0,0x9E3C,
0.390741416666667,0,0xC91B,
0.390757291666667,0,0x9E3B,
0.390765208333333,0,0xCA1B,
0.390797166666667,0,0x0004,
0.390804875000000,0,0x0329,
0.390821125000000,0,0x0A01,
0.390828958333333,0,0x8329,
0.390844708333333,0,0x0F00,
0.390852541666667,0,0x8429,
0.390868291666667,0,0x0000,
0.390876125000000,0,0x852B,
0.390891875000000,0,0xB73F,
0.390899750000000,0,0x8629,
0.390930166666667,0,0x0001,
0.390937833333333,0,0x1D2D,
0.390953791666667,0,0x0055,
0.390961666666667,0,0x9D2D,
0.390989458333333,0,0x0003,
0.390997125000000,0,0x2421,
0.391013250000000,0,0x004C,
0.391021125000000,0,0xA42B,
0.391036833333333,0,0x0040,
0.391044708333333,0,0xA52B,
0.391060416666667,0,0x0000,
0.391068291666667,0,0xA62B,
0.391096958333333,0,0x0005,
0.391104625000000,0,0x2D25,
0.391120875000000,0,0x1C16,
0.391128708333333,0,0xAD2B,
0.391144458333333,0,0xFFFF,
0.391152291666667,0,0xAE2B,
0.391168041666667,0,0xE3D2,
0.391175875000000,0,0xAF2B,
0.391191625000000,0,0xFFFF,
0.391199500000000,0,0xB02B,
0.391215208333333,0,0x830A,
0.391223083333333,0,0xB12B,
0.391252583333333,0,0x0006,
0.391260291666667,0,0x3B29,
0.391276625000000,0,0xE551,
0.391284500000000,0,0xBB2B,
0.391300250000000,0,0x8000,
0.391308083333333,0,0xBC2B,
0.391323833333333,0,0x8000,
0.391331666666667,0,0xBD2B,
0.391347416666667,0,0x8000,
0.391355250000000,0,0xBE2B,
0.391371000000000,0,0xE5F3,
0.391378833333333,0,0xBF2B,
0.391394583333333,0,0xE608,
0.391402416666667,0,0xC02B,
0.391432541666667,0,0x000A,
0.391440250000000,0,0x412D,
0.391456500000000,0,0xDEEC,
0.391464333333333,0,0xC12B,
0.391480041666667,0,0xDFF2,
0.391487916666667,0,0xC22B,
0.391503666666667,0,0xE009,
0.391511500000000,0,0xC32B,
0.391527208333333,0,0xE146,
0.391535083333333,0,0xC42B,
0.391550833333333,0,0xA98F,
0.391558708333333,0,0xC52B,
0.391574416666667,0,0xFF4E,
0.391582291666667,0,0xC62B,
0.391598000000000,0,0xC00F,
0.391605875000000,0,0xC72B,
0.391621583333333,0,0xA2DD,
0.391629458333333,0,0xC82B,
0.391645166666667,0,0x9E3A,
0.391653041666667,0,0xC92B,
0.391668750000000,0,0x9E43,
0.391676625000000,0,0xCA2B,
0.399365083333333,0,0xCC3F,
0.399372750000000,0,0x0603,
0.399401083333333,0,0x0004,
0.399408750000000,0,0x0315,
0.399425000000000,0,0x0A01,
0.399432916666667,0,0x8315,
0.399448791666667,0,0x0F00,
0.399456708333333,0,0x8415,
0.399472583333333,0,0x0000,
0.399480500000000,0,0x851C,
0.399496375000000,0,0xCF3F,
0.399504291666667,0,0x8615,
0.399535208333333,0,0x0004,
0.399542875000000,0,0x0319,
0.399559291666667,0,0x0A01,
0.399567208333333,0,0x8319,
0.399583041666667,0,0x0F00,
0.399590958333333,0,0x8419,
0.399606833333333,0,0x0000,
0.399614750000000,0,0x851C,
0.399630625000000,0,0xCF3F,
0.399638541666667,0,0x8619,
0.399669916666667,0,0x0004,
0.399677583333333,0,0x031D,
0.399694041666667,0,0x0A01,
0.399701958333333,0,0x831D,
0.399717833333333,0,0x0F00,
0.399725750000000,0,0x841D,
0.399741583333333,0,0x0000,
0.399749541666667,0,0x851C,
0.399765416666667,0,0xCF3F,
0.399773291666667,0,0x861D,
0.399804208333333,0,0x0004,
0.399811875000000,0,0x0311,
0.399828291666667,0,0x0A01,
0.399836250000000,0,0x8311,
0.399852083333333,0,0x0F00,
0.399860000000000,0,0x8411,
0.399875875000000,0,0x0000,
0.399883791666667,0,0x851C,
0.399899625000000,0,0xCF3F,
0.399907583333333,0,0x8611,
0.399938458333333,0,0x0004,
0.399946125000000,0,0x0315,
0.399962541666667,0,0x0A01,
0.399970500000000,0,0x8315,
0.399986333333333,0,0x0F00,
0.399994250000000,0,0x8415,
0.400010125000000,0,0x0000,
0.400018041666667,0,0x851C,
0.400033875000000,0,0xC73F,
0.400041791666667,0,0x8615,
0.400072291666667,0,0x0001,
0.400079958333333,0,0x1D19,
0.400096291666667,0,0x1551,
0.400104208333333,0,0x9D19,
0.400132458333333,0,0x0003,
0.400140125000000,0,0x241D,
0.400156208333333,0,0x0048,
0.400164166666667,0,0xA41C,
0.400180000000000,0,0x0040,
0.400187916666667,0,0xA51C,
0.400203791666667,0,0x0000,
0.400211708333333,0,0xA61C,
0.400241000000000,0,0x0005,
0.400248708333333,0,0x2D11,
0.400264708333333,0,0x1CD0,
0.400272625000000,0,0xAD1C,
0.400288500000000,0,0xFFFF,
0.400296416666667,0,0xAE1C,
0.400312291666667,0,0xB015,
0.400320208333333,0,0xAF1C,
0.400336041666667,0,0xFFFF,
0.400344000000000,0,0xB01C,
0.400359833333333,0,0x8307,
0.400367750000000,0,0xB11C,
0.400397583333333,0,0x0006,
0.400405250000000,0,0x3B15,
0.400421750000000,0,0xB3F0,
0.400429666666667,0,0xBB1C,
0.400445500000000,0,0xB343,
0.400453416666667,0,0xBC1C,
0.400469291666667,0,0xB2D6,
0.400477208333333,0,0xBD1C,
0.400493041666667,0,0xB216,
0.400501000000000,0,0xBE1C,
0.400516833333333,0,0xB215,
0.400524750000000,0,0xBF1C,
0.400540625000000,0,0xB289,
0.400548541666667,0,0xC01C,
0.400579166666667,0,0x000A,
0.400586833333333,0,0x4119,
0.400603041666667,0,0xC0C9,
0.400610958333333,0,0xC11C,
0.400626833333333,0,0xC0C2,
0.400634750000000,0,0xC21C,
0.400650583333333,0,0xC0CA,
0.400658541666667,0,0xC31C,
0.400674375000000,0,0xC0C9,
0.400682291666667,0,0xC41C,
0.400698166666667,0,0xC0C7,
0.400706083333333,0,0xC51C,
0.400721958333333,0,0xE050,
0.400729875000000,0,0xC61C,
0.400745750000000,0,0x8003,
0.400753666666667,0,0xC71C,
0.400769500000000,0,0xA2FB,
0.400777458333333,0,0xC81C,
0.400793291666667,0,0x9E40,
0.400801250000000,0,0xC91C,
0.400817083333333,0,0x9E3D,
0.400825041666667,0,0xCA1C,
0.400857166666667,0,0x0004,
0.400864833333333,0,0x032D,
0.400880791666667,0,0x0A01,
0.400888666666667,0,0x832D,
0.400904375000000,0,0x0F00,
0.400912250000000,0,0x842D,
0.400927958333333,0,0x0000,
0.400935833333333,0,0x852C,
0.400951541666667,0,0xC73F,
0.400959416666667,0,0x862D,
0.400990458333333,0,0x0001,
0.400998125000000,0,0x1D21,
0.401014458333333,0,0x0055,
0.401022291666667,0,0x9D21,
0.401050083333333,0,0x0003,
0.401057791666667,0,0x2425,
0.401073916666667,0,0x004C,
0.401081791666667,0,0xA42C,
0.401097500000000,0,0x0040,
0.401105375000000,0,0xA52C,
0.401121083333333,0,0x0000,
0.401128958333333,0,0xA62C,
0.401158000000000,0,0x0005,
0.401165666666667,0,0x2D29,
0.401182000000000,0,0x1D23,
0.401189875000000,0,0xAD2C,
0.401205625000000,0,0xFFFF,
0.401213500000000,0,0xAE2C,
0.401229208333333,0,0xE307,
0.401237083333333,0,0xAF2C,
0.401252791666667,0,0xFFFF,
0.401260666666667,0,0xB02C,
0.401276375000000,0,0x8307,
0.401284250000000,0,0xB12C,
0.401314041666667,0,0x0006,
0.401321750000000,0,0x3B2D,
0.401337833333333,0,0xE557,
0.401345708333333,0,0xBB2C,
0.401361416666667,0,0x8000,
0.401369291666667,0,0xBC2C,
0.401385000000000,0,0x8000,
0.401392875000000,0,0xBD2C,
0.401408583333333,0,0x8000,
0.401416458333333,0,0xBE2C,
0.401432166666667,0,0xE5F6,
0.401440041666667,0,0xBF2C,
0.401455791666667,0,0xE60C,
0.401463666666667,0,0xC02C,
0.401493708333333,0,0x000A,
0.401501375000000,0,0x4121,
0.401517708333333,0,0xDEEE,
0.401525583333333,0,0xC12C,
0.401541291666667,0,0xDFEC,
0.401549166666667,0,0xC22C,
0.401564875000000,0,0xE006,
0.401572750000000,0,0xC32C,
0.401588458333333,0,0xE143,
0.401596333333333,0,0xC42C,
0.401612041666667,0,0xA98D,
0.401619916666667,0,0xC52C,
0.401635625000000,0,0xFF4C,
0.401643500000000,0,0xC62C,
0.401659250000000,0,0xC00E,
0.401667083333333,0,0xC72C,
0.401682791666667,0,0xA2DB,
0.401690666666667,0,0xC82C,
0.401706375000000,0,0x9E36,
0.401714250000000,0,0xC92C,
0.401730000000000,0,0x9E3F,
0.401737833333333,0,0xCA2C,
0.409340666666667,0,0xDC3F,
0.409348333333333,0,0x0607,
0.409375666666667,0,0x0004,
0.409383375000000,0,0x0319,
0.409399541666667,0,0x0A01,
0.409407458333333,0,0x8319,
0.409423291666667,0,0x0F00,
0.409431250000000,0,0x8419,
0.409447083333333,0,0x0000,
0.409455000000000,0,0x851D,
0.409470875000000,0,0xDF3F,
0.409478791666667,0,0x8619,
0.409510041666667,0,0x0004,
0.409517708333333,0,0x031D,
0.409533791666667,0,0x0A01,
0.409541708333333,0,0x831D,
0.409557583333333,0,0x0F00,
0.409565500000000,0,0x841D,
0.409581333333333,0,0x0000,
0.409589291666667,0,0x851D,
0.409605125000000,0,0xDF3F,
0.409613083333333,0,0x861D,
0.409643791666667,0,0x0004,
0.409651500000000,0,0x0311,
0.409667583333333,0,0x0A01,
0.409675500000000,0,0x8311,
0.409691333333333,0,0x0F00,
0.409699291666667,0,0x8411,
0.409715125000000,0,0x0000,
0.409723041666667,0,0x851D,
0.409738875000000,0,0xDF3F,
0.409746833333333,0,0x8611,
0.409777375000000,0,0x0004,
0.409785083333333,0,0x0315,
0.409801333333333,0,0x0A01,
0.409809250000000,0,0x8315,
0.409825083333333,0,0x0F00,
0.409833041666667,0,0x8415,
0.409848875000000,0,0x0000,
0.409856791666667,0,0x851D,
0.409872666666667,0,0xDF3F,
0.409880583333333,0,0x8615,
0.409911666666667,0,0x0004,
0.409919333333333,0,0x0319,
0.409935583333333,0,0x0A01,
0.409943500000000,0,0x8319,
0.409959375000000,0,0x0F00,
0.409967291666667,0,0x8419,
0.409983125000000,0,0x0000,
0.409991041666667,0,0x851D,
0.410006875000000,0,0xD73F,
0.410014833333333,0,0x8619,
0.410046250000000,0,0x0001,
0.410053916666667,0,0x1D1D,
0.410070250000000,0,0x1551,
0.410078208333333,0,0x9D1D,
0.410106583333333,0,0x0003,
0.410114291666667,0,0x2411,
0.410130666666667,0,0x0048,
0.410138625000000,0,0xA41D,
0.410154458333333,0,0x0040,
0.410162375000000,0,0xA51D,
0.410178208333333,0,0x0000,
0.410186166666667,0,0xA61D,
0.410214500000000,0,0x0005,
0.410222166666667,0,0x2D15,
0.410238625000000,0,0x1DD9,
0.410246541666667,0,0xAD1D,
0.410262416666667,0,0xFFFF,
0.410270333333333,0,0xAE1D,
0.410286166666667,0,0xADA0,
0.410294083333333,0,0xAF1D,
0.410309958333333,0,0xFFFF,
0.410317875000000,0,0xB01D,
0.410333708333333,0,0x830E,
0.410341666666667,0,0xB11D,
0.410371708333333,0,0x0006,
0.410379375000000,0,0x3B19,
0.410395625000000,0,0xB3EE,
0.410403541666667,0,0xBB1D,
0.410419416666667,0,0xB342,
0.410427333333333,0,0xBC1D,
0.410443208333333,0,0xB2D6,
0.410451125000000,0,0xBD1D,
0.410466958333333,0,0xB217,
0.410474875000000,0,0xBE1D,
0.410490750000000,0,0xB21A,
0.410498666666667,0,0xBF1D,
0.410514500000000,0,0xB28D,
0.410522416666667,0,0xC01D,
0.410552291666667,0,0x000A,
0.410560000000000,0,0x411D,
0.410576416666667,0,0xC0BE,
0.410584333333333,0,0xC11D,
0.410600166666667,0,0xC0BC,
0.410608125000000,0,0xC21D,
0.410623958333333,0,0xC0C0,
0.410631875000000,0,0xC31D,
0.410647750000000,0,0xC0C3,
0.410655625000000,0,0xC41D,
0.410671500000000,0,0xC0C0,
0.410679416666667,0,0xC51D,
0.410695291666667,0,0xE049,
0.410703208333333,0,0xC61D,
0.410719041666667,0,0x8000,
0.410727000000000,0,0xC71D,
0.410742833333333,0,0xA2FD,
0.410750750000000,0,0xC81D,
0.410766583333333,0,0x9E36,
0.410774541666667,0,0xC91D,
0.410790375000000,0,0x9E3D,
0.410798333333333,0,0xCA1D,
0.410831000000000,0,0x0004,
0.410838708333333,0,0x0321,
0.410854875000000,0,0x0A01,
0.410862750000000,0,0x8321,
0.410878458333333,0,0x0F00,
0.410886333333333,0,0x8421,
0.410902041666667,0,0x0000,
0.410909875000000,0,0x852D,
0.410925625000000,0,0xD73F,
0.410933500000000,0,0x8621,
0.410964333333333,0,0x0001,
0.410972000000000,0,0x1D25,
0.410988041666667,0,0x0055,
0.410995916666667,0,0x9D25,
0.411023416666667,0,0x0003,
0.411031125000000,0,0x2429,
0.411047500000000,0,0x004C,
0.411055375000000,0,0xA42D,
0.411071083333333,0,0x0040,
0.411078958333333,0,0xA52D,
0.411094708333333,0,0x0000,
0.411102541666667,0,0xA62D,
0.411131791666667,0,0x0005,
0.411139458333333,0,0x2D2D,
0.411155666666667,0,0x1E2E,
0.411163500000000,0,0xAD2D,
0.411179250000000,0,0xFFFF,
0.411187083333333,0,0xAE2D,
0.411202833333333,0,0xE2A2,
0.411210708333333,0,0xAF2D,
0.411226416666667,0,0x8000,
0.411234291666667,0,0xB02D,
0.411250041666667,0,0x8308,
0.411257875000000,0,0xB12D,
0.411288333333333,0,0x0006,
0.411296000000000,0,0x3B21,
0.411312416666667,0,0xE556,
0.411320291666667,0,0xBB2D,
0.411336041666667,0,0x8000,
0.411343875000000,0,0xBC2D,
0.411359625000000,0,0x8000,
0.411367458333333,0,0xBD2D,
0.411383208333333,0,0x8000,
0.411391083333333,0,0xBE2D,
0.411406791666667,0,0xE5EF,
0.411414666666667,0,0xBF2D,
0.411430375000000,0,0xE602,
0.411438250000000,0,0xC02D,
0.411467875000000,0,0x000A,
0.411475541666667,0,0x4125,
0.411491791666667,0,0xDEEE,
0.411499666666667,0,0xC12D,
0.411515375000000,0,0xDFF3,
0.411523250000000,0,0xC22D,
0.411538958333333,0,0xE008,
0.411546833333333,0,0xC32D,
0.411562583333333,0,0xE144,
0.411570416666667,0,0xC42D,
0.411586166666667,0,0xA98F,
0.411594041666667,0,0xC52D,
0.411609750000000,0,0xFF4D,
0.411617625000000,0,0xC62D,
0.411633333333333,0,0xC00E,
0.411641208333333,0,0xC72D,
0.411656958333333,0,0xA2DB,
0.411664791666667,0,0xC82D,
0.411680541666667,0,0x9E38,
0.411688416666667,0,0xC92D,
0.411704125000000,0,0x9E3F,
0.411712000000000,0,0xCA2D,
0.419342458333333,0,0xEC3F,
0.419350125000000,0,0x060B,
0.419376958333333,0,0x0004,
0.419384625000000,0,0x031D,
0.419400750000000,0,0x0A01,
0.419408708333333,0,0x831D,
0.419424541666667,0,0x0F00,
0.419432458333333,0,0x841D,
0.419448291666667,0,0x0000,
0.419456208333333,0,0x851E,
0.419472083333333,0,0xEF3F,
0.419480000000000,0,0x861D,
0.419511500000000,0,0x0004,
0.419519208333333,0,0x0311,
0.419535458333333,0,0x0A01,
0.419543375000000,0,0x8311,
0.419559208333333,0,0x0F00,
0.419567125000000,0,0x8411,
0.419583000000000,0,0x0000,
0.419590916666667,0,0x851E,
0.419606791666667,0,0xEF3F,
0.419614708333333,0,0x8611,
0.419645458333333,0,0x0004,
0.419653166666667,0,0x0315,
0.419669166666667,0,0x0A01,
0.419677125000000,0,0x8315,
0.419692958333333,0,0x0F00,
0.419700875000000,0,0x8415,
0.419716708333333,0,0x0000,
0.419724625000000,0,0x851E,
0.419740500000000,0,0xEF3F,
0.419748416666667,0,0x8615,
0.419779333333333,0,0x0004,
0.419787041666667,0,0x0319,
0.419803375000000,0,0x0A01,
0.419811291666667,0,0x8319,
0.419827166666667,0,0x0F00,
0.419835083333333,0,0x8419,
0.419850916666667,0,0x0000,
0.419858833333333,0,0x851E,
0.419874708333333,0,0xEF3F,
0.419882625000000,0,0x8619,
0.419914250000000,0,0x0004,
0.419921916666667,0,0x031D,
0.419938083333333,0,0x0A01,
0.419946000000000,0,0x831D,
0.419961875000000,0,0x0F00,
0.419969791666667,0,0x841D,
0.419985625000000,0,0x0000,
0.419993541666667,0,0x851E,
0.420009416666667,0,0xE73F,
0.420017333333333,0,0x861D,
0.420047833333333,0,0x0001,
0.420055541666667,0,0x1D11,
0.420071750000000,0,0x1551,
0.420079708333333,0,0x9D11,
0.420107666666667,0,0x0003,
0.420115375000000,0,0x2415,
0.420131666666667,0,0x0048,
0.420139625000000,0,0xA41E,
0.420155458333333,0,0x0040,
0.420163375000000,0,0xA51E,
0.420179208333333,0,0x0000,
0.420187125000000,0,0xA61E,
0.420216000000000,0,0x0005,
0.420223666666667,0,0x2D19,
0.420239625000000,0,0x1EE3,
0.420247541666667,0,0xAD1E,
0.420263375000000,0,0xFFFF,
0.420271291666667,0,0xAE1E,
0.420287125000000,0,0xABF6,
0.420295041666667,0,0xAF1E,
0.420310875000000,0,0xFFFF,
0.420318791666667,0,0xB01E,
0.420334666666667,0,0x830C,
0.420342583333333,0,0xB11E,
0.420373458333333,0,0x0006,
0.420381125000000,0,0x3B1D,
0.420397541666667,0,0xB3F2,
0.420405416666667,0,0xBB1E,
0.420421291666667,0,0xB347,
0.420429208333333,0,0xBC1E,
0.420445041666667,0,0xB2D2,
0.420453000000000,0,0xBD1E,
0.420468833333333,0,0xB213,
0.420476750000000,0,0xBE1E,
0.420492583333333,0,0xB219,
0.420500500000000,0,0xBF1E,
0.420516333333333,0,0xB287,
0.420524250000000,0,0xC01E,
0.420554583333333,0,0x000A,
0.420562250000000,0,0x4111,
0.420578208333333,0,0xC0BF,
0.420586166666667,0,0xC11E,
0.420602000000000,0,0xC0BD,
0.420609916666667,0,0xC21E,
0.420625750000000,0,0xC0C5,
0.420633666666667,0,0xC31E,
0.420649541666667,0,0xC0C3,
0.420657416666667,0,0xC41E,
0.420673291666667,0,0xC0C2,
0.420681208333333,0,0xC51E,
0.420697041666667,0,0xE04A,
0.420704958333333,0,0xC61E,
0.420720791666667,0,0x8000,
0.420728708333333,0,0xC71E,
0.420744583333333,0,0xA2FA,
0.420752500000000,0,0xC81E,
0.420768333333333,0,0x9E38,
0.420776250000000,0,0xC91E,
0.420792083333333,0,0x9E3E,
0.420800000000000,0,0xCA1E,
0.420832750000000,0,0x0004,
0.420840458333333,0,0x0325,
0.420856541666667,0,0x0A01,
0.420864416666667,0,0x8325,
0.420880125000000,0,0x0F00,
0.420888000000000,0,0x8425,
0.420903708333333,0,0x0000,
0.420911583333333,0,0x852E,
0.420927291666667,0,0xE73F,
0.420935166666667,0,0x8625,
0.420965208333333,0,0x0001,
0.420972875000000,0,0x1D29,
0.420989208333333,0,0x0055,
0.420997083333333,0,0x9D29,
0.421024916666667,0,0x0003,
0.421032625000000,0,0x242D,
0.421048708333333,0,0x004C,
0.421056541666667,0,0xA42E,
0.421072250000000,0,0x0040,
0.421080125000000,0,0xA52E,
0.421095833333333,0,0x0000,
0.421103708333333,0,0xA62E,
0.421132208333333,0,0x0005,
0.421139875000000,0,0x2D21,
0.421155791666667,0,0x1F3A,
0.421163666666667,0,0xAD2E,
0.421179416666667,0,0xFFFF,
0.421187250000000,0,0xAE2E,
0.421203000000000,0,0xE274,
0.421210833333333,0,0xAF2E,
0.421226583333333,0,0xFFFF,
0.421234458333333,0,0xB02E,
0.421250166666667,0,0x830F,
0.421258041666667,0,0xB12E,
0.421287458333333,0,0x0006,
0.421295125000000,0,0x3B25,
0.421311125000000,0,0xE553,
0.421319000000000,0,0xBB2E,
0.421334708333333,0,0x8000,
0.421342583333333,0,0xBC2E,
0.421358291666667,0,0x8000,
0.421366166666667,0,0xBD2E,
0.421381875000000,0,0x8000,
0.421389708333333,0,0xBE2E,
0.421405458333333,0,0xE5ED,
0.421413333333333,0,0xBF2E,
0.421429041666667,0,0xE605,
0.421436916666667,0,0xC02E,
0.421466666666667,0,0x000A,
0.421474375000000,0,0x4129,
0.421490500000000,0,0xDEF0,
0.421498375000000,0,0xC12E,
0.421514083333333,0,0xDFF6,
0.421521958333333,0,0xC22E,
0.421537666666667,0,0xE005,
0.421545541666667,0,0xC32E,
0.421561250000000,0,0xE142,
0.421569166666667,0,0xC42E,
0.421584875000000,0,0xA98A,
0.421592750000000,0,0xC52E,
0.421608458333333,0,0xFF4D,
0.421616333333333,0,0xC62E,
0.421632041666667,0,0xC010,
0.421639916666667,0,0xC72E,
0.421655625000000,0,0xA2DE,
0.421663500000000,0,0xC82E,
0.421679208333333,0,0x9E39,
0.421687083333333,0,0xC92E,
0.421702833333333,0,0x9E42,
0.421710666666667,0,0xCA2E,
0.429331208333333,0,0xFC3F,
0.429338875000000,0,0x060F,
0.429366708333333,0,0x0004,
0.429374375000000,0,0x0311,
0.429390791666667,0,0x0A01,
0.429398708333333,0,0x8311,
0.429414541666667,0,0x0F00,
0.429422500000000,0,0x8411,
0.429438333333333,0,0x0000,
0.429446291666667,0,0x851F,
0.429462125000000,0,0xFF3F,
0.429470041666667,0,0x8611,
0.429501083333333,0,0x0004,
0.429508750000000,0,0x0315,
0.429525041666667,0,0x0A01,
0.429533000000000,0,0x8315,
0.429548875000000,0,0x0F00,
0.429556791666667,0,0x8415,
0.429572666666667,0,0x0000,
0.429580583333333,0,0x851F,
0.429596416666667,0,0xFF3F,
0.429604375000000,0,0x8615,
0.429635916666667,0,0x0004,
0.429643583333333,0,0x0319,
0.429659875000000,0,0x0A01,
0.429667791666667,0,0x8319,
0.429683666666667,0,0x0F00,
0.429691583333333,0,0x8419,
0.429707416666667,0,0x0000,
0.429715375000000,0,0x851F,
0.429731208333333,0,0xFF3F,
0.429739125000000,0,0x8619,
0.429770500000000,0,0x0004,
0.429778166666667,0,0x031D,
0.429794666666667,0,0x0A01,
0.429802583333333,0,0x831D,
0.429818416666667,0,0x0F00,
0.429826375000000,0,0x841D,
0.429842208333333,0,0x0000,
0.429850166666667,0,0x851F,
0.429866041666667,0,0xFF3F,
0.429873958333333,0,0x861D,
0.429905250000000,0,0x0004,
0.429912916666667,0,0x0311,
0.429928958333333,0,0x0A01,
0.429936875000000,0,0x8311,
0.429952708333333,0,0x0F00,
0.429960666666667,0,0x8411,
0.429976500000000,0,0x0000,
0.429984416666667,0,0x851F,
0.430000291666667,0,0xF73F,
0.430008208333333,0,0x8611,
0.430039541666667,0,0x0001,
0.430047208333333,0,0x1D15,
0.430063708333333,0,0x1551,
0.430071625000000,0,0x9D15,
0.430099583333333,0,0x0003,
0.430107250000000,0,0x2419,
0.430123625000000,0,0x0048,
0.430131541666667,0,0xA41F,
0.430147416666667,0,0x0040,
0.430155291666667,0,0xA51F,
0.430171166666667,0,0x0000,
0.430179125000000,0,0xA61F,
0.430207666666667,0,0x0005,
0.430215333333333,0,0x2D1D,
0.430231625000000,0,0x1FEC,
0.430239541666667,0,0xAD1F,
0.430255416666667,0,0xFFFF,
0.430263333333333,0,0xAE1F,
0.430279166666667,0,0xA9A5,
0.430287125000000,0,0xAF1F,
0.430302958333333,0,0x8000,
0.430310916666667,0,0xB01F,
0.430326750000000,0,0x8302,
0.430334666666667,0,0xB11F,
0.430364958333333,0,0x0006,
0.430372625000000,0,0x3B11,
0.430388666666667,0,0xB3F4,
0.430396583333333,0,0xBB1F,
0.430412458333333,0,0xB342,
0.430420375000000,0,0xBC1F,
0.430436250000000,0,0xB2D8,
0.430444166666667,0,0xBD1F,
0.430460000000000,0,0xB215,
0.430467916666667,0,0xBE1F,
0.430483750000000,0,0xB218,
0.430491708333333,0,0xBF1F,
0.430507541666667,0,0xB28D,
0.430515458333333,0,0xC01F,
0.430545500000000,0,0x000A,
0.430553166666667,0,0x4115,
0.430569458333333,0,0xC0C1,
0.430577375000000,0,0xC11F,
0.430593250000000,0,0xC0BD,
0.430601166666667,0,0xC21F,
0.430617000000000,0,0xC0C2,
0.430624958333333,0,0xC31F,
0.430640791666667,0,0xC0C1,
0.430648708333333,0,0xC41F,
0.430664583333333,0,0xC0C1,
0.430672500000000,0,0xC51F,
0.430688333333333,0,0xE047,
0.430696250000000,0,0xC61F,
0.430712125000000,0,0x8000,
0.430720041666667,0,0xC71F,
0.430735916666667,0,0xA2FB,
0.430743833333333,0,0xC81F,
0.430759666666667,0,0x9E3B,
0.430767583333333,0,0xC91F,
0.430783458333333,0,0x9E3D,
0.430791375000000,0,0xCA1F,
0.430823458333333,0,0x0004,
0.430831166666667,0,0x0329,
0.430847333333333,0,0x0A01,
0.430855208333333,0,0x8329,
0.430870958333333,0,0x0F00,
0.430878791666667,0,0x8429,
0.430894541666667,0,0x0000,
0.430902416666667,0,0x852F,
0.430918125000000,0,0xF73F,
0.430926000000000,0,0x8629,
0.430956166666667,0,0x0001,
0.430963833333333,0,0x1D2D,
0.430980041666667,0,0x0055,
0.430987916666667,0,0x9D2D,
0.431015916666667,0,0x0003,
0.431023583333333,0,0x2421,
0.431040000000000,0,0x004C,
0.431047833333333,0,0xA42F,
0.431063583333333,0,0x0040,
0.431071458333333,0,0xA52F,
0.431087166666667,0,0x0000,
0.431095041666667,0,0xA62F,
0.431123875000000,0,0x0005,
0.431131541666667,0,0x2D25,
0.431147583333333,0,0x2045,
0.431155458333333,0,0xAD2F,
0.431171166666667,0,0xFFFF,
0.431179041666667,0,0xAE2F,
0.431194750000000,0,0xE1C5,
0.431202625000000,0,0xAF2F,
0.431218375000000,0,0x8000,
0.431226208333333,0,0xB02F,
0.431241958333333,0,0x8300,
0.431249833333333,0,0xB12F,
0.431280666666667,0,0x0006,
0.431288375000000,0,0x3B29,
0.431304333333333,0,0xE557,
0.431312208333333,0,0xBB2F,
0.431327958333333,0,0x8005,
0.431335791666667,0,0xBC2F,
0.431351541666667,0,0x8000,
0.431359375000000,0,0xBD2F,
0.431375083333333,0,0x8000,
0.431382958333333,0,0xBE2F,
0.431398666666667,0,0xE5F4,
0.431406541666667,0,0xBF2F,
0.431422250000000,0,0xE60E,
0.431430125000000,0,0xC02F,
0.431460333333333,0,0x000A,
0.431468041666667,0,0x412D,
0.431484166666667,0,0xDEF5,
0.431492041666667,0,0xC12F,
0.431507750000000,0,0xDFF7,
0.431515625000000,0,0xC22F,
0.431531333333333,0,0xE00A,
0.431539208333333,0,0xC32F,
0.431554916666667,0,0xE147,
0.431562791666667,0,0xC42F,
0.431578541666667,0,0xA98F,
0.431586375000000,0,0xC52F,
0.431602125000000,0,0xFF50,
0.431609958333333,0,0xC62F,
0.431625708333333,0,0xC013,
0.431633541666667,0,0xC72F,
0.431649250000000,0,0xA2DD,
0.431657125000000,0,0xC82F,
0.431672875000000,0,0x9E3B,
0.431680708333333,0,0xC92F,
0.431696458333333,0,0x9E3D,
0.431704291666667,0,0xCA2F,
0.439324208333333,0,0x0C3F,
0.439331916666667,0,0x0603,
0.439359458333333,0,0x0004,
0.439367125000000,0,0x0315,
0.439383291666667,0,0x0A01,
0.439391208333333,0,0x8315,
0.439407083333333,0,0x0F00,
0.439415000000000,0,0x8415,
0.439430833333333,0,0x0000,
0.439438791666667,0,0x8510,
0.439454625000000,0,0x0F3F,
0.439462583333333,0,0x8615,
0.439493583333333,0,0x0004,
0.439501250000000,0,0x0319,
0.439517541666667,0,0x0A01,
0.439525458333333,0,0x8319,
0.439541333333333,0,0x0F00,
0.439549250000000,0,0x8419,
0.439565125000000,0,0x0000,
0.439573041666667,0,0x8510,
0.439588916666667,0,0x0F3F,
0.439596833333333,0,0x8619,
0.439627333333333,0,0x0004,
0.439635000000000,0,0x031D,
0.439651333333333,0,0x0A01,
0.439659250000000,0,0x831D,
0.439675125000000,0,0x0F00,
0.439683041666667,0,0x841D,
0.439698916666667,0,0x0000,
0.439706833333333,0,0x8510,
0.439722708333333,0,0x0F3F,
0.439730625000000,0,0x861D,
0.439760916666667,0,0x0004,
0.439768583333333,0,0x0311,
0.439784666666667,0,0x0A01,
0.439792583333333,0,0x8311,
0.439808416666667,0,0x0F00,
0.439816333333333,0,0x8411,
0.439832208333333,0,0x0000,
0.439840125000000,0,0x8510,
0.439856000000000,0,0x0F3F,
0.439863916666667,0,0x8611,
0.439894583333333,0,0x0004,
0.439902250000000,0,0x0315,
0.439918375000000,0,0x0A01,
0.439926333333333,0,0x8315,
0.439942166666667,0,0x0F00,
0.439950083333333,0,0x8415,
0.439965958333333,0,0x0000,
0.439973875000000,0,0x8510,
0.439989750000000,0,0x073F,
0.439997666666667,0,0x8615,
0.440028500000000,0,0x0001,
0.440036166666667,0,0x1D19,
0.440052166666667,0,0x1551,
0.440060083333333,0,0x9D19,
0.440088083333333,0,0x0003,
0.440095750000000,0,0x241D,
0.440112083333333,0,0x0048,
0.440120041666667,0,0xA410,
0.440135875000000,0,0x0040,
0.440143791666667,0,0xA510,
0.440159666666667,0,0x0000,
0.440167583333333,0,0xA610,
0.440196750000000,0,0x0005,
0.440204416666667,0,0x2D11,
0.440220583333333,0,0x20F5,
0.440228541666667,0,0xAD10,
0.440244375000000,0,0xFFFF,
0.440252291666667,0,0xAE10,
0.440268125000000,0,0xA74B,
0.440276083333333,0,0xAF10,
0.440291958333333,0,0x8000,
0.440299875000000,0,0xB010,
0.440315708333333,0,0x8302,
0.440323625000000,0,0xB110,
0.440354000000000,0,0x0006,
0.440361666666667,0,0x3B15,
0.440378083333333,0,0xB3F4,
0.440386041666667,0,0xBB10,
0.440401875000000,0,0xB34A,
0.440409791666667,0,0xBC10,
0.440425666666667,0,0xB2D5,
0.440433583333333,0,0xBD10,
0.440449416666667,0,0xB215,
0.440457333333333,0,0xBE10,
0.440473208333333,0,0xB219,
0.440481125000000,0,0xBF10,
0.440496958333333,0,0xB28C,
0.440504916666667,0,0xC010,
0.440535291666667,0,0x000A,
0.440542958333333,0,0x4119,
0.440559375000000,0,0xC0C3,
0.440567291666667,0,0xC110,
0.440583125000000,0,0xC0BB,
0.440591083333333,0,0xC210,
0.440606916666667,0,0xC0C0,
0.440614833333333,0,0xC310,
0.440630708333333,0,0xC0C3,
0.440638625000000,0,0xC410,
0.440654458333333,0,0xC0C4,
0.440662416666667,0,0xC510,
0.440678250000000,0,0xE049,
0.440686166666667,0,0xC610,
0.440702000000000,0,0x8000,
0.440709916666667,0,0xC710,
0.440725791666667,0,0xA2FC,
0.440733708333333,0,0xC810,
0.440749541666667,0,0x9E3A,
0.440757500000000,0,0xC910,
0.440773333333333,0,0x9E3D,
0.440781250000000,0,0xCA10,
0.440813875000000,0,0x0004,
0.440821541666667,0,0x032D,
0.440837625000000,0,0x0A01,
0.440845500000000,0,0x832D,
0.440861250000000,0,0x0F00,
0.440869083333333,0,0x842D,
0.440884791666667,0,0x0000,
0.440892666666667,0,0x8520,
0.440908375000000,0,0x073F,
0.440916250000000,0,0x862D,
0.440947416666667,0,0x0001,
0.440955125000000,0,0x1D21,
0.440971250000000,0,0x0055,
0.440979125000000,0,0x9D21,
0.441006958333333,0,0x0003,
0.441014666666667,0,0x2425,
0.441030708333333,0,0x004C,
0.441038583333333,0,0xA420,
0.441054333333333,0,0x0040,
0.441062166666667,0,0xA520,
0.441077875000000,0,0x0000,
0.441085750000000,0,0xA620,
0.441114458333333,0,0x0005,
0.441122125000000,0,0x2D29,
0.441138333333333,0,0x2151,
0.441146208333333,0,0xAD20,
0.441161916666667,0,0xFFFF,
0.441169791666667,0,0xAE20,
0.441185500000000,0,0xE1A0,
0.441193375000000,0,0xAF20,
0.441209083333333,0,0x8000,
0.441216958333333,0,0xB020,
0.441232666666667,0,0x8300,
0.441240541666667,0,0xB120,
0.441271583333333,0,0x0006,
0.441279291666667,0,0x3B2D,
0.441295583333333,0,0xE559,
0.441303416666667,0,0xBB20,
0.441319166666667,0,0x8001,
0.441327000000000,0,0xBC20,
0.441342750000000,0,0x8000,
0.441350625000000,0,0xBD20,
0.441366333333333,0,0x8000,
0.441374208333333,0,0xBE20,
0.441389916666667,0,0xE5F2,
0.441397791666667,0,0xBF20,
0.441413500000000,0,0xE60A,
0.441421375000000,0,0xC020,
0.441451708333333,0,0x000A,
0.441459375000000,0,0x4121,
0.441475416666667,0,0xDEF1,
0.441483291666667,0,0xC120,
0.441499000000000,0,0xDFF6,
0.441506875000000,0,0xC220,
0.441522583333333,0,0xE009,
0.441530458333333,0,0xC320,
0.441546166666667,0,0xE146,
0.441554041666667,0,0xC420,
0.441569750000000,0,0xA98E,
0.441577625000000,0,0xC520,
0.441593333333333,0,0xFF4F,
0.441601208333333,0,0xC620,
0.441616916666667,0,0xC011,
0.441624791666667,0,0xC720,
0.441640500000000,0,0xA2DD,
0.441648333333333,0,0xC820,
0.441664083333333,0,0x9E39,
0.441671958333333,0,0xC920,
0.441687666666667,0,0x9E40,
0.441695500000000,0,0xCA20,
0.449324791666667,0,0x1C3F,
0.449332458333333,0,0x0607,
0.449359416666667,0,0x0004,
0.449367125000000,0,0x0319,
0.449383250000000,0,0x0A01,
0.449391166666667,0,0x8319,
0.449407041666667,0,0x0F00,
0.449414958333333,0,0x8419,
0.449430833333333,0,0x0000,
0.449438750000000,0,0x8511,
0.449454625000000,0,0x1F3F,
0.449462541666667,0,0x8619,
0.449493583333333,0,0x0004,
0.449501250000000,0,0x031D,
0.449517541666667,0,0x0A01,
0.449525458333333,0,0x831D,
0.449541333333333,0,0x0F00,
0.449549250000000,0,0x841D,
0.449565083333333,0,0x0000,
0.449573000000000,0,0x8511,
0.449588875000000,0,0x1F3F,
0.449596791666667,0,0x861D,
0.449627666666667,0,0x0004,
0.449635333333333,0,0x0311,
0.449651791666667,0,0x0A01,
0.449659750000000,0,0x8311,
0.449675583333333,0,0x0F00,
0.449683500000000,0,0x8411,
0.449699375000000,0,0x0000,
0.449707291666667,0,0x8511,
0.449723166666667,0,0x1F3F,
0.449731083333333,0,0x8611,
0.449761083333333,0,0x0004,
0.449768750000000,0,0x0315,
0.449785125000000,0,0x0A01,
0.449793041666667,0,0x8315,
0.449808916666667,0,0x0F00,
0.449816833333333,0,0x8415,
0.449832708333333,0,0x0000,
0.449840625000000,0,0x8511,
0.449856458333333,0,0x1F3F,
0.449864416666667,0,0x8615,
0.449895166666667,0,0x0004,
0.449902875000000,0,0x0319,
0.449918875000000,0,0x0A01,
0.449926833333333,0,0x8319,
0.449942666666667,0,0x0F00,
0.449950583333333,0,0x8419,
0.449966458333333,0,0x0000,
0.449974375000000,0,0x8511,
0.449990208333333,0,0x173F,
0.449998125000000,0,0x8619,
0.450028958333333,0,0x0001,
0.450036625000000,0,0x1D1D,
0.450052625000000,0,0x1551,
0.450060541666667,0,0x9D1D,
0.450088625000000,0,0x0003,
0.450096291666667,0,0x2411,
0.450112541666667,0,0x0048,
0.450120500000000,0,0xA411,
0.450136333333333,0,0x0040,
0.450144250000000,0,0xA511,
0.450160083333333,0,0x0000,
0.450168041666667,0,0xA611,
0.450196916666667,0,0x0005,
0.450204583333333,0,0x2D15,
0.450221000000000,0,0x21FF,
0.450228958333333,0,0xAD11,
0.450244791666667,0,0xFFFF,
0.450252708333333,0,0xAE11,
0.450268583333333,0,0xA54F,
0.450276500000000,0,0xAF11,
0.450292333333333,0,0xFFFF,
0.450300291666667,0,0xB011,
0.450316125000000,0,0x830B,
0.450324041666667,0,0xB111,
0.450353791666667,0,0x0006,
0.450361500000000,0,0x3B19,
0.450377541666667,0,0xB3F2,
0.450385458333333,0,0xBB11,
0.450401291666667,0,0xB341,
0.450409250000000,0,0xBC11,
0.450425083333333,0,0xB2D5,
0.450433000000000,0,0xBD11,
0.450448875000000,0,0xB218,
0.450456791666667,0,0xBE11,
0.450472625000000,0,0xB21B,
0.450480541666667,0,0xBF11,
0.450496416666667,0,0xB28B,
0.450504333333333,0,0xC011,
0.450534000000000,0,0x000A,
0.450541625000000,0,0x411D,
0.450557833333333,0,0xC0C0,
0.450565750000000,0,0xC111,
0.450581583333333,0,0xC0C1,
0.450589541666667,0,0xC211,
0.450605375000000,0,0xC0C2,
0.450613291666667,0,0xC311,
0.450629125000000,0,0xC0C3,
0.450637041666667,0,0xC411,
0.450652916666667,0,0xC0C3,
0.450660833333333,0,0xC511,
0.450676666666667,0,0xE04A,
0.450684625000000,0,0xC611,
0.450700458333333,0,0x8002,
0.450708375000000,0,0xC711,
0.450724208333333,0,0xA2FD,
0.450732166666667,0,0xC811,
0.450748000000000,0,0x9E3B,
0.450755916666667,0,0xC911,
0.450771791666667,0,0x9E3D,
0.450779708333333,0,0xCA11,
0.450812791666667,0,0x0004,
0.450820458333333,0,0x0321,
0.450836458333333,0,0x0A01,
0.450844291666667,0,0x8321,
0.450860041666667,0,0x0F00,
0.450867875000000,0,0x8421,
0.450883625000000,0,0x0000,
0.450891500000000,0,0x8521,
0.450907208333333,0,0x173F,
0.450915083333333,0,0x8621,
0.450945791666667,0,0x0001,
0.450953458333333,0,0x1D25,
0.450969625000000,0,0x0055,
0.450977500000000,0,0x9D25,
0.451005958333333,0,0x0003,
0.451013625000000,0,0x2429,
0.451029583333333,0,0x004C,
0.451037458333333,0,0xA421,
0.451053166666667,0,0x0040,
0.451061041666667,0,0xA521,
0.451076750000000,0,0x0000,
0.451084625000000,0,0xA621,
0.451113791666667,0,0x0005,
0.451121458333333,0,0x2D2D,
0.451137666666667,0,0x225D,
0.451145541666667,0,0xAD21,
0.451161291666667,0,0xFFFF,
0.451169166666667,0,0xAE21,
0.451184875000000,0,0xE188,
0.451192708333333,0,0xAF21,
0.451208458333333,0,0xFFFF,
0.451216291666667,0,0xB021,
0.451232041666667,0,0x830A,
0.451239875000000,0,0xB121,
0.451270875000000,0,0x0006,
0.451278541666667,0,0x3B21,
0.451294916666667,0,0xE55E,
0.451302791666667,0,0xBB21,
0.451318500000000,0,0x8002,
0.451326375000000,0,0xBC21,
0.451342083333333,0,0x8000,
0.451349958333333,0,0xBD21,
0.451365708333333,0,0x8000,
0.451373541666667,0,0xBE21,
0.451389291666667,0,0xE5F8,
0.451397125000000,0,0xBF21,
0.451412875000000,0,0xE60C,
0.451420708333333,0,0xC021,
0.451451041666667,0,0x000A,
0.451458708333333,0,0x4125,
0.451474750000000,0,0xDEF1,
0.451482625000000,0,0xC121,
0.451498375000000,0,0xDFF3,
0.451506250000000,0,0xC221,
0.451521958333333,0,0xE006,
0.451529833333333,0,0xC321,
0.451545541666667,0,0xE143,
0.451553416666667,0,0xC421,
0.451569166666667,0,0xA98D,
0.451577041666667,0,0xC521,
0.451592750000000,0,0xFF4C,
0.451600583333333,0,0xC621,
0.451616333333333,0,0xC00E,
0.451624208333333,0,0xC721,
0.451639916666667,0,0xA2DE,
0.451647791666667,0,0xC821,
0.451663500000000,0,0x9E37,
0.451671375000000,0,0xC921,
0.451687125000000,0,0x9E3D,
0.451694958333333,0,0xCA21,
0.459497083333333,0,0x2C3F,
0.459504750000000,0,0x060B,
0.459532041666667,0,0x0004,
0.459539708333333,0,0x031D,
0.459555750000000,0,0x0A01,
0.459563708333333,0,0x831D,
0.459579541666667,0,0x0F00,
0.459587458333333,0,0x841D,
0.459603333333333,0,0x0000,
0.459611250000000,0,0x8512,
0.459627125000000,0,0x2F3F,
0.459635041666667,0,0x861D,
0.459665625000000,0,0x0004,
0.459673291666667,0,0x0311,
0.459689541666667,0,0x0A01,
0.459697500000000,0,0x8311,
0.459713333333333,0,0x0F00,
0.459721291666667,0,0x8411,
0.459737125000000,0,0x0000,
0.459745083333333,0,0x8512,
0.459760916666667,0,0x2F3F,
0.459768875000000,0,0x8611,
0.459799541666667,0,0x0004,
0.459807208333333,0,0x0315,
0.459823333333333,0,0x0A01,
0.459831291666667,0,0x8315,
0.459847125000000,0,0x0F00,
0.459855041666667,0,0x8415,
0.459870916666667,0,0x0000,
0.459878833333333,0,0x8512,
0.459894708333333,0,0x2F3F,
0.459902625000000,0,0x8615,
0.459932791666667,0,0x0004,
0.459940458333333,0,0x0319,
0.459956625000000,0,0x0A01,
0.459964541666667,0,0x8319,
0.459980375000000,0,0x0F00,
0.459988333333333,0,0x8419,
0.460004166666667,0,0x0000,
0.460012125000000,0,0x8512,
0.460027958333333,0,0x2F3F,
0.460035916666667,0,0x8619,
0.460065875000000,0,0x0004,
0.460073541666667,0,0x031D,
0.460089916666667,0,0x0A01,
0.460097791666667,0,0x831D,
0.460113666666667,0,0x0F00,
0.460121583333333,0,0x841D,
0.460137416666667,0,0x0000,
0.460145375000000,0,0x8512,
0.460161208333333,0,0x273F,
0.460169125000000,0,0x861D,
0.460199625000000,0,0x0001,
0.460207333333333,0,0x1D11,
0.460223625000000,0,0x1551,
0.460231541666667,0,0x9D11,
0.460259833333333,0,0x0003,
0.460267541666667,0,0x2415,
0.460283541666667,0,0x0048,
0.460291458333333,0,0xA412,
0.460307333333333,0,0x0040,
0.460315250000000,0,0xA512,
0.460331083333333,0,0x0000,
0.460339041666667,0,0xA612,
0.460368166666667,0,0x0005,
0.460375875000000,0,0x2D19,
0.460392041666667,0,0x230D,
0.460399958333333,0,0xAD12,
0.460415791666667,0,0xFFFF,
0.460423750000000,0,0xAE12,
0.460439583333333,0,0xA32F,
0.460447500000000,0,0xAF12,
0.460463375000000,0,0xFFFF,
0.460471291666667,0,0xB012,
0.460487125000000,0,0x830F,
0.460495083333333,0,0xB112,
0.460525708333333,0,0x0006,
0.460533375000000,0,0x3B1D,
0.460549541666667,0,0xB3F4,
0.460557500000000,0,0xBB12,
0.460573333333333,0,0xB348,
0.460581250000000,0,0xBC12,
0.460597125000000,0,0xB2D7,
0.460605041666667,0,0xBD12,
0.460620875000000,0,0xB21B,
0.460628791666667,0,0xBE12,
0.460644625000000,0,0xB21F,
0.460652541666667,0,0xBF12,
0.460668416666667,0,0xB292,
0.460676333333333,0,0xC012,
0.460706500000000,0,0x000A,
0.460714166666667,0,0x4111,
0.460730333333333,0,0xC0C6,
0.460738250000000,0,0xC112,
0.460754083333333,0,0xC0C2,
0.460762000000000,0,0xC212,
0.460777875000000,0,0xC0C5,
0.460785791666667,0,0xC312,
0.460801625000000,0,0xC0C7,
0.460809583333333,0,0xC412,
0.460825416666667,0,0xC0C3,
0.460833333333333,0,0xC512,
0.460849166666667,0,0xE04C,
0.460857125000000,0,0xC612,
0.460872958333333,0,0x8003,
0.460880875000000,0,0xC712,
0.460896750000000,0,0xA2FD,
0.460904666666667,0,0xC812,
0.460920541666667,0,0x9E3D,
0.460928458333333,0,0xC912,
0.460944291666667,0,0x9E3F,
0.460952250000000,0,0xCA12,
0.460984208333333,0,0x0004,
0.460991875000000,0,0x0325,
0.461007916666667,0,0x0A01,
0.461015791666667,0,0x8325,
0.461031500000000,0,0x0F00,
0.461039375000000,0,0x8425,
0.461055083333333,0,0x0000,
0.461062958333333,0,0x8522,
0.461078666666667,0,0x273F,
0.461086541666667,0,0x8625,
0.461117125000000,0,0x0001,
0.461124791666667,0,0x1D29,
0.461141083333333,0,0x0055,
0.461148958333333,0,0x9D29,
0.461176708333333,0,0x0003,
0.461184375000000,0,0x242D,
0.461200583333333,0,0x004C,
0.461208416666667,0,0xA422,
0.461224166666667,0,0x0040,
0.461232000000000,0,0xA522,
0.461247750000000,0,0x0000,
0.461255583333333,0,0xA622,
0.461284416666667,0,0x0005,
0.461292083333333,0,0x2D21,
0.461308166666667,0,0x236D,
0.461316041666667,0,0xAD22,
0.461331791666667,0,0xFFFF,
0.461339625000000,0,0xAE22,
0.461355375000000,0,0xE177,
0.461363208333333,0,0xAF22,
0.461378916666667,0,0x8000,
0.461386791666667,0,0xB022,
0.461402541666667,0,0x8301,
0.461410416666667,0,0xB122,
0.461440375000000,0,0x0006,
0.461448041666667,0,0x3B25,
0.461464458333333,0,0xE561,
0.461472291666667,0,0xBB22,
0.461488041666667,0,0x8000,
0.461495916666667,0,0xBC22,
0.461511625000000,0,0x8000,
0.461519500000000,0,0xBD22,
0.461535208333333,0,0x8000,
0.461543041666667,0,0xBE22,
0.461558791666667,0,0xE5FB,
0.461566666666667,0,0xBF22,
0.461582375000000,0,0xE60F,
0.461590250000000,0,0xC022,
0.461620083333333,0,0x000A,
0.461627750000000,0,0x4129,
0.461643791666667,0,0xDEF6,
0.461651666666667,0,0xC122,
0.461667416666667,0,0xDFFA,
0.461675250000000,0,0xC222,
0.461691000000000,0,0xE00F,
0.461698833333333,0,0xC322,
0.461714541666667,0,0xE14E,
0.461722416666667,0,0xC422,
0.461738125000000,0,0xA995,
0.461746000000000,0,0xC522,
0.461761708333333,0,0xFF51,
0.461769583333333,0,0xC622,
0.461785333333333,0,0xC015,
0.461793166666667,0,0xC722,
0.461808875000000,0,0xA2DD,
0.461816750000000,0,0xC822,
0.461832458333333,0,0x9E40,
0.461840333333333,0,0xC922,
0.461856083333333,0,0x9E3F,
0.461863958333333,0,0xCA22,
0.469321000000000,0,0x3C3F,
0.469328708333333,0,0x060F,
0.469356291666667,0,0x0004,
0.469363958333333,0,0x0311,
0.469380125000000,0,0x0A01,
0.469388083333333,0,0x8311,
0.469403916666667,0,0x0F00,
0.469411875000000,0,0x8411,
0.469427708333333,0,0x0000,
0.469435625000000,0,0x8513,
0.469451500000000,0,0x3F3F,
0.469459416666667,0,0x8611,
0.469490333333333,0,0x0004,
0.469498041666667,0,0x0315,
0.469514416666667,0,0x0A01,
0.469522333333333,0,0x8315,
0.469538208333333,0,0x0F00,
0.469546125000000,0,0x8415,
0.469562000000000,0,0x0000,
0.469569916666667,0,0x8513,
0.469585791666667,0,0x3F3F,
0.469593708333333,0,0x8615,
0.469624500000000,0,0x0004,
0.469632166666667,0,0x0319,
0.469648166666667,0,0x0A01,
0.469656125000000,0,0x8319,
0.469671958333333,0,0x0F00,
0.469679916666667,0,0x8419,
0.469695750000000,0,0x0000,
0.469703666666667,0,0x8513,
0.469719541666667,0,0x3F3F,
0.469727458333333,0,0x8619,
0.469757541666667,0,0x0004,
0.469765208333333,0,0x031D,
0.469781458333333,0,0x0A01,
0.469789375000000,0,0x831D,
0.469805250000000,0,0x0F00,
0.469813166666667,0,0x841D,
0.469829000000000,0,0x0000,
0.469836958333333,0,0x8513,
0.469852791666667,0,0x3F3F,
0.469860708333333,0,0x861D,
0.469891791666667,0,0x0004,
0.469899500000000,0,0x0311,
0.469915708333333,0,0x0A01,
0.469923625000000,0,0x8311,
0.469939500000000,0,0x0F00,
0.469947416666667,0,0x8411,
0.469963250000000,0,0x0000,
0.469971208333333,0,0x8513,
0.469987041666667,0,0x373F,
0.469994958333333,0,0x8611,
0.470025291666667,0,0x0001,
0.470032958333333,0,0x1D15,
0.470048958333333,0,0x1551,
0.470056875000000,0,0x9D15,
0.470085250000000,0,0x0003,
0.470092916666667,0,0x2419,
0.470108875000000,0,0x0048,
0.470116791666667,0,0xA413,
0.470132625000000,0,0x0040,
0.470140583333333,0,0xA513,
0.470156416666667,0,0x0000,
0.470164333333333,0,0xA613,
0.470193791666667,0,0x0005,
0.470201458333333,0,0x2D1D,
0.470217833333333,0,0x2412,
0.470225750000000,0,0xAD13,
0.470241583333333,0,0xFFFF,
0.470249541666667,0,0xAE13,
0.470265375000000,0,0xA146,
0.470273291666667,0,0xAF13,
0.470289125000000,0,0xFFFF,
0.470297083333333,0,0xB013,
0.470312916666667,0,0x830B,
0.470320833333333,0,0xB113,
0.470350500000000,0,0x0006,
0.470358208333333,0,0x3B11,
0.470374333333333,0,0xB3F8,
0.470382208333333,0,0xBB13,
0.470398083333333,0,0xB34B,
0.470406041666667,0,0xBC13,
0.470421875000000,0,0xB2D8,
0.470429791666667,0,0xBD13,
0.470445625000000,0,0xB21E,
0.470453583333333,0,0xBE13,
0.470469416666667,0,0xB219,
0.470477333333333,0,0xBF13,
0.470493166666667,0,0xB291,
0.470501083333333,0,0xC013,
0.470530958333333,0,0x000A,
0.470538625000000,0,0x4115,
0.470555083333333,0,0xC0C7,
0.470563000000000,0,0xC113,
0.470578833333333,0,0xC0C1,
0.470586750000000,0,0xC213,
0.470602583333333,0,0xC0C8,
0.470610500000000,0,0xC313,
0.470626333333333,0,0xC0C7,
0.470634250000000,0,0xC413,
0.470650083333333,0,0xC0C7,
0.470658041666667,0,0xC513,
0.470673875000000,0,0xE052,
0.470681791666667,0,0xC613,
0.470697625000000,0,0x8005,
0.470705583333333,0,0xC713,
0.470721416666667,0,0xA2FB,
0.470729333333333,0,0xC813,
0.470745166666667,0,0x9E3B,
0.470753125000000,0,0xC913,
0.470768958333333,0,0x9E3E,
0.470776875000000,0,0xCA13,
0.470808791666667,0,0x0004,
0.470816458333333,0,0x0329,
0.470832500000000,0,0x0A01,
0.470840375000000,0,0x8329,
0.470856083333333,0,0x0F00,
0.470863958333333,0,0x8429,
0.470879666666667,0,0x0000,
0.470887541666667,0,0x8523,
0.470903250000000,0,0x373F,
0.470911125000000,0,0x8629,
0.470941958333333,0,0x0001,
0.470949625000000,0,0x1D2D,
0.470965666666667,0,0x0055,
0.470973541666667,0,0x9D2D,
0.471001541666667,0,0x0003,
0.471009208333333,0,0x2421,
0.471025625000000,0,0x004C,
0.471033500000000,0,0xA423,
0.471049166666667,0,0x0040,
0.471057041666667,0,0xA523,
0.471072791666667,0,0x0000,
0.471080625000000,0,0xA623,
0.471109708333333,0,0x0005,
0.471117375000000,0,0x2D25,
0.471133708333333,0,0x2474,
0.471141583333333,0,0xAD23,
0.471157291666667,0,0xFFFF,
0.471165166666667,0,0xAE23,
0.471180875000000,0,0xE056,
0.471188708333333,0,0xAF23,
0.471204458333333,0,0x8000,
0.471212333333333,0,0xB023,
0.471228041666667,0,0x8305,
0.471235916666667,0,0xB123,
0.471266208333333,0,0x0006,
0.471273875000000,0,0x3B29,
0.471289958333333,0,0xE55E,
0.471297833333333,0,0xBB23,
0.471313541666667,0,0x8000,
0.471321416666667,0,0xBC23,
0.471337125000000,0,0x8000,
0.471345000000000,0,0xBD23,
0.471360708333333,0,0x8001,
0.471368583333333,0,0xBE23,
0.471384291666667,0,0xE5FD,
0.471392166666667,0,0xBF23,
0.471407916666667,0,0xE614,
0.471415750000000,0,0xC023,
0.471446500000000,0,0x000A,
0.471454166666667,0,0x412D,
0.471470291666667,0,0xDEEF,
0.471478166666667,0,0xC123,
0.471493875000000,0,0xDFF6,
0.471501750000000,0,0xC223,
0.471517458333333,0,0xE00A,
0.471525333333333,0,0xC323,
0.471541083333333,0,0xE14B,
0.471548916666667,0,0xC423,
0.471564666666667,0,0xA990,
0.471572541666667,0,0xC523,
0.471588208333333,0,0xFF52,
0.471596083333333,0,0xC623,
0.471611833333333,0,0xC00F,
0.471619666666667,0,0xC723,
0.471635375000000,0,0xA2E0,
0.471643250000000,0,0xC823,
0.471659000000000,0,0x9E38,
0.471666833333333,0,0xC923,
0.471682583333333,0,0x9E3F,
0.471690416666667,0,0xCA23,
0.479342708333333,0,0x4C3F,
0.479350416666667,0,0x0603,
0.479377500000000,0,0x0004,
0.479385166666667,0,0x0315,
0.479401625000000,0,0x0A01,
0.479409541666667,0,0x8315,
0.479425416666667,0,0x0F00,
0.479433291666667,0,0x8415,
0.479449166666667,0,0x0000,
0.479457083333333,0,0x8514,
0.479472958333333,0,0x4F3F,
0.479480916666667,0,0x8615,
0.479511333333333,0,0x0004,
0.479519000000000,0,0x0319,
0.479535416666667,0,0x0A01,
0.479543333333333,0,0x8319,
0.479559208333333,0,0x0F00,
0.479567125000000,0,0x8419,
0.479583000000000,0,0x0000,
0.479590916666667,0,0x8514,
0.479606791666667,0,0x4F3F,
0.479614708333333,0,0x8619,
0.479645958333333,0,0x0004,
0.479653625000000,0,0x031D,
0.479669708333333,0,0x0A01,
0.479677625000000,0,0x831D,
0.479693500000000,0,0x0F00,
0.479701416666667,0,0x841D,
0.479717291666667,0,0x0000,
0.479725250000000,0,0x8514,
0.479741083333333,0,0x4F3F,
0.479749000000000,0,0x861D,
0.479779416666667,0,0x0004,
0.479787083333333,0,0x0311,
0.479803041666667,0,0x0A01,
0.479811000000000,0,0x8311,
0.479826833333333,0,0x0F00,
0.479834750000000,0,0x8411,
0.479850625000000,0,0x0000,
0.479858541666667,0,0x8514,
0.479874416666667,0,0x4F3F,
0.479882333333333,0,0x8611,
0.479913333333333,0,0x0004,
0.479921000000000,0,0x0315,
0.479937333333333,0,0x0A01,
0.479945250000000,0,0x8315,
0.479961083333333,0,0x0F00,
0.479969041666667,0,0x8415,
0.479984875000000,0,0x0000,
0.479992791666667,0,0x8514,
0.480008666666667,0,0x473F,
0.480016583333333,0,0x8615,
0.480047291666667,0,0x0001,
0.480055000000000,0,0x1D19,
0.480071083333333,0,0x1551,
0.480079000000000,0,0x9D19,
0.480106958333333,0,0x0003,
0.480114625000000,0,0x241D,
0.480131000000000,0,0x0048,
0.480138916666667,0,0xA414,
0.480154750000000,0,0x0040,
0.480162708333333,0,0xA514,
0.480178541666667,0,0x0000,
0.480186500000000,0,0xA614,
0.480215625000000,0,0x0005,
0.480223291666667,0,0x2D11,
0.480239458333333,0,0x251D,
0.480247375000000,0,0xAD14,
0.480263250000000,0,0xFFFF,
0.480271166666667,0,0xAE14,
0.480287041666667,0,0x9F2A,
0.480294958333333,0,0xAF14,
0.480310791666667,0,0xFFFF,
0.480318750000000,0,0xB014,
0.480334583333333,0,0x830F,
0.480342500000000,0,0xB114,
0.480372416666667,0,0x0006,
0.480380125000000,0,0x3B15,
0.480396458333333,0,0xB3F9,
0.480404416666667,0,0xBB14,
0.480420250000000,0,0xB349,
0.480428166666667,0,0xBC14,
0.480444000000000,0,0xB2D8,
0.480451958333333,0,0xBD14,
0.480467791666667,0,0xB21A,
0.480475708333333,0,0xBE14,
0.480491583333333,0,0xB21C,
0.480499500000000,0,0xBF14,
0.480515333333333,0,0xB290,
0.480523291666667,0,0xC014,
0.480553291666667,0,0x000A,
0.480560958333333,0,0x4119,
0.480577250000000,0,0xC0C4,
0.480585166666667,0,0xC114,
0.480601041666667,0,0xC0B9,
0.480608958333333,0,0xC214,
0.480624791666667,0,0xC0C0,
0.480632750000000,0,0xC314,
0.480648583333333,0,0xC0C1,
0.480656500000000,0,0xC414,
0.480672375000000,0,0xC0C4,
0.480680291666667,0,0xC514,
0.480696125000000,0,0xE047,
0.480704041666667,0,0xC614,
0.480719875000000,0,0x8000,
0.480727833333333,0,0xC714,
0.480743666666667,0,0xA2FC,
0.480751583333333,0,0xC814,
0.480767458333333,0,0x9E3B,
0.480775375000000,0,0xC914,
0.480791208333333,0,0x9E3C,
0.480799125000000,0,0xCA14,
0.480831875000000,0,0x0004,
0.480839541666667,0,0x032D,
0.480855666666667,0,0x0A01,
0.480863500000000,0,0x832D,
0.480879250000000,0,0x0F00,
0.480887125000000,0,0x842D,
0.480902833333333,0,0x0000,
0.480910708333333,0,0x8524,
0.480926416666667,0,0x473F,
0.480934291666667,0,0x862D,
0.480964958333333,0,0x0001,
0.480972666666667,0,0x1D21,
0.480988833333333,0,0x0055,
0.480996708333333,0,0x9D21,
0.481024500000000,0,0x0003,
0.481032208333333,0,0x2425,
0.481048291666667,0,0x004C,
0.481056166666667,0,0xA424,
0.481071875000000,0,0x0040,
0.481079750000000,0,0xA524,
0.481095458333333,0,0x0000,
0.481103333333333,0,0xA624,
0.481132125000000,0,0x0005,
0.481139791666667,0,0x2D29,
0.481155875000000,0,0x2580,
0.481163750000000,0,0xAD24,
0.481179500000000,0,0xFFFF,
0.481187375000000,0,0xAE24,
0.481203083333333,0,0xDF59,
0.481210958333333,0,0xAF24,
0.481226666666667,0,0xFFFF,
0.481234541666667,0,0xB024,
0.481250250000000,0,0x830F,
0.481258125000000,0,0xB124,
0.481289458333333,0,0x0006,
0.481297125000000,0,0x3B2D,
0.481313166666667,0,0xE55D,
0.481321000000000,0,0xBB24,
0.481336750000000,0,0x8000,
0.481344625000000,0,0xBC24,
0.481360333333333,0,0x8000,
0.481368166666667,0,0xBD24,
0.481383916666667,0,0x8000,
0.481391791666667,0,0xBE24,
0.481407500000000,0,0xE5FB,
0.481415333333333,0,0xBF24,
0.481431083333333,0,0xE614,
0.481438958333333,0,0xC024,
0.481469291666667,0,0x000A,
0.481477000000000,0,0x4121,
0.481493000000000,0,0xDEF3,
0.481500875000000,0,0xC124,
0.481516583333333,0,0xDFF8,
0.481524458333333,0,0xC224,
0.481540166666667,0,0xE00E,
0.481548041666667,0,0xC324,
0.481563750000000,0,0xE150,
0.481571625000000,0,0xC424,
0.481587333333333,0,0xA992,
0.481595208333333,0,0xC524,
0.481610958333333,0,0xFF52,
0.481618791666667,0,0xC624,
0.481634541666667,0,0xC010,
0.481642375000000,0,0xC724,
0.481658125000000,0,0xA2DF,
0.481666000000000,0,0xC824,
0.481681708333333,0,0x9E39,
0.481689541666667,0,0xC924,
0.481705291666667,0,0x9E3D,
0.481713125000000,0,0xCA24,
0.489287375000000,0,0x5C3F,
0.489295041666667,0,0x0607,
0.489322708333333,0,0x0004,
0.489330416666667,0,0x0319,
0.489346500000000,0,0x0A01,
0.489354416666667,0,0x8319,
0.489370250000000,0,0x0F00,
0.489378208333333,0,0x8419,
0.489394041666667,0,0x0000,
0.489401958333333,0,0x8515,
0.489417833333333,0,0x5F3F,
0.489425750000000,0,0x8619,
0.489456541666667,0,0x0004,
0.489464208333333,0,0x031D,
0.489480250000000,0,0x0A01,
0.489488166666667,0,0x831D,
0.489504000000000,0,0x0F00,
0.489511958333333,0,0x841D,
0.489527791666667,0,0x0000,
0.489535708333333,0,0x8515,
0.489551583333333,0,0x5F3F,
0.489559500000000,0,0x861D,
0.489590833333333,0,0x0004,
0.489598500000000,0,0x0311,
0.489614500000000,0,0x0A01,
0.489622458333333,0,0x8311,
0.489638291666667,0,0x0F00,
0.489646208333333,0,0x8411,
0.489662083333333,0,0x0000,
0.489670000000000,0,0x8515,
0.489685833333333,0,0x5F3F,
0.489693791666667,0,0x8611,
0.489724000000000,0,0x0004,
0.489731708333333,0,0x0315,
0.489747791666667,0,0x0A01,
0.489755708333333,0,0x8315,
0.489771541666667,0,0x0F00,
0.489779458333333,0,0x8415,
0.489795333333333,0,0x0000,
0.489803250000000,0,0x8515,
0.489819125000000,0,0x5F3F,
0.489827041666667,0,0x8615,
0.489857875000000,0,0x0004,
0.489865541666667,0,0x0319,
0.489882000000000,0,0x0A01,
0.489889958333333,0,0x8319,
0.489905791666667,0,0x0F00,
0.489913708333333,0,0x8419,
0.489929541666667,0,0x0000,
0.489937500000000,0,0x8515,
0.489953333333333,0,0x573F,
0.489961291666667,0,0x8619,
0.489992541666667,0,0x0001,
0.490000208333333,0,0x1D1D,
0.490016250000000,0,0x1551,
0.490024166666667,0,0x9D1D,
0.490052916666667,0,0x0003,
0.490060583333333,0,0x2411,
0.490076708333333,0,0x0048,
0.490084625000000,0,0xA415,
0.490100458333333,0,0x0040,
0.490108416666667,0,0xA515,
0.490124250000000,0,0x0000,
0.490132166666667,0,0xA615,
0.490160958333333,0,0x0005,
0.490168625000000,0,0x2D15,
0.490184708333333,0,0x2625,
0.490192625000000,0,0xAD15,
0.490208458333333,0,0xFFFF,
0.490216416666667,0,0xAE15,
0.490232250000000,0,0x9CCE,
0.490240166666667,0,0xAF15,
0.490256000000000,0,0xFFFF,
0.490263958333333,0,0xB015,
0.490279791666667,0,0x830D,
0.490287708333333,0,0xB115,
0.490317250000000,0,0x0006,
0.490324916666667,0,0x3B19,
0.490341208333333,0,0xB3FB,
0.490349166666667,0,0xBB15,
0.490365000000000,0,0xB34C,
0.490372916666667,0,0xBC15,
0.490388791666667,0,0xB2DA,
0.490396708333333,0,0xBD15,
0.490412541666667,0,0xB219,
0.490420458333333,0,0xBE15,
0.490436333333333,0,0xB21D,
0.490444250000000,0,0xBF15,
0.490460083333333,0,0xB292,
0.490468041666667,0,0xC015,
0.490497875000000,0,0x000A,
0.490505541666667,0,0x411D,
0.490521541666667,0,0xC0BE,
0.490529458333333,0,0xC115,
0.490545291666667,0,0xC0BC,
0.490553250000000,0,0xC215,
0.490569083333333,0,0xC0C3,
0.490577000000000,0,0xC315,
0.490592875000000,0,0xC0BF,
0.490600791666667,0,0xC415,
0.490616625000000,0,0xC0C1,
0.490624541666667,0,0xC515,
0.490640416666667,0,0xE04C,
0.490648333333333,0,0xC615,
0.490664208333333,0,0x8000,
0.490672125000000,0,0xC715,
0.490687958333333,0,0xA2FA,
0.490695875000000,0,0xC815,
0.490711750000000,0,0x9E3A,
0.490719666666667,0,0xC915,
0.490735500000000,0,0x9E3E,
0.490743416666667,0,0xCA15,
0.490776291666667,0,0x0004,
0.490783958333333,0,0x0321,
0.490799916666667,0,0x0A01,
0.490807791666667,0,0x8321,
0.490823500000000,0,0x0F00,
0.490831375000000,0,0x8421,
0.490847083333333,0,0x0000,
0.490854958333333,0,0x8525,
0.490870666666667,0,0x573F,
0.490878541666667,0,0x8621,
0.490909375000000,0,0x0001,
0.490917083333333,0,0x1D25,
0.490933083333333,0,0x0055,
0.490940916666667,0,0x9D25,
0.490969125000000,0,0x0003,
0.490976791666667,0,0x2429,
0.490993000000000,0,0x004C,
0.491000875000000,0,0xA425,
0.491016583333333,0,0x0040,
0.491024458333333,0,0xA525,
0.491040166666667,0,0x0000,
0.491048041666667,0,0xA625,
0.491076833333333,0,0x0005,
0.491084500000000,0,0x2D2D,
0.491100625000000,0,0x268B,
0.491108500000000,0,0xAD25,
0.491124208333333,0,0xFFFF,
0.491132041666667,0,0xAE25,
0.491147791666667,0,0xDF9B,
0.491155666666667,0,0xAF25,
0.491171375000000,0,0x8000,
0.491179250000000,0,0xB025,
0.491194958333333,0,0x8301,
0.491202833333333,0,0xB125,
0.491232375000000,0,0x0006,
0.491240041666667,0,0x3B21,
0.491256375000000,0,0xE561,
0.491264208333333,0,0xBB25,
0.491279958333333,0,0x8003,
0.491287833333333,0,0xBC25,
0.491303541666667,0,0x8000,
0.491311416666667,0,0xBD25,
0.491327125000000,0,0x8000,
0.491335000000000,0,0xBE25,
0.491350708333333,0,0xE5FE,
0.491358583333333,0,0xBF25,
0.491374333333333,0,0xE613,
0.491382166666667,0,0xC025,
0.491413250000000,0,0x000A,
0.491420916666667,0,0x4125,
0.491437250000000,0,0xDEF4,
0.491445083333333,0,0xC125,
0.491460833333333,0,0xDFF9,
0.491468666666667,0,0xC225,
0.491484416666667,0,0xE012,
0.491492291666667,0,0xC325,
0.491508000000000,0,0xE150,
0.491515833333333,0,0xC425,
0.491531583333333,0,0xA993,
0.491539416666667,0,0xC525,
0.491555166666667,0,0xFF4E,
0.491563000000000,0,0xC625,
0.491578750000000,0,0xC014,
0.491586583333333,0,0xC725,
0.491602333333333,0,0xA2DE,
0.491610166666667,0,0xC825,
0.491625875000000,0,0x9E3B,
0.491633750000000,0,0xC925,
0.491649500000000,0,0x9E3F,
0.491657333333333,0,0xCA25,
0.499342416666667,0,0x6C3F,
0.499350083333333,0,0x060B,
0.499377333333333,0,0x0004,
0.499385000000000,0,0x031D,
0.499401041666667,0,0x0A01,
0.499408958333333,0,0x831D,
0.499424833333333,0,0x0F00,
0.499432750000000,0,0x841D,
0.499448625000000,0,0x0000,
0.499456541666667,0,0x8516,
0.499472375000000,0,0x6F3F,
0.499480333333333,0,0x861D,
0.499511041666667,0,0x0004,
0.499518750000000,0,0x0311,
0.499534791666667,0,0x0A01,
0.499542750000000,0,0x8311,
0.499558583333333,0,0x0F00,
0.499566541666667,0,0x8411,
0.499582375000000,0,0x0000,
0.499590291666667,0,0x8516,
0.499606166666667,0,0x6F3F,
0.499614083333333,0,0x8611,
0.499645375000000,0,0x0004,
0.499653083333333,0,0x0315,
0.499669083333333,0,0x0A01,
0.499677000000000,0,0x8315,
0.499692875000000,0,0x0F00,
0.499700791666667,0,0x8415,
0.499716666666667,0,0x0000,
0.499724583333333,0,0x8516,
0.499740458333333,0,0x6F3F,
0.499748375000000,0,0x8615,
0.499779708333333,0,0x0004,
0.499787375000000,0,0x0319,
0.499803333333333,0,0x0A01,
0.499811291666667,0,0x8319,
0.499827125000000,0,0x0F00,
0.499835041666667,0,0x8419,
0.499850916666667,0,0x0000,
0.499858833333333,0,0x8516,
0.499874708333333,0,0x6F3F,
0.499882583333333,0,0x8619,
0.499913791666667,0,0x0004,
0.499921458333333,0,0x031D,
0.499937583333333,0,0x0A01,
0.499945500000000,0,0x831D,
0.499961375000000,0,0x0F00,
0.499969291666667,0,0x841D,
0.499985125000000,0,0x0000,
0.499993083333333,0,0x8516,
0.500008916666667,0,0x673F,
0.500016833333333,0,0x861D,
0.500047541666667,0,0x0001,
0.500055250000000,0,0x1D11,
0.500071291666667,0,0x1551,
0.500079250000000,0,0x9D11,
0.500107458333333,0,0x0003,
0.500115125000000,0,0x2415,
0.500131250000000,0,0x0048,
0.500139166666667,0,0xA416,
0.500155000000000,0,0x0040,
0.500162916666667,0,0xA516,
0.500178791666667,0,0x0000,
0.500186708333333,0,0xA616,
0.500216416666667,0,0x0005,
0.500224083333333,0,0x2D19,
0.500240166666667,0,0x2730,
0.500248125000000,0,0xAD16,
0.500263958333333,0,0xFFFF,
0.500271916666667,0,0xAE16,
0.500287750000000,0,0x9B03,
0.500295666666667,0,0xAF16,
0.500311500000000,0,0x8000,
0.500319458333333,0,0xB016,
0.500335291666667,0,0x8305,
0.500343208333333,0,0xB116,
0.500373791666667,0,0x0006,
0.500381458333333,0,0x3B1D,
0.500397708333333,0,0xB3FB,
0.500405625000000,0,0xBB16,
0.500421458333333,0,0xB348,
0.500429416666667,0,0xBC16,
0.500445250000000,0,0xB2D9,
0.500453166666667,0,0xBD16,
0.500469041666667,0,0xB21D,
0.500476958333333,0,0xBE16,
0.500492791666667,0,0xB21B,
0.500500750000000,0,0xBF16,
0.500516583333333,0,0xB290,
0.500524500000000,0,0xC016,
0.500554625000000,0,0x000A,
0.500562291666667,0,0x4111,
0.500578541666667,0,0xC0C0,
0.500586458333333,0,0xC116,
0.500602291666667,0,0xC0BF,
0.500610208333333,0,0xC216,
0.500626083333333,0,0xC0C2,
0.500634000000000,0,0xC316,
0.500649875000000,0,0xC0C2,
0.500657791666667,0,0xC416,
0.500673625000000,0,0xC0C3,
0.500681541666667,0,0xC516,
0.500697375000000,0,0xE049,
0.500705333333333,0,0xC616,
0.500721166666667,0,0x8000,
0.500729083333333,0,0xC716,
0.500744958333333,0,0xA2FD,
0.500752875000000,0,0xC816,
0.500768750000000,0,0x9E3A,
0.500776625000000,0,0xC916,
0.500792500000000,0,0x9E3B,
0.500800416666667,0,0xCA16,
0.500833250000000,0,0x0004,
0.500840916666667,0,0x0325,
0.500857291666667,0,0x0A01,
0.500865166666667,0,0x8325,
0.500880875000000,0,0x0F00,
0.500888750000000,0,0x8425,
0.500904458333333,0,0x0000,
0.500912333333333,0,0x8526,
0.500928041666667,0,0x673F,
0.500935916666667,0,0x8625,
0.500966958333333,0,0x0001,
0.500974666666667,0,0x1D29,
0.500990958333333,0,0x0055,
0.500998833333333,0,0x9D29,
0.501026416666667,0,0x0003,
0.501034083333333,0,0x242D,
0.501050458333333,0,0x004C,
0.501058333333333,0,0xA426,
0.501074041666667,0,0x0040,
0.501081916666667,0,0xA526,
0.501097625000000,0,0x0000,
0.501105500000000,0,0xA626,
0.501134208333333,0,0x0005,
0.501141875000000,0,0x2D21,
0.501158083333333,0,0x2798,
0.501165916666667,0,0xAD26,
0.501181666666667,0,0xFFFF,
0.501189541666667,0,0xAE26,
0.501205250000000,0,0xDF19,
0.501213083333333,0,0xAF26,
0.501228833333333,0,0x8000,
0.501236708333333,0,0xB026,
0.501252416666667,0,0x8303,
0.501260291666667,0,0xB126,
0.501291291666667,0,0x0006,
0.501298958333333,0,0x3B25,
0.501315333333333,0,0xE55E,
0.501323208333333,0,0xBB26,
0.501338958333333,0,0x8000,
0.501346791666667,0,0xBC26,
0.501362541666667,0,0x8000,
0.501370375000000,0,0xBD26,
0.501386125000000,0,0x8000,
0.501393958333333,0,0xBE26,
0.501409708333333,0,0xE5FE,
0.501417541666667,0,0xBF26,
0.501433291666667,0,0xE612,
0.501441166666667,0,0xC026,
0.501471541666667,0,0x000A,
0.501479250000000,0,0x4129,
0.501495208333333,0,0xDEF1,
0.501503041666667,0,0xC126,
0.501518791666667,0,0xDFF8,
0.501526666666667,0,0xC226,
0.501542375000000,0,0xE011,
0.501550250000000,0,0xC326,
0.501565958333333,0,0xE151,
0.501573833333333,0,0xC426,
0.501589541666667,0,0xA993,
0.501597416666667,0,0xC526,
0.501613125000000,0,0xFF4D,
0.501621000000000,0,0xC626,
0.501636708333333,0,0xC012,
0.501644583333333,0,0xC726,
0.501660333333333,0,0xA2E0,
0.501668166666667,0,0xC826,
0.501683916666667,0,0x9E3C,
0.501691750000000,0,0xC926,
0.501707500000000,0,0x9E3F,
0.501715375000000,0,0xCA26,
0.509325166666667,0,0x7C3F,
0.509332875000000,0,0x060F,
0.509360375000000,0,0x0004,
0.509368041666667,0,0x0311,
0.509384458333333,0,0x0A01,
0.509392416666667,0,0x8311,
0.509408250000000,0,0x0F00,
0.509416166666667,0,0x8411,
0.509432041666667,0,0x0000,
0.509439958333333,0,0x8517,
0.509455791666667,0,0x7F3F,
0.509463750000000,0,0x8611,
0.509494291666667,0,0x0004,
0.509502000000000,0,0x0315,
0.509518208333333,0,0x0A01,
0.509526166666667,0,0x8315,
0.509542000000000,0,0x0F00,
0.509549958333333,0,0x8415,
0.509565791666667,0,0x0000,
0.509573708333333,0,0x8517,
0.509589583333333,0,0x7F3F,
0.509597500000000,0,0x8615,
0.509628666666667,0,0x0004,
0.509636333333333,0,0x0319,
0.509652500000000,0,0x0A01,
0.509660416666667,0,0x8319,
0.509676291666667,0,0x0F00,
0.509684208333333,0,0x8419,
0.509700041666667,0,0x0000,
0.509708000000000,0,0x8517,
0.509723833333333,0,0x7F3F,
0.509731750000000,0,0x8619,
0.509762208333333,0,0x0004,
0.509769916666667,0,0x031D,
0.509786250000000,0,0x0A01,
0.509794208333333,0,0x831D,
0.509810041666667,0,0x0F00,
0.509817958333333,0,0x841D,
0.509833833333333,0,0x0000,
0.509841750000000,0,0x8517,
0.509857583333333,0,0x7F3F,
0.509865500000000,0,0x861D,
0.509895666666667,0,0x0004,
0.509903333333333,0,0x0311,
0.509919500000000,0,0x0A01,
0.509927416666667,0,0x8311,
0.509943291666667,0,0x0F00,
0.509951208333333,0,0x8411,
0.509967041666667,0,0x0000,
0.509974958333333,0,0x8517,
0.509990833333333,0,0x773F,
0.509998750000000,0,0x8611,
0.510029791666667,0,0x0001,
0.510037500000000,0,0x1D15,
0.510053708333333,0,0x1551,
0.510061666666667,0,0x9D15,
0.510089333333333,0,0x0003,
0.510097041666667,0,0x2419,
0.510113166666667,0,0x0048,
0.510121083333333,0,0xA417,
0.510136916666667,0,0x0040,
0.510144875000000,0,0xA517,
0.510160708333333,0,0x0000,
0.510168625000000,0,0xA617,
0.510197500000000,0,0x0005,
0.510205166666667,0,0x2D1D,
0.510221166666667,0,0x2839,
0.510229083333333,0,0xAD17,
0.510244916666667,0,0xFFFF,
0.510252833333333,0,0xAE17,
0.510268708333333,0,0x994D,
0.510276625000000,0,0xAF17,
0.510292458333333,0,0xFFFF,
0.510300375000000,0,0xB017,
0.510316250000000,0,0x830F,
0.510324166666667,0,0xB117,
0.510354583333333,0,0x0006,
0.510362250000000,0,0x3B11,
0.510378666666667,0,0xB3F8,
0.510386583333333,0,0xBB17,
0.510402416666667,0,0xB34B,
0.510410375000000,0,0xBC17,
0.510426208333333,0,0xB2D9,
0.510434125000000,0,0xBD17,
0.510450000000000,0,0xB219,
0.510457916666667,0,0xBE17,
0.510473750000000,0,0xB21B,
0.510481708333333,0,0xBF17,
0.510497541666667,0,0xB28F,
0.510505458333333,0,0xC017,
0.510535125000000,0,0x000A,
0.510542791666667,0,0x4115,
0.510558958333333,0,0xC0C5,
0.510566875000000,0,0xC117,
0.510582750000000,0,0xC0C0,
0.510590666666667,0,0xC217,
0.510606500000000,0,0xC0C6,
0.510614458333333,0,0xC317,
0.510630291666667,0,0xC0C5,
0.510638208333333,0,0xC417,
0.510654083333333,0,0xC0C6,
0.510662000000000,0,0xC517,
0.510677833333333,0,0xE04E,
0.510685791666667,0,0xC617,
0.510701625000000,0,0x8000,
0.510709541666667,0,0xC717,
0.510725416666667,0,0xA2FC,
0.510733333333333,0,0xC817,
0.510749166666667,0,0x9E3C,
0.510757125000000,0,0xC917,
0.510772958333333,0,0x9E3E,
0.510780875000000,0,0xCA17,
0.510813416666667,0,0x0004,
0.510821125000000,0,0x0329,
0.510837250000000,0,0x0A01,
0.510845125000000,0,0x8329,
0.510860833333333,0,0x0F00,
0.510868708333333,0,0x8429,
0.510884458333333,0,0x0000,
0.510892291666667,0,0x8527,
0.510908041666667,0,0x773F,
0.510915916666667,0,0x8629,
0.510946916666667,0,0x0001,
0.510954625000000,0,0x1D2D,
0.510970958333333,0,0x0055,
0.510978791666667,0,0x9D2D,
0.511007333333333,0,0x0003,
0.511015000000000,0,0x2421,
0.511031375000000,0,0x004C,
0.511039250000000,0,0xA427,
0.511054958333333,0,0x0040,
0.511062833333333,0,0xA527,
0.511078541666667,0,0x0000,
0.511086416666667,0,0xA627,
0.511115541666667,0,0x0005,
0.511123208333333,0,0x2D25,
0.511139500000000,0,0x28A3,
0.511147375000000,0,0xAD27,
0.511163083333333,0,0xFFFF,
0.511170958333333,0,0xAE27,
0.511186666666667,0,0xDE39,
0.511194541666667,0,0xAF27,
0.511210250000000,0,0xFFFF,
0.511218125000000,0,0xB027,
0.511233875000000,0,0x830F,
0.511241708333333,0,0xB127,
0.511272958333333,0,0x0006,
0.511280625000000,0,0x3B29,
0.511296750000000,0,0xE55E,
0.511304625000000,0,0xBB27,
0.511320333333333,0,0x8000,
0.511328208333333,0,0xBC27,
0.511343916666667,0,0x8000,
0.511351791666667,0,0xBD27,
0.511367500000000,0,0x8000,
0.511375375000000,0,0xBE27,
0.511391083333333,0,0xE600,
0.511398958333333,0,0xBF27,
0.511414666666667,0,0xE618,
0.511422541666667,0,0xC027,
0.511453375000000,0,0x000A,
0.511461083333333,0,0x412D,
0.511477083333333,0,0xDEF1,
0.511484958333333,0,0xC127,
0.511500666666667,0,0xDFF9,
0.511508541666667,0,0xC227,
0.511524250000000,0,0xE010,
0.511532125000000,0,0xC327,
0.511547875000000,0,0xE153,
0.511555708333333,0,0xC427,
0.511571458333333,0,0xA994,
0.511579333333333,0,0xC527,
0.511595041666667,0,0xFF52,
0.511602916666667,0,0xC627,
0.511618625000000,0,0xC010,
0.511626500000000,0,0xC727,
0.511642208333333,0,0xA2DE,
0.511650083333333,0,0xC827,
0.511665791666667,0,0x9E3E,
0.511673666666667,0,0xC927,
0.511689375000000,0,0x9E40,
0.511697250000000,0,0xCA27,
0.519331333333333,0,0x8C3F,
0.519339041666667,0,0x0603,
0.519366000000000,0,0x0004,
0.519373666666667,0,0x0315,
0.519390125000000,0,0x0A01,
0.519398041666667,0,0x8315,
0.519413916666667,0,0x0F00,
0.519421833333333,0,0x8415,
0.519437666666667,0,0x0000,
0.519445625000000,0,0x8518,
0.519461458333333,0,0x8F3F,
0.519469375000000,0,0x8615,
0.519499916666667,0,0x0004,
0.519507625000000,0,0x0319,
0.519523875000000,0,0x0A01,
0.519531791666667,0,0x8319,
0.519547666666667,0,0x0F00,
0.519555583333333,0,0x8419,
0.519571458333333,0,0x0000,
0.519579375000000,0,0x8518,
0.519595208333333,0,0x8F3F,
0.519603125000000,0,0x8619,
0.519634333333333,0,0x0004,
0.519642000000000,0,0x031D,
0.519658166666667,0,0x0A01,
0.519666083333333,0,0x831D,
0.519681958333333,0,0x0F00,
0.519689875000000,0,0x841D,
0.519705750000000,0,0x0000,
0.519713666666667,0,0x8518,
0.519729500000000,0,0x8F3F,
0.519737458333333,0,0x861D,
0.519767958333333,0,0x0004,
0.519775625000000,0,0x0311,
0.519791916666667,0,0x0A01,
0.519799833333333,0,0x8311,
0.519815708333333,0,0x0F00,
0.519823625000000,0,0x8411,
0.519839500000000,0,0x0000,
0.519847416666667,0,0x8518,
0.519863250000000,0,0x8F3F,
0.519871208333333,0,0x8611,
0.519902833333333,0,0x0004,
0.519910541666667,0,0x0315,
0.519926666666667,0,0x0A01,
0.519934583333333,0,0x8315,
0.519950416666667,0,0x0F00,
0.519958375000000,0,0x8415,
0.519974208333333,0,0x0000,
0.519982125000000,0,0x8518,
0.519997958333333,0,0x873F,
0.520005916666667,0,0x8615,
0.520036416666667,0,0x0001,
0.520044083333333,0,0x1D19,
0.520060375000000,0,0x1551,
0.520068333333333,0,0x9D19,
0.520096750000000,0,0x0003,
0.520104416666667,0,0x241D,
0.520120791666667,0,0x0048,
0.520128708333333,0,0xA418,
0.520144583333333,0,0x0040,
0.520152500000000,0,0xA518,
0.520168375000000,0,0x0000,
0.520176250000000,0,0xA618,
0.520205666666667,0,0x0005,
0.520213333333333,0,0x2D11,
0.520229750000000,0,0x2943,
0.520237708333333,0,0xAD18,
0.520253541666667,0,0xFFFF,
0.520261458333333,0,0xAE18,
0.520277291666667,0,0x9775,
0.520285250000000,0,0xAF18,
0.520301083333333,0,0xFFFF,
0.520309000000000,0,0xB018,
0.520324833333333,0,0x830F,
0.520332750000000,0,0xB118,
0.520363250000000,0,0x0006,
0.520370916666667,0,0x3B15,
0.520387250000000,0,0xB3FF,
0.520395166666667,0,0xBB18,
0.520411000000000,0,0xB34F,
0.520418958333333,0,0xBC18,
0.520434791666667,0,0xB2DD,
0.520442708333333,0,0xBD18,
0.520458583333333,0,0xB21E,
0.520466500000000,0,0xBE18,
0.520482333333333,0,0xB21F,
0.520490291666667,0,0xBF18,
0.520506125000000,0,0xB292,
0.520514041666667,0,0xC018,
0.520544000000000,0,0x000A,
0.520551666666667,0,0x4119,
0.520568041666667,0,0xC0C6,
0.520575958333333,0,0xC118,
0.520591791666667,0,0xC0C1,
0.520599750000000,0,0xC218,
0.520615583333333,0,0xC0C5,
0.520623500000000,0,0xC318,
0.520639333333333,0,0xC0C5,
0.520647291666667,0,0xC418,
0.520663125000000,0,0xC0C6,
0.520671041666667,0,0xC518,
0.520686916666667,0,0xE04E,
0.520694833333333,0,0xC618,
0.520710666666667,0,0x8002,
0.520718583333333,0,0xC718,
0.520734458333333,0,0xA2FD,
0.520742375000000,0,0xC818,
0.520758208333333,0,0x9E3A,
0.520766166666667,0,0xC918,
0.520782000000000,0,0x9E3F,
0.520789916666667,0,0xCA18,
0.520822583333333,0,0x0004,
0.520830250000000,0,0x032D,
0.520846500000000,0,0x0A01,
0.520854375000000,0,0x832D,
0.520870083333333,0,0x0F00,
0.520877958333333,0,0x842D,
0.520893666666667,0,0x0000,
0.520901541666667,0,0x8528,
0.520917250000000,0,0x873F,
0.520925125000000,0,0x862D,
0.520956041666667,0,0x0001,
0.520963750000000,0,0x1D21,
0.520980166666667,0,0x0055,
0.520988000000000,0,0x9D21,
0.521015666666667,0,0x0003,
0.521023333333333,0,0x2425,
0.521039625000000,0,0x004C,
0.521047500000000,0,0xA428,
0.521063208333333,0,0x0040,
0.521071083333333,0,0xA528,
0.521086791666667,0,0x0000,
0.521094666666667,0,0xA628,
0.521123708333333,0,0x0005,
0.521131375000000,0,0x2D29,
0.521147750000000,0,0x29AF,
0.521155625000000,0,0xAD28,
0.521171333333333,0,0xFFFF,
0.521179208333333,0,0xAE28,
0.521194916666667,0,0xDD4C,
0.521202791666667,0,0xAF28,
0.521218541666667,0,0x8000,
0.521226375000000,0,0xB028,
0.521242125000000,0,0x8301,
0.521249958333333,0,0xB128,
0.521281041666667,0,0x0006,
0.521288708333333,0,0x3B2D,
0.521305041666667,0,0xE55E,
0.521312916666667,0,0xBB28,
0.521328625000000,0,0x8000,
0.521336500000000,0,0xBC28,
0.521352250000000,0,0x8000,
0.521360083333333,0,0xBD28,
0.521375833333333,0,0x8001,
0.521383708333333,0,0xBE28,
0.521399416666667,0,0xE5FE,
0.521407291666667,0,0xBF28,
0.521423000000000,0,0xE614,
0.521430875000000,0,0xC028,
0.521461458333333,0,0x000A,
0.521469166666667,0,0x4121,
0.521485416666667,0,0xDEF0,
0.521493291666667,0,0xC128,
0.521509000000000,0,0xDFF4,
0.521516875000000,0,0xC228,
0.521532583333333,0,0xE013,
0.521540458333333,0,0xC328,
0.521556208333333,0,0xE154,
0.521564041666667,0,0xC428,
0.521579791666667,0,0xA997,
0.521587625000000,0,0xC528,
0.521603375000000,0,0xFF4F,
0.521611250000000,0,0xC628,
0.521626958333333,0,0xC013,
0.521634833333333,0,0xC728,
0.521650541666667,0,0xA2E1,
0.521658416666667,0,0xC828,
0.521674125000000,0,0x9E3B,
0.521682000000000,0,0xC928,
0.521697708333333,0,0x9E43,
0.521705583333333,0,0xCA28,
0.529311666666667,0,0x9C3F,
0.529319375000000,0,0x0607,
0.529347208333333,0,0x0004,
0.529354875000000,0,0x0319,
0.529371291666667,0,0x0A01,
0.529379208333333,0,0x8319,
0.529395041666667,0,0x0F00,
0.529403000000000,0,0x8419,
0.529418833333333,0,0x0000,
0.529426750000000,0,0x8519,
0.529442625000000,0,0x9F3F,
0.529450541666667,0,0x8619,
0.529480958333333,0,0x0004,
0.529488666666667,0,0x031D,
0.529505041666667,0,0x0A01,
0.529512958333333,0,0x831D,
0.529528833333333,0,0x0F00,
0.529536750000000,0,0x841D,
0.529552583333333,0,0x0000,
0.529560541666667,0,0x8519,
0.529576375000000,0,0x9F3F,
0.529584333333333,0,0x861D,
0.529615708333333,0,0x0004,
0.529623416666667,0,0x0311,
0.529639791666667,0,0x0A01,
0.529647750000000,0,0x8311,
0.529663583333333,0,0x0F00,
0.529671541666667,0,0x8411,
0.529687375000000,0,0x0000,
0.529695291666667,0,0x8519,
0.529711166666667,0,0x9F3F,
0.529719083333333,0,0x8611,
0.529749041666667,0,0x0004,
0.529756750000000,0,0x0315,
0.529773083333333,0,0x0A01,
0.529781000000000,0,0x8315,
0.529796875000000,0,0x0F00,
0.529804791666667,0,0x8415,
0.529820625000000,0,0x0000,
0.529828583333333,0,0x8519,
0.529844416666667,0,0x9F3F,
0.529852333333333,0,0x8615,
0.529882541666667,0,0x0004,
0.529890208333333,0,0x0319,
0.529906333333333,0,0x0A01,
0.529914250000000,0,0x8319,
0.529930125000000,0,0x0F00,
0.529938041666667,0,0x8419,
0.529953875000000,0,0x0000,
0.529961833333333,0,0x8519,
0.529977666666667,0,0x973F,
0.529985625000000,0,0x8619,
0.530016875000000,0,0x0001,
0.530024583333333,0,0x1D1D,
0.530040583333333,0,0x1551,
0.530048500000000,0,0x9D1D,
0.530076541666667,0,0x0003,
0.530084208333333,0,0x2411,
0.530100541666667,0,0x0048,
0.530108458333333,0,0xA419,
0.530124291666667,0,0x0040,
0.530132208333333,0,0xA519,
0.530148083333333,0,0x0000,
0.530156000000000,0,0xA619,
0.530184708333333,0,0x0005,
0.530192375000000,0,0x2D15,
0.530208541666667,0,0x2A4C,
0.530216458333333,0,0xAD19,
0.530232291666667,0,0xFFFF,
0.530240250000000,0,0xAE19,
0.530256083333333,0,0x95EE,
0.530264041666667,0,0xAF19,
0.530279875000000,0,0x8000,
0.530287791666667,0,0xB019,
0.530303666666667,0,0x8300,
0.530311583333333,0,0xB119,
0.530341250000000,0,0x0006,
0.530348958333333,0,0x3B19,
0.530365083333333,0,0xB3FE,
0.530373000000000,0,0xBB19,
0.530388833333333,0,0xB34F,
0.530396791666667,0,0xBC19,
0.530412625000000,0,0xB2DA,
0.530420541666667,0,0xBD19,
0.530436416666667,0,0xB21E,
0.530444333333333,0,0xBE19,
0.530460166666667,0,0xB220,
0.530468125000000,0,0xBF19,
0.530483958333333,0,0xB294,
0.530491916666667,0,0xC019,
0.530521791666667,0,0x000A,
0.530529500000000,0,0x411D,
0.530545916666667,0,0xC0C4,
0.530553833333333,0,0xC119,
0.530569708333333,0,0xC0C2,
0.530577625000000,0,0xC219,
0.530593458333333,0,0xC0C4,
0.530601375000000,0,0xC319,
0.530617250000000,0,0xC0C7,
0.530625166666667,0,0xC419,
0.530641000000000,0,0xC0C5,
0.530648958333333,0,0xC519,
0.530664791666667,0,0xE04B,
0.530672708333333,0,0xC619,
0.530688541666667,0,0x8000,
0.530696500000000,0,0xC719,
0.530712333333333,0,0xA300,
0.530720291666667,0,0xC819,
0.530736125000000,0,0x9E3B,
0.530744083333333,0,0xC919,
0.530759916666667,0,0x9E3B,
0.530767833333333,0,0xCA19,
0.530799916666667,0,0x0004,
0.530807583333333,0,0x0321,
0.530823958333333,0,0x0A01,
0.530831833333333,0,0x8321,
0.530847541666667,0,0x0F00,
0.530855416666667,0,0x8421,
0.530871125000000,0,0x0000,
0.530879000000000,0,0x8529,
0.530894708333333,0,0x973F,
0.530902583333333,0,0x8621,
0.530933041666667,0,0x0001,
0.530940750000000,0,0x1D25,
0.530957125000000,0,0x0055,
0.530964958333333,0,0x9D25,
0.530993041666667,0,0x0003,
0.531000708333333,0,0x2429,
0.531017041666667,0,0x004C,
0.531024916666667,0,0xA429,
0.531040625000000,0,0x0040,
0.531048500000000,0,0xA529,
0.531064208333333,0,0x0000,
0.531072083333333,0,0xA629,
0.531100958333333,0,0x0005,
0.531108625000000,0,0x2D2D,
0.531124666666667,0,0x2ABA,
0.531132541666667,0,0xAD29,
0.531148250000000,0,0xFFFF,
0.531156125000000,0,0xAE29,
0.531171833333333,0,0xDCB2,
0.531179708333333,0,0xAF29,
0.531195458333333,0,0x8000,
0.531203291666667,0,0xB029,
0.531219041666667,0,0x8304,
0.531226875000000,0,0xB129,
0.531257291666667,0,0x0006,
0.531264958333333,0,0x3B21,
0.531280958333333,0,0xE562,
0.531288791666667,0,0xBB29,
0.531304541666667,0,0x8002,
0.531312416666667,0,0xBC29,
0.531328125000000,0,0x8005,
0.531336000000000,0,0xBD29,
0.531351708333333,0,0x8000,
0.531359583333333,0,0xBE29,
0.531375333333333,0,0xE603,
0.531383166666667,0,0xBF29,
0.531398916666667,0,0xE61A,
0.531406791666667,0,0xC029,
0.531438083333333,0,0x000A,
0.531445750000000,0,0x4125,
0.531461833333333,0,0xDEF5,
0.531469708333333,0,0xC129,
0.531485416666667,0,0xDFF6,
0.531493291666667,0,0xC229,
0.531509000000000,0,0xE016,
0.531516875000000,0,0xC329,
0.531532583333333,0,0xE151,
0.531540458333333,0,0xC429,
0.531556166666667,0,0xA993,
0.531564041666667,0,0xC529,
0.531579750000000,0,0xFF4E,
0.531587625000000,0,0xC629,
0.531603333333333,0,0xC012,
0.531611208333333,0,0xC729,
0.531626916666667,0,0xA2DE,
0.531634791666667,0,0xC829,
0.531650500000000,0,0x9E3B,
0.531658375000000,0,0xC929,
0.531674083333333,0,0x9E40,
0.531681916666667,0,0xCA29,
0.539338875000000,0,0xAC3F,
0.539346541666667,0,0x060B,
0.539374000000000,0,0x0004,
0.539381666666667,0,0x031D,
0.539397791666667,0,0x0A01,
0.539405708333333,0,0x831D,
0.539421541666667,0,0x0F00,
0.539429500000000,0,0x841D,
0.539445333333333,0,0x0000,
0.539453250000000,0,0x851A,
0.539469083333333,0,0xAF3F,
0.539477041666667,0,0x861D,
0.539507708333333,0,0x0004,
0.539515416666667,0,0x0311,
0.539531541666667,0,0x0A01,
0.539539458333333,0,0x8311,
0.539555333333333,0,0x0F00,
0.539563250000000,0,0x8411,
0.539579083333333,0,0x0000,
0.539587000000000,0,0x851A,
0.539602875000000,0,0xAF3F,
0.539610791666667,0,0x8611,
0.539641666666667,0,0x0004,
0.539649333333333,0,0x0315,
0.539665333333333,0,0x0A01,
0.539673208333333,0,0x8315,
0.539689083333333,0,0x0F00,
0.539697000000000,0,0x8415,
0.539712833333333,0,0x0000,
0.539720791666667,0,0x851A,
0.539736625000000,0,0xAF3F,
0.539744541666667,0,0x8615,
0.539775125000000,0,0x0004,
0.539782791666667,0,0x0319,
0.539799041666667,0,0x0A01,
0.539806958333333,0,0x8319,
0.539822833333333,0,0x0F00,
0.539830750000000,0,0x8419,
0.539846583333333,0,0x0000,
0.539854541666667,0,0x851A,
0.539870375000000,0,0xAF3F,
0.539878291666667,0,0x8619,
0.539909041666667,0,0x0004,
0.539916750000000,0,0x031D,
0.539932750000000,0,0x0A01,
0.539940708333333,0,0x831D,
0.539956541666667,0,0x0F00,
0.539964458333333,0,0x841D,
0.539980333333333,0,0x0000,
0.539988250000000,0,0x851A,
0.540004083333333,0,0xA73F,
0.540012000000000,0,0x861D,
0.540042291666667,0,0x0001,
0.540049958333333,0,0x1D11,
0.540066000000000,0,0x1551,
0.540073916666667,0,0x9D11,
0.540102000000000,0,0x0003,
0.540109708333333,0,0x2415,
0.540125916666667,0,0x0048,
0.540133833333333,0,0xA41A,
0.540149708333333,0,0x0040,
0.540157625000000,0,0xA51A,
0.540173458333333,0,0x0000,
0.540181375000000,0,0xA61A,
0.540211458333333,0,0x0005,
0.540219125000000,0,0x2D19,
0.540235375000000,0,0x2B57,
0.540243291666667,0,0xAD1A,
0.540259166666667,0,0xFFFF,
0.540267083333333,0,0xAE1A,
0.540282958333333,0,0x9381,
0.540290875000000,0,0xAF1A,
0.540306708333333,0,0xFFFF,
0.540314666666667,0,0xB01A,
0.540330500000000,0,0x8308,
0.540338416666667,0,0xB11A,
0.540368041666667,0,0x0006,
0.540375708333333,0,0x3B1D,
0.540391916666667,0,0xB3F7,
0.540399875000000,0,0xBB1A,
0.540415708333333,0,0xB34D,
0.540423666666667,0,0xBC1A,
0.540439500000000,0,0xB2DD,
0.540447458333333,0,0xBD1A,
0.540463291666667,0,0xB21E,
0.540471208333333,0,0xBE1A,
0.540487083333333,0,0xB220,
0.540495000000000,0,0xBF1A,
0.540510875000000,0,0xB290,
0.540518791666667,0,0xC01A,
0.540549375000000,0,0x000A,
0.540557083333333,0,0x4111,
0.540573291666667,0,0xC0C0,
0.540581208333333,0,0xC11A,
0.540597083333333,0,0xC0BE,
0.540605000000000,0,0xC21A,
0.540620833333333,0,0xC0C5,
0.540628750000000,0,0xC31A,
0.540644625000000,0,0xC0C3,
0.540652541666667,0,0xC41A,
0.540668416666667,0,0xC0C4,
0.540676333333333,0,0xC51A,
0.540692166666667,0,0xE04B,
0.540700125000000,0,0xC61A,
0.540715958333333,0,0x8000,
0.540723916666667,0,0xC71A,
0.540739791666667,0,0xA2FD,
0.540747666666667,0,0xC81A,
0.540763541666667,0,0x9E3B,
0.540771458333333,0,0xC91A,
0.540787333333333,0,0x9E3C,
0.540795250000000,0,0xCA1A,
0.540828041666667,0,0x0004,
0.540835708333333,0,0x0325,
0.540851833333333,0,0x0A01,
0.540859708333333,0,0x8325,
0.540875416666667,0,0x0F00,
0.540883291666667,0,0x8425,
0.540899000000000,0,0x0000,
0.540906875000000,0,0x852A,
0.540922583333333,0,0xA73F,
0.540930458333333,0,0x8625,
0.540961791666667,0,0x0001,
0.540969458333333,0,0x1D29,
0.540985500000000,0,0x0055,
0.540993333333333,0,0x9D29,
0.541021750000000,0,0x0003,
0.541029416666667,0,0x242D,
0.541045458333333,0,0x004C,
0.541053291666667,0,0xA42A,
0.541069000000000,0,0x0040,
0.541076875000000,0,0xA52A,
0.541092583333333,0,0x0000,
0.541100458333333,0,0xA62A,
0.541130041666667,0,0x0005,
0.541137708333333,0,0x2D21,
0.541154041666667,0,0x2BC7,
0.541161875000000,0,0xAD2A,
0.541177625000000,0,0xFFFF,
0.541185500000000,0,0xAE2A,
0.541201208333333,0,0xDBFA,
0.541209083333333,0,0xAF2A,
0.541224791666667,0,0xFFFF,
0.541232666666667,0,0xB02A,
0.541248375000000,0,0x830A,
0.541256250000000,0,0xB12A,
0.541287333333333,0,0x0006,
0.541295000000000,0,0x3B25,
0.541311291666667,0,0xE55D,
0.541319166666667,0,0xBB2A,
0.541334875000000,0,0x8000,
0.541342708333333,0,0xBC2A,
0.541358458333333,0,0x8001,
0.541366333333333,0,0xBD2A,
0.541382041666667,0,0x8003,
0.541389916666667,0,0xBE2A,
0.541405625000000,0,0xE5FD,
0.541413500000000,0,0xBF2A,
0.541429208333333,0,0xE613,
0.541437083333333,0,0xC02A,
0.541467583333333,0,0x000A,
0.541475250000000,0,0x4129,
0.541491583333333,0,0xDEF5,
0.541499458333333,0,0xC12A,
0.541515166666667,0,0xDFF8,
0.541523041666667,0,0xC22A,
0.541538791666667,0,0xE016,
0.541546666666667,0,0xC32A,
0.541562375000000,0,0xE156,
0.541570250000000,0,0xC42A,
0.541585958333333,0,0xA992,
0.541593833333333,0,0xC52A,
0.541609541666667,0,0xFF52,
0.541617416666667,0,0xC62A,
0.541633125000000,0,0xC015,
0.541641000000000,0,0xC72A,
0.541656708333333,0,0xA2DF,
0.541664583333333,0,0xC82A,
0.541680333333333,0,0x9E3E,
0.541688166666667,0,0xC92A,
0.541703875000000,0,0x9E3F,
0.541711750000000,0,0xCA2A,
0.549340958333333,0,0xBC3F,
0.549348625000000,0,0x060F,
0.549376416666667,0,0x0004,
0.549384083333333,0,0x0311,
0.549400416666667,0,0x0A01,
0.549408375000000,0,0x8311,
0.549424208333333,0,0x0F00,
0.549432125000000,0,0x8411,
0.549448000000000,0,0x0000,
0.549455916666667,0,0x851B,
0.549471750000000,0,0xBF3F,
0.549479708333333,0,0x8611,
0.549510291666667,0,0x0004,
0.549517958333333,0,0x0315,
0.549534166666667,0,0x0A01,
0.549542083333333,0,0x8315,
0.549557958333333,0,0x0F00,
0.549565875000000,0,0x8415,
0.549581750000000,0,0x0000,
0.549589666666667,0,0x851B,
0.549605541666667,0,0xBF3F,
0.549613458333333,0,0x8615,
0.549644458333333,0,0x0004,
0.549652125000000,0,0x0319,
0.549668458333333,0,0x0A01,
0.549676375000000,0,0x8319,
0.549692208333333,0,0x0F00,
0.549700166666667,0,0x8419,
0.549716000000000,0,0x0000,
0.549723958333333,0,0x851B,
0.549739791666667,0,0xBF3F,
0.549747708333333,0,0x8619,
0.549778791666667,0,0x0004,
0.549786500000000,0,0x031D,
0.549802708333333,0,0x0A01,
0.549810625000000,0,0x831D,
0.549826500000000,0,0x0F00,
0.549834416666667,0,0x841D,
0.549850291666667,0,0x0000,
0.549858208333333,0,0x851B,
0.549874083333333,0,0xBF3F,
0.549882000000000,0,0x861D,
0.549912958333333,0,0x0004,
0.549920625000000,0,0x0311,
0.549936958333333,0,0x0A01,
0.549944875000000,0,0x8311,
0.549960750000000,0,0x0F00,
0.549968666666667,0,0x8411,
0.549984500000000,0,0x0000,
0.549992458333333,0,0x851B,
0.550008291666667,0,0xB73F,
0.550016250000000,0,0x8611,
0.550047000000000,0,0x0001,
0.550054666666667,0,0x1D15,
0.550070708333333,0,0x1551,
0.550078625000000,0,0x9D15,
0.550107125000000,0,0x0003,
0.550114791666667,0,0x2419,
0.550131166666667,0,0x0048,
0.550139083333333,0,0xA41B,
0.550154958333333,0,0x0040,
0.550162875000000,0,0xA51B,
0.550178708333333,0,0x0000,
0.550186666666667,0,0xA61B,
0.550216041666667,0,0x0005,
0.550223708333333,0,0x2D1D,
0.550240166666667,0,0x2C60,
0.550248083333333,0,0xAD1B,
0.550263916666667,0,0xFFFF,
0.550271875000000,0,0xAE1B,
0.550287708333333,0,0x90D0,
0.550295625000000,0,0xAF1B,
0.550311500000000,0,0xFFFF,
0.550319416666667,0,0xB01B,
0.550335291666667,0,0x830C,
0.550343208333333,0,0xB11B,
0.550373916666667,0,0x0006,
0.550381583333333,0,0x3B11,
0.550397708333333,0,0xB3FD,
0.550405625000000,0,0xBB1B,
0.550421500000000,0,0xB350,
0.550429416666667,0,0xBC1B,
0.550445291666667,0,0xB2E0,
0.550453208333333,0,0xBD1B,
0.550469041666667,0,0xB220,
0.550477000000000,0,0xBE1B,
0.550492833333333,0,0xB220,
0.550500750000000,0,0xBF1B,
0.550516625000000,0,0xB297,
0.550524541666667,0,0xC01B,
0.550555166666667,0,0x000A,
0.550562833333333,0,0x4115,
0.550579041666667,0,0xC0C3,
0.550586958333333,0,0xC11B,
0.550602791666667,0,0xC0C1,
0.550610708333333,0,0xC21B,
0.550626583333333,0,0xC0C6,
0.550634500000000,0,0xC31B,
0.550650375000000,0,0xC0C7,
0.550658291666667,0,0xC41B,
0.550674125000000,0,0xC0C5,
0.550682083333333,0,0xC51B,
0.550697916666667,0,0xE04D,
0.550705875000000,0,0xC61B,
0.550721708333333,0,0x8001,
0.550729625000000,0,0xC71B,
0.550745500000000,0,0xA2FF,
0.550753416666667,0,0xC81B,
0.550769250000000,0,0x9E3B,
0.550777208333333,0,0xC91B,
0.550793041666667,0,0x9E3A,
0.550800958333333,0,0xCA1B,
0.550833541666667,0,0x0004,
0.550841208333333,0,0x0329,
0.550857250000000,0,0x0A01,
0.550865125000000,0,0x8329,
0.550880833333333,0,0x0F00,
0.550888708333333,0,0x8429,
0.550904416666667,0,0x0000,
0.550912291666667,0,0x852B,
0.550928000000000,0,0xB73F,
0.550935875000000,0,0x8629,
0.550966416666667,0,0x0001,
0.550974083333333,0,0x1D2D,
0.550990416666667,0,0x0055,
0.550998291666667,0,0x9D2D,
0.551025791666667,0,0x0003,
0.551033458333333,0,0x2421,
0.551049875000000,0,0x004C,
0.551057750000000,0,0xA42B,
0.551073458333333,0,0x0040,
0.551081333333333,0,0xA52B,
0.551097083333333,0,0x0000,
0.551104916666667,0,0xA62B,
0.551133583333333,0,0x0005,
0.551141250000000,0,0x2D25,
0.551157500000000,0,0x2CD3,
0.551165333333333,0,0xAD2B,
0.551181083333333,0,0xFFFF,
0.551188916666667,0,0xAE2B,
0.551204666666667,0,0xDC11,
0.551212541666667,0,0xAF2B,
0.551228250000000,0,0x8000,
0.551236125000000,0,0xB02B,
0.551251833333333,0,0x8304,
0.551259708333333,0,0xB12B,
0.551291625000000,0,0x0006,
0.551299291666667,0,0x3B29,
0.551315250000000,0,0xE565,
0.551323083333333,0,0xBB2B,
0.551338791666667,0,0x8000,
0.551346666666667,0,0xBC2B,
0.551362375000000,0,0x8004,
0.551370250000000,0,0xBD2B,
0.551386000000000,0,0x8001,
0.551393833333333,0,0xBE2B,
0.551409583333333,0,0xE5FE,
0.551417416666667,0,0xBF2B,
0.551433125000000,0,0xE617,
0.551441000000000,0,0xC02B,
0.551471541666667,0,0x000A,
0.551479250000000,0,0x412D,
0.551495583333333,0,0xDEF2,
0.551503416666667,0,0xC12B,
0.551519166666667,0,0xDFF6,
0.551527041666667,0,0xC22B,
0.551542750000000,0,0xE018,
0.551550625000000,0,0xC32B,
0.551566333333333,0,0xE158,
0.551574208333333,0,0xC42B,
0.551589916666667,0,0xA998,
0.551597791666667,0,0xC52B,
0.551613541666667,0,0xFF51,
0.551621416666667,0,0xC62B,
0.551637125000000,0,0xC015,
0.551645000000000,0,0xC72B,
0.551660708333333,0,0xA2DF,
0.551668583333333,0,0xC82B,
0.551684291666667,0,0x9E3D,
0.551692166666667,0,0xC92B,
0.551707875000000,0,0x9E3E,
0.551715708333333,0,0xCA2B,
0.559479833333333,0,0xCC3F,
0.559487541666667,0,0x0603,
0.559514708333333,0,0x0004,
0.559522375000000,0,0x0315,
0.559538458333333,0,0x0A01,
0.559546375000000,0,0x8315,
0.559562208333333,0,0x0F00,
0.559570166666667,0,0x8415,
0.559586000000000,0,0x0000,
0.559593916666667,0,0x851C,
0.559609791666667,0,0xCF3F,
0.559617708333333,0,0x8615,
0.559649291666667,0,0x0004,
0.559657000000000,0,0x0319,
0.559673166666667,0,0x0A01,
0.559681083333333,0,0x8319,
0.559696958333333,0,0x0F00,
0.559704875000000,0,0x8419,
0.559720750000000,0,0x0000,
0.559728666666667,0,0x851C,
0.559744541666667,0,0xCF3F,
0.559752458333333,0,0x8619,
0.559784833333333,0,0x0004,
0.559792500000000,0,0x031D,
0.559808458333333,0,0x0A01,
0.559816375000000,0,0x831D,
0.559832250000000,0,0x0F00,
0.559840166666667,0,0x841D,
0.559856000000000,0,0x0000,
0.559863958333333,0,0x851C,
0.559879791666667,0,0xCF3F,
0.559887708333333,0,0x861D,
0.559918958333333,0,0x0004,
0.559926625000000,0,0x0311,
0.559942708333333,0,0x0A01,
0.559950666666667,0,0x8311,
0.559966500000000,0,0x0F00,
0.559974416666667,0,0x8411,
0.559990291666667,0,0x0000,
0.559998208333333,0,0x851C,
0.560014083333333,0,0xCF3F,
0.560022000000000,0,0x8611,
0.560053041666667,0,0x0004,
0.560060708333333,0,0x0315,
0.560076958333333,0,0x0A01,
0.560084875000000,0,0x8315,
0.560100750000000,0,0x0F00,
0.560108666666667,0,0x8415,
0.560124541666667,0,0x0000,
0.560132458333333,0,0x851C,
0.560148291666667,0,0xC73F,
0.560156208333333,0,0x8615,
0.560187000000000,0,0x0001,
0.560194708333333,0,0x1D19,
0.560210708333333,0,0x1551,
0.560218625000000,0,0x9D19,
0.560246458333333,0,0x0003,
0.560254166666667,0,0x241D,
0.560270166666667,0,0x0048,
0.560278041666667,0,0xA41C,
0.560293916666667,0,0x0040,
0.560301833333333,0,0xA51C,
0.560317666666667,0,0x0000,
0.560325625000000,0,0xA61C,
0.560355000000000,0,0x0005,
0.560362666666667,0,0x2D11,
0.560379083333333,0,0x2D6E,
0.560387000000000,0,0xAD1C,
0.560402875000000,0,0xFFFF,
0.560410791666667,0,0xAE1C,
0.560426625000000,0,0x8F2C,
0.560434583333333,0,0xAF1C,
0.560450416666667,0,0xFFFF,
0.560458333333333,0,0xB01C,
0.560474166666667,0,0x830C,
0.560482125000000,0,0xB11C,
0.560511583333333,0,0x0006,
0.560519291666667,0,0x3B15,
0.560535583333333,0,0xB3FB,
0.560543541666667,0,0xBB1C,
0.560559375000000,0,0xB34F,
0.560567333333333,0,0xBC1C,
0.560583166666667,0,0xB2DD,
0.560591083333333,0,0xBD1C,
0.560606958333333,0,0xB21D,
0.560614875000000,0,0xBE1C,
0.560630708333333,0,0xB223,
0.560638625000000,0,0xBF1C,
0.560654500000000,0,0xB295,
0.560662416666667,0,0xC01C,
0.560693000000000,0,0x000A,
0.560700708333333,0,0x4119,
0.560716916666667,0,0xC0C5,
0.560724833333333,0,0xC11C,
0.560740666666667,0,0xC0BF,
0.560748583333333,0,0xC21C,
0.560764458333333,0,0xC0C2,
0.560772375000000,0,0xC31C,
0.560788208333333,0,0xC0C4,
0.560796125000000,0,0xC41C,
0.560812000000000,0,0xC0C2,
0.560819916666667,0,0xC51C,
0.560835791666667,0,0xE04C,
0.560843708333333,0,0xC61C,
0.560859541666667,0,0x8001,
0.560867500000000,0,0xC71C,
0.560883333333333,0,0xA2FD,
0.560891250000000,0,0xC81C,
0.560907125000000,0,0x9E3A,
0.560915041666667,0,0xC91C,
0.560930916666667,0,0x9E3C,
0.560938833333333,0,0xCA1C,
0.560971291666667,0,0x0004,
0.560978958333333,0,0x032D,
0.560995291666667,0,0x0A01,
0.561003125000000,0,0x832D,
0.561018875000000,0,0x0F00,
0.561026708333333,0,0x842D,
0.561042416666667,0,0x0000,
0.561050291666667,0,0x852C,
0.561066041666667,0,0xC73F,
0.561073875000000,0,0x862D,
0.561104125000000,0,0x0001,
0.561111833333333,0,0x1D21,
0.561127958333333,0,0x0055,
0.561135791666667,0,0x9D21,
0.561164541666667,0,0x0003,
0.561172208333333,0,0x2425,
0.561188375000000,0,0x004C,
0.561196208333333,0,0xA42C,
0.561211916666667,0,0x0040,
0.561219791666667,0,0xA52C,
0.561235500000000,0,0x0000,
0.561243375000000,0,0xA62C,
0.561273291666667,0,0x0005,
0.561280958333333,0,0x2D29,
0.561296916666667,0,0x2DE2,
0.561304791666667,0,0xAD2C,
0.561320541666667,0,0xFFFF,
0.561328375000000,0,0xAE2C,
0.561344125000000,0,0xDC19,
0.561351958333333,0,0xAF2C,
0.561367708333333,0,0xFFFF,
0.561375583333333,0,0xB02C,
0.561391291666667,0,0x830C,
0.561399166666667,0,0xB12C,
0.561429041666667,0,0x0006,
0.561436750000000,0,0x3B2D,
0.561452750000000,0,0xE564,
0.561460583333333,0,0xBB2C,
0.561476333333333,0,0x8000,
0.561484166666667,0,0xBC2C,
0.561499916666667,0,0x8000,
0.561507750000000,0,0xBD2C,
0.561523500000000,0,0x8000,
0.561531333333333,0,0xBE2C,
0.561547083333333,0,0xE601,
0.561554916666667,0,0xBF2C,
0.561570666666667,0,0xE617,
0.561578500000000,0,0xC02C,
0.561608708333333,0,0x000A,
0.561616416666667,0,0x4121,
0.561632583333333,0,0xDEEF,
0.561640416666667,0,0xC12C,
0.561656166666667,0,0xDFF5,
0.561664000000000,0,0xC22C,
0.561679708333333,0,0xE018,
0.561687583333333,0,0xC32C,
0.561703333333333,0,0xE152,
0.561711208333333,0,0xC42C,
0.561726916666667,0,0xA995,
0.561734750000000,0,0xC52C,
0.561750500000000,0,0xFF4D,
0.561758333333333,0,0xC62C,
0.561774083333333,0,0xC00F,
0.561781916666667,0,0xC72C,
0.561797666666667,0,0xA2DF,
0.561805541666667,0,0xC82C,
0.561821250000000,0,0x9E38,
0.561829125000000,0,0xC92C,
0.561844875000000,0,0x9E3E,
0.561852708333333,0,0xCA2C,
0.569350041666667,0,0xDC3F,
0.569357708333333,0,0x0607,
0.569385000000000,0,0x0004,
0.569392666666667,0,0x0319,
0.569408916666667,0,0x0A01,
0.569416833333333,0,0x8319,
0.569432666666667,0,0x0F00,
0.569440625000000,0,0x8419,
0.569456458333333,0,0x0000,
0.569464416666667,0,0x851D,
0.569480250000000,0,0xDF3F,
0.569488208333333,0,0x8619,
0.569518500000000,0,0x0004,
0.569526208333333,0,0x031D,
0.569542208333333,0,0x0A01,
0.569550125000000,0,0x831D,
0.569566000000000,0,0x0F00,
0.569573916666667,0,0x841D,
0.569589750000000,0,0x0000,
0.569597708333333,0,0x851D,
0.569613541666667,0,0xDF3F,
0.569621500000000,0,0x861D,
0.569651875000000,0,0x0004,
0.569659583333333,0,0x0311,
0.569676000000000,0,0x0A01,
0.569683916666667,0,0x8311,
0.569699750000000,0,0x0F00,
0.569707708333333,0,0x8411,
0.569723583333333,0,0x0000,
0.569731500000000,0,0x851D,
0.569747375000000,0,0xDF3F,
0.569755291666667,0,0x8611,
0.569786833333333,0,0x0004,
0.569794500000000,0,0x0315,
0.569810791666667,0,0x0A01,
0.569818708333333,0,0x8315,
0.569834541666667,0,0x0F00,
0.569842500000000,0,0x8415,
0.569858333333333,0,0x0000,
0.569866250000000,0,0x851D,
0.569882125000000,0,0xDF3F,
0.569890041666667,0,0x8615,
0.569920250000000,0,0x0004,
0.569927916666667,0,0x0319,
0.569944041666667,0,0x0A01,
0.569951958333333,0,0x8319,
0.569967833333333,0,0x0F00,
0.569975708333333,0,0x8419,
0.569991583333333,0,0x0000,
0.569999500000000,0,0x851D,
0.570015375000000,0,0xD73F,
0.570023291666667,0,0x8619,
0.570053500000000,0,0x0001,
0.570061166666667,0,0x1D1D,
0.570077291666667,0,0x1551,
0.570085208333333,0,0x9D1D,
0.570113375000000,0,0x0003,
0.570121041666667,0,0x2411,
0.570137208333333,0,0x0048,
0.570145166666667,0,0xA41D,
0.570161000000000,0,0x0040,
0.570168916666667,0,0xA51D,
0.570184791666667,0,0x0000,
0.570192708333333,0,0xA61D,
0.570222166666667,0,0x0005,
0.570229833333333,0,0x2D15,
0.570246208333333,0,0x2E74,
0.570254125000000,0,0xAD1D,
0.570269958333333,0,0xFFFF,
0.570277916666667,0,0xAE1D,
0.570293750000000,0,0x8CDD,
0.570301666666667,0,0xAF1D,
0.570317541666667,0,0xFFFF,
0.570325458333333,0,0xB01D,
0.570341291666667,0,0x8309,
0.570349250000000,0,0xB11D,
0.570380000000000,0,0x0006,
0.570387708333333,0,0x3B19,
0.570403708333333,0,0xB3FE,
0.570411625000000,0,0xBB1D,
0.570427500000000,0,0xB350,
0.570435416666667,0,0xBC1D,
0.570451250000000,0,0xB2DE,
0.570459208333333,0,0xBD1D,
0.570475041666667,0,0xB21E,
0.570482958333333,0,0xBE1D,
0.570498833333333,0,0xB21C,
0.570506750000000,0,0xBF1D,
0.570522583333333,0,0xB290,
0.570530541666667,0,0xC01D,
0.570560708333333,0,0x000A,
0.570568416666667,0,0x411D,
0.570584500000000,0,0xC0C3,
0.570592416666667,0,0xC11D,
0.570608291666667,0,0xC0C1,
0.570616250000000,0,0xC21D,
0.570632083333333,0,0xC0C5,
0.570640000000000,0,0xC31D,
0.570655833333333,0,0xC0C8,
0.570663791666667,0,0xC41D,
0.570679666666667,0,0xC0C3,
0.570687583333333,0,0xC51D,
0.570703416666667,0,0xE04D,
0.570711375000000,0,0xC61D,
0.570727208333333,0,0x8000,
0.570735125000000,0,0xC71D,
0.570751000000000,0,0xA2FF,
0.570758916666667,0,0xC81D,
0.570774791666667,0,0x9E3E,
0.570782708333333,0,0xC91D,
0.570798583333333,0,0x9E3A,
0.570806458333333,0,0xCA1D,
0.570838833333333,0,0x0004,
0.570846541666667,0,0x0321,
0.570862958333333,0,0x0A01,
0.570870833333333,0,0x8321,
0.570886541666667,0,0x0F00,
0.570894416666667,0,0x8421,
0.570910125000000,0,0x0000,
0.570918000000000,0,0x852D,
0.570933708333333,0,0xD73F,
0.570941583333333,0,0x8621,
0.570972458333333,0,0x0001,
0.570980166666667,0,0x1D25,
0.570996125000000,0,0x0055,
0.571004000000000,0,0x9D25,
0.571032458333333,0,0x0003,
0.571040166666667,0,0x2429,
0.571056583333333,0,0x004C,
0.571064458333333,0,0xA42D,
0.571080166666667,0,0x0040,
0.571088041666667,0,0xA52D,
0.571103750000000,0,0x0000,
0.571111625000000,0,0xA62D,
0.571140625000000,0,0x0005,
0.571148291666667,0,0x2D2D,
0.571164708333333,0,0x2EEB,
0.571172541666667,0,0xAD2D,
0.571188291666667,0,0xFFFF,
0.571196125000000,0,0xAE2D,
0.571211875000000,0,0xDB6D,
0.571219708333333,0,0xAF2D,
0.571235416666667,0,0x8000,
0.571243291666667,0,0xB02D,
0.571259041666667,0,0x8306,
0.571266875000000,0,0xB12D,
0.571296416666667,0,0x0006,
0.571304083333333,0,0x3B21,
0.571320458333333,0,0xE564,
0.571328333333333,0,0xBB2D,
0.571344041666667,0,0x8004,
0.571351916666667,0,0xBC2D,
0.571367625000000,0,0x8000,
0.571375500000000,0,0xBD2D,
0.571391208333333,0,0x8000,
0.571399083333333,0,0xBE2D,
0.571414791666667,0,0xE602,
0.571422666666667,0,0xBF2D,
0.571438375000000,0,0xE618,
0.571446250000000,0,0xC02D,
0.571475875000000,0,0x000A,
0.571483541666667,0,0x4125,
0.571499833333333,0,0xDEF4,
0.571507708333333,0,0xC12D,
0.571523416666667,0,0xDFF8,
0.571531291666667,0,0xC22D,
0.571547041666667,0,0xE019,
0.571554875000000,0,0xC32D,
0.571570625000000,0,0xE156,
0.571578500000000,0,0xC42D,
0.571594208333333,0,0xA998,
0.571602083333333,0,0xC52D,
0.571617791666667,0,0xFF50,
0.571625666666667,0,0xC62D,
0.571641375000000,0,0xC00F,
0.571649250000000,0,0xC72D,
0.571664958333333,0,0xA2E1,
0.571672833333333,0,0xC82D,
0.571688541666667,0,0x9E3D,
0.571696416666667,0,0xC92D,
0.571712125000000,0,0x9E41,
0.571720000000000,0,0xCA2D,
0.579378666666667,0,0xEC3F,
0.579386333333333,0,0x060B,
0.579414000000000,0,0x0004,
0.579421666666667,0,0x031D,
0.579437666666667,0,0x0A01,
0.579445583333333,0,0x831D,
0.579461458333333,0,0x0F00,
0.579469375000000,0,0x841D,
0.579485208333333,0,0x0000,
0.579493166666667,0,0x851E,
0.579509000000000,0,0xEF3F,
0.579516916666667,0,0x861D,
0.579547375000000,0,0x0004,
0.579555041666667,0,0x0311,
0.579571416666667,0,0x0A01,
0.579579375000000,0,0x8311,
0.579595208333333,0,0x0F00,
0.579603166666667,0,0x8411,
0.579619000000000,0,0x0000,
0.579626958333333,0,0x851E,
0.579642791666667,0,0xEF3F,
0.579650708333333,0,0x8611,
0.579681666666667,0,0x0004,
0.579689333333333,0,0x0315,
0.579705708333333,0,0x0A01,
0.579713625000000,0,0x8315,
0.579729500000000,0,0x0F00,
0.579737458333333,0,0x8415,
0.579753291666667,0,0x0000,
0.579761208333333,0,0x851E,
0.579777083333333,0,0xEF3F,
0.579785000000000,0,0x8615,
0.579815166666667,0,0x0004,
0.579822833333333,0,0x0319,
0.579839000000000,0,0x0A01,
0.579846916666667,0,0x8319,
0.579862791666667,0,0x0F00,
0.579870708333333,0,0x8419,
0.579886541666667,0,0x0000,
0.579894458333333,0,0x851E,
0.579910333333333,0,0xEF3F,
0.579918250000000,0,0x8619,
0.579949125000000,0,0x0004,
0.579956791666667,0,0x031D,
0.579973250000000,0,0x0A01,
0.579981166666667,0,0x831D,
0.579997041666667,0,0x0F00,
0.580004958333333,0,0x841D,
0.580020791666667,0,0x0000,
0.580028708333333,0,0x851E,
0.580044583333333,0,0xE73F,
0.580052500000000,0,0x861D,
0.580083000000000,0,0x0001,
0.580090666666667,0,0x1D11,
0.580106958333333,0,0x1551,
0.580114916666667,0,0x9D11,
0.580142750000000,0,0x0003,
0.580150416666667,0,0x2415,
0.580166416666667,0,0x0048,
0.580174333333333,0,0xA41E,
0.580190166666667,0,0x0040,
0.580198125000000,0,0xA51E,
0.580213958333333,0,0x0000,
0.580221875000000,0,0xA61E,
0.580250541666667,0,0x0005,
0.580258208333333,0,0x2D19,
0.580274375000000,0,0x2F7E,
0.580282291666667,0,0xAD1E,
0.580298166666667,0,0xFFFF,
0.580306083333333,0,0xAE1E,
0.580321916666667,0,0x8AFC,
0.580329833333333,0,0xAF1E,
0.580345666666667,0,0x8000,
0.580353625000000,0,0xB01E,
0.580369458333333,0,0x8301,
0.580377375000000,0,0xB11E,
0.580407166666667,0,0x0006,
0.580414833333333,0,0x3B1D,
0.580430875000000,0,0xB3F8,
0.580438791666667,0,0xBB1E,
0.580454625000000,0,0xB34C,
0.580462583333333,0,0xBC1E,
0.580478416666667,0,0xB2D7,
0.580486333333333,0,0xBD1E,
0.580502208333333,0,0xB219,
0.580510125000000,0,0xBE1E,
0.580525958333333,0,0xB21E,
0.580533916666667,0,0xBF1E,
0.580549750000000,0,0xB292,
0.580557666666667,0,0xC01E,
0.580587666666667,0,0x000A,
0.580595375000000,0,0x4111,
0.580611625000000,0,0xC0C1,
0.580619583333333,0,0xC11E,
0.580635416666667,0,0xC0BE,
0.580643333333333,0,0xC21E,
0.580659208333333,0,0xC0C3,
0.580667125000000,0,0xC31E,
0.580683000000000,0,0xC0BE,
0.580690875000000,0,0xC41E,
0.580706750000000,0,0xC0C6,
0.580714666666667,0,0xC51E,
0.580730500000000,0,0xE04A,
0.580738458333333,0,0xC61E,
0.580754291666667,0,0x8000,
0.580762208333333,0,0xC71E,
0.580778083333333,0,0xA2FE,
0.580785958333333,0,0xC81E,
0.580801833333333,0,0x9E3A,
0.580809750000000,0,0xC91E,
0.580825625000000,0,0x9E3B,
0.580833541666667,0,0xCA1E,
0.580866041666667,0,0x0004,
0.580873708333333,0,0x0325,
0.580890000000000,0,0x0A01,
0.580897875000000,0,0x8325,
0.580913583333333,0,0x0F00,
0.580921458333333,0,0x8425,
0.580937166666667,0,0x0000,
0.580945000000000,0,0x852E,
0.580960750000000,0,0xE73F,
0.580968625000000,0,0x8625,
0.580999416666667,0,0x0001,
0.581007083333333,0,0x1D29,
0.581023125000000,0,0x0055,
0.581031000000000,0,0x9D29,
0.581058916666667,0,0x0003,
0.581066625000000,0,0x242D,
0.581082583333333,0,0x004C,
0.581090458333333,0,0xA42E,
0.581106166666667,0,0x0040,
0.581114041666667,0,0xA52E,
0.581129750000000,0,0x0000,
0.581137625000000,0,0xA62E,
0.581166666666667,0,0x0005,
0.581174333333333,0,0x2D21,
0.581190708333333,0,0x2FF7,
0.581198541666667,0,0xAD2E,
0.581214291666667,0,0xFFFF,
0.581222125000000,0,0xAE2E,
0.581237833333333,0,0xDAA5,
0.581245708333333,0,0xAF2E,
0.581261416666667,0,0x8000,
0.581269291666667,0,0xB02E,
0.581285000000000,0,0x8302,
0.581292875000000,0,0xB12E,
0.581322791666667,0,0x0006,
0.581330500000000,0,0x3B25,
0.581346416666667,0,0xE55D,
0.581354291666667,0,0xBB2E,
0.581370041666667,0,0x8000,
0.581377875000000,0,0xBC2E,
0.581393583333333,0,0x8000,
0.581401458333333,0,0xBD2E,
0.581417166666667,0,0x8000,
0.581425041666667,0,0xBE2E,
0.581440750000000,0,0xE5FE,
0.581448625000000,0,0xBF2E,
0.581464375000000,0,0xE610,
0.581472208333333,0,0xC02E,
0.581503083333333,0,0x000A,
0.581510791666667,0,0x4129,
0.581526750000000,0,0xDEF6,
0.581534625000000,0,0xC12E,
0.581550333333333,0,0xDFF9,
0.581558208333333,0,0xC22E,
0.581573916666667,0,0xE014,
0.581581791666667,0,0xC32E,
0.581597500000000,0,0xE156,
0.581605416666667,0,0xC42E,
0.581621125000000,0,0xA999,
0.581629000000000,0,0xC52E,
0.581644708333333,0,0xFF54,
0.581652583333333,0,0xC62E,
0.581668291666667,0,0xC013,
0.581676166666667,0,0xC72E,
0.581691875000000,0,0xA2E1,
0.581699750000000,0,0xC82E,
0.581715458333333,0,0x9E3B,
0.581723333333333,0,0xC92E,
0.581739041666667,0,0x9E3F,
0.581746916666667,0,0xCA2E,
0.589358833333333,0,0xFC3F,
0.589366500000000,0,0x060F,
0.589393541666667,0,0x0004,
0.589401250000000,0,0x0311,
0.589417291666667,0,0x0A01,
0.589425208333333,0,0x8311,
0.589441041666667,0,0x0F00,
0.589448958333333,0,0x8411,
0.589464833333333,0,0x0000,
0.589472750000000,0,0x851F,
0.589488625000000,0,0xFF3F,
0.589496541666667,0,0x8611,
0.589527250000000,0,0x0004,
0.589534916666667,0,0x0315,
0.589551000000000,0,0x0A01,
0.589558958333333,0,0x8315,
0.589574791666667,0,0x0F00,
0.589582750000000,0,0x8415,
0.589598583333333,0,0x0000,
0.589606541666667,0,0x851F,
0.589622375000000,0,0xFF3F,
0.589630291666667,0,0x8615,
0.589661416666667,0,0x0004,
0.589669083333333,0,0x0319,
0.589685291666667,0,0x0A01,
0.589693250000000,0,0x8319,
0.589709083333333,0,0x0F00,
0.589717000000000,0,0x8419,
0.589732875000000,0,0x0000,
0.589740791666667,0,0x851F,
0.589756666666667,0,0xFF3F,
0.589764583333333,0,0x8619,
0.589795041666667,0,0x0004,
0.589802750000000,0,0x031D,
0.589819083333333,0,0x0A01,
0.589827000000000,0,0x831D,
0.589842875000000,0,0x0F00,
0.589850791666667,0,0x841D,
0.589866666666667,0,0x0000,
0.589874583333333,0,0x851F,
0.589890458333333,0,0xFF3F,
0.589898375000000,0,0x861D,
0.589928750000000,0,0x0004,
0.589936458333333,0,0x0311,
0.589952833333333,0,0x0A01,
0.589960791666667,0,0x8311,
0.589976625000000,0,0x0F00,
0.589984583333333,0,0x8411,
0.590000416666667,0,0x0000,
0.590008333333333,0,0x851F,
0.590024208333333,0,0xF73F,
0.590032125000000,0,0x8611,
0.590063333333333,0,0x0001,
0.590071000000000,0,0x1D15,
0.590087083333333,0,0x1551,
0.590095000000000,0,0x9D15,
0.590123000000000,0,0x0003,
0.590130666666667,0,0x2419,
0.590147041666667,0,0x0048,
0.590154958333333,0,0xA41F,
0.590170791666667,0,0x0040,
0.590178708333333,0,0xA51F,
0.590194583333333,0,0x0000,
0.590202500000000,0,0xA61F,
0.590231541666667,0,0x0005,
0.590239250000000,0,0x2D1D,
0.590255500000000,0,0x3088,
0.590263416666667,0,0xAD1F,
0.590279250000000,0,0xFFFF,
0.590287166666667,0,0xAE1F,
0.590303041666667,0,0x8940,
0.590310958333333,0,0xAF1F,
0.590326833333333,0,0x8000,
0.590334750000000,0,0xB01F,
0.590350583333333,0,0x8303,
0.590358500000000,0,0xB11F,
0.590389166666667,0,0x0006,
0.590396833333333,0,0x3B11,
0.590413000000000,0,0xB3FD,
0.590420916666667,0,0xBB1F,
0.590436791666667,0,0xB34F,
0.590444708333333,0,0xBC1F,
0.590460541666667,0,0xB2DD,
0.590468500000000,0,0xBD1F,
0.590484333333333,0,0xB21F,
0.590492250000000,0,0xBE1F,
0.590508125000000,0,0xB21E,
0.590516041666667,0,0xBF1F,
0.590531916666667,0,0xB292,
0.590539833333333,0,0xC01F,
0.590570208333333,0,0x000A,
0.590577875000000,0,0x4115,
0.590594291666667,0,0xC0C1,
0.590602250000000,0,0xC11F,
0.590618083333333,0,0xC0BC,
0.590626000000000,0,0xC21F,
0.590641875000000,0,0xC0C2,
0.590649791666667,0,0xC31F,
0.590665625000000,0,0xC0C1,
0.590673541666667,0,0xC41F,
0.590689416666667,0,0xC0C1,
0.590697333333333,0,0xC51F,
0.590713166666667,0,0xE04A,
0.590721083333333,0,0xC61F,
0.590736958333333,0,0x8000,
0.590744875000000,0,0xC71F,
0.590760708333333,0,0xA301,
0.590768666666667,0,0xC81F,
0.590784500000000,0,0x9E3A,
0.590792416666667,0,0xC91F,
0.590808291666667,0,0x9E3A,
0.590816208333333,0,0xCA1F,
0.590849333333333,0,0x0004,
0.590857000000000,0,0x0329,
0.590873458333333,0,0x0A01,
0.590881291666667,0,0x8329,
0.590897041666667,0,0x0F00,
0.590904875000000,0,0x8429,
0.590920625000000,0,0x0000,
0.590928500000000,0,0x852F,
0.590944208333333,0,0xF73F,
0.590952083333333,0,0x8629,
0.590982250000000,0,0x0001,
0.590989916666667,0,0x1D2D,
0.591006125000000,0,0x0055,
0.591014000000000,0,0x9D2D,
0.591042000000000,0,0x0003,
0.591049708333333,0,0x2421,
0.591066041666667,0,0x004C,
0.591073916666667,0,0xA42F,
0.591089625000000,0,0x0040,
0.591097500000000,0,0xA52F,
0.591113208333333,0,0x0000,
0.591121083333333,0,0xA62F,
0.591149583333333,0,0x0005,
0.591157250000000,0,0x2D25,
0.591173625000000,0,0x3103,
0.591181500000000,0,0xAD2F,
0.591197208333333,0,0xFFFF,
0.591205083333333,0,0xAE2F,
0.591220791666667,0,0xD990,
0.591228666666667,0,0xAF2F,
0.591244416666667,0,0x8000,
0.591252250000000,0,0xB02F,
0.591268000000000,0,0x8302,
0.591275833333333,0,0xB12F,
0.591305458333333,0,0x0006,
0.591313125000000,0,0x3B29,
0.591329416666667,0,0xE562,
0.591337250000000,0,0xBB2F,
0.591353000000000,0,0x8000,
0.591360833333333,0,0xBC2F,
0.591376583333333,0,0x8001,
0.591384416666667,0,0xBD2F,
0.591400166666667,0,0x8000,
0.591408041666667,0,0xBE2F,
0.591423750000000,0,0xE5FF,
0.591431583333333,0,0xBF2F,
0.591447333333333,0,0xE615,
0.591455166666667,0,0xC02F,
0.591485750000000,0,0x000A,
0.591493458333333,0,0x412D,
0.591509708333333,0,0xDEF3,
0.591517583333333,0,0xC12F,
0.591533291666667,0,0xDFF8,
0.591541166666667,0,0xC22F,
0.591556875000000,0,0xE016,
0.591564750000000,0,0xC32F,
0.591580458333333,0,0xE154,
0.591588333333333,0,0xC42F,
0.591604041666667,0,0xA992,
0.591611916666667,0,0xC52F,
0.591627625000000,0,0xFF52,
0.591635500000000,0,0xC62F,
0.591651208333333,0,0xC011,
0.591659083333333,0,0xC72F,
0.591674791666667,0,0xA2E1,
0.591682666666667,0,0xC82F,
0.591698375000000,0,0x9E3B,
0.591706250000000,0,0xC92F,
0.591721958333333,0,0x9E3D,
0.591729833333333,0,0xCA2F,
0.599348833333333,0,0x0C3F,
0.599356500000000,0,0x0603,
0.599384083333333,0,0x0004,
0.599391791666667,0,0x0315,
0.599408125000000,0,0x0A01,
0.599416041666667,0,0x8315,
0.599431916666667,0,0x0F00,
0.599439833333333,0,0x8415,
0.599455666666667,0,0x0000,
0.599463625000000,0,0x8510,
0.599479458333333,0,0x0F3F,
0.599487375000000,0,0x8615,
0.599517250000000,0,0x0004,
0.599524958333333,0,0x0319,
0.599541416666667,0,0x0A01,
0.599549291666667,0,0x8319,
0.599565166666667,0,0x0F00,
0.599573083333333,0,0x8419,
0.599588958333333,0,0x0000,
0.599596875000000,0,0x8510,
0.599612708333333,0,0x0F3F,
0.599620666666667,0,0x8619,
0.599651666666667,0,0x0004,
0.599659333333333,0,0x031D,
0.599675625000000,0,0x0A01,
0.599683541666667,0,0x831D,
0.599699416666667,0,0x0F00,
0.599707333333333,0,0x841D,
0.599723208333333,0,0x0000,
0.599731125000000,0,0x8510,
0.599746958333333,0,0x0F3F,
0.599754916666667,0,0x861D,
0.599786208333333,0,0x0004,
0.599793875000000,0,0x0311,
0.599809916666667,0,0x0A01,
0.599817833333333,0,0x8311,
0.599833666666667,0,0x0F00,
0.599841583333333,0,0x8411,
0.599857458333333,0,0x0000,
0.599865375000000,0,0x8510,
0.599881250000000,0,0x0F3F,
0.599889166666667,0,0x8611,
0.599920333333333,0,0x0004,
0.599928000000000,0,0x0315,
0.599944125000000,0,0x0A01,
0.599952041666667,0,0x8315,
0.599967916666667,0,0x0F00,
0.599975833333333,0,0x8415,
0.599991666666667,0,0x0000,
0.599999583333333,0,0x8510,
0.600015458333333,0,0x073F,
0.600023375000000,0,0x8615,
0.600053916666667,0,0x0001,
0.600061583333333,0,0x1D19,
0.600077833333333,0,0x1551,
0.600085791666667,0,0x9D19,
0.600114333333333,0,0x0003,
0.600122000000000,0,0x241D,
0.600138291666667,0,0x0048,
0.600146208333333,0,0xA410,
0.600162041666667,0,0x0040,
0.600170000000000,0,0xA510,
0.600185833333333,0,0x0000,
0.600193791666667,0,0xA610,
0.600222541666667,0,0x0005,
0.600230250000000,0,0x2D11,
0.600246250000000,0,0x3191,
0.600254166666667,0,0xAD10,
0.600270041666667,0,0xFFFF,
0.600277958333333,0,0xAE10,
0.600293791666667,0,0x86E6,
0.600301750000000,0,0xAF10,
0.600317583333333,0,0xFFFF,
0.600325500000000,0,0xB010,
0.600341375000000,0,0x830E,
0.600349291666667,0,0xB110,
0.600379833333333,0,0x0006,
0.600387541666667,0,0x3B15,
0.600403750000000,0,0xB3FE,
0.600411708333333,0,0xBB10,
0.600427541666667,0,0xB34E,
0.600435458333333,0,0xBC10,
0.600451333333333,0,0xB2D9,
0.600459250000000,0,0xBD10,
0.600475083333333,0,0xB21E,
0.600483000000000,0,0xBE10,
0.600498875000000,0,0xB223,
0.600506791666667,0,0xBF10,
0.600522666666667,0,0xB295,
0.600530541666667,0,0xC010,
0.600560375000000,0,0x000A,
0.600568083333333,0,0x4119,
0.600584541666667,0,0xC0C5,
0.600592458333333,0,0xC110,
0.600608333333333,0,0xC0C0,
0.600616250000000,0,0xC210,
0.600632083333333,0,0xC0C4,
0.600640041666667,0,0xC310,
0.600655875000000,0,0xC0C2,
0.600663791666667,0,0xC410,
0.600679666666667,0,0xC0C4,
0.600687583333333,0,0xC510,
0.600703416666667,0,0xE04C,
0.600711333333333,0,0xC610,
0.600727166666667,0,0x8000,
0.600735125000000,0,0xC710,
0.600750958333333,0,0xA300,
0.600758875000000,0,0xC810,
0.600774750000000,0,0x9E3B,
0.600782666666667,0,0xC910,
0.600798500000000,0,0x9E3C,
0.600806416666667,0,0xCA10,
0.600838708333333,0,0x0004,
0.600846416666667,0,0x032D,
0.600862375000000,0,0x0A01,
0.600870250000000,0,0x832D,
0.600885958333333,0,0x0F00,
0.600893833333333,0,0x842D,
0.600909541666667,0,0x0000,
0.600917416666667,0,0x8520,
0.600933125000000,0,0x073F,
0.600941000000000,0,0x862D,
0.600972208333333,0,0x0001,
0.600979875000000,0,0x1D21,
0.600996041666667,0,0x0055,
0.601003875000000,0,0x9D21,
0.601031875000000,0,0x0003,
0.601039541666667,0,0x2425,
0.601056000000000,0,0x004C,
0.601063875000000,0,0xA420,
0.601079583333333,0,0x0040,
0.601087416666667,0,0xA520,
0.601103166666667,0,0x0000,
0.601111041666667,0,0xA620,
0.601140000000000,0,0x0005,
0.601147666666667,0,0x2D29,
0.601163625000000,0,0x320E,
0.601171458333333,0,0xAD20,
0.601187208333333,0,0xFFFF,
0.601195083333333,0,0xAE20,
0.601210833333333,0,0xD940,
0.601218666666667,0,0xAF20,
0.601234416666667,0,0x8000,
0.601242291666667,0,0xB020,
0.601258000000000,0,0x8301,
0.601265833333333,0,0xB120,
0.601296750000000,0,0x0006,
0.601304416666667,0,0x3B2D,
0.601320416666667,0,0xE55E,
0.601328250000000,0,0xBB20,
0.601344000000000,0,0x8000,
0.601351833333333,0,0xBC20,
0.601367583333333,0,0x8000,
0.601375416666667,0,0xBD20,
0.601391166666667,0,0x8000,
0.601399041666667,0,0xBE20,
0.601414750000000,0,0xE5FF,
0.601422625000000,0,0xBF20,
0.601438333333333,0,0xE617,
0.601446208333333,0,0xC020,
0.601476375000000,0,0x000A,
0.601484041666667,0,0x4121,
0.601500250000000,0,0xDEF3,
0.601508125000000,0,0xC120,
0.601523833333333,0,0xDFF8,
0.601531708333333,0,0xC220,
0.601547416666667,0,0xE017,
0.601555291666667,0,0xC320,
0.601571000000000,0,0xE158,
0.601578875000000,0,0xC420,
0.601594625000000,0,0xA996,
0.601602458333333,0,0xC520,
0.601618208333333,0,0xFF4D,
0.601626083333333,0,0xC620,
0.601641791666667,0,0xC016,
0.601649666666667,0,0xC720,
0.601665375000000,0,0xA2DD,
0.601673250000000,0,0xC820,
0.601688958333333,0,0x9E36,
0.601696833333333,0,0xC920,
0.601712541666667,0,0x9E3F,
0.601720416666667,0,0xCA20,
0.609382625000000,0,0x1C3F,
0.609390291666667,0,0x0607,
0.609417541666667,0,0x0004,
0.609425208333333,0,0x0319,
0.609441291666667,0,0x0A01,
0.609449250000000,0,0x8319,
0.609465083333333,0,0x0F00,
0.609473041666667,0,0x8419,
0.609488875000000,0,0x0000,
0.609496833333333,0,0x8511,
0.609512666666667,0,0x1F3F,
0.609520583333333,0,0x8619,
0.609551541666667,0,0x0004,
0.609559208333333,0,0x031D,
0.609575583333333,0,0x0A01,
0.609583541666667,0,0x831D,
0.609599375000000,0,0x0F00,
0.609607291666667,0,0x841D,
0.609623166666667,0,0x0000,
0.609631083333333,0,0x8511,
0.609646958333333,0,0x1F3F,
0.609654875000000,0,0x861D,
0.609685666666667,0,0x0004,
0.609693375000000,0,0x0311,
0.609709375000000,0,0x0A01,
0.609717333333333,0,0x8311,
0.609733208333333,0,0x0F00,
0.609741083333333,0,0x8411,
0.609756958333333,0,0x0000,
0.609764916666667,0,0x8511,
0.609780750000000,0,0x1F3F,
0.609788708333333,0,0x8611,
0.609820291666667,0,0x0004,
0.609827958333333,0,0x0315,
0.609844208333333,0,0x0A01,
0.609852125000000,0,0x8315,
0.609868000000000,0,0x0F00,
0.609875916666667,0,0x8415,
0.609891750000000,0,0x0000,
0.609899708333333,0,0x8511,
0.609915541666667,0,0x1F3F,
0.609923500000000,0,0x8615,
0.609953791666667,0,0x0004,
0.609961458333333,0,0x0319,
0.609977500000000,0,0x0A01,
0.609985416666667,0,0x8319,
0.610001250000000,0,0x0F00,
0.610009208333333,0,0x8419,
0.610025041666667,0,0x0000,
0.610032958333333,0,0x8511,
0.610048833333333,0,0x173F,
0.610056750000000,0,0x8619,
0.610086916666667,0,0x0001,
0.610094583333333,0,0x1D1D,
0.610110750000000,0,0x1551,
0.610118708333333,0,0x9D1D,
0.610146666666667,0,0x0003,
0.610154333333333,0,0x2411,
0.610170666666667,0,0x0048,
0.610178625000000,0,0xA411,
0.610194458333333,0,0x0040,
0.610202375000000,0,0xA511,
0.610218250000000,0,0x0000,
0.610226208333333,0,0xA611,
0.610255375000000,0,0x0005,
0.610263041666667,0,0x2D15,
0.610279166666667,0,0x329C,
0.610287125000000,0,0xAD11,
0.610302958333333,0,0xFFFF,
0.610310875000000,0,0xAE11,
0.610326750000000,0,0x841F,
0.610334666666667,0,0xAF11,
0.610350541666667,0,0x8000,
0.610358458333333,0,0xB011,
0.610374291666667,0,0x8307,
0.610382250000000,0,0xB111,
0.610412583333333,0,0x0006,
0.610420291666667,0,0x3B19,
0.610436708333333,0,0xB3FA,
0.610444625000000,0,0xBB11,
0.610460458333333,0,0xB34D,
0.610468375000000,0,0xBC11,
0.610484250000000,0,0xB2DA,
0.610492166666667,0,0xBD11,
0.610508000000000,0,0xB21C,
0.610515916666667,0,0xBE11,
0.610531791666667,0,0xB220,
0.610539708333333,0,0xBF11,
0.610555541666667,0,0xB297,
0.610563500000000,0,0xC011,
0.610594166666667,0,0x000A,
0.610601875000000,0,0x411D,
0.610617958333333,0,0xC0C3,
0.610625916666667,0,0xC111,
0.610641750000000,0,0xC0BC,
0.610649666666667,0,0xC211,
0.610665541666667,0,0xC0C3,
0.610673458333333,0,0xC311,
0.610689291666667,0,0xC0C3,
0.610697250000000,0,0xC411,
0.610713083333333,0,0xC0C3,
0.610721000000000,0,0xC511,
0.610736833333333,0,0xE049,
0.610744791666667,0,0xC611,
0.610760625000000,0,0x8000,
0.610768541666667,0,0xC711,
0.610784375000000,0,0xA302,
0.610792291666667,0,0xC811,
0.610808166666667,0,0x9E38,
0.610816083333333,0,0xC911,
0.610831916666667,0,0x9E3F,
0.610839833333333,0,0xCA11,
0.610871458333333,0,0x0004,
0.610879166666667,0,0x0321,
0.610895125000000,0,0x0A01,
0.610902958333333,0,0x8321,
0.610918708333333,0,0x0F00,
0.610926583333333,0,0x8421,
0.610942291666667,0,0x0000,
0.610950166666667,0,0x8521,
0.610965875000000,0,0x173F,
0.610973750000000,0,0x8621,
0.611004083333333,0,0x0001,
0.611011750000000,0,0x1D25,
0.611027833333333,0,0x0055,
0.611035666666667,0,0x9D25,
0.611063708333333,0,0x0003,
0.611071416666667,0,0x2429,
0.611087750000000,0,0x004C,
0.611095625000000,0,0xA421,
0.611111333333333,0,0x0040,
0.611119208333333,0,0xA521,
0.611134916666667,0,0x0000,
0.611142791666667,0,0xA621,
0.611171083333333,0,0x0005,
0.611178791666667,0,0x2D2D,
0.611194875000000,0,0x331B,
0.611202750000000,0,0xAD21,
0.611218458333333,0,0xFFFF,
0.611226333333333,0,0xAE21,
0.611242041666667,0,0xD872,
0.611249916666667,0,0xAF21,
0.611265625000000,0,0xFFFF,
0.611273500000000,0,0xB021,
0.611289208333333,0,0x830A,
0.611297083333333,0,0xB121,
0.611326583333333,0,0x0006,
0.611334291666667,0,0x3B21,
0.611350666666667,0,0xE563,
0.611358500000000,0,0xBB21,
0.611374250000000,0,0x8000,
0.611382083333333,0,0xBC21,
0.611397833333333,0,0x8000,
0.611405708333333,0,0xBD21,
0.611421416666667,0,0x8000,
0.611429291666667,0,0xBE21,
0.611445000000000,0,0xE5FD,
0.611452875000000,0,0xBF21,
0.611468583333333,0,0xE616,
0.611476416666667,0,0xC021,
0.611507500000000,0,0x000A,
0.611515166666667,0,0x4125,
0.611531458333333,0,0xDEF5,
0.611539333333333,0,0xC121,
0.611555041666667,0,0xDFFA,
0.611562916666667,0,0xC221,
0.611578625000000,0,0xE01A,
0.611586500000000,0,0xC321,
0.611602208333333,0,0xE158,
0.611610083333333,0,0xC421,
0.611625833333333,0,0xA999,
0.611633666666667,0,0xC521,
0.611649416666667,0,0xFF55,
0.611657291666667,0,0xC621,
0.611673000000000,0,0xC017,
0.611680875000000,0,0xC721,
0.611696583333333,0,0xA2E2,
0.611704458333333,0,0xC821,
0.611720208333333,0,0x9E3A,
0.611728041666667,0,0xC921,
0.611743791666667,0,0x9E41,
0.611751625000000,0,0xCA21,
0.619347666666667,0,0x2C3F,
0.619355375000000,0,0x060B,
0.619382500000000,0,0x0004,
0.619390166666667,0,0x031D,
0.619406333333333,0,0x0A01,
0.619414250000000,0,0x831D,
0.619430125000000,0,0x0F00,
0.619438041666667,0,0x841D,
0.619453875000000,0,0x0000,
0.619461833333333,0,0x8512,
0.619477666666667,0,0x2F3F,
0.619485583333333,0,0x861D,
0.619517083333333,0,0x0004,
0.619524750000000,0,0x0311,
0.619541083333333,0,0x0A01,
0.619549000000000,0,0x8311,
0.619564875000000,0,0x0F00,
0.619572791666667,0,0x8411,
0.619588666666667,0,0x0000,
0.619596625000000,0,0x8512,
0.619612458333333,0,0x2F3F,
0.619620416666667,0,0x8611,
0.619650708333333,0,0x0004,
0.619658375000000,0,0x0315,
0.619674416666667,0,0x0A01,
0.619682333333333,0,0x8315,
0.619698208333333,0,0x0F00,
0.619706125000000,0,0x8415,
0.619722000000000,0,0x0000,
0.619729916666667,0,0x8512,
0.619745791666667,0,0x2F3F,
0.619753708333333,0,0x8615,
0.619784208333333,0,0x0004,
0.619791875000000,0,0x0319,
0.619808208333333,0,0x0A01,
0.619816125000000,0,0x8319,
0.619831958333333,0,0x0F00,
0.619839916666667,0,0x8419,
0.619855750000000,0,0x0000,
0.619863666666667,0,0x8512,
0.619879541666667,0,0x2F3F,
0.619887458333333,0,0x8619,
0.619918458333333,0,0x0004,
0.619926166666667,0,0x031D,
0.619942458333333,0,0x0A01,
0.619950375000000,0,0x831D,
0.619966250000000,0,0x0F00,
0.619974166666667,0,0x841D,
0.619990041666667,0,0x0000,
0.619997958333333,0,0x8512,
0.620013791666667,0,0x273F,
0.620021708333333,0,0x861D,
0.620052166666667,0,0x0001,
0.620059833333333,0,0x1D11,
0.620076208333333,0,0x1551,
0.620084125000000,0,0x9D11,
0.620112208333333,0,0x0003,
0.620119916666667,0,0x2415,
0.620136166666667,0,0x0048,
0.620144083333333,0,0xA412,
0.620159916666667,0,0x0040,
0.620167875000000,0,0xA512,
0.620183708333333,0,0x0000,
0.620191625000000,0,0xA612,
0.620220666666667,0,0x0005,
0.620228375000000,0,0x2D19,
0.620244666666667,0,0x33A4,
0.620252583333333,0,0xAD12,
0.620268416666667,0,0xFFFF,
0.620276375000000,0,0xAE12,
0.620292208333333,0,0x82B8,
0.620300166666667,0,0xAF12,
0.620316000000000,0,0xFFFF,
0.620323916666667,0,0xB012,
0.620339750000000,0,0x8307,
0.620347708333333,0,0xB112,
0.620377583333333,0,0x0006,
0.620385250000000,0,0x3B1D,
0.620401666666667,0,0xB3F9,
0.620409625000000,0,0xBB12,
0.620425458333333,0,0xB349,
0.620433375000000,0,0xBC12,
0.620449250000000,0,0xB2DD,
0.620457166666667,0,0xBD12,
0.620473000000000,0,0xB21D,
0.620480958333333,0,0xBE12,
0.620496791666667,0,0xB220,
0.620504750000000,0,0xBF12,
0.620520583333333,0,0xB291,
0.620528500000000,0,0xC012,
0.620558625000000,0,0x000A,
0.620566291666667,0,0x4111,
0.620582500000000,0,0xC0C2,
0.620590416666667,0,0xC112,
0.620606291666667,0,0xC0C0,
0.620614208333333,0,0xC212,
0.620630041666667,0,0xC0C4,
0.620637958333333,0,0xC312,
0.620653833333333,0,0xC0C1,
0.620661750000000,0,0xC412,
0.620677583333333,0,0xC0C4,
0.620685541666667,0,0xC512,
0.620701375000000,0,0xE047,
0.620709291666667,0,0xC612,
0.620725166666667,0,0x8000,
0.620733083333333,0,0xC712,
0.620748916666667,0,0xA300,
0.620756833333333,0,0xC812,
0.620772708333333,0,0x9E39,
0.620780625000000,0,0xC912,
0.620796500000000,0,0x9E3A,
0.620804458333333,0,0xCA12,
0.620837708333333,0,0x0004,
0.620845375000000,0,0x0325,
0.620861666666667,0,0x0A01,
0.620869500000000,0,0x8325,
0.620885250000000,0,0x0F00,
0.620893125000000,0,0x8425,
0.620908833333333,0,0x0000,
0.620916708333333,0,0x8522,
0.620932416666667,0,0x273F,
0.620940291666667,0,0x8625,
0.620972000000000,0,0x0001,
0.620979666666667,0,0x1D29,
0.620995791666667,0,0x0055,
0.621003666666667,0,0x9D29,
0.621031458333333,0,0x0003,
0.621039125000000,0,0x242D,
0.621055250000000,0,0x004C,
0.621063125000000,0,0xA422,
0.621078833333333,0,0x0040,
0.621086708333333,0,0xA522,
0.621102416666667,0,0x0000,
0.621110291666667,0,0xA622,
0.621139208333333,0,0x0005,
0.621146875000000,0,0x2D21,
0.621162875000000,0,0x3426,
0.621170750000000,0,0xAD22,
0.621186458333333,0,0xFFFF,
0.621194333333333,0,0xAE22,
0.621210041666667,0,0xD877,
0.621217916666667,0,0xAF22,
0.621233625000000,0,0x8000,
0.621241500000000,0,0xB022,
0.621257250000000,0,0x8305,
0.621265083333333,0,0xB122,
0.621295791666667,0,0x0006,
0.621303500000000,0,0x3B25,
0.621319625000000,0,0xE566,
0.621327500000000,0,0xBB22,
0.621343208333333,0,0x8000,
0.621351083333333,0,0xBC22,
0.621366833333333,0,0x8000,
0.621374666666667,0,0xBD22,
0.621390416666667,0,0x8003,
0.621398250000000,0,0xBE22,
0.621414000000000,0,0xE5FC,
0.621421875000000,0,0xBF22,
0.621437583333333,0,0xE617,
0.621445458333333,0,0xC022,
0.621476458333333,0,0x000A,
0.621484166666667,0,0x4129,
0.621500458333333,0,0xDEF7,
0.621508333333333,0,0xC122,
0.621524041666667,0,0xDFFC,
0.621531916666667,0,0xC222,
0.621547625000000,0,0xE020,
0.621555500000000,0,0xC322,
0.621571208333333,0,0xE15A,
0.621579083333333,0,0xC422,
0.621594791666667,0,0xA99B,
0.621602666666667,0,0xC522,
0.621618416666667,0,0xFF5A,
0.621626250000000,0,0xC622,
0.621642000000000,0,0xC017,
0.621649875000000,0,0xC722,
0.621665583333333,0,0xA2E1,
0.621673416666667,0,0xC822,
0.621689166666667,0,0x9E3D,
0.621697000000000,0,0xC922,
0.621712750000000,0,0x9E3C,
0.621720583333333,0,0xCA22,
0.629356083333333,0,0x3C3F,
0.629363750000000,0,0x060F,
0.629390750000000,0,0x0004,
0.629398458333333,0,0x0311,
0.629414791666667,0,0x0A01,
0.629422708333333,0,0x8311,
0.629438583333333,0,0x0F00,
0.629446500000000,0,0x8411,
0.629462333333333,0,0x0000,
0.629470291666667,0,0x8513,
0.629486125000000,0,0x3F3F,
0.629494041666667,0,0x8611,
0.629525000000000,0,0x0004,
0.629532666666667,0,0x0315,
0.629549041666667,0,0x0A01,
0.629556958333333,0,0x8315,
0.629572833333333,0,0x0F00,
0.629580750000000,0,0x8415,
0.629596583333333,0,0x0000,
0.629604541666667,0,0x8513,
0.629620375000000,0,0x3F3F,
0.629628333333333,0,0x8615,
0.629659416666667,0,0x0004,
0.629667083333333,0,0x0319,
0.629683333333333,0,0x0A01,
0.629691250000000,0,0x8319,
0.629707083333333,0,0x0F00,
0.629715041666667,0,0x8419,
0.629730875000000,0,0x0000,
0.629738791666667,0,0x8513,
0.629754666666667,0,0x3F3F,
0.629762583333333,0,0x8619,
0.629793416666667,0,0x0004,
0.629801125000000,0,0x031D,
0.629817083333333,0,0x0A01,
0.629825000000000,0,0x831D,
0.629840875000000,0,0x0F00,
0.629848791666667,0,0x841D,
0.629864625000000,0,0x0000,
0.629872583333333,0,0x8513,
0.629888416666667,0,0x3F3F,
0.629896333333333,0,0x861D,
0.629927041666667,0,0x0004,
0.629934750000000,0,0x0311,
0.629950833333333,0,0x0A01,
0.629958750000000,0,0x8311,
0.629974583333333,0,0x0F00,
0.629982541666667,0,0x8411,
0.629998375000000,0,0x0000,
0.630006291666667,0,0x8513,
0.630022125000000,0,0x373F,
0.630030083333333,0,0x8611,
0.630062416666667,0,0x0001,
0.630070083333333,0,0x1D15,
0.630086041666667,0,0x1551,
0.630093958333333,0,0x9D15,
0.630121625000000,0,0x0003,
0.630129333333333,0,0x2419,
0.630145458333333,0,0x0048,
0.630153416666667,0,0xA413,
0.630169250000000,0,0x0040,
0.630177166666667,0,0xA513,
0.630193000000000,0,0x0000,
0.630200958333333,0,0xA613,
0.630229208333333,0,0x0005,
0.630236875000000,0,0x2D1D,
0.630252958333333,0,0x34AE,
0.630260875000000,0,0xAD13,
0.630276708333333,0,0xFFFF,
0.630284625000000,0,0xAE13,
0.630300500000000,0,0x805E,
0.630308416666667,0,0xAF13,
0.630324291666667,0,0xFFFF,
0.630332208333333,0,0xB013,
0.630348041666667,0,0x830B,
0.630355958333333,0,0xB113,
0.630386333333333,0,0x0006,
0.630393958333333,0,0x3B11,
0.630409958333333,0,0xB3F7,
0.630417875000000,0,0xBB13,
0.630433708333333,0,0xB34D,
0.630441625000000,0,0xBC13,
0.630457458333333,0,0xB2DF,
0.630465416666667,0,0xBD13,
0.630481250000000,0,0xB21E,
0.630489166666667,0,0xBE13,
0.630505000000000,0,0xB222,
0.630512958333333,0,0xBF13,
0.630528791666667,0,0xB294,
0.630536750000000,0,0xC013,
0.630566875000000,0,0x000A,
0.630574583333333,0,0x4115,
0.630590708333333,0,0xC0C7,
0.630598625000000,0,0xC113,
0.630614500000000,0,0xC0C2,
0.630622416666667,0,0xC213,
0.630638291666667,0,0xC0C5,
0.630646208333333,0,0xC313,
0.630662083333333,0,0xC0C4,
0.630670000000000,0,0xC413,
0.630685833333333,0,0xC0C7,
0.630693750000000,0,0xC513,
0.630709625000000,0,0xE04C,
0.630717541666667,0,0xC613,
0.630733375000000,0,0x8000,
0.630741291666667,0,0xC713,
0.630757125000000,0,0xA2FF,
0.630765083333333,0,0xC813,
0.630780916666667,0,0x9E3D,
0.630788875000000,0,0xC913,
0.630804708333333,0,0x9E3A,
0.630812625000000,0,0xCA13,
0.630845500000000,0,0x0004,
0.630853166666667,0,0x0329,
0.630869166666667,0,0x0A01,
0.630877041666667,0,0x8329,
0.630892750000000,0,0x0F00,
0.630900625000000,0,0x8429,
0.630916375000000,0,0x0000,
0.630924208333333,0,0x8523,
0.630939958333333,0,0x373F,
0.630947791666667,0,0x8629,
0.630978791666667,0,0x0001,
0.630986458333333,0,0x1D2D,
0.631002833333333,0,0x0055,
0.631010708333333,0,0x9D2D,
0.631038458333333,0,0x0003,
0.631046125000000,0,0x2421,
0.631062333333333,0,0x004C,
0.631070166666667,0,0xA423,
0.631085916666667,0,0x0040,
0.631093750000000,0,0xA523,
0.631109500000000,0,0x0000,
0.631117333333333,0,0xA623,
0.631146500000000,0,0x0005,
0.631154208333333,0,0x2D25,
0.631170416666667,0,0x3532,
0.631178291666667,0,0xAD23,
0.631194000000000,0,0xFFFF,
0.631201875000000,0,0xAE23,
0.631217583333333,0,0xD7F7,
0.631225458333333,0,0xAF23,
0.631241166666667,0,0xFFFF,
0.631249041666667,0,0xB023,
0.631264750000000,0,0x830D,
0.631272625000000,0,0xB123,
0.631302208333333,0,0x0006,
0.631309916666667,0,0x3B29,
0.631326166666667,0,0xE563,
0.631334041666667,0,0xBB23,
0.631349791666667,0,0x8000,
0.631357666666667,0,0xBC23,
0.631373375000000,0,0x8000,
0.631381250000000,0,0xBD23,
0.631396958333333,0,0x8000,
0.631404833333333,0,0xBE23,
0.631420541666667,0,0xE5FE,
0.631428416666667,0,0xBF23,
0.631444125000000,0,0xE615,
0.631452000000000,0,0xC023,
0.631482291666667,0,0x000A,
0.631490000000000,0,0x412D,
0.631506041666667,0,0xDEF4,
0.631513916666667,0,0xC123,
0.631529625000000,0,0xDFF3,
0.631537500000000,0,0xC223,
0.631553250000000,0,0xE019,
0.631561083333333,0,0xC323,
0.631576833333333,0,0xE157,
0.631584666666667,0,0xC423,
0.631600416666667,0,0xA995,
0.631608291666667,0,0xC523,
0.631624000000000,0,0xFF54,
0.631631875000000,0,0xC623,
0.631647583333333,0,0xC00F,
0.631655458333333,0,0xC723,
0.631671166666667,0,0xA2E2,
0.631679041666667,0,0xC823,
0.631694750000000,0,0x9E3B,
0.631702625000000,0,0xC923,
0.631718333333333,0,0x9E45,
0.631726208333333,0,0xCA23,
0.639364083333333,0,0x4C3F,
0.639371791666667,0,0x0603,
0.639398833333333,0,0x0004,
0.639406500000000,0,0x0315,
0.639422875000000,0,0x0A01,
0.639430833333333,0,0x8315,
0.639446666666667,0,0x0F00,
0.639454583333333,0,0x8415,
0.639470458333333,0,0x0000,
0.639478375000000,0,0x8514,
0.639494250000000,0,0x4F3F,
0.639502166666667,0,0x8615,
0.639533291666667,0,0x0004,
0.639541000000000,0,0x0319,
0.639557125000000,0,0x0A01,
0.639565083333333,0,0x8319,
0.639580916666667,0,0x0F00,
0.639588875000000,0,0x8419,
0.639604708333333,0,0x0000,
0.639612625000000,0,0x8514,
0.639628458333333,0,0x4F3F,
0.639636416666667,0,0x8619,
0.639666958333333,0,0x0004,
0.639674666666667,0,0x031D,
0.639690875000000,0,0x0A01,
0.639698833333333,0,0x831D,
0.639714666666667,0,0x0F00,
0.639722625000000,0,0x841D,
0.639738458333333,0,0x0000,
0.639746375000000,0,0x8514,
0.639762250000000,0,0x4F3F,
0.639770166666667,0,0x861D,
0.639801041666667,0,0x0004,
0.639808750000000,0,0x0311,
0.639825208333333,0,0x0A01,
0.639833125000000,0,0x8311,
0.639849000000000,0,0x0F00,
0.639856916666667,0,0x8411,
0.639872750000000,0,0x0000,
0.639880708333333,0,0x8514,
0.639896541666667,0,0x4F3F,
0.639904458333333,0,0x8611,
0.639935416666667,0,0x0004,
0.639943083333333,0,0x0315,
0.639959458333333,0,0x0A01,
0.639967375000000,0,0x8315,
0.639983208333333,0,0x0F00,
0.639991166666667,0,0x8415,
0.640007000000000,0,0x0000,
0.640014958333333,0,0x8514,
0.640030791666667,0,0x473F,
0.640038708333333,0,0x8615,
0.640069166666667,0,0x0001,
0.640076833333333,0,0x1D19,
0.640093208333333,0,0x1551,
0.640101125000000,0,0x9D19,
0.640129000000000,0,0x0003,
0.640136708333333,0,0x241D,
0.640153125000000,0,0x0048,
0.640161041666667,0,0xA414,
0.640176916666667,0,0x0040,
0.640184833333333,0,0xA514,
0.640200666666667,0,0x0000,
0.640208625000000,0,0xA614,
0.640237875000000,0,0x0005,
0.640245541666667,0,0x2D11,
0.640261583333333,0,0x35B8,
0.640269541666667,0,0xAD14,
0.640285375000000,0,0xFFFF,
0.640293333333333,0,0xAE14,
0.640309166666667,0,0x7E27,
0.640317125000000,0,0xAF14,
0.640332958333333,0,0xFFFF,
0.640340875000000,0,0xB014,
0.640356750000000,0,0x830D,
0.640364666666667,0,0xB114,
0.640395250000000,0,0x0006,
0.640402916666667,0,0x3B15,
0.640419125000000,0,0xB3FA,
0.640427083333333,0,0xBB14,
0.640442916666667,0,0xB34C,
0.640450833333333,0,0xBC14,
0.640466666666667,0,0xB2DE,
0.640474625000000,0,0xBD14,
0.640490458333333,0,0xB220,
0.640498375000000,0,0xBE14,
0.640514250000000,0,0xB220,
0.640522166666667,0,0xBF14,
0.640538000000000,0,0xB294,
0.640545916666667,0,0xC014,
0.640576041666667,0,0x000A,
0.640583708333333,0,0x4119,
0.640599916666667,0,0xC0C0,
0.640607833333333,0,0xC114,
0.640623666666667,0,0xC0BB,
0.640631625000000,0,0xC214,
0.640647458333333,0,0xC0BF,
0.640655375000000,0,0xC314,
0.640671208333333,0,0xC0BF,
0.640679166666667,0,0xC414,
0.640695000000000,0,0xC0C2,
0.640702916666667,0,0xC514,
0.640718750000000,0,0xE047,
0.640726708333333,0,0xC614,
0.640742541666667,0,0x8000,
0.640750500000000,0,0xC714,
0.640766333333333,0,0xA2FF,
0.640774250000000,0,0xC814,
0.640790083333333,0,0x9E39,
0.640798041666667,0,0xC914,
0.640813875000000,0,0x9E3F,
0.640821791666667,0,0xCA14,
0.640854833333333,0,0x0004,
0.640862500000000,0,0x032D,
0.640878625000000,0,0x0A01,
0.640886500000000,0,0x832D,
0.640902250000000,0,0x0F00,
0.640910083333333,0,0x842D,
0.640925833333333,0,0x0000,
0.640933666666667,0,0x8524,
0.640949416666667,0,0x473F,
0.640957291666667,0,0x862D,
0.640988166666667,0,0x0001,
0.640995833333333,0,0x1D21,
0.641011791666667,0,0x0055,
0.641019666666667,0,0x9D21,
0.641047916666667,0,0x0003,
0.641055583333333,0,0x2425,
0.641071750000000,0,0x004C,
0.641079625000000,0,0xA424,
0.641095333333333,0,0x0040,
0.641103208333333,0,0xA524,
0.641118958333333,0,0x0000,
0.641126791666667,0,0xA624,
0.641155625000000,0,0x0005,
0.641163333333333,0,0x2D29,
0.641179375000000,0,0x363E,
0.641187250000000,0,0xAD24,
0.641202958333333,0,0xFFFF,
0.641210833333333,0,0xAE24,
0.641226583333333,0,0xD774,
0.641234416666667,0,0xAF24,
0.641250166666667,0,0xFFFF,
0.641258000000000,0,0xB024,
0.641273750000000,0,0x830F,
0.641281625000000,0,0xB124,
0.641311416666667,0,0x0006,
0.641319083333333,0,0x3B2D,
0.641335208333333,0,0xE562,
0.641343041666667,0,0xBB24,
0.641358750000000,0,0x8000,
0.641366625000000,0,0xBC24,
0.641382375000000,0,0x8000,
0.641390208333333,0,0xBD24,
0.641405916666667,0,0x8000,
0.641413791666667,0,0xBE24,
0.641429541666667,0,0xE5FE,
0.641437375000000,0,0xBF24,
0.641453083333333,0,0xE617,
0.641460958333333,0,0xC024,
0.641491375000000,0,0x000A,
0.641499083333333,0,0x4121,
0.641515000000000,0,0xDEF1,
0.641522875000000,0,0xC124,
0.641538625000000,0,0xDFF5,
0.641546458333333,0,0xC224,
0.641562208333333,0,0xE01B,
0.641570083333333,0,0xC324,
0.641585791666667,0,0xE156,
0.641593666666667,0,0xC424,
0.641609375000000,0,0xA998,
0.641617250000000,0,0xC524,
0.641632958333333,0,0xFF50,
0.641640833333333,0,0xC624,
0.641656541666667,0,0xC00F,
0.641664416666667,0,0xC724,
0.641680125000000,0,0xA2E2,
0.641688000000000,0,0xC824,
0.641703750000000,0,0x9E37,
0.641711625000000,0,0xC924,
0.641727333333333,0,0x9E43,
0.641735208333333,0,0xCA24,
0.649328666666667,0,0x5C3F,
0.649336333333333,0,0x0607,
0.649363750000000,0,0x0004,
0.649371416666667,0,0x0319,
0.649387500000000,0,0x0A01,
0.649395416666667,0,0x8319,
0.649411250000000,0,0x0F00,
0.649419208333333,0,0x8419,
0.649435083333333,0,0x0000,
0.649443000000000,0,0x8515,
0.649458833333333,0,0x5F3F,
0.649466791666667,0,0x8619,
0.649497708333333,0,0x0004,
0.649505416666667,0,0x031D,
0.649521791666667,0,0x0A01,
0.649529750000000,0,0x831D,
0.649545583333333,0,0x0F00,
0.649553500000000,0,0x841D,
0.649569375000000,0,0x0000,
0.649577291666667,0,0x8515,
0.649593166666667,0,0x5F3F,
0.649601083333333,0,0x861D,
0.649631916666667,0,0x0004,
0.649639583333333,0,0x0311,
0.649655583333333,0,0x0A01,
0.649663541666667,0,0x8311,
0.649679375000000,0,0x0F00,
0.649687291666667,0,0x8411,
0.649703166666667,0,0x0000,
0.649711083333333,0,0x8515,
0.649726958333333,0,0x5F3F,
0.649734875000000,0,0x8611,
0.649765125000000,0,0x0004,
0.649772791666667,0,0x0315,
0.649788916666667,0,0x0A01,
0.649796833333333,0,0x8315,
0.649812666666667,0,0x0F00,
0.649820583333333,0,0x8415,
0.649836458333333,0,0x0000,
0.649844375000000,0,0x8515,
0.649860250000000,0,0x5F3F,
0.649868166666667,0,0x8615,
0.649898291666667,0,0x0004,
0.649906000000000,0,0x0319,
0.649922208333333,0,0x0A01,
0.649930125000000,0,0x8319,
0.649945958333333,0,0x0F00,
0.649953875000000,0,0x8419,
0.649969750000000,0,0x0000,
0.649977666666667,0,0x8515,
0.649993500000000,0,0x573F,
0.650001416666667,0,0x8619,
0.650032083333333,0,0x0001,
0.650039750000000,0,0x1D1D,
0.650055916666667,0,0x1551,
0.650063833333333,0,0x9D1D,
0.650092500000000,0,0x0003,
0.650100166666667,0,0x2411,
0.650116333333333,0,0x0048,
0.650124250000000,0,0xA415,
0.650140125000000,0,0x0040,
0.650148041666667,0,0xA515,
0.650163916666667,0,0x0000,
0.650171791666667,0,0xA615,
0.650201291666667,0,0x0005,
0.650208958333333,0,0x2D15,
0.650225333333333,0,0x36C1,
0.650233250000000,0,0xAD15,
0.650249083333333,0,0xFFFF,
0.650257000000000,0,0xAE15,
0.650272875000000,0,0x7C3E,
0.650280791666667,0,0xAF15,
0.650296625000000,0,0x8000,
0.650304583333333,0,0xB015,
0.650320416666667,0,0x8303,
0.650328333333333,0,0xB115,
0.650358583333333,0,0x0006,
0.650366250000000,0,0x3B19,
0.650382333333333,0,0xB3FB,
0.650390250000000,0,0xBB15,
0.650406125000000,0,0xB34A,
0.650414041666667,0,0xBC15,
0.650429875000000,0,0xB2DD,
0.650437791666667,0,0xBD15,
0.650453666666667,0,0xB21C,
0.650461583333333,0,0xBE15,
0.650477416666667,0,0xB21B,
0.650485375000000,0,0xBF15,
0.650501208333333,0,0xB293,
0.650509125000000,0,0xC015,
0.650539625000000,0,0x000A,
0.650547291666667,0,0x411D,
0.650563583333333,0,0xC0C4,
0.650571541666667,0,0xC115,
0.650587375000000,0,0xC0C1,
0.650595291666667,0,0xC215,
0.650611166666667,0,0xC0C4,
0.650619083333333,0,0xC315,
0.650634916666667,0,0xC0C2,
0.650642875000000,0,0xC415,
0.650658708333333,0,0xC0C4,
0.650666625000000,0,0xC515,
0.650682500000000,0,0xE04C,
0.650690416666667,0,0xC615,
0.650706291666667,0,0x8000,
0.650714208333333,0,0xC715,
0.650730041666667,0,0xA301,
0.650738000000000,0,0xC815,
0.650753833333333,0,0x9E3C,
0.650761750000000,0,0xC915,
0.650777583333333,0,0x9E3C,
0.650785541666667,0,0xCA15,
0.650817250000000,0,0x0004,
0.650824916666667,0,0x0321,
0.650841041666667,0,0x0A01,
0.650848916666667,0,0x8321,
0.650864625000000,0,0x0F00,
0.650872500000000,0,0x8421,
0.650888250000000,0,0x0000,
0.650896083333333,0,0x8525,
0.650911833333333,0,0x573F,
0.650919708333333,0,0x8621,
0.650950041666667,0,0x0001,
0.650957708333333,0,0x1D25,
0.650973750000000,0,0x0055,
0.650981625000000,0,0x9D25,
0.651010041666667,0,0x0003,
0.651017750000000,0,0x2429,
0.651034166666667,0,0x004C,
0.651042041666667,0,0xA425,
0.651057750000000,0,0x0040,
0.651065625000000,0,0xA525,
0.651081333333333,0,0x0000,
0.651089208333333,0,0xA625,
0.651118166666667,0,0x0005,
0.651125875000000,0,0x2D2D,
0.651142291666667,0,0x3748,
0.651150166666667,0,0xAD25,
0.651165875000000,0,0xFFFF,
0.651173750000000,0,0xAE25,
0.651189458333333,0,0xD731,
0.651197333333333,0,0xAF25,
0.651213041666667,0,0x8000,
0.651220916666667,0,0xB025,
0.651236666666667,0,0x8305,
0.651244541666667,0,0xB125,
0.651275583333333,0,0x0006,
0.651283291666667,0,0x3B21,
0.651299541666667,0,0xE55F,
0.651307416666667,0,0xBB25,
0.651323166666667,0,0x8002,
0.651331041666667,0,0xBC25,
0.651346750000000,0,0x8000,
0.651354625000000,0,0xBD25,
0.651370333333333,0,0x8000,
0.651378208333333,0,0xBE25,
0.651393916666667,0,0xE5F8,
0.651401791666667,0,0xBF25,
0.651417500000000,0,0xE611,
0.651425375000000,0,0xC025,
0.651456083333333,0,0x000A,
0.651463750000000,0,0x4125,
0.651479958333333,0,0xDEF1,
0.651487791666667,0,0xC125,
0.651503541666667,0,0xDFF6,
0.651511416666667,0,0xC225,
0.651527125000000,0,0xE018,
0.651535000000000,0,0xC325,
0.651550750000000,0,0xE151,
0.651558583333333,0,0xC425,
0.651574333333333,0,0xA994,
0.651582208333333,0,0xC525,
0.651597916666667,0,0xFF52,
0.651605791666667,0,0xC625,
0.651621500000000,0,0xC012,
0.651629375000000,0,0xC725,
0.651645083333333,0,0xA2E3,
0.651652958333333,0,0xC825,
0.651668666666667,0,0x9E3A,
0.651676541666667,0,0xC925,
0.651692291666667,0,0x9E3E,
0.651700166666667,0,0xCA25,
0.659487000000000,0,0x6C3F,
0.659494666666667,0,0x060B,
0.659522333333333,0,0x0004,
0.659530000000000,0,0x031D,
0.659546041666667,0,0x0A01,
0.659553958333333,0,0x831D,
0.659569833333333,0,0x0F00,
0.659577750000000,0,0x841D,
0.659593625000000,0,0x0000,
0.659601541666667,0,0x8516,
0.659617375000000,0,0x6F3F,
0.659625333333333,0,0x861D,
0.659656833333333,0,0x0004,
0.659664500000000,0,0x0311,
0.659680791666667,0,0x0A01,
0.659688708333333,0,0x8311,
0.659704583333333,0,0x0F00,
0.659712500000000,0,0x8411,
0.659728333333333,0,0x0000,
0.659736291666667,0,0x8516,
0.659752125000000,0,0x6F3F,
0.659760041666667,0,0x8611,
0.659791833333333,0,0x0004,
0.659799541666667,0,0x0315,
0.659815541666667,0,0x0A01,
0.659823500000000,0,0x8315,
0.659839333333333,0,0x0F00,
0.659847291666667,0,0x8415,
0.659863125000000,0,0x0000,
0.659871041666667,0,0x8516,
0.659886916666667,0,0x6F3F,
0.659894875000000,0,0x8615,
0.659926041666667,0,0x0004,
0.659933708333333,0,0x0319,
0.659949833333333,0,0x0A01,
0.659957750000000,0,0x8319,
0.659973625000000,0,0x0F00,
0.659981541666667,0,0x8419,
0.659997375000000,0,0x0000,
0.660005291666667,0,0x8516,
0.660021166666667,0,0x6F3F,
0.660029083333333,0,0x8619,
0.660060041666667,0,0x0004,
0.660067708333333,0,0x031D,
0.660084083333333,0,0x0A01,
0.660092000000000,0,0x831D,
0.660107833333333,0,0x0F00,
0.660115750000000,0,0x841D,
0.660131625000000,0,0x0000,
0.660139541666667,0,0x8516,
0.660155375000000,0,0x673F,
0.660163333333333,0,0x861D,
0.660193541666667,0,0x0001,
0.660201208333333,0,0x1D11,
0.660217291666667,0,0x1551,
0.660225250000000,0,0x9D11,
0.660253458333333,0,0x0003,
0.660261125000000,0,0x2415,
0.660277250000000,0,0x0048,
0.660285166666667,0,0xA416,
0.660301000000000,0,0x0040,
0.660308958333333,0,0xA516,
0.660324791666667,0,0x0000,
0.660332708333333,0,0xA616,
0.660361541666667,0,0x0005,
0.660369250000000,0,0x2D19,
0.660385708333333,0,0x37CF,
0.660393625000000,0,0xAD16,
0.660409500000000,0,0xFFFF,
0.660417416666667,0,0xAE16,
0.660433250000000,0,0x7AB3,
0.660441166666667,0,0xAF16,
0.660457041666667,0,0xFFFF,
0.660464958333333,0,0xB016,
0.660480791666667,0,0x830E,
0.660488750000000,0,0xB116,
0.660519541666667,0,0x0006,
0.660527250000000,0,0x3B1D,
0.660543708333333,0,0xB3F7,
0.660551625000000,0,0xBB16,
0.660567458333333,0,0xB349,
0.660575416666667,0,0xBC16,
0.660591250000000,0,0xB2DE,
0.660599208333333,0,0xBD16,
0.660615041666667,0,0xB21B,
0.660622958333333,0,0xBE16,
0.660638833333333,0,0xB21D,
0.660646750000000,0,0xBF16,
0.660662583333333,0,0xB290,
0.660670500000000,0,0xC016,
0.660701416666667,0,0x000A,
0.660709125000000,0,0x4111,
0.660725500000000,0,0xC0C1,
0.660733416666667,0,0xC116,
0.660749291666667,0,0xC0BF,
0.660757208333333,0,0xC216,
0.660773041666667,0,0xC0C2,
0.660780958333333,0,0xC316,
0.660796791666667,0,0xC0C4,
0.660804708333333,0,0xC416,
0.660820583333333,0,0xC0C2,
0.660828500000000,0,0xC516,
0.660844333333333,0,0xE04B,
0.660852250000000,0,0xC616,
0.660868125000000,0,0x8000,
0.660876041666667,0,0xC716,
0.660891875000000,0,0xA300,
0.660899833333333,0,0xC816,
0.660915666666667,0,0x9E39,
0.660923583333333,0,0xC916,
0.660939458333333,0,0x9E3B,
0.660947375000000,0,0xCA16,
0.660978958333333,0,0x0004,
0.660986625000000,0,0x0325,
0.661002583333333,0,0x0A01,
0.661010458333333,0,0x8325,
0.661026166666667,0,0x0F00,
0.661034041666667,0,0x8425,
0.661049791666667,0,0x0000,
0.661057625000000,0,0x8526,
0.661073333333333,0,0x673F,
0.661081208333333,0,0x8625,
0.661111291666667,0,0x0001,
0.661119000000000,0,0x1D29,
0.661135291666667,0,0x0055,
0.661143125000000,0,0x9D29,
0.661171500000000,0,0x0003,
0.661179166666667,0,0x242D,
0.661195250000000,0,0x004C,
0.661203125000000,0,0xA426,
0.661218833333333,0,0x0040,
0.661226708333333,0,0xA526,
0.661242416666667,0,0x0000,
0.661250291666667,0,0xA626,
0.661280750000000,0,0x0005,
0.661288458333333,0,0x2D21,
0.661304833333333,0,0x3858,
0.661312708333333,0,0xAD26,
0.661328458333333,0,0xFFFF,
0.661336291666667,0,0xAE26,
0.661352041666667,0,0xD677,
0.661359875000000,0,0xAF26,
0.661375625000000,0,0xFFFF,
0.661383500000000,0,0xB026,
0.661399208333333,0,0x830E,
0.661407083333333,0,0xB126,
0.661436958333333,0,0x0006,
0.661444666666667,0,0x3B25,
0.661460625000000,0,0xE55E,
0.661468500000000,0,0xBB26,
0.661484250000000,0,0x8003,
0.661492125000000,0,0xBC26,
0.661507833333333,0,0x8000,
0.661515708333333,0,0xBD26,
0.661531416666667,0,0x8000,
0.661539291666667,0,0xBE26,
0.661555000000000,0,0xE5F9,
0.661562875000000,0,0xBF26,
0.661578625000000,0,0xE60E,
0.661586500000000,0,0xC026,
0.661616583333333,0,0x000A,
0.661624250000000,0,0x4129,
0.661640541666667,0,0xDEF1,
0.661648416666667,0,0xC126,
0.661664125000000,0,0xDFF8,
0.661672000000000,0,0xC226,
0.661687708333333,0,0xE018,
0.661695583333333,0,0xC326,
0.661711291666667,0,0xE153,
0.661719166666667,0,0xC426,
0.661734875000000,0,0xA994,
0.661742750000000,0,0xC526,
0.661758458333333,0,0xFF50,
0.661766333333333,0,0xC626,
0.661782041666667,0,0xC00F,
0.661789916666667,0,0xC726,
0.661805625000000,0,0xA2E1,
0.661813458333333,0,0xC826,
0.661829208333333,0,0x9E39,
0.661837041666667,0,0xC926,
0.661852791666667,0,0x9E42,
0.661860625000000,0,0xCA26,
0.669360083333333,0,0x7C3F,
0.669367750000000,0,0x060F,
0.669395458333333,0,0x0004,
0.669403166666667,0,0x0311,
0.669419416666667,0,0x0A01,
0.669427333333333,0,0x8311,
0.669443208333333,0,0x0F00,
0.669451125000000,0,0x8411,
0.669466958333333,0,0x0000,
0.669474916666667,0,0x8517,
0.669490750000000,0,0x7F3F,
0.669498666666667,0,0x8611,
0.669529458333333,0,0x0004,
0.669537125000000,0,0x0315,
0.669553166666667,0,0x0A01,
0.669561125000000,0,0x8315,
0.669576958333333,0,0x0F00,
0.669584875000000,0,0x8415,
0.669600750000000,0,0x0000,
0.669608666666667,0,0x8517,
0.669624541666667,0,0x7F3F,
0.669632458333333,0,0x8615,
0.669663083333333,0,0x0004,
0.669670750000000,0,0x0319,
0.669687000000000,0,0x0A01,
0.669694916666667,0,0x8319,
0.669710750000000,0,0x0F00,
0.669718708333333,0,0x8419,
0.669734583333333,0,0x0000,
0.669742500000000,0,0x8517,
0.669758375000000,0,0x7F3F,
0.669766291666667,0,0x8619,
0.669796833333333,0,0x0004,
0.669804500000000,0,0x031D,
0.669820791666667,0,0x0A01,
0.669828708333333,0,0x831D,
0.669844583333333,0,0x0F00,
0.669852500000000,0,0x841D,
0.669868333333333,0,0x0000,
0.669876291666667,0,0x8517,
0.669892125000000,0,0x7F3F,
0.669900041666667,0,0x861D,
0.669930875000000,0,0x0004,
0.669938541666667,0,0x0311,
0.669955000000000,0,0x0A01,
0.669962958333333,0,0x8311,
0.669978791666667,0,0x0F00,
0.669986708333333,0,0x8411,
0.670002583333333,0,0x0000,
0.670010500000000,0,0x8517,
0.670026333333333,0,0x773F,
0.670034250000000,0,0x8611,
0.670065500000000,0,0x0001,
0.670073166666667,0,0x1D15,
0.670089250000000,0,0x1551,
0.670097166666667,0,0x9D15,
0.670125583333333,0,0x0003,
0.670133250000000,0,0x2419,
0.670149666666667,0,0x0048,
0.670157583333333,0,0xA417,
0.670173416666667,0,0x0040,
0.670181375000000,0,0xA517,
0.670197208333333,0,0x0000,
0.670205125000000,0,0xA617,
0.670234458333333,0,0x0005,
0.670242125000000,0,0x2D1D,
0.670258125000000,0,0x38D5,
0.670266041666667,0,0xAD17,
0.670281875000000,0,0xFFFF,
0.670289833333333,0,0xAE17,
0.670305666666667,0,0x78BB,
0.670313583333333,0,0xAF17,
0.670329458333333,0,0xFFFF,
0.670337375000000,0,0xB017,
0.670353208333333,0,0x8306,
0.670361125000000,0,0xB117,
0.670391375000000,0,0x0006,
0.670399041666667,0,0x3B11,
0.670415083333333,0,0xB3F9,
0.670423041666667,0,0xBB17,
0.670438875000000,0,0xB348,
0.670446833333333,0,0xBC17,
0.670462666666667,0,0xB2DB,
0.670470583333333,0,0xBD17,
0.670486458333333,0,0xB21B,
0.670494375000000,0,0xBE17,
0.670510250000000,0,0xB21A,
0.670518166666667,0,0xBF17,
0.670534000000000,0,0xB28D,
0.670541916666667,0,0xC017,
0.670572500000000,0,0x000A,
0.670580166666667,0,0x4115,
0.670596416666667,0,0xC0C2,
0.670604375000000,0,0xC117,
0.670620208333333,0,0xC0BE,
0.670628125000000,0,0xC217,
0.670644000000000,0,0xC0BE,
0.670651875000000,0,0xC317,
0.670667750000000,0,0xC0C4,
0.670675666666667,0,0xC417,
0.670691541666667,0,0xC0C6,
0.670699458333333,0,0xC517,
0.670715291666667,0,0xE04A,
0.670723208333333,0,0xC617,
0.670739083333333,0,0x8000,
0.670747000000000,0,0xC717,
0.670762875000000,0,0xA301,
0.670770791666667,0,0xC817,
0.670786666666667,0,0x9E38,
0.670794583333333,0,0xC917,
0.670810458333333,0,0x9E3E,
0.670818375000000,0,0xCA17,
0.670850625000000,0,0x0004,
0.670858291666667,0,0x0329,
0.670874416666667,0,0x0A01,
0.670882250000000,0,0x8329,
0.670897958333333,0,0x0F00,
0.670905833333333,0,0x8429,
0.670921583333333,0,0x0000,
0.670929416666667,0,0x8527,
0.670945166666667,0,0x773F,
0.670953000000000,0,0x8629,
0.670983416666667,0,0x0001,
0.670991083333333,0,0x1D2D,
0.671007083333333,0,0x0055,
0.671014958333333,0,0x9D2D,
0.671042708333333,0,0x0003,
0.671050375000000,0,0x2421,
0.671066583333333,0,0x004C,
0.671074416666667,0,0xA427,
0.671090166666667,0,0x0040,
0.671098041666667,0,0xA527,
0.671113750000000,0,0x0000,
0.671121625000000,0,0xA627,
0.671150000000000,0,0x0005,
0.671157666666667,0,0x2D25,
0.671173750000000,0,0x3961,
0.671181583333333,0,0xAD27,
0.671197333333333,0,0xFFFF,
0.671205166666667,0,0xAE27,
0.671220916666667,0,0xD5D7,
0.671228791666667,0,0xAF27,
0.671244500000000,0,0x8000,
0.671252333333333,0,0xB027,
0.671268083333333,0,0x8304,
0.671275958333333,0,0xB127,
0.671306041666667,0,0x0006,
0.671313750000000,0,0x3B29,
0.671330041666667,0,0xE559,
0.671337875000000,0,0xBB27,
0.671353625000000,0,0x8000,
0.671361500000000,0,0xBC27,
0.671377208333333,0,0x8000,
0.671385083333333,0,0xBD27,
0.671400791666667,0,0x8002,
0.671408666666667,0,0xBE27,
0.671424416666667,0,0xE5F9,
0.671432291666667,0,0xBF27,
0.671448000000000,0,0xE610,
0.671455833333333,0,0xC027,
0.671485833333333,0,0x000A,
0.671493500000000,0,0x412D,
0.671509958333333,0,0xDEF3,
0.671517791666667,0,0xC127,
0.671533541666667,0,0xDFF4,
0.671541375000000,0,0xC227,
0.671557125000000,0,0xE013,
0.671565000000000,0,0xC327,
0.671580708333333,0,0xE153,
0.671588583333333,0,0xC427,
0.671604291666667,0,0xA995,
0.671612166666667,0,0xC527,
0.671627875000000,0,0xFF4F,
0.671635750000000,0,0xC627,
0.671651458333333,0,0xC012,
0.671659333333333,0,0xC727,
0.671675041666667,0,0xA2E1,
0.671682916666667,0,0xC827,
0.671698625000000,0,0x9E38,
0.671706500000000,0,0xC927,
0.671722208333333,0,0x9E3E,
0.671730083333333,0,0xCA27,
0.679346708333333,0,0x8C3F,
0.679354416666667,0,0x0603,
0.679381875000000,0,0x0004,
0.679389583333333,0,0x0315,
0.679405916666667,0,0x0A01,
0.679413833333333,0,0x8315,
0.679429708333333,0,0x0F00,
0.679437625000000,0,0x8415,
0.679453500000000,0,0x0000,
0.679461416666667,0,0x8518,
0.679477291666667,0,0x8F3F,
0.679485208333333,0,0x8615,
0.679515458333333,0,0x0004,
0.679523166666667,0,0x0319,
0.679539208333333,0,0x0A01,
0.679547166666667,0,0x8319,
0.679563000000000,0,0x0F00,
0.679570958333333,0,0x8419,
0.679586791666667,0,0x0000,
0.679594750000000,0,0x8518,
0.679610583333333,0,0x8F3F,
0.679618500000000,0,0x8619,
0.679649583333333,0,0x0004,
0.679657250000000,0,0x031D,
0.679673541666667,0,0x0A01,
0.679681458333333,0,0x831D,
0.679697291666667,0,0x0F00,
0.679705208333333,0,0x841D,
0.679721083333333,0,0x0000,
0.679729000000000,0,0x8518,
0.679744833333333,0,0x8F3F,
0.679752791666667,0,0x861D,
0.679783041666667,0,0x0004,
0.679790708333333,0,0x0311,
0.679806791666667,0,0x0A01,
0.679814708333333,0,0x8311,
0.679830541666667,0,0x0F00,
0.679838500000000,0,0x8411,
0.679854333333333,0,0x0000,
0.679862250000000,0,0x8518,
0.679878125000000,0,0x8F3F,
0.679886041666667,0,0x8611,
0.679916958333333,0,0x0004,
0.679924666666667,0,0x0315,
0.679941041666667,0,0x0A01,
0.679948958333333,0,0x8315,
0.679964791666667,0,0x0F00,
0.679972750000000,0,0x8415,
0.679988583333333,0,0x0000,
0.679996500000000,0,0x8518,
0.680012375000000,0,0x873F,
0.680020250000000,0,0x8615,
0.680050916666667,0,0x0001,
0.680058583333333,0,0x1D19,
0.680074750000000,0,0x1551,
0.680082666666667,0,0x9D19,
0.680110833333333,0,0x0003,
0.680118541666667,0,0x241D,
0.680134708333333,0,0x0048,
0.680142625000000,0,0xA418,
0.680158458333333,0,0x0040,
0.680166375000000,0,0xA518,
0.680182250000000,0,0x0000,
0.680190166666667,0,0xA618,
0.680219125000000,0,0x0005,
0.680226791666667,0,0x2D11,
0.680243166666667,0,0x39DE,
0.680251125000000,0,0xAD18,
0.680266958333333,0,0xFFFF,
0.680274875000000,0,0xAE18,
0.680290750000000,0,0x761F,
0.680298666666667,0,0xAF18,
0.680314500000000,0,0x8000,
0.680322416666667,0,0xB018,
0.680338291666667,0,0x8301,
0.680346208333333,0,0xB118,
0.680376291666667,0,0x0006,
0.680383958333333,0,0x3B15,
0.680400166666667,0,0xB3F6,
0.680408125000000,0,0xBB18,
0.680423958333333,0,0xB348,
0.680431875000000,0,0xBC18,
0.680447750000000,0,0xB2DB,
0.680455666666667,0,0xBD18,
0.680471500000000,0,0xB21E,
0.680479458333333,0,0xBE18,
0.680495291666667,0,0xB21D,
0.680503208333333,0,0xBF18,
0.680519083333333,0,0xB290,
0.680527000000000,0,0xC018,
0.680556500000000,0,0x000A,
0.680564166666667,0,0x4119,
0.680580458333333,0,0xC0C6,
0.680588375000000,0,0xC118,
0.680604250000000,0,0xC0C1,
0.680612166666667,0,0xC218,
0.680628000000000,0,0xC0C4,
0.680635958333333,0,0xC318,
0.680651791666667,0,0xC0C5,
0.680659708333333,0,0xC418,
0.680675541666667,0,0xC0C4,
0.680683500000000,0,0xC518,
0.680699333333333,0,0xE04E,
0.680707250000000,0,0xC618,
0.680723125000000,0,0x8001,
0.680731041666667,0,0xC718,
0.680746875000000,0,0xA300,
0.680754833333333,0,0xC818,
0.680770666666667,0,0x9E3E,
0.680778583333333,0,0xC918,
0.680794458333333,0,0x9E42,
0.680802375000000,0,0xCA18,
0.680835166666667,0,0x0004,
0.680842833333333,0,0x032D,
0.680858833333333,0,0x0A01,
0.680866708333333,0,0x832D,
0.680882416666667,0,0x0F00,
0.680890291666667,0,0x842D,
0.680906000000000,0,0x0000,
0.680913875000000,0,0x8528,
0.680929583333333,0,0x873F,
0.680937416666667,0,0x862D,
0.680968708333333,0,0x0001,
0.680976375000000,0,0x1D21,
0.680992500000000,0,0x0055,
0.681000333333333,0,0x9D21,
0.681028375000000,0,0x0003,
0.681036041666667,0,0x2425,
0.681052458333333,0,0x004C,
0.681060291666667,0,0xA428,
0.681076041666667,0,0x0040,
0.681083875000000,0,0xA528,
0.681099625000000,0,0x0000,
0.681107458333333,0,0xA628,
0.681136291666667,0,0x0005,
0.681143958333333,0,0x2D29,
0.681160041666667,0,0x3A6C,
0.681167916666667,0,0xAD28,
0.681183625000000,0,0xFFFF,
0.681191500000000,0,0xAE28,
0.681207250000000,0,0xD4E6,
0.681215125000000,0,0xAF28,
0.681230833333333,0,0xFFFF,
0.681238708333333,0,0xB028,
0.681254416666667,0,0x830D,
0.681262291666667,0,0xB128,
0.681293250000000,0,0x0006,
0.681300916666667,0,0x3B2D,
0.681317333333333,0,0xE557,
0.681325208333333,0,0xBB28,
0.681340916666667,0,0x8001,
0.681348791666667,0,0xBC28,
0.681364541666667,0,0x8002,
0.681372375000000,0,0xBD28,
0.681388125000000,0,0x8001,
0.681396000000000,0,0xBE28,
0.681411708333333,0,0xE5F3,
0.681419583333333,0,0xBF28,
0.681435291666667,0,0xE608,
0.681443166666667,0,0xC028,
0.681473833333333,0,0x000A,
0.681481541666667,0,0x4121,
0.681497708333333,0,0xDEF2,
0.681505541666667,0,0xC128,
0.681521291666667,0,0xDFF5,
0.681529166666667,0,0xC228,
0.681544875000000,0,0xE017,
0.681552750000000,0,0xC328,
0.681568458333333,0,0xE14E,
0.681576333333333,0,0xC428,
0.681592041666667,0,0xA993,
0.681599916666667,0,0xC528,
0.681615625000000,0,0xFF4F,
0.681623500000000,0,0xC628,
0.681639208333333,0,0xC012,
0.681647083333333,0,0xC728,
0.681662833333333,0,0xA2E1,
0.681670708333333,0,0xC828,
0.681686416666667,0,0x9E39,
0.681694250000000,0,0xC928,
0.681710000000000,0,0x9E3F,
0.681717875000000,0,0xCA28,
0.689390958333333,0,0x9C3F,
0.689398666666667,0,0x0607,
0.689426375000000,0,0x0004,
0.689434041666667,0,0x0319,
0.689450000000000,0,0x0A01,
0.689457916666667,0,0x8319,
0.689473750000000,0,0x0F00,
0.689481708333333,0,0x8419,
0.689497541666667,0,0x0000,
0.689505458333333,0,0x8519,
0.689521333333333,0,0x9F3F,
0.689529250000000,0,0x8619,
0.689560666666667,0,0x0004,
0.689568333333333,0,0x031D,
0.689584708333333,0,0x0A01,
0.689592666666667,0,0x831D,
0.689608500000000,0,0x0F00,
0.689616416666667,0,0x841D,
0.689632291666667,0,0x0000,
0.689640208333333,0,0x8519,
0.689656041666667,0,0x9F3F,
0.689664000000000,0,0x861D,
0.689693666666667,0,0x0004,
0.689701333333333,0,0x0311,
0.689717500000000,0,0x0A01,
0.689725416666667,0,0x8311,
0.689741291666667,0,0x0F00,
0.689749208333333,0,0x8411,
0.689765041666667,0,0x0000,
0.689773000000000,0,0x8519,
0.689788833333333,0,0x9F3F,
0.689796750000000,0,0x8611,
0.689827166666667,0,0x0004,
0.689834875000000,0,0x0315,
0.689851250000000,0,0x0A01,
0.689859166666667,0,0x8315,
0.689875041666667,0,0x0F00,
0.689882958333333,0,0x8415,
0.689898791666667,0,0x0000,
0.689906750000000,0,0x8519,
0.689922583333333,0,0x9F3F,
0.689930500000000,0,0x8615,
0.689960458333333,0,0x0004,
0.689968125000000,0,0x0319,
0.689984500000000,0,0x0A01,
0.689992416666667,0,0x8319,
0.690008291666667,0,0x0F00,
0.690016208333333,0,0x8419,
0.690032041666667,0,0x0000,
0.690040000000000,0,0x8519,
0.690055833333333,0,0x973F,
0.690063750000000,0,0x8619,
0.690093958333333,0,0x0001,
0.690101625000000,0,0x1D1D,
0.690117750000000,0,0x1551,
0.690125666666667,0,0x9D1D,
0.690153708333333,0,0x0003,
0.690161416666667,0,0x2411,
0.690177708333333,0,0x0048,
0.690185583333333,0,0xA419,
0.690201458333333,0,0x0040,
0.690209375000000,0,0xA519,
0.690225208333333,0,0x0000,
0.690233166666667,0,0xA619,
0.690262625000000,0,0x0005,
0.690270291666667,0,0x2D15,
0.690286625000000,0,0x3AE9,
0.690294541666667,0,0xAD19,
0.690310375000000,0,0xFFFF,
0.690318333333333,0,0xAE19,
0.690334166666667,0,0x741E,
0.690342125000000,0,0xAF19,
0.690357958333333,0,0xFFFF,
0.690365875000000,0,0xB019,
0.690381708333333,0,0x8308,
0.690389666666667,0,0xB119,
0.690419958333333,0,0x0006,
0.690427666666667,0,0x3B19,
0.690443625000000,0,0xB3F4,
0.690451583333333,0,0xBB19,
0.690467416666667,0,0xB345,
0.690475333333333,0,0xBC19,
0.690491166666667,0,0xB2D6,
0.690499083333333,0,0xBD19,
0.690514958333333,0,0xB21D,
0.690522875000000,0,0xBE19,
0.690538708333333,0,0xB219,
0.690546666666667,0,0xBF19,
0.690562500000000,0,0xB28C,
0.690570416666667,0,0xC019,
0.690601208333333,0,0x000A,
0.690608875000000,0,0x411D,
0.690624916666667,0,0xC0C4,
0.690632833333333,0,0xC119,
0.690648666666667,0,0xC0C5,
0.690656583333333,0,0xC219,
0.690672458333333,0,0xC0C6,
0.690680375000000,0,0xC319,
0.690696250000000,0,0xC0C6,
0.690704166666667,0,0xC419,
0.690720000000000,0,0xC0C4,
0.690727916666667,0,0xC519,
0.690743791666667,0,0xE04C,
0.690751666666667,0,0xC619,
0.690767541666667,0,0x8003,
0.690775458333333,0,0xC719,
0.690791333333333,0,0xA301,
0.690799250000000,0,0xC819,
0.690815083333333,0,0x9E3D,
0.690823000000000,0,0xC919,
0.690838875000000,0,0x9E3E,
0.690846791666667,0,0xCA19,
0.690878666666667,0,0x0004,
0.690886333333333,0,0x0321,
0.690902583333333,0,0x0A01,
0.690910458333333,0,0x8321,
0.690926208333333,0,0x0F00,
0.690934041666667,0,0x8421,
0.690949791666667,0,0x0000,
0.690957625000000,0,0x8529,
0.690973375000000,0,0x973F,
0.690981250000000,0,0x8621,
0.691011708333333,0,0x0001,
0.691019375000000,0,0x1D25,
0.691035291666667,0,0x0055,
0.691043166666667,0,0x9D25,
0.691071208333333,0,0x0003,
0.691078875000000,0,0x2429,
0.691095250000000,0,0x004C,
0.691103125000000,0,0xA429,
0.691118833333333,0,0x0040,
0.691126708333333,0,0xA529,
0.691142458333333,0,0x0000,
0.691150291666667,0,0xA629,
0.691179208333333,0,0x0005,
0.691186875000000,0,0x2D2D,
0.691202875000000,0,0x3B79,
0.691210750000000,0,0xAD29,
0.691226458333333,0,0xFFFF,
0.691234333333333,0,0xAE29,
0.691250041666667,0,0xD3F5,
0.691257916666667,0,0xAF29,
0.691273625000000,0,0x8000,
0.691281500000000,0,0xB029,
0.691297208333333,0,0x8300,
0.691305083333333,0,0xB129,
0.691335291666667,0,0x0006,
0.691343000000000,0,0x3B21,
0.691359166666667,0,0xE55A,
0.691367000000000,0,0xBB29,
0.691382708333333,0,0x8005,
0.691390583333333,0,0xBC29,
0.691406333333333,0,0x8002,
0.691414166666667,0,0xBD29,
0.691429916666667,0,0x8000,
0.691437791666667,0,0xBE29,
0.691453500000000,0,0xE5F3,
0.691461333333333,0,0xBF29,
0.691477083333333,0,0xE60D,
0.691484958333333,0,0xC029,
0.691514875000000,0,0x000A,
0.691522541666667,0,0x4125,
0.691538541666667,0,0xDEF7,
0.691546375000000,0,0xC129,
0.691562083333333,0,0xDFF9,
0.691569958333333,0,0xC229,
0.691585708333333,0,0xE017,
0.691593541666667,0,0xC329,
0.691609291666667,0,0xE14F,
0.691617166666667,0,0xC429,
0.691632875000000,0,0xA992,
0.691640750000000,0,0xC529,
0.691656500000000,0,0xFF52,
0.691664333333333,0,0xC629,
0.691680083333333,0,0xC012,
0.691687916666667,0,0xC729,
0.691703666666667,0,0xA2E2,
0.691711541666667,0,0xC829,
0.691727250000000,0,0x9E3C,
0.691735125000000,0,0xC929,
0.691750833333333,0,0x9E41,
0.691758708333333,0,0xCA29,
0.699357583333333,0,0xAC3F,
0.699365250000000,0,0x060B,
0.699392708333333,0,0x0004,
0.699400375000000,0,0x031D,
0.699416708333333,0,0x0A01,
0.699424625000000,0,0x831D,
0.699440500000000,0,0x0F00,
0.699448416666667,0,0x841D,
0.699464291666667,0,0x0000,
0.699472208333333,0,0x851A,
0.699488083333333,0,0xAF3F,
0.699496000000000,0,0x861D,
0.699526083333333,0,0x0004,
0.699533791666667,0,0x0311,
0.699550000000000,0,0x0A01,
0.699557916666667,0,0x8311,
0.699573791666667,0,0x0F00,
0.699581708333333,0,0x8411,
0.699597583333333,0,0x0000,
0.699605500000000,0,0x851A,
0.699621375000000,0,0xAF3F,
0.699629291666667,0,0x8611,
0.699660291666667,0,0x0004,
0.699667958333333,0,0x0315,
0.699684333333333,0,0x0A01,
0.699692250000000,0,0x8315,
0.699708125000000,0,0x0F00,
0.699716041666667,0,0x8415,
0.699731916666667,0,0x0000,
0.699739833333333,0,0x851A,
0.699755708333333,0,0xAF3F,
0.699763625000000,0,0x8615,
0.699794083333333,0,0x0004,
0.699801750000000,0,0x0319,
0.699818125000000,0,0x0A01,
0.699826083333333,0,0x8319,
0.699841916666667,0,0x0F00,
0.699849833333333,0,0x8419,
0.699865708333333,0,0x0000,
0.699873666666667,0,0x851A,
0.699889500000000,0,0xAF3F,
0.699897416666667,0,0x8619,
0.699928583333333,0,0x0004,
0.699936250000000,0,0x031D,
0.699952416666667,0,0x0A01,
0.699960375000000,0,0x831D,
0.699976208333333,0,0x0F00,
0.699984125000000,0,0x841D,
0.700000000000000,0,0x0000,
0.700007916666667,0,0x851A,
0.700023791666667,0,0xA73F,
0.700031666666667,0,0x861D,
0.700062500000000,0,0x0001,
0.700070166666667,0,0x1D11,
0.700086166666667,0,0x1551,
0.700094083333333,0,0x9D11,
0.700122125000000,0,0x0003,
0.700129791666667,0,0x2415,
0.700146125000000,0,0x0048,
0.700154041666667,0,0xA41A,
0.700169875000000,0,0x0040,
0.700177833333333,0,0xA51A,
0.700193666666667,0,0x0000,
0.700201583333333,0,0xA61A,
0.700230625000000,0,0x0005,
0.700238291666667,0,0x2D19,
0.700254583333333,0,0x3BF2,
0.700262500000000,0,0xAD1A,
0.700278375000000,0,0xFFFF,
0.700286291666667,0,0xAE1A,
0.700302125000000,0,0x71D6,
0.700310083333333,0,0xAF1A,
0.700325916666667,0,0x8000,
0.700333833333333,0,0xB01A,
0.700349708333333,0,0x8300,
0.700357625000000,0,0xB11A,
0.700387666666667,0,0x0006,
0.700395375000000,0,0x3B1D,
0.700411625000000,0,0xB3F4,
0.700419583333333,0,0xBB1A,
0.700435416666667,0,0xB344,
0.700443333333333,0,0xBC1A,
0.700459208333333,0,0xB2D6,
0.700467125000000,0,0xBD1A,
0.700483000000000,0,0xB21B,
0.700490916666667,0,0xBE1A,
0.700506750000000,0,0xB21C,
0.700514708333333,0,0xBF1A,
0.700530541666667,0,0xB291,
0.700538500000000,0,0xC01A,
0.700569083333333,0,0x000A,
0.700576750000000,0,0x4111,
0.700593000000000,0,0xC0C3,
0.700600916666667,0,0xC11A,
0.700616791666667,0,0xC0C2,
0.700624708333333,0,0xC21A,
0.700640541666667,0,0xC0C6,
0.700648500000000,0,0xC31A,
0.700664333333333,0,0xC0C2,
0.700672291666667,0,0xC41A,
0.700688125000000,0,0xC0C5,
0.700696041666667,0,0xC51A,
0.700711916666667,0,0xE04B,
0.700719833333333,0,0xC61A,
0.700735666666667,0,0x8000,
0.700743625000000,0,0xC71A,
0.700759458333333,0,0xA301,
0.700767416666667,0,0xC81A,
0.700783250000000,0,0x9E3A,
0.700791166666667,0,0xC91A,
0.700807041666667,0,0x9E3A,
0.700814958333333,0,0xCA1A,
0.700847666666667,0,0x0004,
0.700855333333333,0,0x0325,
0.700871375000000,0,0x0A01,
0.700879250000000,0,0x8325,
0.700895000000000,0,0x0F00,
0.700902833333333,0,0x8425,
0.700918583333333,0,0x0000,
0.700926458333333,0,0x852A,
0.700942166666667,0,0xA73F,
0.700950041666667,0,0x8625,
0.700981416666667,0,0x0001,
0.700989083333333,0,0x1D29,
0.701005083333333,0,0x0055,
0.701012958333333,0,0x9D29,
0.701040500000000,0,0x0003,
0.701048208333333,0,0x242D,
0.701064541666667,0,0x004C,
0.701072416666667,0,0xA42A,
0.701088125000000,0,0x0040,
0.701096000000000,0,0xA52A,
0.701111708333333,0,0x0000,
0.701119583333333,0,0xA62A,
0.701148375000000,0,0x0005,
0.701156083333333,0,0x2D21,
0.701172166666667,0,0x3C84,
0.701180000000000,0,0xAD2A,
0.701195750000000,0,0xFFFF,
0.701203625000000,0,0xAE2A,
0.701219333333333,0,0xD31A,
0.701227208333333,0,0xAF2A,
0.701242916666667,0,0x8000,
0.701250791666667,0,0xB02A,
0.701266500000000,0,0x8301,
0.701274375000000,0,0xB12A,
0.701305500000000,0,0x0006,
0.701313166666667,0,0x3B25,
0.701329416666667,0,0xE553,
0.701337291666667,0,0xBB2A,
0.701353041666667,0,0x8000,
0.701360916666667,0,0xBC2A,
0.701376625000000,0,0x8000,
0.701384500000000,0,0xBD2A,
0.701400208333333,0,0x8000,
0.701408083333333,0,0xBE2A,
0.701423791666667,0,0xE5F5,
0.701431666666667,0,0xBF2A,
0.701447375000000,0,0xE609,
0.701455250000000,0,0xC02A,
0.701486416666667,0,0x000A,
0.701494083333333,0,0x4129,
0.701510291666667,0,0xDEF4,
0.701518166666667,0,0xC12A,
0.701533875000000,0,0xDFF2,
0.701541750000000,0,0xC22A,
0.701557458333333,0,0xE011,
0.701565333333333,0,0xC32A,
0.701581083333333,0,0xE14B,
0.701588958333333,0,0xC42A,
0.701604666666667,0,0xA991,
0.701612541666667,0,0xC52A,
0.701628250000000,0,0xFF4E,
0.701636125000000,0,0xC62A,
0.701651875000000,0,0xC011,
0.701659708333333,0,0xC72A,
0.701675458333333,0,0xA2E2,
0.701683291666667,0,0xC82A,
0.701699041666667,0,0x9E37,
0.701706916666667,0,0xC92A,
0.701722625000000,0,0x9E42,
0.701730500000000,0,0xCA2A,
0.709335625000000,0,0xBC3F,
0.709343291666667,0,0x060F,
0.709370416666667,0,0x0004,
0.709378083333333,0,0x0311,
0.709394416666667,0,0x0A01,
0.709402333333333,0,0x8311,
0.709418166666667,0,0x0F00,
0.709426083333333,0,0x8411,
0.709441958333333,0,0x0000,
0.709449875000000,0,0x851B,
0.709465750000000,0,0xBF3F,
0.709473666666667,0,0x8611,
0.709503958333333,0,0x0004,
0.709511666666667,0,0x0315,
0.709527666666667,0,0x0A01,
0.709535583333333,0,0x8315,
0.709551458333333,0,0x0F00,
0.709559375000000,0,0x8415,
0.709575250000000,0,0x0000,
0.709583166666667,0,0x851B,
0.709599041666667,0,0xBF3F,
0.709606916666667,0,0x8615,
0.709638041666667,0,0x0004,
0.709645750000000,0,0x0319,
0.709661958333333,0,0x0A01,
0.709669875000000,0,0x8319,
0.709685750000000,0,0x0F00,
0.709693666666667,0,0x8419,
0.709709500000000,0,0x0000,
0.709717458333333,0,0x851B,
0.709733291666667,0,0xBF3F,
0.709741208333333,0,0x8619,
0.709771041666667,0,0x0004,
0.709778750000000,0,0x031D,
0.709794750000000,0,0x0A01,
0.709802666666667,0,0x831D,
0.709818500000000,0,0x0F00,
0.709826416666667,0,0x841D,
0.709842291666667,0,0x0000,
0.709850208333333,0,0x851B,
0.709866041666667,0,0xBF3F,
0.709874000000000,0,0x861D,
0.709904666666667,0,0x0004,
0.709912333333333,0,0x0311,
0.709928458333333,0,0x0A01,
0.709936375000000,0,0x8311,
0.709952250000000,0,0x0F00,
0.709960166666667,0,0x8411,
0.709976041666667,0,0x0000,
0.709983958333333,0,0x851B,
0.709999791666667,0,0xB73F,
0.710007708333333,0,0x8611,
0.710039125000000,0,0x0001,
0.710046791666667,0,0x1D15,
0.710063208333333,0,0x1551,
0.710071125000000,0,0x9D15,
0.710098833333333,0,0x0003,
0.710106500000000,0,0x2419,
0.710122625000000,0,0x0048,
0.710130541666667,0,0xA41B,
0.710146416666667,0,0x0040,
0.710154333333333,0,0xA51B,
0.710170208333333,0,0x0000,
0.710178125000000,0,0xA61B,
0.710206625000000,0,0x0005,
0.710214291666667,0,0x2D1D,
0.710230625000000,0,0x3CFB,
0.710238541666667,0,0xAD1B,
0.710254416666667,0,0xFFFF,
0.710262333333333,0,0xAE1B,
0.710278208333333,0,0x7030,
0.710286125000000,0,0xAF1B,
0.710301958333333,0,0xFFFF,
0.710309875000000,0,0xB01B,
0.710325750000000,0,0x830E,
0.710333666666667,0,0xB11B,
0.710363666666667,0,0x0006,
0.710371375000000,0,0x3B11,
0.710387666666667,0,0xB3F5,
0.710395583333333,0,0xBB1B,
0.710411416666667,0,0xB346,
0.710419375000000,0,0xBC1B,
0.710435208333333,0,0xB2DD,
0.710443125000000,0,0xBD1B,
0.710459000000000,0,0xB21C,
0.710466916666667,0,0xBE1B,
0.710482750000000,0,0xB219,
0.710490708333333,0,0xBF1B,
0.710506541666667,0,0xB28C,
0.710514458333333,0,0xC01B,
0.710545208333333,0,0x000A,
0.710552875000000,0,0x4115,
0.710568958333333,0,0xC0C2,
0.710576875000000,0,0xC11B,
0.710592708333333,0,0xC0C0,
0.710600666666667,0,0xC21B,
0.710616500000000,0,0xC0C3,
0.710624416666667,0,0xC31B,
0.710640291666667,0,0xC0BF,
0.710648208333333,0,0xC41B,
0.710664041666667,0,0xC0C1,
0.710672000000000,0,0xC51B,
0.710687833333333,0,0xE04A,
0.710695750000000,0,0xC61B,
0.710711583333333,0,0x8000,
0.710719541666667,0,0xC71B,
0.710735375000000,0,0xA300,
0.710743291666667,0,0xC81B,
0.710759125000000,0,0x9E37,
0.710767083333333,0,0xC91B,
0.710782916666667,0,0x9E3B,
0.710790833333333,0,0xCA1B,
0.710822833333333,0,0x0004,
0.710830500000000,0,0x0329,
0.710846666666667,0,0x0A01,
0.710854500000000,0,0x8329,
0.710870250000000,0,0x0F00,
0.710878083333333,0,0x8429,
0.710893833333333,0,0x0000,
0.710901708333333,0,0x852B,
0.710917416666667,0,0xB73F,
0.710925291666667,0,0x8629,
0.710955250000000,0,0x0001,
0.710962958333333,0,0x1D2D,
0.710979333333333,0,0x0055,
0.710987208333333,0,0x9D2D,
0.711015291666667,0,0x0003,
0.711023000000000,0,0x2421,
0.711039291666667,0,0x004C,
0.711047166666667,0,0xA42B,
0.711062875000000,0,0x0040,
0.711070750000000,0,0xA52B,
0.711086500000000,0,0x0000,
0.711094333333333,0,0xA62B,
0.711123541666667,0,0x0005,
0.711131250000000,0,0x2D25,
0.711147416666667,0,0x3D8F,
0.711155291666667,0,0xAD2B,
0.711171000000000,0,0xFFFF,
0.711178875000000,0,0xAE2B,
0.711194583333333,0,0xD2F6,
0.711202458333333,0,0xAF2B,
0.711218166666667,0,0xFFFF,
0.711226041666667,0,0xB02B,
0.711241791666667,0,0x830E,
0.711249625000000,0,0xB12B,
0.711279833333333,0,0x0006,
0.711287500000000,0,0x3B29,
0.711303708333333,0,0xE556,
0.711311541666667,0,0xBB2B,
0.711327291666667,0,0x8004,
0.711335166666667,0,0xBC2B,
0.711350875000000,0,0x8000,
0.711358708333333,0,0xBD2B,
0.711374458333333,0,0x8002,
0.711382333333333,0,0xBE2B,
0.711398041666667,0,0xE5F4,
0.711405916666667,0,0xBF2B,
0.711421625000000,0,0xE60A,
0.711429500000000,0,0xC02B,
0.711460250000000,0,0x000A,
0.711467916666667,0,0x412D,
0.711484041666667,0,0xDEF3,
0.711491916666667,0,0xC12B,
0.711507625000000,0,0xDFF4,
0.711515500000000,0,0xC22B,
0.711531250000000,0,0xE012,
0.711539083333333,0,0xC32B,
0.711554833333333,0,0xE14A,
0.711562708333333,0,0xC42B,
0.711578416666667,0,0xA994,
0.711586291666667,0,0xC52B,
0.711602041666667,0,0xFF51,
0.711609916666667,0,0xC62B,
0.711625625000000,0,0xC012,
0.711633458333333,0,0xC72B,
0.711649208333333,0,0xA2E1,
0.711657041666667,0,0xC82B,
0.711672791666667,0,0x9E38,
0.711680666666667,0,0xC92B,
0.711696375000000,0,0x9E42,
0.711704250000000,0,0xCA2B,
0.719358166666667,0,0xCC3F,
0.719365833333333,0,0x0603,
0.719393250000000,0,0x0004,
0.719400916666667,0,0x0315,
0.719417166666667,0,0x0A01,
0.719425041666667,0,0x8315,
0.719440916666667,0,0x0F00,
0.719448833333333,0,0x8415,
0.719464708333333,0,0x0000,
0.719472666666667,0,0x851C,
0.719488500000000,0,0xCF3F,
0.719496416666667,0,0x8615,
0.719527541666667,0,0x0004,
0.719535208333333,0,0x0319,
0.719551416666667,0,0x0A01,
0.719559375000000,0,0x8319,
0.719575208333333,0,0x0F00,
0.719583166666667,0,0x8419,
0.719599000000000,0,0x0000,
0.719606916666667,0,0x851C,
0.719622791666667,0,0xCF3F,
0.719630708333333,0,0x8619,
0.719662000000000,0,0x0004,
0.719669708333333,0,0x031D,
0.719685708333333,0,0x0A01,
0.719693666666667,0,0x831D,
0.719709500000000,0,0x0F00,
0.719717416666667,0,0x841D,
0.719733291666667,0,0x0000,
0.719741208333333,0,0x851C,
0.719757083333333,0,0xCF3F,
0.719765000000000,0,0x861D,
0.719796541666667,0,0x0004,
0.719804208333333,0,0x0311,
0.719820500000000,0,0x0A01,
0.719828416666667,0,0x8311,
0.719844291666667,0,0x0F00,
0.719852208333333,0,0x8411,
0.719868041666667,0,0x0000,
0.719875958333333,0,0x851C,
0.719891833333333,0,0xCF3F,
0.719899750000000,0,0x8611,
0.719931083333333,0,0x0004,
0.719938750000000,0,0x0315,
0.719955208333333,0,0x0A01,
0.719963166666667,0,0x8315,
0.719979000000000,0,0x0F00,
0.719986916666667,0,0x8415,
0.720002791666667,0,0x0000,
0.720010708333333,0,0x851C,
0.720026541666667,0,0xC73F,
0.720034500000000,0,0x8615,
0.720065000000000,0,0x0001,
0.720072708333333,0,0x1D19,
0.720088958333333,0,0x1551,
0.720096875000000,0,0x9D19,
0.720124666666667,0,0x0003,
0.720132333333333,0,0x241D,
0.720148375000000,0,0x0048,
0.720156333333333,0,0xA41C,
0.720172166666667,0,0x0040,
0.720180083333333,0,0xA51C,
0.720195916666667,0,0x0000,
0.720203875000000,0,0xA61C,
0.720233625000000,0,0x0005,
0.720241291666667,0,0x2D11,
0.720257333333333,0,0x3E06,
0.720265250000000,0,0xAD1C,
0.720281125000000,0,0xFFFF,
0.720289041666667,0,0xAE1C,
0.720304875000000,0,0x6D97,
0.720312833333333,0,0xAF1C,
0.720328666666667,0,0x8000,
0.720336583333333,0,0xB01C,
0.720352458333333,0,0x8301,
0.720360333333333,0,0xB11C,
0.720390208333333,0,0x0006,
0.720397916666667,0,0x3B15,
0.720413833333333,0,0xB3F5,
0.720421791666667,0,0xBB1C,
0.720437625000000,0,0xB347,
0.720445541666667,0,0xBC1C,
0.720461416666667,0,0xB2D5,
0.720469333333333,0,0xBD1C,
0.720485166666667,0,0xB218,
0.720493083333333,0,0xBE1C,
0.720508958333333,0,0xB218,
0.720516875000000,0,0xBF1C,
0.720532708333333,0,0xB28B,
0.720540666666667,0,0xC01C,
0.720570833333333,0,0x000A,
0.720578541666667,0,0x4119,
0.720594666666667,0,0xC0C4,
0.720602583333333,0,0xC11C,
0.720618416666667,0,0xC0C3,
0.720626333333333,0,0xC21C,
0.720642208333333,0,0xC0C8,
0.720650125000000,0,0xC31C,
0.720666000000000,0,0xC0C5,
0.720673875000000,0,0xC41C,
0.720689750000000,0,0xC0C9,
0.720697666666667,0,0xC51C,
0.720713541666667,0,0xE04F,
0.720721458333333,0,0xC61C,
0.720737291666667,0,0x8001,
0.720745208333333,0,0xC71C,
0.720761083333333,0,0xA301,
0.720769000000000,0,0xC81C,
0.720784833333333,0,0x9E3B,
0.720792750000000,0,0xC91C,
0.720808625000000,0,0x9E3D,
0.720816541666667,0,0xCA1C,
0.720848375000000,0,0x0004,
0.720856041666667,0,0x032D,
0.720872416666667,0,0x0A01,
0.720880291666667,0,0x832D,
0.720896000000000,0,0x0F00,
0.720903875000000,0,0x842D,
0.720919583333333,0,0x0000,
0.720927458333333,0,0x852C,
0.720943208333333,0,0xC73F,
0.720951083333333,0,0x862D,
0.720982000000000,0,0x0001,
0.720989666666667,0,0x1D21,
0.721005625000000,0,0x0055,
0.721013458333333,0,0x9D21,
0.721041291666667,0,0x0003,
0.721048958333333,0,0x2425,
0.721065083333333,0,0x004C,
0.721072916666667,0,0xA42C,
0.721088666666667,0,0x0040,
0.721096500000000,0,0xA52C,
0.721112250000000,0,0x0000,
0.721120125000000,0,0xA62C,
0.721149166666667,0,0x0005,
0.721156875000000,0,0x2D29,
0.721173208333333,0,0x3E9B,
0.721181083333333,0,0xAD2C,
0.721196791666667,0,0xFFFF,
0.721204666666667,0,0xAE2C,
0.721220375000000,0,0xD2A3,
0.721228250000000,0,0xAF2C,
0.721244000000000,0,0x8000,
0.721251833333333,0,0xB02C,
0.721267583333333,0,0x8301,
0.721275458333333,0,0xB12C,
0.721307125000000,0,0x0006,
0.721314833333333,0,0x3B2D,
0.721330958333333,0,0xE557,
0.721338833333333,0,0xBB2C,
0.721354541666667,0,0x8000,
0.721362416666667,0,0xBC2C,
0.721378166666667,0,0x8001,
0.721386000000000,0,0xBD2C,
0.721401750000000,0,0x8003,
0.721409583333333,0,0xBE2C,
0.721425333333333,0,0xE5F0,
0.721433166666667,0,0xBF2C,
0.721448916666667,0,0xE60B,
0.721456791666667,0,0xC02C,
0.721486750000000,0,0x000A,
0.721494458333333,0,0x4121,
0.721510875000000,0,0xDEF5,
0.721518708333333,0,0xC12C,
0.721534458333333,0,0xDFFA,
0.721542291666667,0,0xC22C,
0.721558041666667,0,0xE013,
0.721565875000000,0,0xC32C,
0.721581625000000,0,0xE150,
0.721589500000000,0,0xC42C,
0.721605208333333,0,0xA997,
0.721613083333333,0,0xC52C,
0.721628791666667,0,0xFF53,
0.721636666666667,0,0xC62C,
0.721652375000000,0,0xC017,
0.721660250000000,0,0xC72C,
0.721675958333333,0,0xA2E0,
0.721683833333333,0,0xC82C,
0.721699541666667,0,0x9E3F,
0.721707416666667,0,0xC92C,
0.721723166666667,0,0x9E40,
0.721731041666667,0,0xCA2C,
0.729398750000000,0,0xDC3F,
0.729406458333333,0,0x0607,
0.729434166666667,0,0x0004,
0.729441833333333,0,0x0319,
0.729457958333333,0,0x0A01,
0.729465875000000,0,0x8319,
0.729481750000000,0,0x0F00,
0.729489666666667,0,0x8419,
0.729505541666667,0,0x0000,
0.729513458333333,0,0x851D,
0.729529333333333,0,0xDF3F,
0.729537250000000,0,0x8619,
0.729568208333333,0,0x0004,
0.729575875000000,0,0x031D,
0.729592250000000,0,0x0A01,
0.729600166666667,0,0x831D,
0.729616041666667,0,0x0F00,
0.729623958333333,0,0x841D,
0.729639833333333,0,0x0000,
0.729647750000000,0,0x851D,
0.729663583333333,0,0xDF3F,
0.729671541666667,0,0x861D,
0.729702208333333,0,0x0004,
0.729709875000000,0,0x0311,
0.729726041666667,0,0x0A01,
0.729734000000000,0,0x8311,
0.729749833333333,0,0x0F00,
0.729757750000000,0,0x8411,
0.729773625000000,0,0x0000,
0.729781583333333,0,0x851D,
0.729797416666667,0,0xDF3F,
0.729805375000000,0,0x8611,
0.729836625000000,0,0x0004,
0.729844333333333,0,0x0315,
0.729860375000000,0,0x0A01,
0.729868291666667,0,0x8315,
0.729884125000000,0,0x0F00,
0.729892041666667,0,0x8415,
0.729907916666667,0,0x0000,
0.729915833333333,0,0x851D,
0.729931666666667,0,0xDF3F,
0.729939625000000,0,0x8615,
0.729970208333333,0,0x0004,
0.729977875000000,0,0x0319,
0.729994125000000,0,0x0A01,
0.730002041666667,0,0x8319,
0.730017875000000,0,0x0F00,
0.730025833333333,0,0x8419,
0.730041666666667,0,0x0000,
0.730049583333333,0,0x851D,
0.730065458333333,0,0xD73F,
0.730073375000000,0,0x8619,
0.730103708333333,0,0x0001,
0.730111375000000,0,0x1D1D,
0.730127375000000,0,0x1551,
0.730135333333333,0,0x9D1D,
0.730163875000000,0,0x0003,
0.730171541666667,0,0x2411,
0.730187791666667,0,0x0048,
0.730195708333333,0,0xA41D,
0.730211541666667,0,0x0040,
0.730219500000000,0,0xA51D,
0.730235333333333,0,0x0000,
0.730243250000000,0,0xA61D,
0.730273541666667,0,0x0005,
0.730281208333333,0,0x2D15,
0.730297708333333,0,0x3F10,
0.730305625000000,0,0xAD1D,
0.730321500000000,0,0xFFFF,
0.730329416666667,0,0xAE1D,
0.730345250000000,0,0x6B4F,
0.730353166666667,0,0xAF1D,
0.730369000000000,0,0xFFFF,
0.730376958333333,0,0xB01D,
0.730392791666667,0,0x830C,
0.730400708333333,0,0xB11D,
0.730430583333333,0,0x0006,
0.730438291666667,0,0x3B19,
0.730454666666667,0,0xB3FB,
0.730462583333333,0,0xBB1D,
0.730478416666667,0,0xB349,
0.730486333333333,0,0xBC1D,
0.730502208333333,0,0xB2D8,
0.730510125000000,0,0xBD1D,
0.730525958333333,0,0xB216,
0.730533875000000,0,0xBE1D,
0.730549708333333,0,0xB219,
0.730557666666667,0,0xBF1D,
0.730573500000000,0,0xB28A,
0.730581458333333,0,0xC01D,
0.730611708333333,0,0x000A,
0.730619375000000,0,0x411D,
0.730635416666667,0,0xC0BF,
0.730643333333333,0,0xC11D,
0.730659208333333,0,0xC0BD,
0.730667125000000,0,0xC21D,
0.730683000000000,0,0xC0BE,
0.730690875000000,0,0xC31D,
0.730706750000000,0,0xC0C2,
0.730714708333333,0,0xC41D,
0.730730541666667,0,0xC0C6,
0.730738458333333,0,0xC51D,
0.730754291666667,0,0xE04B,
0.730762208333333,0,0xC61D,
0.730778083333333,0,0x8000,
0.730786000000000,0,0xC71D,
0.730801833333333,0,0xA300,
0.730809750000000,0,0xC81D,
0.730825625000000,0,0x9E39,
0.730833541666667,0,0xC91D,
0.730849375000000,0,0x9E3E,
0.730857333333333,0,0xCA1D,
0.730888708333333,0,0x0004,
0.730896416666667,0,0x0321,
0.730912500000000,0,0x0A01,
0.730920333333333,0,0x8321,
0.730936083333333,0,0x0F00,
0.730943958333333,0,0x8421,
0.730959666666667,0,0x0000,
0.730967541666667,0,0x852D,
0.730983250000000,0,0xD73F,
0.730991125000000,0,0x8621,
0.731021208333333,0,0x0001,
0.731028916666667,0,0x1D25,
0.731045166666667,0,0x0055,
0.731053041666667,0,0x9D25,
0.731081416666667,0,0x0003,
0.731089083333333,0,0x2429,
0.731105125000000,0,0x004C,
0.731113000000000,0,0xA42D,
0.731128750000000,0,0x0040,
0.731136583333333,0,0xA52D,
0.731152333333333,0,0x0000,
0.731160166666667,0,0xA62D,
0.731188500000000,0,0x0005,
0.731196208333333,0,0x2D2D,
0.731212291666667,0,0x3FA8,
0.731220125000000,0,0xAD2D,
0.731235833333333,0,0xFFFF,
0.731243708333333,0,0xAE2D,
0.731259416666667,0,0xD216,
0.731267291666667,0,0xAF2D,
0.731283041666667,0,0x8000,
0.731290875000000,0,0xB02D,
0.731306625000000,0,0x8302,
0.731314500000000,0,0xB12D,
0.731344583333333,0,0x0006,
0.731352291666667,0,0x3B21,
0.731368541666667,0,0xE557,
0.731376416666667,0,0xBB2D,
0.731392125000000,0,0x8000,
0.731400000000000,0,0xBC2D,
0.731415708333333,0,0x8003,
0.731423583333333,0,0xBD2D,
0.731439291666667,0,0x8000,
0.731447166666667,0,0xBE2D,
0.731462875000000,0,0xE5FB,
0.731470750000000,0,0xBF2D,
0.731486458333333,0,0xE610,
0.731494333333333,0,0xC02D,
0.731525083333333,0,0x000A,
0.731532750000000,0,0x4125,
0.731548875000000,0,0xDEF8,
0.731556750000000,0,0xC12D,
0.731572458333333,0,0xDFFA,
0.731580333333333,0,0xC22D,
0.731596041666667,0,0xE018,
0.731603916666667,0,0xC32D,
0.731619666666667,0,0xE151,
0.731627500000000,0,0xC42D,
0.731643250000000,0,0xA993,
0.731651125000000,0,0xC52D,
0.731666833333333,0,0xFF56,
0.731674708333333,0,0xC62D,
0.731690416666667,0,0xC016,
0.731698291666667,0,0xC72D,
0.731714041666667,0,0xA2E2,
0.731721875000000,0,0xC82D,
0.731737625000000,0,0x9E3D,
0.731745500000000,0,0xC92D,
0.731761208333333,0,0x9E41,
0.731769083333333,0,0xCA2D,
0.739370166666667,0,0xEC3F,
0.739377833333333,0,0x060B,
0.739404750000000,0,0x0004,
0.739412416666667,0,0x031D,
0.739428458333333,0,0x0A01,
0.739436375000000,0,0x831D,
0.739452250000000,0,0x0F00,
0.739460166666667,0,0x841D,
0.739476041666667,0,0x0000,
0.739483958333333,0,0x851E,
0.739499791666667,0,0xEF3F,
0.739507750000000,0,0x861D,
0.739538750000000,0,0x0004,
0.739546416666667,0,0x0311,
0.739562750000000,0,0x0A01,
0.739570666666667,0,0x8311,
0.739586541666667,0,0x0F00,
0.739594458333333,0,0x8411,
0.739610333333333,0,0x0000,
0.739618250000000,0,0x851E,
0.739634125000000,0,0xEF3F,
0.739642041666667,0,0x8611,
0.739672708333333,0,0x0004,
0.739680375000000,0,0x0315,
0.739696541666667,0,0x0A01,
0.739704500000000,0,0x8315,
0.739720333333333,0,0x0F00,
0.739728250000000,0,0x8415,
0.739744125000000,0,0x0000,
0.739752041666667,0,0x851E,
0.739767916666667,0,0xEF3F,
0.739775833333333,0,0x8615,
0.739806250000000,0,0x0004,
0.739813958333333,0,0x0319,
0.739830375000000,0,0x0A01,
0.739838291666667,0,0x8319,
0.739854166666667,0,0x0F00,
0.739862083333333,0,0x8419,
0.739877958333333,0,0x0000,
0.739885875000000,0,0x851E,
0.739901750000000,0,0xEF3F,
0.739909666666667,0,0x8619,
0.739940833333333,0,0x0004,
0.739948541666667,0,0x031D,
0.739964666666667,0,0x0A01,
0.739972583333333,0,0x831D,
0.739988416666667,0,0x0F00,
0.739996375000000,0,0x841D,
0.740012208333333,0,0x0000,
0.740020166666667,0,0x851E,
0.740036000000000,0,0xE73F,
0.740043916666667,0,0x861D,
0.740075375000000,0,0x0001,
0.740083083333333,0,0x1D11,
0.740099416666667,0,0x1551,
0.740107333333333,0,0x9D11,
0.740135958333333,0,0x0003,
0.740143625000000,0,0x2415,
0.740159833333333,0,0x0048,
0.740167750000000,0,0xA41E,
0.740183625000000,0,0x0040,
0.740191541666667,0,0xA51E,
0.740207416666667,0,0x0000,
0.740215333333333,0,0xA61E,
0.740243583333333,0,0x0005,
0.740251291666667,0,0x2D19,
0.740267333333333,0,0x4019,
0.740275250000000,0,0xAD1E,
0.740291083333333,0,0xFFFF,
0.740299041666667,0,0xAE1E,
0.740314875000000,0,0x692B,
0.740322791666667,0,0xAF1E,
0.740338666666667,0,0xFFFF,
0.740346583333333,0,0xB01E,
0.740362416666667,0,0x830D,
0.740370333333333,0,0xB11E,
0.740399458333333,0,0x0006,
0.740407125000000,0,0x3B1D,
0.740423333333333,0,0xB3F7,
0.740431291666667,0,0xBB1E,
0.740447125000000,0,0xB347,
0.740455041666667,0,0xBC1E,
0.740470916666667,0,0xB2D4,
0.740478833333333,0,0xBD1E,
0.740494666666667,0,0xB215,
0.740502625000000,0,0xBE1E,
0.740518458333333,0,0xB217,
0.740526375000000,0,0xBF1E,
0.740542250000000,0,0xB28C,
0.740550166666667,0,0xC01E,
0.740580833333333,0,0x000A,
0.740588500000000,0,0x4111,
0.740604625000000,0,0xC0C5,
0.740612583333333,0,0xC11E,
0.740628416666667,0,0xC0C2,
0.740636333333333,0,0xC21E,
0.740652208333333,0,0xC0C3,
0.740660125000000,0,0xC31E,
0.740675958333333,0,0xC0C4,
0.740683875000000,0,0xC41E,
0.740699750000000,0,0xC0C6,
0.740707666666667,0,0xC51E,
0.740723541666667,0,0xE04C,
0.740731458333333,0,0xC61E,
0.740747291666667,0,0x8001,
0.740755250000000,0,0xC71E,
0.740771083333333,0,0xA300,
0.740779000000000,0,0xC81E,
0.740794833333333,0,0x9E3D,
0.740802791666667,0,0xC91E,
0.740818625000000,0,0x9E3E,
0.740826541666667,0,0xCA1E,
0.740859833333333,0,0x0004,
0.740867500000000,0,0x0325,
0.740883625000000,0,0x0A01,
0.740891500000000,0,0x8325,
0.740907208333333,0,0x0F00,
0.740915083333333,0,0x8425,
0.740930791666667,0,0x0000,
0.740938666666667,0,0x852E,
0.740954375000000,0,0xE73F,
0.740962250000000,0,0x8625,
0.740993583333333,0,0x0001,
0.741001250000000,0,0x1D29,
0.741017333333333,0,0x0055,
0.741025166666667,0,0x9D29,
0.741052666666667,0,0x0003,
0.741060375000000,0,0x242D,
0.741076750000000,0,0x004C,
0.741084625000000,0,0xA42E,
0.741100375000000,0,0x0040,
0.741108208333333,0,0xA52E,
0.741123958333333,0,0x0000,
0.741131833333333,0,0xA62E,
0.741160833333333,0,0x0005,
0.741168500000000,0,0x2D21,
0.741184875000000,0,0x40B3,
0.741192750000000,0,0xAD2E,
0.741208500000000,0,0xFFFF,
0.741216375000000,0,0xAE2E,
0.741232083333333,0,0xD1EE,
0.741239958333333,0,0xAF2E,
0.741255666666667,0,0x8000,
0.741263541666667,0,0xB02E,
0.741279250000000,0,0x8306,
0.741287125000000,0,0xB12E,
0.741317666666667,0,0x0006,
0.741325375000000,0,0x3B25,
0.741341666666667,0,0xE556,
0.741349541666667,0,0xBB2E,
0.741365250000000,0,0x8003,
0.741373125000000,0,0xBC2E,
0.741388875000000,0,0x8001,
0.741396750000000,0,0xBD2E,
0.741412458333333,0,0x8001,
0.741420291666667,0,0xBE2E,
0.741436041666667,0,0xE5F3,
0.741443916666667,0,0xBF2E,
0.741459625000000,0,0xE607,
0.741467500000000,0,0xC02E,
0.741497958333333,0,0x000A,
0.741505625000000,0,0x4129,
0.741522041666667,0,0xDEF1,
0.741529875000000,0,0xC12E,
0.741545625000000,0,0xDFF5,
0.741553500000000,0,0xC22E,
0.741569208333333,0,0xE010,
0.741577083333333,0,0xC32E,
0.741592791666667,0,0xE14C,
0.741600666666667,0,0xC42E,
0.741616375000000,0,0xA991,
0.741624250000000,0,0xC52E,
0.741640000000000,0,0xFF50,
0.741647833333333,0,0xC62E,
0.741663583333333,0,0xC011,
0.741671416666667,0,0xC72E,
0.741687166666667,0,0xA2E0,
0.741695041666667,0,0xC82E,
0.741710750000000,0,0x9E3D,
0.741718625000000,0,0xC92E,
0.741734333333333,0,0x9E40,
0.741742208333333,0,0xCA2E,
0.749357875000000,0,0xFC3F,
0.749365583333333,0,0x060F,
0.749392625000000,0,0x0004,
0.749400333333333,0,0x0311,
0.749416708333333,0,0x0A01,
0.749424666666667,0,0x8311,
0.749440500000000,0,0x0F00,
0.749448416666667,0,0x8411,
0.749464291666667,0,0x0000,
0.749472208333333,0,0x851F,
0.749488083333333,0,0xFF3F,
0.749496000000000,0,0x8611,
0.749526916666667,0,0x0004,
0.749534583333333,0,0x0315,
0.749551000000000,0,0x0A01,
0.749558916666667,0,0x8315,
0.749574791666667,0,0x0F00,
0.749582708333333,0,0x8415,
0.749598583333333,0,0x0000,
0.749606500000000,0,0x851F,
0.749622375000000,0,0xFF3F,
0.749630291666667,0,0x8615,
0.749661791666667,0,0x0004,
0.749669500000000,0,0x0319,
0.749685791666667,0,0x0A01,
0.749693708333333,0,0x8319,
0.749709583333333,0,0x0F00,
0.749717500000000,0,0x8419,
0.749733375000000,0,0x0000,
0.749741291666667,0,0x851F,
0.749757125000000,0,0xFF3F,
0.749765083333333,0,0x8619,
0.749795916666667,0,0x0004,
0.749803583333333,0,0x031D,
0.749820083333333,0,0x0A01,
0.749828000000000,0,0x831D,
0.749843833333333,0,0x0F00,
0.749851791666667,0,0x841D,
0.749867625000000,0,0x0000,
0.749875541666667,0,0x851F,
0.749891416666667,0,0xFF3F,
0.749899291666667,0,0x861D,
0.749929833333333,0,0x0004,
0.749937541666667,0,0x0311,
0.749953791666667,0,0x0A01,
0.749961708333333,0,0x8311,
0.749977541666667,0,0x0F00,
0.749985500000000,0,0x8411,
0.750001333333333,0,0x0000,
0.750009250000000,0,0x851F,
0.750025083333333,0,0xF73F,
0.750033041666667,0,0x8611,
0.750063583333333,0,0x0001,
0.750071250000000,0,0x1D15,
0.750087500000000,0,0x1551,
0.750095416666667,0,0x9D15,
0.750123291666667,0,0x0003,
0.750130958333333,0,0x2419,
0.750147416666667,0,0x0048,
0.750155333333333,0,0xA41F,
0.750171208333333,0,0x0040,
0.750179125000000,0,0xA51F,
0.750195000000000,0,0x0000,
0.750202916666667,0,0xA61F,
0.750231750000000,0,0x0005,
0.750239416666667,0,0x2D1D,
0.750255416666667,0,0x4123,
0.750263333333333,0,0xAD1F,
0.750279208333333,0,0xFFFF,
0.750287125000000,0,0xAE1F,
0.750303000000000,0,0x6653,
0.750310916666667,0,0xAF1F,
0.750326750000000,0,0xFFFF,
0.750334708333333,0,0xB01F,
0.750350541666667,0,0x830C,
0.750358500000000,0,0xB11F,
0.750388708333333,0,0x0006,
0.750396416666667,0,0x3B11,
0.750412500000000,0,0xB3F9,
0.750420416666667,0,0xBB1F,
0.750436250000000,0,0xB347,
0.750444208333333,0,0xBC1F,
0.750460041666667,0,0xB2D7,
0.750468000000000,0,0xBD1F,
0.750483833333333,0,0xB218,
0.750491750000000,0,0xBE1F,
0.750507625000000,0,0xB21C,
0.750515541666667,0,0xBF1F,
0.750531375000000,0,0xB28E,
0.750539333333333,0,0xC01F,
0.750569583333333,0,0x000A,
0.750577291666667,0,0x4115,
0.750593291666667,0,0xC0C5,
0.750601250000000,0,0xC11F,
0.750617083333333,0,0xC0C2,
0.750625041666667,0,0xC21F,
0.750640875000000,0,0xC0C7,
0.750648833333333,0,0xC31F,
0.750664666666667,0,0xC0C9,
0.750672583333333,0,0xC41F,
0.750688458333333,0,0xC0C3,
0.750696375000000,0,0xC51F,
0.750712250000000,0,0xE04D,
0.750720166666667,0,0xC61F,
0.750736041666667,0,0x8003,
0.750743958333333,0,0xC71F,
0.750759833333333,0,0xA301,
0.750767750000000,0,0xC81F,
0.750783583333333,0,0x9E3B,
0.750791500000000,0,0xC91F,
0.750807333333333,0,0x9E3B,
0.750815291666667,0,0xCA1F,
0.750847583333333,0,0x0004,
0.750855250000000,0,0x0329,
0.750871375000000,0,0x0A01,
0.750879250000000,0,0x8329,
0.750895000000000,0,0x0F00,
0.750902833333333,0,0x8429,
0.750918583333333,0,0x0000,
0.750926458333333,0,0x852F,
0.750942166666667,0,0xF73F,
0.750950041666667,0,0x8629,
0.750981208333333,0,0x0001,
0.750988875000000,0,0x1D2D,
0.751005083333333,0,0x0055,
0.751012916666667,0,0x9D2D,
0.751041333333333,0,0x0003,
0.751049000000000,0,0x2421,
0.751065000000000,0,0x004C,
0.751072875000000,0,0xA42F,
0.751088583333333,0,0x0040,
0.751096458333333,0,0xA52F,
0.751112166666667,0,0x0000,
0.751120041666667,0,0xA62F,
0.751149083333333,0,0x0005,
0.751156750000000,0,0x2D25,
0.751173125000000,0,0x41BF,
0.751180958333333,0,0xAD2F,
0.751196708333333,0,0xFFFF,
0.751204541666667,0,0xAE2F,
0.751220250000000,0,0xD14A,
0.751228166666667,0,0xAF2F,
0.751243875000000,0,0xFFFF,
0.751251708333333,0,0xB02F,
0.751267458333333,0,0x830D,
0.751275291666667,0,0xB12F,
0.751306541666667,0,0x0006,
0.751314208333333,0,0x3B29,
0.751330333333333,0,0xE557,
0.751338208333333,0,0xBB2F,
0.751353916666667,0,0x8000,
0.751361791666667,0,0xBC2F,
0.751377500000000,0,0x8001,
0.751385375000000,0,0xBD2F,
0.751401083333333,0,0x8002,
0.751408958333333,0,0xBE2F,
0.751424666666667,0,0xE5FB,
0.751432541666667,0,0xBF2F,
0.751448250000000,0,0xE610,
0.751456125000000,0,0xC02F,
0.751486916666667,0,0x000A,
0.751494583333333,0,0x412D,
0.751510666666667,0,0xDEF3,
0.751518541666667,0,0xC12F,
0.751534250000000,0,0xDFF1,
0.751542125000000,0,0xC22F,
0.751557833333333,0,0xE016,
0.751565708333333,0,0xC32F,
0.751581416666667,0,0xE152,
0.751589291666667,0,0xC42F,
0.751605000000000,0,0xA998,
0.751612875000000,0,0xC52F,
0.751628583333333,0,0xFF54,
0.751636458333333,0,0xC62F,
0.751652166666667,0,0xC018,
0.751660041666667,0,0xC72F,
0.751675750000000,0,0xA2E2,
0.751683625000000,0,0xC82F,
0.751699333333333,0,0x9E3E,
0.751707208333333,0,0xC92F,
0.751722916666667,0,0x9E3F,
0.751730791666667,0,0xCA2F,
0.759497833333333,0,0x0C3F,
0.759505500000000,0,0x0603,
0.759532666666667,0,0x0004,
0.759540333333333,0,0x0315,
0.759556666666667,0,0x0A01,
0.759564583333333,0,0x8315,
0.759580458333333,0,0x0F00,
0.759588375000000,0,0x8415,
0.759604208333333,0,0x0000,
0.759612166666667,0,0x8510,
0.759628000000000,0,0x0F3F,
0.759635958333333,0,0x8615,
0.759667541666667,0,0x0004,
0.759675250000000,0,0x0319,
0.759691458333333,0,0x0A01,
0.759699416666667,0,0x8319,
0.759715250000000,0,0x0F00,
0.759723166666667,0,0x8419,
0.759739041666667,0,0x0000,
0.759746958333333,0,0x8510,
0.759762791666667,0,0x0F3F,
0.759770750000000,0,0x8619,
0.759803041666667,0,0x0004,
0.759810708333333,0,0x031D,
0.759826750000000,0,0x0A01,
0.759834666666667,0,0x831D,
0.759850500000000,0,0x0F00,
0.759858458333333,0,0x841D,
0.759874291666667,0,0x0000,
0.759882250000000,0,0x8510,
0.759898125000000,0,0x0F3F,
0.759906041666667,0,0x861D,
0.759937125000000,0,0x0004,
0.759944833333333,0,0x0311,
0.759961041666667,0,0x0A01,
0.759968958333333,0,0x8311,
0.759984833333333,0,0x0F00,
0.759992750000000,0,0x8411,
0.760008583333333,0,0x0000,
0.760016541666667,0,0x8510,
0.760032375000000,0,0x0F3F,
0.760040291666667,0,0x8611,
0.760071708333333,0,0x0004,
0.760079375000000,0,0x0315,
0.760095750000000,0,0x0A01,
0.760103708333333,0,0x8315,
0.760119541666667,0,0x0F00,
0.760127458333333,0,0x8415,
0.760143333333333,0,0x0000,
0.760151250000000,0,0x8510,
0.760167125000000,0,0x073F,
0.760175041666667,0,0x8615,
0.760205958333333,0,0x0001,
0.760213625000000,0,0x1D19,
0.760230041666667,0,0x1551,
0.760237958333333,0,0x9D19,
0.760265791666667,0,0x0003,
0.760273458333333,0,0x241D,
0.760289958333333,0,0x0048,
0.760297875000000,0,0xA410,
0.760313708333333,0,0x0040,
0.760321625000000,0,0xA510,
0.760337500000000,0,0x0000,
0.760345416666667,0,0xA610,
0.760374666666667,0,0x0005,
0.760382333333333,0,0x2D11,
0.760398416666667,0,0x4230,
0.760406333333333,0,0xAD10,
0.760422208333333,0,0xFFFF,
0.760430125000000,0,0xAE10,
0.760445958333333,0,0x64BB,
0.760453916666667,0,0xAF10,
0.760469750000000,0,0x8000,
0.760477666666667,0,0xB010,
0.760493541666667,0,0x8301,
0.760501458333333,0,0xB110,
0.760532583333333,0,0x0006,
0.760540291666667,0,0x3B15,
0.760556416666667,0,0xB3FA,
0.760564333333333,0,0xBB10,
0.760580208333333,0,0xB34C,
0.760588125000000,0,0xBC10,
0.760603958333333,0,0xB2DB,
0.760611875000000,0,0xBD10,
0.760627750000000,0,0xB21C,
0.760635666666667,0,0xBE10,
0.760651541666667,0,0xB21E,
0.760659458333333,0,0xBF10,
0.760675291666667,0,0xB28D,
0.760683250000000,0,0xC010,
0.760713833333333,0,0x000A,
0.760721541666667,0,0x4119,
0.760737708333333,0,0xC0C4,
0.760745666666667,0,0xC110,
0.760761500000000,0,0xC0BF,
0.760769416666667,0,0xC210,
0.760785291666667,0,0xC0C4,
0.760793208333333,0,0xC310,
0.760809041666667,0,0xC0C7,
0.760816958333333,0,0xC410,
0.760832833333333,0,0xC0C4,
0.760840750000000,0,0xC510,
0.760856583333333,0,0xE04D,
0.760864500000000,0,0xC610,
0.760880375000000,0,0x8000,
0.760888291666667,0,0xC710,
0.760904125000000,0,0xA301,
0.760912083333333,0,0xC810,
0.760927916666667,0,0x9E39,
0.760935833333333,0,0xC910,
0.760951708333333,0,0x9E3A,
0.760959625000000,0,0xCA10,
0.760992125000000,0,0x0004,
0.760999791666667,0,0x032D,
0.761016000000000,0,0x0A01,
0.761023875000000,0,0x832D,
0.761039583333333,0,0x0F00,
0.761047458333333,0,0x842D,
0.761063166666667,0,0x0000,
0.761071041666667,0,0x8520,
0.761086750000000,0,0x073F,
0.761094625000000,0,0x862D,
0.761125000000000,0,0x0001,
0.761132666666667,0,0x1D21,
0.761148666666667,0,0x0055,
0.761156541666667,0,0x9D21,
0.761184208333333,0,0x0003,
0.761191916666667,0,0x2425,
0.761208166666667,0,0x004C,
0.761216000000000,0,0xA420,
0.761231708333333,0,0x0040,
0.761239583333333,0,0xA520,
0.761255291666667,0,0x0000,
0.761263166666667,0,0xA620,
0.761292625000000,0,0x0005,
0.761300333333333,0,0x2D29,
0.761316250000000,0,0x42CE,
0.761324125000000,0,0xAD20,
0.761339833333333,0,0xFFFF,
0.761347708333333,0,0xAE20,
0.761363416666667,0,0xD04B,
0.761371291666667,0,0xAF20,
0.761387000000000,0,0x8000,
0.761394875000000,0,0xB020,
0.761410625000000,0,0x8304,
0.761418458333333,0,0xB120,
0.761447958333333,0,0x0006,
0.761455625000000,0,0x3B2D,
0.761472041666667,0,0xE562,
0.761479875000000,0,0xBB20,
0.761495625000000,0,0x8000,
0.761503458333333,0,0xBC20,
0.761519208333333,0,0x8000,
0.761527041666667,0,0xBD20,
0.761542791666667,0,0x8000,
0.761550666666667,0,0xBE20,
0.761566375000000,0,0xE601,
0.761574208333333,0,0xBF20,
0.761589958333333,0,0xE616,
0.761597791666667,0,0xC020,
0.761627791666667,0,0x000A,
0.761635500000000,0,0x4121,
0.761651875000000,0,0xDEF1,
0.761659708333333,0,0xC120,
0.761675458333333,0,0xDFF3,
0.761683333333333,0,0xC220,
0.761699041666667,0,0xE016,
0.761706916666667,0,0xC320,
0.761722625000000,0,0xE152,
0.761730500000000,0,0xC420,
0.761746208333333,0,0xA996,
0.761754083333333,0,0xC520,
0.761769791666667,0,0xFF54,
0.761777666666667,0,0xC620,
0.761793375000000,0,0xC012,
0.761801250000000,0,0xC720,
0.761817000000000,0,0xA2E5,
0.761824833333333,0,0xC820,
0.761840583333333,0,0x9E3E,
0.761848416666667,0,0xC920,
0.761864166666667,0,0x9E3E,
0.761872041666667,0,0xCA20,
0.769361833333333,0,0x1C3F,
0.769369500000000,0,0x0607,
0.769397541666667,0,0x0004,
0.769405250000000,0,0x0319,
0.769421375000000,0,0x0A01,
0.769429291666667,0,0x8319,
0.769445166666667,0,0x0F00,
0.769453083333333,0,0x8419,
0.769468958333333,0,0x0000,
0.769476875000000,0,0x8511,
0.769492708333333,0,0x1F3F,
0.769500666666667,0,0x8619,
0.769531958333333,0,0x0004,
0.769539625000000,0,0x031D,
0.769555625000000,0,0x0A01,
0.769563583333333,0,0x831D,
0.769579416666667,0,0x0F00,
0.769587333333333,0,0x841D,
0.769603208333333,0,0x0000,
0.769611125000000,0,0x8511,
0.769627000000000,0,0x1F3F,
0.769634916666667,0,0x861D,
0.769666000000000,0,0x0004,
0.769673708333333,0,0x0311,
0.769689916666667,0,0x0A01,
0.769697833333333,0,0x8311,
0.769713666666667,0,0x0F00,
0.769721625000000,0,0x8411,
0.769737500000000,0,0x0000,
0.769745416666667,0,0x8511,
0.769761250000000,0,0x1F3F,
0.769769166666667,0,0x8611,
0.769800083333333,0,0x0004,
0.769807750000000,0,0x0315,
0.769824208333333,0,0x0A01,
0.769832125000000,0,0x8315,
0.769848000000000,0,0x0F00,
0.769855916666667,0,0x8415,
0.769871750000000,0,0x0000,
0.769879708333333,0,0x8511,
0.769895541666667,0,0x1F3F,
0.769903458333333,0,0x8615,
0.769933875000000,0,0x0004,
0.769941541666667,0,0x0319,
0.769957958333333,0,0x0A01,
0.769965875000000,0,0x8319,
0.769981750000000,0,0x0F00,
0.769989666666667,0,0x8419,
0.770005500000000,0,0x0000,
0.770013416666667,0,0x8511,
0.770029291666667,0,0x173F,
0.770037208333333,0,0x8619,
0.770067791666667,0,0x0001,
0.770075458333333,0,0x1D1D,
0.770091708333333,0,0x1551,
0.770099625000000,0,0x9D1D,
0.770127875000000,0,0x0003,
0.770135541666667,0,0x2411,
0.770151625000000,0,0x0048,
0.770159541666667,0,0xA411,
0.770175416666667,0,0x0040,
0.770183333333333,0,0xA511,
0.770199208333333,0,0x0000,
0.770207083333333,0,0xA611,
0.770236166666667,0,0x0005,
0.770243875000000,0,0x2D15,
0.770260083333333,0,0x4336,
0.770268041666667,0,0xAD11,
0.770283875000000,0,0xFFFF,
0.770291791666667,0,0xAE11,
0.770307666666667,0,0x62E7,
0.770315583333333,0,0xAF11,
0.770331416666667,0,0xFFFF,
0.770339333333333,0,0xB011,
0.770355166666667,0,0x8305,
0.770363125000000,0,0xB111,
0.770393916666667,0,0x0006,
0.770401625000000,0,0x3B19,
0.770417583333333,0,0xB3F8,
0.770425541666667,0,0xBB11,
0.770441375000000,0,0xB349,
0.770449291666667,0,0xBC11,
0.770465125000000,0,0xB2DD,
0.770473083333333,0,0xBD11,
0.770488916666667,0,0xB21F,
0.770496833333333,0,0xBE11,
0.770512666666667,0,0xB21F,
0.770520625000000,0,0xBF11,
0.770536458333333,0,0xB28E,
0.770544375000000,0,0xC011,
0.770575041666667,0,0x000A,
0.770582750000000,0,0x411D,
0.770598875000000,0,0xC0C6,
0.770606791666667,0,0xC111,
0.770622625000000,0,0xC0C4,
0.770630541666667,0,0xC211,
0.770646416666667,0,0xC0C3,
0.770654333333333,0,0xC311,
0.770670208333333,0,0xC0C5,
0.770678125000000,0,0xC411,
0.770694000000000,0,0xC0C9,
0.770701916666667,0,0xC511,
0.770717750000000,0,0xE04B,
0.770725708333333,0,0xC611,
0.770741541666667,0,0x8001,
0.770749458333333,0,0xC711,
0.770765291666667,0,0xA2FF,
0.770773250000000,0,0xC811,
0.770789083333333,0,0x9E3D,
0.770797041666667,0,0xC911,
0.770812875000000,0,0x9E3D,
0.770820791666667,0,0xCA11,
0.770852583333333,0,0x0004,
0.770860250000000,0,0x0321,
0.770876416666667,0,0x0A01,
0.770884291666667,0,0x8321,
0.770900000000000,0,0x0F00,
0.770907875000000,0,0x8421,
0.770923583333333,0,0x0000,
0.770931458333333,0,0x8521,
0.770947166666667,0,0x173F,
0.770955041666667,0,0x8621,
0.770984875000000,0,0x0001,
0.770992583333333,0,0x1D25,
0.771008583333333,0,0x0055,
0.771016458333333,0,0x9D25,
0.771044208333333,0,0x0003,
0.771051875000000,0,0x2429,
0.771068041666667,0,0x004C,
0.771075875000000,0,0xA421,
0.771091625000000,0,0x0040,
0.771099458333333,0,0xA521,
0.771115208333333,0,0x0000,
0.771123083333333,0,0xA621,
0.771151958333333,0,0x0005,
0.771159666666667,0,0x2D2D,
0.771175625000000,0,0x43D6,
0.771183500000000,0,0xAD21,
0.771199208333333,0,0xFFFF,
0.771207083333333,0,0xAE21,
0.771222833333333,0,0xD00F,
0.771230666666667,0,0xAF21,
0.771246416666667,0,0xFFFF,
0.771254250000000,0,0xB021,
0.771270000000000,0,0x830E,
0.771277875000000,0,0xB121,
0.771306916666667,0,0x0006,
0.771314583333333,0,0x3B21,
0.771330916666667,0,0xE564,
0.771338791666667,0,0xBB21,
0.771354500000000,0,0x8000,
0.771362375000000,0,0xBC21,
0.771378083333333,0,0x8000,
0.771385958333333,0,0xBD21,
0.771401708333333,0,0x8001,
0.771409541666667,0,0xBE21,
0.771425291666667,0,0xE602,
0.771433166666667,0,0xBF21,
0.771448875000000,0,0xE619,
0.771456708333333,0,0xC021,
0.771487666666667,0,0x000A,
0.771495333333333,0,0x4125,
0.771511250000000,0,0xDEF7,
0.771519125000000,0,0xC121,
0.771534833333333,0,0xDFF8,
0.771542708333333,0,0xC221,
0.771558458333333,0,0xE017,
0.771566333333333,0,0xC321,
0.771582041666667,0,0xE154,
0.771589916666667,0,0xC421,
0.771605625000000,0,0xA997,
0.771613500000000,0,0xC521,
0.771629208333333,0,0xFF54,
0.771637083333333,0,0xC621,
0.771652791666667,0,0xC015,
0.771660666666667,0,0xC721,
0.771676375000000,0,0xA2E4,
0.771684250000000,0,0xC821,
0.771699958333333,0,0x9E39,
0.771707833333333,0,0xC921,
0.771723541666667,0,0x9E3E,
0.771731416666667,0,0xCA21,
0.779401791666667,0,0x2C3F,
0.779409500000000,0,0x060B,
0.779437750000000,0,0x0004,
0.779445458333333,0,0x031D,
0.779461583333333,0,0x0A01,
0.779469500000000,0,0x831D,
0.779485375000000,0,0x0F00,
0.779493291666667,0,0x841D,
0.779509125000000,0,0x0000,
0.779517083333333,0,0x8512,
0.779532916666667,0,0x2F3F,
0.779540833333333,0,0x861D,
0.779571458333333,0,0x0004,
0.779579125000000,0,0x0311,
0.779595333333333,0,0x0A01,
0.779603250000000,0,0x8311,
0.779619125000000,0,0x0F00,
0.779627041666667,0,0x8411,
0.779642916666667,0,0x0000,
0.779650833333333,0,0x8512,
0.779666666666667,0,0x2F3F,
0.779674625000000,0,0x8611,
0.779705625000000,0,0x0004,
0.779713333333333,0,0x0315,
0.779729583333333,0,0x0A01,
0.779737500000000,0,0x8315,
0.779753375000000,0,0x0F00,
0.779761291666667,0,0x8415,
0.779777125000000,0,0x0000,
0.779785083333333,0,0x8512,
0.779800916666667,0,0x2F3F,
0.779808833333333,0,0x8615,
0.779840541666667,0,0x0004,
0.779848208333333,0,0x0319,
0.779864333333333,0,0x0A01,
0.779872250000000,0,0x8319,
0.779888125000000,0,0x0F00,
0.779896041666667,0,0x8419,
0.779911916666667,0,0x0000,
0.779919833333333,0,0x8512,
0.779935666666667,0,0x2F3F,
0.779943625000000,0,0x8619,
0.779974166666667,0,0x0004,
0.779981833333333,0,0x031D,
0.779998083333333,0,0x0A01,
0.780006000000000,0,0x831D,
0.780021833333333,0,0x0F00,
0.780029750000000,0,0x841D,
0.780045583333333,0,0x0000,
0.780053541666667,0,0x8512,
0.780069375000000,0,0x273F,
0.780077291666667,0,0x861D,
0.780107666666667,0,0x0001,
0.780115375000000,0,0x1D11,
0.780131791666667,0,0x1551,
0.780139708333333,0,0x9D11,
0.780168125000000,0,0x0003,
0.780175791666667,0,0x2415,
0.780192208333333,0,0x0048,
0.780200125000000,0,0xA412,
0.780216000000000,0,0x0040,
0.780223916666667,0,0xA512,
0.780239750000000,0,0x0000,
0.780247666666667,0,0xA612,
0.780277291666667,0,0x0005,
0.780284958333333,0,0x2D19,
0.780301166666667,0,0x4441,
0.780309083333333,0,0xAD12,
0.780324916666667,0,0xFFFF,
0.780332833333333,0,0xAE12,
0.780348708333333,0,0x5F8C,
0.780356625000000,0,0xAF12,
0.780372500000000,0,0xFFFF,
0.780380416666667,0,0xB012,
0.780396250000000,0,0x830E,
0.780404166666667,0,0xB112,
0.780434333333333,0,0x0006,
0.780442000000000,0,0x3B1D,
0.780458166666667,0,0xB3FE,
0.780466083333333,0,0xBB12,
0.780481958333333,0,0xB34D,
0.780489875000000,0,0xBC12,
0.780505750000000,0,0xB2DF,
0.780513666666667,0,0xBD12,
0.780529500000000,0,0xB21E,
0.780537458333333,0,0xBE12,
0.780553291666667,0,0xB21C,
0.780561208333333,0,0xBF12,
0.780577083333333,0,0xB292,
0.780585000000000,0,0xC012,
0.780615750000000,0,0x000A,
0.780623416666667,0,0x4111,
0.780639500000000,0,0xC0C0,
0.780647416666667,0,0xC112,
0.780663250000000,0,0xC0BF,
0.780671208333333,0,0xC212,
0.780687041666667,0,0xC0C1,
0.780694958333333,0,0xC312,
0.780710833333333,0,0xC0C1,
0.780718750000000,0,0xC412,
0.780734625000000,0,0xC0C3,
0.780742541666667,0,0xC512,
0.780758416666667,0,0xE047,
0.780766333333333,0,0xC612,
0.780782166666667,0,0x8000,
0.780790125000000,0,0xC712,
0.780805958333333,0,0xA302,
0.780813916666667,0,0xC812,
0.780829750000000,0,0x9E39,
0.780837666666667,0,0xC912,
0.780853500000000,0,0x9E3B,
0.780861458333333,0,0xCA12,
0.780893875000000,0,0x0004,
0.780901541666667,0,0x0325,
0.780917541666667,0,0x0A01,
0.780925416666667,0,0x8325,
0.780941125000000,0,0x0F00,
0.780949000000000,0,0x8425,
0.780964708333333,0,0x0000,
0.780972583333333,0,0x8522,
0.780988333333333,0,0x273F,
0.780996166666667,0,0x8625,
0.781027166666667,0,0x0001,
0.781034875000000,0,0x1D29,
0.781051208333333,0,0x0055,
0.781059041666667,0,0x9D29,
0.781086916666667,0,0x0003,
0.781094625000000,0,0x242D,
0.781110666666667,0,0x004C,
0.781118500000000,0,0xA422,
0.781134250000000,0,0x0040,
0.781142125000000,0,0xA522,
0.781157833333333,0,0x0000,
0.781165708333333,0,0xA622,
0.781194333333333,0,0x0005,
0.781202041666667,0,0x2D21,
0.781218250000000,0,0x44E3,
0.781226125000000,0,0xAD22,
0.781241833333333,0,0xFFFF,
0.781249708333333,0,0xAE22,
0.781265416666667,0,0xCF8D,
0.781273291666667,0,0xAF22,
0.781289041666667,0,0xFFFF,
0.781296875000000,0,0xB022,
0.781312625000000,0,0x830D,
0.781320458333333,0,0xB122,
0.781350708333333,0,0x0006,
0.781358375000000,0,0x3B25,
0.781374500000000,0,0xE563,
0.781382375000000,0,0xBB22,
0.781398125000000,0,0x8004,
0.781405958333333,0,0xBC22,
0.781421666666667,0,0x8000,
0.781429541666667,0,0xBD22,
0.781445250000000,0,0x8000,
0.781453125000000,0,0xBE22,
0.781468833333333,0,0xE5FA,
0.781476708333333,0,0xBF22,
0.781492416666667,0,0xE60F,
0.781500291666667,0,0xC022,
0.781529958333333,0,0x000A,
0.781537666666667,0,0x4129,
0.781553833333333,0,0xDEF4,
0.781561708333333,0,0xC122,
0.781577416666667,0,0xDFF5,
0.781585291666667,0,0xC222,
0.781601000000000,0,0xE018,
0.781608875000000,0,0xC322,
0.781624583333333,0,0xE156,
0.781632458333333,0,0xC422,
0.781648166666667,0,0xA996,
0.781656041666667,0,0xC522,
0.781671750000000,0,0xFF55,
0.781679625000000,0,0xC622,
0.781695333333333,0,0xC010,
0.781703208333333,0,0xC722,
0.781718916666667,0,0xA2E4,
0.781726791666667,0,0xC822,
0.781742500000000,0,0x9E3B,
0.781750375000000,0,0xC922,
0.781766083333333,0,0x9E42,
0.781773958333333,0,0xCA22,
0.789400541666667,0,0x3C3F,
0.789408208333333,0,0x060F,
0.789435958333333,0,0x0004,
0.789443625000000,0,0x0311,
0.789459708333333,0,0x0A01,
0.789467625000000,0,0x8311,
0.789483458333333,0,0x0F00,
0.789491416666667,0,0x8411,
0.789507250000000,0,0x0000,
0.789515208333333,0,0x8513,
0.789531041666667,0,0x3F3F,
0.789538958333333,0,0x8611,
0.789569208333333,0,0x0004,
0.789576916666667,0,0x0315,
0.789592958333333,0,0x0A01,
0.789600916666667,0,0x8315,
0.789616750000000,0,0x0F00,
0.789624708333333,0,0x8415,
0.789640541666667,0,0x0000,
0.789648458333333,0,0x8513,
0.789664291666667,0,0x3F3F,
0.789672250000000,0,0x8615,
0.789703166666667,0,0x0004,
0.789710875000000,0,0x0319,
0.789727208333333,0,0x0A01,
0.789735166666667,0,0x8319,
0.789751000000000,0,0x0F00,
0.789758916666667,0,0x8419,
0.789774791666667,0,0x0000,
0.789782708333333,0,0x8513,
0.789798583333333,0,0x3F3F,
0.789806500000000,0,0x8619,
0.789837458333333,0,0x0004,
0.789845125000000,0,0x031D,
0.789861500000000,0,0x0A01,
0.789869416666667,0,0x831D,
0.789885291666667,0,0x0F00,
0.789893208333333,0,0x841D,
0.789909083333333,0,0x0000,
0.789917000000000,0,0x8513,
0.789932833333333,0,0x3F3F,
0.789940791666667,0,0x861D,
0.789971041666667,0,0x0004,
0.789978750000000,0,0x0311,
0.789994750000000,0,0x0A01,
0.790002666666667,0,0x8311,
0.790018500000000,0,0x0F00,
0.790026458333333,0,0x8411,
0.790042291666667,0,0x0000,
0.790050208333333,0,0x8513,
0.790066083333333,0,0x373F,
0.790074000000000,0,0x8611,
0.790104458333333,0,0x0001,
0.790112125000000,0,0x1D15,
0.790128500000000,0,0x1551,
0.790136416666667,0,0x9D15,
0.790164625000000,0,0x0003,
0.790172291666667,0,0x2419,
0.790188458333333,0,0x0048,
0.790196375000000,0,0xA413,
0.790212208333333,0,0x0040,
0.790220166666667,0,0xA513,
0.790236000000000,0,0x0000,
0.790243916666667,0,0xA613,
0.790273375000000,0,0x0005,
0.790281083333333,0,0x2D1D,
0.790297416666667,0,0x454A,
0.790305333333333,0,0xAD13,
0.790321208333333,0,0xFFFF,
0.790329125000000,0,0xAE13,
0.790345000000000,0,0x5D66,
0.790352916666667,0,0xAF13,
0.790368791666667,0,0xFFFF,
0.790376708333333,0,0xB013,
0.790392541666667,0,0x8302,
0.790400458333333,0,0xB113,
0.790430125000000,0,0x0006,
0.790437791666667,0,0x3B11,
0.790454000000000,0,0xB3FA,
0.790461916666667,0,0xBB13,
0.790477750000000,0,0xB34E,
0.790485708333333,0,0xBC13,
0.790501541666667,0,0xB2DB,
0.790509458333333,0,0xBD13,
0.790525333333333,0,0xB21F,
0.790533250000000,0,0xBE13,
0.790549125000000,0,0xB220,
0.790557041666667,0,0xBF13,
0.790572875000000,0,0xB292,
0.790580791666667,0,0xC013,
0.790611583333333,0,0x000A,
0.790619250000000,0,0x4115,
0.790635291666667,0,0xC0C1,
0.790643208333333,0,0xC113,
0.790659041666667,0,0xC0BC,
0.790667000000000,0,0xC213,
0.790682833333333,0,0xC0BF,
0.790690791666667,0,0xC313,
0.790706625000000,0,0xC0C0,
0.790714583333333,0,0xC413,
0.790730416666667,0,0xC0C1,
0.790738333333333,0,0xC513,
0.790754208333333,0,0xE04A,
0.790762125000000,0,0xC613,
0.790777958333333,0,0x8000,
0.790785875000000,0,0xC713,
0.790801750000000,0,0xA303,
0.790809666666667,0,0xC813,
0.790825500000000,0,0x9E33,
0.790833416666667,0,0xC913,
0.790849291666667,0,0x9E3D,
0.790857208333333,0,0xCA13,
0.790889541666667,0,0x0004,
0.790897208333333,0,0x0329,
0.790913458333333,0,0x0A01,
0.790921291666667,0,0x8329,
0.790937041666667,0,0x0F00,
0.790944916666667,0,0x8429,
0.790960625000000,0,0x0000,
0.790968500000000,0,0x8523,
0.790984208333333,0,0x373F,
0.790992083333333,0,0x8629,
0.791022458333333,0,0x0001,
0.791030125000000,0,0x1D2D,
0.791046166666667,0,0x0055,
0.791054000000000,0,0x9D2D,
0.791081916666667,0,0x0003,
0.791089583333333,0,0x2421,
0.791105625000000,0,0x004C,
0.791113458333333,0,0xA423,
0.791129166666667,0,0x0040,
0.791137041666667,0,0xA523,
0.791152791666667,0,0x0000,
0.791160625000000,0,0xA623,
0.791189166666667,0,0x0005,
0.791196833333333,0,0x2D25,
0.791213208333333,0,0x45EF,
0.791221083333333,0,0xAD23,
0.791236791666667,0,0xFFFF,
0.791244666666667,0,0xAE23,
0.791260375000000,0,0xCF6C,
0.791268250000000,0,0xAF23,
0.791284000000000,0,0x8000,
0.791291833333333,0,0xB023,
0.791307541666667,0,0x8302,
0.791315416666667,0,0xB123,
0.791345500000000,0,0x0006,
0.791353166666667,0,0x3B29,
0.791369458333333,0,0xE561,
0.791377333333333,0,0xBB23,
0.791393041666667,0,0x8005,
0.791400916666667,0,0xBC23,
0.791416666666667,0,0x8000,
0.791424500000000,0,0xBD23,
0.791440250000000,0,0x8001,
0.791448083333333,0,0xBE23,
0.791463833333333,0,0xE5FC,
0.791471666666667,0,0xBF23,
0.791487416666667,0,0xE614,
0.791495291666667,0,0xC023,
0.791525958333333,0,0x000A,
0.791533666666667,0,0x412D,
0.791549791666667,0,0xDEF2,
0.791557666666667,0,0xC123,
0.791573375000000,0,0xDFF5,
0.791581250000000,0,0xC223,
0.791596958333333,0,0xE01A,
0.791604833333333,0,0xC323,
0.791620541666667,0,0xE155,
0.791628416666667,0,0xC423,
0.791644125000000,0,0xA999,
0.791652000000000,0,0xC523,
0.791667750000000,0,0xFF55,
0.791675583333333,0,0xC623,
0.791691333333333,0,0xC014,
0.791699166666667,0,0xC723,
0.791714916666667,0,0xA2E3,
0.791722750000000,0,0xC823,
0.791738500000000,0,0x9E3E,
0.791746333333333,0,0xC923,
0.791762083333333,0,0x9E3C,
0.791769958333333,0,0xCA23,
0.799356500000000,0,0x4C3F,
0.799364208333333,0,0x0603,
0.799392583333333,0,0x0004,
0.799400250000000,0,0x0315,
0.799416250000000,0,0x0A01,
0.799424166666667,0,0x8315,
0.799440041666667,0,0x0F00,
0.799447958333333,0,0x8415,
0.799463833333333,0,0x0000,
0.799471750000000,0,0x8514,
0.799487625000000,0,0x4F3F,
0.799495541666667,0,0x8615,
0.799526375000000,0,0x0004,
0.799534083333333,0,0x0319,
0.799550500000000,0,0x0A01,
0.799558416666667,0,0x8319,
0.799574291666667,0,0x0F00,
0.799582208333333,0,0x8419,
0.799598083333333,0,0x0000,
0.799606000000000,0,0x8514,
0.799621833333333,0,0x4F3F,
0.799629791666667,0,0x8619,
0.799660708333333,0,0x0004,
0.799668416666667,0,0x031D,
0.799684750000000,0,0x0A01,
0.799692708333333,0,0x831D,
0.799708541666667,0,0x0F00,
0.799716500000000,0,0x841D,
0.799732333333333,0,0x0000,
0.799740250000000,0,0x8514,
0.799756125000000,0,0x4F3F,
0.799764041666667,0,0x861D,
0.799795500000000,0,0x0004,
0.799803166666667,0,0x0311,
0.799819541666667,0,0x0A01,
0.799827458333333,0,0x8311,
0.799843291666667,0,0x0F00,
0.799851250000000,0,0x8411,
0.799867083333333,0,0x0000,
0.799875000000000,0,0x8514,
0.799890875000000,0,0x4F3F,
0.799898791666667,0,0x8611,
0.799928833333333,0,0x0004,
0.799936500000000,0,0x0315,
0.799952791666667,0,0x0A01,
0.799960666666667,0,0x8315,
0.799976541666667,0,0x0F00,
0.799984458333333,0,0x8415,
0.800000291666667,0,0x0000,
0.800008250000000,0,0x8514,
0.800024083333333,0,0x473F,
0.800032000000000,0,0x8615,
0.800062625000000,0,0x0001,
0.800070291666667,0,0x1D19,
0.800086458333333,0,0x1551,
0.800094416666667,0,0x9D19,
0.800122750000000,0,0x0003,
0.800130416666667,0,0x241D,
0.800146416666667,0,0x0048,
0.800154333333333,0,0xA414,
0.800170166666667,0,0x0040,
0.800178083333333,0,0xA514,
0.800193958333333,0,0x0000,
0.800201875000000,0,0xA614,
0.800230583333333,0,0x0005,
0.800238291666667,0,0x2D11,
0.800254375000000,0,0x4653,
0.800262291666667,0,0xAD14,
0.800278125000000,0,0xFFFF,
0.800286041666667,0,0xAE14,
0.800301916666667,0,0x5AF5,
0.800309833333333,0,0xAF14,
0.800325708333333,0,0xFFFF,
0.800333625000000,0,0xB014,
0.800349458333333,0,0x830E,
0.800357375000000,0,0xB114,
0.800387250000000,0,0x0006,
0.800394916666667,0,0x3B15,
0.800410875000000,0,0xB3F9,
0.800418791666667,0,0xBB14,
0.800434666666667,0,0xB349,
0.800442583333333,0,0xBC14,
0.800458416666667,0,0xB2DB,
0.800466333333333,0,0xBD14,
0.800482166666667,0,0xB219,
0.800490125000000,0,0xBE14,
0.800505958333333,0,0xB222,
0.800513875000000,0,0xBF14,
0.800529750000000,0,0xB294,
0.800537666666667,0,0xC014,
0.800567791666667,0,0x000A,
0.800575458333333,0,0x4119,
0.800591666666667,0,0xC0C0,
0.800599583333333,0,0xC114,
0.800615458333333,0,0xC0BD,
0.800623375000000,0,0xC214,
0.800639208333333,0,0xC0C2,
0.800647166666667,0,0xC314,
0.800663000000000,0,0xC0C2,
0.800670916666667,0,0xC414,
0.800686791666667,0,0xC0C4,
0.800694708333333,0,0xC514,
0.800710583333333,0,0xE048,
0.800718500000000,0,0xC614,
0.800734333333333,0,0x8000,
0.800742250000000,0,0xC714,
0.800758125000000,0,0xA302,
0.800766041666667,0,0xC814,
0.800781916666667,0,0x9E36,
0.800789791666667,0,0xC914,
0.800805666666667,0,0x9E39,
0.800813583333333,0,0xCA14,
0.800845583333333,0,0x0004,
0.800853250000000,0,0x032D,
0.800869333333333,0,0x0A01,
0.800877208333333,0,0x832D,
0.800892958333333,0,0x0F00,
0.800900791666667,0,0x842D,
0.800916541666667,0,0x0000,
0.800924375000000,0,0x8524,
0.800940125000000,0,0x473F,
0.800947958333333,0,0x862D,
0.800978416666667,0,0x0001,
0.800986125000000,0,0x1D21,
0.801002541666667,0,0x0055,
0.801010416666667,0,0x9D21,
0.801038458333333,0,0x0003,
0.801046125000000,0,0x2425,
0.801062458333333,0,0x004C,
0.801070333333333,0,0xA424,
0.801086083333333,0,0x0040,
0.801093916666667,0,0xA524,
0.801109666666667,0,0x0000,
0.801117541666667,0,0xA624,
0.801146458333333,0,0x0005,
0.801154166666667,0,0x2D29,
0.801170583333333,0,0x46F9,
0.801178458333333,0,0xAD24,
0.801194166666667,0,0xFFFF,
0.801202041666667,0,0xAE24,
0.801217750000000,0,0xCEB7,
0.801225625000000,0,0xAF24,
0.801241375000000,0,0xFFFF,
0.801249208333333,0,0xB024,
0.801264958333333,0,0x8309,
0.801272833333333,0,0xB124,
0.801303250000000,0,0x0006,
0.801310958333333,0,0x3B2D,
0.801326875000000,0,0xE560,
0.801334750000000,0,0xBB24,
0.801350458333333,0,0x8004,
0.801358333333333,0,0xBC24,
0.801374041666667,0,0x8000,
0.801381916666667,0,0xBD24,
0.801397625000000,0,0x8002,
0.801405500000000,0,0xBE24,
0.801421208333333,0,0xE5FD,
0.801429083333333,0,0xBF24,
0.801444791666667,0,0xE614,
0.801452666666667,0,0xC024,
0.801483375000000,0,0x000A,
0.801491083333333,0,0x4121,
0.801507208333333,0,0xDEF1,
0.801515083333333,0,0xC124,
0.801530791666667,0,0xDFF6,
0.801538666666667,0,0xC224,
0.801554375000000,0,0xE014,
0.801562250000000,0,0xC324,
0.801577958333333,0,0xE159,
0.801585833333333,0,0xC424,
0.801601583333333,0,0xA993,
0.801609416666667,0,0xC524,
0.801625166666667,0,0xFF50,
0.801633041666667,0,0xC624,
0.801648750000000,0,0xC015,
0.801656625000000,0,0xC724,
0.801672333333333,0,0xA2E3,
0.801680208333333,0,0xC824,
0.801695916666667,0,0x9E3A,
0.801703791666667,0,0xC924,
0.801719500000000,0,0x9E40,
0.801727375000000,0,0xCA24,
0.809369083333333,0,0x5C3F,
0.809376750000000,0,0x0607,
0.809404166666667,0,0x0004,
0.809411833333333,0,0x0319,
0.809428125000000,0,0x0A01,
0.809436041666667,0,0x8319,
0.809451916666667,0,0x0F00,
0.809459833333333,0,0x8419,
0.809475708333333,0,0x0000,
0.809483666666667,0,0x8515,
0.809499500000000,0,0x5F3F,
0.809507416666667,0,0x8619,
0.809538500000000,0,0x0004,
0.809546208333333,0,0x031D,
0.809562416666667,0,0x0A01,
0.809570333333333,0,0x831D,
0.809586166666667,0,0x0F00,
0.809594083333333,0,0x841D,
0.809609958333333,0,0x0000,
0.809617875000000,0,0x8515,
0.809633708333333,0,0x5F3F,
0.809641666666667,0,0x861D,
0.809672458333333,0,0x0004,
0.809680166666667,0,0x0311,
0.809696666666667,0,0x0A01,
0.809704583333333,0,0x8311,
0.809720416666667,0,0x0F00,
0.809728375000000,0,0x8411,
0.809744208333333,0,0x0000,
0.809752125000000,0,0x8515,
0.809768000000000,0,0x5F3F,
0.809775916666667,0,0x8611,
0.809807125000000,0,0x0004,
0.809814791666667,0,0x0315,
0.809830875000000,0,0x0A01,
0.809838833333333,0,0x8315,
0.809854666666667,0,0x0F00,
0.809862583333333,0,0x8415,
0.809878416666667,0,0x0000,
0.809886375000000,0,0x8515,
0.809902208333333,0,0x5F3F,
0.809910125000000,0,0x8615,
0.809941000000000,0,0x0004,
0.809948666666667,0,0x0319,
0.809965125000000,0,0x0A01,
0.809973000000000,0,0x8319,
0.809988875000000,0,0x0F00,
0.809996791666667,0,0x8419,
0.810012666666667,0,0x0000,
0.810020583333333,0,0x8515,
0.810036416666667,0,0x573F,
0.810044375000000,0,0x8619,
0.810075666666667,0,0x0001,
0.810083333333333,0,0x1D1D,
0.810099333333333,0,0x1551,
0.810107250000000,0,0x9D1D,
0.810135083333333,0,0x0003,
0.810142750000000,0,0x2411,
0.810158791666667,0,0x0048,
0.810166708333333,0,0xA415,
0.810182583333333,0,0x0040,
0.810190500000000,0,0xA515,
0.810206375000000,0,0x0000,
0.810214250000000,0,0xA615,
0.810243333333333,0,0x0005,
0.810251000000000,0,0x2D15,
0.810267250000000,0,0x475D,
0.810275208333333,0,0xAD15,
0.810291041666667,0,0xFFFF,
0.810298958333333,0,0xAE15,
0.810314791666667,0,0x5918,
0.810322750000000,0,0xAF15,
0.810338583333333,0,0xFFFF,
0.810346500000000,0,0xB015,
0.810362375000000,0,0x830A,
0.810370291666667,0,0xB115,
0.810400458333333,0,0x0006,
0.810408166666667,0,0x3B19,
0.810424250000000,0,0xB3FC,
0.810432208333333,0,0xBB15,
0.810448041666667,0,0xB34B,
0.810455958333333,0,0xBC15,
0.810471833333333,0,0xB2DC,
0.810479708333333,0,0xBD15,
0.810495583333333,0,0xB21E,
0.810503500000000,0,0xBE15,
0.810519375000000,0,0xB220,
0.810527291666667,0,0xBF15,
0.810543166666667,0,0xB293,
0.810551083333333,0,0xC015,
0.810581125000000,0,0x000A,
0.810588833333333,0,0x411D,
0.810605083333333,0,0xC0C3,
0.810613000000000,0,0xC115,
0.810628833333333,0,0xC0BF,
0.810636791666667,0,0xC215,
0.810652625000000,0,0xC0C0,
0.810660541666667,0,0xC315,
0.810676416666667,0,0xC0C5,
0.810684333333333,0,0xC415,
0.810700166666667,0,0xC0C0,
0.810708125000000,0,0xC515,
0.810723958333333,0,0xE04A,
0.810731916666667,0,0xC615,
0.810747750000000,0,0x8000,
0.810755666666667,0,0xC715,
0.810771541666667,0,0xA303,
0.810779458333333,0,0xC815,
0.810795291666667,0,0x9E36,
0.810803250000000,0,0xC915,
0.810819083333333,0,0x9E3C,
0.810827000000000,0,0xCA15,
0.810858958333333,0,0x0004,
0.810866666666667,0,0x0321,
0.810883000000000,0,0x0A01,
0.810890833333333,0,0x8321,
0.810906583333333,0,0x0F00,
0.810914458333333,0,0x8421,
0.810930166666667,0,0x0000,
0.810938000000000,0,0x8525,
0.810953750000000,0,0x573F,
0.810961583333333,0,0x8621,
0.810992750000000,0,0x0001,
0.811000416666667,0,0x1D25,
0.811016625000000,0,0x0055,
0.811024500000000,0,0x9D25,
0.811052958333333,0,0x0003,
0.811060625000000,0,0x2429,
0.811076583333333,0,0x004C,
0.811084458333333,0,0xA425,
0.811100166666667,0,0x0040,
0.811108041666667,0,0xA525,
0.811123750000000,0,0x0000,
0.811131625000000,0,0xA625,
0.811160416666667,0,0x0005,
0.811168083333333,0,0x2D2D,
0.811184208333333,0,0x4806,
0.811192041666667,0,0xAD25,
0.811207791666667,0,0xFFFF,
0.811215666666667,0,0xAE25,
0.811231333333333,0,0xCDB6,
0.811239208333333,0,0xAF25,
0.811254958333333,0,0xFFFF,
0.811262791666667,0,0xB025,
0.811278541666667,0,0x830A,
0.811286375000000,0,0xB125,
0.811317750000000,0,0x0006,
0.811325416666667,0,0x3B21,
0.811341458333333,0,0xE561,
0.811349291666667,0,0xBB25,
0.811365041666667,0,0x8000,
0.811372875000000,0,0xBC25,
0.811388625000000,0,0x8001,
0.811396458333333,0,0xBD25,
0.811412166666667,0,0x8003,
0.811420083333333,0,0xBE25,
0.811435791666667,0,0xE5FE,
0.811443666666667,0,0xBF25,
0.811459375000000,0,0xE613,
0.811467250000000,0,0xC025,
0.811497541666667,0,0x000A,
0.811505250000000,0,0x4125,
0.811521291666667,0,0xDEF4,
0.811529166666667,0,0xC125,
0.811544875000000,0,0xDFF5,
0.811552750000000,0,0xC225,
0.811568458333333,0,0xE01B,
0.811576333333333,0,0xC325,
0.811592041666667,0,0xE156,
0.811599916666667,0,0xC425,
0.811615625000000,0,0xA999,
0.811623500000000,0,0xC525,
0.811639208333333,0,0xFF59,
0.811647041666667,0,0xC625,
0.811662791666667,0,0xC016,
0.811670666666667,0,0xC725,
0.811686375000000,0,0xA2E1,
0.811694208333333,0,0xC825,
0.811709958333333,0,0x9E3D,
0.811717833333333,0,0xC925,
0.811733541666667,0,0x9E3D,
0.811741416666667,0,0xCA25,
0.819406500000000,0,0x6C3F,
0.819414166666667,0,0x060B,
0.819442333333333,0,0x0004,
0.819450041666667,0,0x031D,
0.819466083333333,0,0x0A01,
0.819473958333333,0,0x831D,
0.819489833333333,0,0x0F00,
0.819497750000000,0,0x841D,
0.819513625000000,0,0x0000,
0.819521541666667,0,0x8516,
0.819537375000000,0,0x6F3F,
0.819545333333333,0,0x861D,
0.819575625000000,0,0x0004,
0.819583291666667,0,0x0311,
0.819599333333333,0,0x0A01,
0.819607250000000,0,0x8311,
0.819623125000000,0,0x0F00,
0.819631041666667,0,0x8411,
0.819646916666667,0,0x0000,
0.819654833333333,0,0x8516,
0.819670708333333,0,0x6F3F,
0.819678625000000,0,0x8611,
0.819709625000000,0,0x0004,
0.819717291666667,0,0x0315,
0.819733583333333,0,0x0A01,
0.819741541666667,0,0x8315,
0.819757375000000,0,0x0F00,
0.819765291666667,0,0x8415,
0.819781166666667,0,0x0000,
0.819789083333333,0,0x8516,
0.819804916666667,0,0x6F3F,
0.819812875000000,0,0x8615,
0.819842958333333,0,0x0004,
0.819850625000000,0,0x0319,
0.819866875000000,0,0x0A01,
0.819874791666667,0,0x8319,
0.819890666666667,0,0x0F00,
0.819898583333333,0,0x8419,
0.819914458333333,0,0x0000,
0.819922375000000,0,0x8516,
0.819938208333333,0,0x6F3F,
0.819946166666667,0,0x8619,
0.819976833333333,0,0x0004,
0.819984500000000,0,0x031D,
0.820000625000000,0,0x0A01,
0.820008541666667,0,0x831D,
0.820024416666667,0,0x0F00,
0.820032333333333,0,0x841D,
0.820048208333333,0,0x0000,
0.820056125000000,0,0x8516,
0.820071958333333,0,0x673F,
0.820079916666667,0,0x861D,
0.820110666666667,0,0x0001,
0.820118375000000,0,0x1D11,
0.820134375000000,0,0x1551,
0.820142333333333,0,0x9D11,
0.820170500000000,0,0x0003,
0.820178208333333,0,0x2415,
0.820194333333333,0,0x0048,
0.820202250000000,0,0xA416,
0.820218125000000,0,0x0040,
0.820226041666667,0,0xA516,
0.820241875000000,0,0x0000,
0.820249833333333,0,0xA616,
0.820278875000000,0,0x0005,
0.820286583333333,0,0x2D19,
0.820302833333333,0,0x4868,
0.820310750000000,0,0xAD16,
0.820326625000000,0,0xFFFF,
0.820334541666667,0,0xAE16,
0.820350375000000,0,0x56AA,
0.820358291666667,0,0xAF16,
0.820374125000000,0,0xFFFF,
0.820382083333333,0,0xB016,
0.820397916666667,0,0x830C,
0.820405875000000,0,0xB116,
0.820436166666667,0,0x0006,
0.820443875000000,0,0x3B1D,
0.820460333333333,0,0xB3FE,
0.820468250000000,0,0xBB16,
0.820484125000000,0,0xB34C,
0.820492041666667,0,0xBC16,
0.820507916666667,0,0xB2DD,
0.820515833333333,0,0xBD16,
0.820531666666667,0,0xB220,
0.820539583333333,0,0xBE16,
0.820555416666667,0,0xB221,
0.820563375000000,0,0xBF16,
0.820579208333333,0,0xB297,
0.820587125000000,0,0xC016,
0.820617333333333,0,0x000A,
0.820625000000000,0,0x4111,
0.820641083333333,0,0xC0C4,
0.820649041666667,0,0xC116,
0.820664875000000,0,0xC0C1,
0.820672791666667,0,0xC216,
0.820688666666667,0,0xC0C3,
0.820696583333333,0,0xC316,
0.820712416666667,0,0xC0C4,
0.820720333333333,0,0xC416,
0.820736166666667,0,0xC0C2,
0.820744125000000,0,0xC516,
0.820759958333333,0,0xE04D,
0.820767916666667,0,0xC616,
0.820783750000000,0,0x8000,
0.820791666666667,0,0xC716,
0.820807500000000,0,0xA303,
0.820815458333333,0,0xC816,
0.820831291666667,0,0x9E3A,
0.820839208333333,0,0xC916,
0.820855083333333,0,0x9E3F,
0.820863000000000,0,0xCA16,
0.820895166666667,0,0x0004,
0.820902833333333,0,0x0325,
0.820919125000000,0,0x0A01,
0.820927000000000,0,0x8325,
0.820942708333333,0,0x0F00,
0.820950583333333,0,0x8425,
0.820966291666667,0,0x0000,
0.820974125000000,0,0x8526,
0.820989875000000,0,0x673F,
0.820997750000000,0,0x8625,
0.821028291666667,0,0x0001,
0.821035958333333,0,0x1D29,
0.821052291666667,0,0x0055,
0.821060166666667,0,0x9D29,
0.821088250000000,0,0x0003,
0.821095958333333,0,0x242D,
0.821112250000000,0,0x004C,
0.821120125000000,0,0xA426,
0.821135833333333,0,0x0040,
0.821143708333333,0,0xA526,
0.821159416666667,0,0x0000,
0.821167291666667,0,0xA626,
0.821195958333333,0,0x0005,
0.821203625000000,0,0x2D21,
0.821219875000000,0,0x4912,
0.821227750000000,0,0xAD26,
0.821243458333333,0,0xFFFF,
0.821251333333333,0,0xAE26,
0.821267041666667,0,0xCD8D,
0.821274916666667,0,0xAF26,
0.821290666666667,0,0x8000,
0.821298500000000,0,0xB026,
0.821314250000000,0,0x8304,
0.821322125000000,0,0xB126,
0.821352291666667,0,0x0006,
0.821360000000000,0,0x3B25,
0.821376166666667,0,0xE55E,
0.821384041666667,0,0xBB26,
0.821399750000000,0,0x8000,
0.821407625000000,0,0xBC26,
0.821423375000000,0,0x8000,
0.821431250000000,0,0xBD26,
0.821446958333333,0,0x8000,
0.821454833333333,0,0xBE26,
0.821470541666667,0,0xE602,
0.821478416666667,0,0xBF26,
0.821494125000000,0,0xE61A,
0.821502000000000,0,0xC026,
0.821532875000000,0,0x000A,
0.821540541666667,0,0x4129,
0.821556541666667,0,0xDEFA,
0.821564416666667,0,0xC126,
0.821580125000000,0,0xDFF5,
0.821588000000000,0,0xC226,
0.821603708333333,0,0xE01A,
0.821611583333333,0,0xC326,
0.821627333333333,0,0xE157,
0.821635166666667,0,0xC426,
0.821650875000000,0,0xA995,
0.821658750000000,0,0xC526,
0.821674458333333,0,0xFF52,
0.821682333333333,0,0xC626,
0.821698041666667,0,0xC015,
0.821705916666667,0,0xC726,
0.821721666666667,0,0xA2E2,
0.821729500000000,0,0xC826,
0.821745250000000,0,0x9E3E,
0.821753125000000,0,0xC926,
0.821768833333333,0,0x9E3D,
0.821776708333333,0,0xCA26,
0.829374666666667,0,0x7C3F,
0.829382333333333,0,0x060F,
0.829409791666667,0,0x0004,
0.829417458333333,0,0x0311,
0.829433833333333,0,0x0A01,
0.829441750000000,0,0x8311,
0.829457625000000,0,0x0F00,
0.829465541666667,0,0x8411,
0.829481416666667,0,0x0000,
0.829489333333333,0,0x8517,
0.829505208333333,0,0x7F3F,
0.829513125000000,0,0x8611,
0.829544041666667,0,0x0004,
0.829551708333333,0,0x0315,
0.829568125000000,0,0x0A01,
0.829576041666667,0,0x8315,
0.829591916666667,0,0x0F00,
0.829599833333333,0,0x8415,
0.829615666666667,0,0x0000,
0.829623625000000,0,0x8517,
0.829639458333333,0,0x7F3F,
0.829647375000000,0,0x8615,
0.829678500000000,0,0x0004,
0.829686166666667,0,0x0319,
0.829702416666667,0,0x0A01,
0.829710333333333,0,0x8319,
0.829726208333333,0,0x0F00,
0.829734125000000,0,0x8419,
0.829750000000000,0,0x0000,
0.829757916666667,0,0x8517,
0.829773750000000,0,0x7F3F,
0.829781708333333,0,0x8619,
0.829813166666667,0,0x0004,
0.829820833333333,0,0x031D,
0.829837166666667,0,0x0A01,
0.829845125000000,0,0x831D,
0.829860958333333,0,0x0F00,
0.829868916666667,0,0x841D,
0.829884750000000,0,0x0000,
0.829892666666667,0,0x8517,
0.829908541666667,0,0x7F3F,
0.829916458333333,0,0x861D,
0.829947208333333,0,0x0004,
0.829954916666667,0,0x0311,
0.829970958333333,0,0x0A01,
0.829978875000000,0,0x8311,
0.829994750000000,0,0x0F00,
0.830002666666667,0,0x8411,
0.830018541666667,0,0x0000,
0.830026458333333,0,0x8517,
0.830042291666667,0,0x773F,
0.830050250000000,0,0x8611,
0.830081375000000,0,0x0001,
0.830089041666667,0,0x1D15,
0.830105208333333,0,0x1551,
0.830113125000000,0,0x9D15,
0.830141833333333,0,0x0003,
0.830149500000000,0,0x2419,
0.830165625000000,0,0x0048,
0.830173583333333,0,0xA417,
0.830189416666667,0,0x0040,
0.830197333333333,0,0xA517,
0.830213166666667,0,0x0000,
0.830221125000000,0,0xA617,
0.830250333333333,0,0x0005,
0.830258041666667,0,0x2D1D,
0.830274125000000,0,0x4971,
0.830282041666667,0,0xAD17,
0.830297916666667,0,0xFFFF,
0.830305833333333,0,0xAE17,
0.830321708333333,0,0x541E,
0.830329625000000,0,0xAF17,
0.830345458333333,0,0xFFFF,
0.830353375000000,0,0xB017,
0.830369250000000,0,0x830C,
0.830377166666667,0,0xB117,
0.830407291666667,0,0x0006,
0.830415000000000,0,0x3B11,
0.830431125000000,0,0xB3FD,
0.830439083333333,0,0xBB17,
0.830454916666667,0,0xB34B,
0.830462833333333,0,0xBC17,
0.830478708333333,0,0xB2DA,
0.830486625000000,0,0xBD17,
0.830502458333333,0,0xB21B,
0.830510375000000,0,0xBE17,
0.830526250000000,0,0xB222,
0.830534166666667,0,0xBF17,
0.830550000000000,0,0xB295,
0.830557916666667,0,0xC017,
0.830588625000000,0,0x000A,
0.830596291666667,0,0x4115,
0.830612416666667,0,0xC0C6,
0.830620333333333,0,0xC117,
0.830636208333333,0,0xC0C4,
0.830644125000000,0,0xC217,
0.830659958333333,0,0xC0C5,
0.830667875000000,0,0xC317,
0.830683750000000,0,0xC0C5,
0.830691666666667,0,0xC417,
0.830707500000000,0,0xC0C4,
0.830715416666667,0,0xC517,
0.830731291666667,0,0xE04A,
0.830739208333333,0,0xC617,
0.830755041666667,0,0x8002,
0.830762958333333,0,0xC717,
0.830778833333333,0,0xA305,
0.830786750000000,0,0xC817,
0.830802583333333,0,0x9E3D,
0.830810541666667,0,0xC917,
0.830826375000000,0,0x9E3C,
0.830834291666667,0,0xCA17,
0.830866541666667,0,0x0004,
0.830874208333333,0,0x0329,
0.830890458333333,0,0x0A01,
0.830898333333333,0,0x8329,
0.830914041666667,0,0x0F00,
0.830921916666667,0,0x8429,
0.830937625000000,0,0x0000,
0.830945458333333,0,0x8527,
0.830961208333333,0,0x773F,
0.830969083333333,0,0x8629,
0.830999083333333,0,0x0001,
0.831006750000000,0,0x1D2D,
0.831023083333333,0,0x0055,
0.831030958333333,0,0x9D2D,
0.831059125000000,0,0x0003,
0.831066791666667,0,0x2421,
0.831083041666667,0,0x004C,
0.831090916666667,0,0xA427,
0.831106625000000,0,0x0040,
0.831114500000000,0,0xA527,
0.831130208333333,0,0x0000,
0.831138083333333,0,0xA627,
0.831167583333333,0,0x0005,
0.831175291666667,0,0x2D25,
0.831191625000000,0,0x4A1D,
0.831199500000000,0,0xAD27,
0.831215208333333,0,0xFFFF,
0.831223083333333,0,0xAE27,
0.831238791666667,0,0xCD3E,
0.831246666666667,0,0xAF27,
0.831262375000000,0,0xFFFF,
0.831270250000000,0,0xB027,
0.831285958333333,0,0x830B,
0.831293833333333,0,0xB127,
0.831325083333333,0,0x0006,
0.831332750000000,0,0x3B29,
0.831348875000000,0,0xE565,
0.831356708333333,0,0xBB27,
0.831372458333333,0,0x8000,
0.831380291666667,0,0xBC27,
0.831396041666667,0,0x8001,
0.831403875000000,0,0xBD27,
0.831419625000000,0,0x8000,
0.831427458333333,0,0xBE27,
0.831443208333333,0,0xE602,
0.831451041666667,0,0xBF27,
0.831466750000000,0,0xE617,
0.831474666666667,0,0xC027,
0.831504625000000,0,0x000A,
0.831512333333333,0,0x412D,
0.831528666666667,0,0xDEF5,
0.831536541666667,0,0xC127,
0.831552250000000,0,0xDFF4,
0.831560125000000,0,0xC227,
0.831575833333333,0,0xE017,
0.831583708333333,0,0xC327,
0.831599416666667,0,0xE159,
0.831607291666667,0,0xC427,
0.831623000000000,0,0xA994,
0.831630875000000,0,0xC527,
0.831646583333333,0,0xFF52,
0.831654458333333,0,0xC627,
0.831670166666667,0,0xC012,
0.831678041666667,0,0xC727,
0.831693750000000,0,0xA2E4,
0.831701625000000,0,0xC827,
0.831717333333333,0,0x9E3A,
0.831725208333333,0,0xC927,
0.831740916666667,0,0x9E3D,
0.831748791666667,0,0xCA27,
0.839412458333333,0,0x8C3F,
0.839420125000000,0,0x0603,
0.839448375000000,0,0x0004,
0.839456083333333,0,0x0315,
0.839472416666667,0,0x0A01,
0.839480333333333,0,0x8315,
0.839496166666667,0,0x0F00,
0.839504125000000,0,0x8415,
0.839520000000000,0,0x0000,
0.839527916666667,0,0x8518,
0.839543750000000,0,0x8F3F,
0.839551666666667,0,0x8615,
0.839582541666667,0,0x0004,
0.839590250000000,0,0x0319,
0.839606666666667,0,0x0A01,
0.839614625000000,0,0x8319,
0.839630458333333,0,0x0F00,
0.839638375000000,0,0x8419,
0.839654250000000,0,0x0000,
0.839662166666667,0,0x8518,
0.839678000000000,0,0x8F3F,
0.839685958333333,0,0x8619,
0.839716458333333,0,0x0004,
0.839724125000000,0,0x031D,
0.839740416666667,0,0x0A01,
0.839748333333333,0,0x831D,
0.839764208333333,0,0x0F00,
0.839772125000000,0,0x841D,
0.839787958333333,0,0x0000,
0.839795916666667,0,0x8518,
0.839811750000000,0,0x8F3F,
0.839819666666667,0,0x861D,
0.839850208333333,0,0x0004,
0.839857916666667,0,0x0311,
0.839874125000000,0,0x0A01,
0.839882083333333,0,0x8311,
0.839897916666667,0,0x0F00,
0.839905833333333,0,0x8411,
0.839921708333333,0,0x0000,
0.839929625000000,0,0x8518,
0.839945500000000,0,0x8F3F,
0.839953416666667,0,0x8611,
0.839984500000000,0,0x0004,
0.839992166666667,0,0x0315,
0.840008375000000,0,0x0A01,
0.840016333333333,0,0x8315,
0.840032166666667,0,0x0F00,
0.840040125000000,0,0x8415,
0.840055958333333,0,0x0000,
0.840063875000000,0,0x8518,
0.840079750000000,0,0x873F,
0.840087666666667,0,0x8615,
0.840119000000000,0,0x0001,
0.840126708333333,0,0x1D19,
0.840143125000000,0,0x1551,
0.840151041666667,0,0x9D19,
0.840178791666667,0,0x0003,
0.840186458333333,0,0x241D,
0.840202583333333,0,0x0048,
0.840210500000000,0,0xA418,
0.840226333333333,0,0x0040,
0.840234291666667,0,0xA518,
0.840250125000000,0,0x0000,
0.840258083333333,0,0xA618,
0.840287041666667,0,0x0005,
0.840294708333333,0,0x2D11,
0.840311041666667,0,0x4A7B,
0.840319000000000,0,0xAD18,
0.840334833333333,0,0xFFFF,
0.840342791666667,0,0xAE18,
0.840358625000000,0,0x51A0,
0.840366541666667,0,0xAF18,
0.840382375000000,0,0xFFFF,
0.840390333333333,0,0xB018,
0.840406166666667,0,0x830E,
0.840414083333333,0,0xB118,
0.840444208333333,0,0x0006,
0.840451875000000,0,0x3B15,
0.840468041666667,0,0xB3FF,
0.840475958333333,0,0xBB18,
0.840491791666667,0,0xB34E,
0.840499750000000,0,0xBC18,
0.840515583333333,0,0xB2DF,
0.840523500000000,0,0xBD18,
0.840539333333333,0,0xB21D,
0.840547250000000,0,0xBE18,
0.840563125000000,0,0xB222,
0.840571041666667,0,0xBF18,
0.840586875000000,0,0xB292,
0.840594791666667,0,0xC018,
0.840624625000000,0,0x000A,
0.840632333333333,0,0x4119,
0.840648291666667,0,0xC0C3,
0.840656208333333,0,0xC118,
0.840672083333333,0,0xC0C0,
0.840679958333333,0,0xC218,
0.840695833333333,0,0xC0C4,
0.840703750000000,0,0xC318,
0.840719583333333,0,0xC0C3,
0.840727541666667,0,0xC418,
0.840743375000000,0,0xC0C4,
0.840751333333333,0,0xC518,
0.840767166666667,0,0xE04B,
0.840775083333333,0,0xC618,
0.840790916666667,0,0x8004,
0.840798875000000,0,0xC718,
0.840814708333333,0,0xA302,
0.840822625000000,0,0xC818,
0.840838458333333,0,0x9E39,
0.840846375000000,0,0xC918,
0.840862208333333,0,0x9E3F,
0.840870166666667,0,0xCA18,
0.840902250000000,0,0x0004,
0.840909916666667,0,0x032D,
0.840926125000000,0,0x0A01,
0.840933958333333,0,0x832D,
0.840949708333333,0,0x0F00,
0.840957541666667,0,0x842D,
0.840973291666667,0,0x0000,
0.840981166666667,0,0x8528,
0.840996875000000,0,0x873F,
0.841004750000000,0,0x862D,
0.841034958333333,0,0x0001,
0.841042625000000,0,0x1D21,
0.841058791666667,0,0x0055,
0.841066625000000,0,0x9D21,
0.841094458333333,0,0x0003,
0.841102125000000,0,0x2425,
0.841118250000000,0,0x004C,
0.841126125000000,0,0xA428,
0.841141833333333,0,0x0040,
0.841149708333333,0,0xA528,
0.841165416666667,0,0x0000,
0.841173291666667,0,0xA628,
0.841201750000000,0,0x0005,
0.841209416666667,0,0x2D29,
0.841225875000000,0,0x4B2A,
0.841233708333333,0,0xAD28,
0.841249416666667,0,0xFFFF,
0.841257291666667,0,0xAE28,
0.841273000000000,0,0xCCCD,
0.841280875000000,0,0xAF28,
0.841296625000000,0,0xFFFF,
0.841304500000000,0,0xB028,
0.841320208333333,0,0x830C,
0.841328041666667,0,0xB128,
0.841358166666667,0,0x0006,
0.841365833333333,0,0x3B2D,
0.841382125000000,0,0xE563,
0.841390000000000,0,0xBB28,
0.841405708333333,0,0x8000,
0.841413541666667,0,0xBC28,
0.841429291666667,0,0x8003,
0.841437125000000,0,0xBD28,
0.841452875000000,0,0x8003,
0.841460750000000,0,0xBE28,
0.841476458333333,0,0xE601,
0.841484333333333,0,0xBF28,
0.841500041666667,0,0xE617,
0.841507916666667,0,0xC028,
0.841537375000000,0,0x000A,
0.841545083333333,0,0x4121,
0.841561458333333,0,0xDEF1,
0.841569333333333,0,0xC128,
0.841585041666667,0,0xDFF2,
0.841592916666667,0,0xC228,
0.841608625000000,0,0xE012,
0.841616500000000,0,0xC328,
0.841632208333333,0,0xE157,
0.841640083333333,0,0xC428,
0.841655791666667,0,0xA996,
0.841663666666667,0,0xC528,
0.841679375000000,0,0xFF4F,
0.841687250000000,0,0xC628,
0.841702958333333,0,0xC010,
0.841710833333333,0,0xC728,
0.841726541666667,0,0xA2E5,
0.841734375000000,0,0xC828,
0.841750125000000,0,0x9E3A,
0.841757958333333,0,0xC928,
0.841773708333333,0,0x9E3E,
0.841781583333333,0,0xCA28,
0.850371791666667,0,0x9C3F,
0.850379458333333,0,0x0607,
0.850407250000000,0,0x0004,
0.850414916666667,0,0x0319,
0.850430916666667,0,0x0A01,
0.850438833333333,0,0x8319,
0.850454708333333,0,0x0F00,
0.850462625000000,0,0x8419,
0.850478500000000,0,0x0000,
0.850486458333333,0,0x8519,
0.850502291666667,0,0x9F3F,
0.850510208333333,0,0x8619,
0.850541000000000,0,0x0004,
0.850548666666667,0,0x031D,
0.850564708333333,0,0x0A01,
0.850572625000000,0,0x831D,
0.850588500000000,0,0x0F00,
0.850596416666667,0,0x841D,
0.850612291666667,0,0x0000,
0.850620166666667,0,0x8519,
0.850636041666667,0,0x9F3F,
0.850643958333333,0,0x861D,
0.850674541666667,0,0x0004,
0.850682250000000,0,0x0311,
0.850698458333333,0,0x0A01,
0.850706375000000,0,0x8311,
0.850722250000000,0,0x0F00,
0.850730166666667,0,0x8411,
0.850746041666667,0,0x0000,
0.850753958333333,0,0x8519,
0.850769833333333,0,0x9F3F,
0.850777750000000,0,0x8611,
0.850808750000000,0,0x0004,
0.850816458333333,0,0x0315,
0.850832750000000,0,0x0A01,
0.850840666666667,0,0x8315,
0.850856541666667,0,0x0F00,
0.850864458333333,0,0x8415,
0.850880291666667,0,0x0000,
0.850888250000000,0,0x8519,
0.850904083333333,0,0x9F3F,
0.850912000000000,0,0x8615,
0.850942750000000,0,0x0004,
0.850950416666667,0,0x0319,
0.850966500000000,0,0x0A01,
0.850974416666667,0,0x8319,
0.850990250000000,0,0x0F00,
0.850998166666667,0,0x8419,
0.851014041666667,0,0x0000,
0.851021958333333,0,0x8519,
0.851037833333333,0,0x973F,
0.851045750000000,0,0x8619,
0.851076208333333,0,0x0001,
0.851083916666667,0,0x1D1D,
0.851100208333333,0,0x1551,
0.851108166666667,0,0x9D1D,
0.851136208333333,0,0x0003,
0.851143916666667,0,0x2411,
0.851160125000000,0,0x0048,
0.851168041666667,0,0xA419,
0.851183916666667,0,0x0040,
0.851191833333333,0,0xA519,
0.851207708333333,0,0x0000,
0.851215625000000,0,0xA619,
0.851245666666667,0,0x0005,
0.851253333333333,0,0x2D15,
0.851269625000000,0,0x4B9E,
0.851277541666667,0,0xAD19,
0.851293375000000,0,0xFFFF,
0.851301291666667,0,0xAE19,
0.851317166666667,0,0x4FC0,
0.851325083333333,0,0xAF19,
0.851340958333333,0,0x8000,
0.851348875000000,0,0xB019,
0.851364708333333,0,0x8304,
0.851372666666667,0,0xB119,
0.851403416666667,0,0x0006,
0.851411125000000,0,0x3B19,
0.851427125000000,0,0xB3FD,
0.851435041666667,0,0xBB19,
0.851450916666667,0,0xB34C,
0.851458833333333,0,0xBC19,
0.851474708333333,0,0xB2E3,
0.851482625000000,0,0xBD19,
0.851498458333333,0,0xB228,
0.851506416666667,0,0xBE19,
0.851522250000000,0,0xB227,
0.851530166666667,0,0xBF19,
0.851546041666667,0,0xB298,
0.851553958333333,0,0xC019,
0.851584875000000,0,0x000A,
0.851592541666667,0,0x411D,
0.851608958333333,0,0xC0C5,
0.851616875000000,0,0xC119,
0.851632750000000,0,0xC0C3,
0.851640666666667,0,0xC219,
0.851656541666667,0,0xC0C7,
0.851664458333333,0,0xC319,
0.851680291666667,0,0xC0C2,
0.851688250000000,0,0xC419,
0.851704083333333,0,0xC0C5,
0.851712000000000,0,0xC519,
0.851727875000000,0,0xE04E,
0.851735791666667,0,0xC619,
0.851751625000000,0,0x8002,
0.851759541666667,0,0xC719,
0.851775416666667,0,0xA303,
0.851783333333333,0,0xC819,
0.851799208333333,0,0x9E3E,
0.851807125000000,0,0xC919,
0.851823000000000,0,0x9E3C,
0.851830916666667,0,0xCA19,
0.851862166666667,0,0x0004,
0.851869875000000,0,0x0321,
0.851885833333333,0,0x0A01,
0.851893666666667,0,0x8321,
0.851909416666667,0,0x0F00,
0.851917250000000,0,0x8421,
0.851933000000000,0,0x0000,
0.851940875000000,0,0x8529,
0.851956583333333,0,0x973F,
0.851964416666667,0,0x8621,
0.851995875000000,0,0x0001,
0.852003541666667,0,0x1D25,
0.852019958333333,0,0x0055,
0.852027833333333,0,0x9D25,
0.852055458333333,0,0x0003,
0.852063125000000,0,0x2429,
0.852079416666667,0,0x004C,
0.852087291666667,0,0xA429,
0.852103000000000,0,0x0040,
0.852110875000000,0,0xA529,
0.852126583333333,0,0x0000,
0.852134458333333,0,0xA629,
0.852163208333333,0,0x0005,
0.852170875000000,0,0x2D2D,
0.852187000000000,0,0x4C50,
0.852194875000000,0,0xAD29,
0.852210583333333,0,0xFFFF,
0.852218458333333,0,0xAE29,
0.852234166666667,0,0xCC42,
0.852242041666667,0,0xAF29,
0.852257750000000,0,0x8000,
0.852265625000000,0,0xB029,
0.852281333333333,0,0x8306,
0.852289208333333,0,0xB129,
0.852318500000000,0,0x0006,
0.852326208333333,0,0x3B21,
0.852342250000000,0,0xE565,
0.852350125000000,0,0xBB29,
0.852365833333333,0,0x8000,
0.852373708333333,0,0xBC29,
0.852389416666667,0,0x8000,
0.852397291666667,0,0xBD29,
0.852413000000000,0,0x8000,
0.852420875000000,0,0xBE29,
0.852436583333333,0,0xE5FF,
0.852444458333333,0,0xBF29,
0.852460166666667,0,0xE618,
0.852468041666667,0,0xC029,
0.852498083333333,0,0x000A,
0.852505750000000,0,0x4125,
0.852522083333333,0,0xDEF2,
0.852529958333333,0,0xC129,
0.852545666666667,0,0xDFF3,
0.852553541666667,0,0xC229,
0.852569250000000,0,0xE01C,
0.852577125000000,0,0xC329,
0.852592833333333,0,0xE15F,
0.852600708333333,0,0xC429,
0.852616416666667,0,0xA998,
0.852624291666667,0,0xC529,
0.852640000000000,0,0xFF4F,
0.852647875000000,0,0xC629,
0.852663625000000,0,0xC011,
0.852671458333333,0,0xC729,
0.852687166666667,0,0xA2E4,
0.852695041666667,0,0xC829,
0.852710750000000,0,0x9E37,
0.852718625000000,0,0xC929,
0.852734333333333,0,0x9E41,
0.852742208333333,0,0xCA29,
0.859605208333333,0,0xAC3F,
0.859612875000000,0,0x060B,
0.859640625000000,0,0x0004,
0.859648291666667,0,0x031D,
0.859664458333333,0,0x0A01,
0.859672375000000,0,0x831D,
0.859688208333333,0,0x0F00,
0.859696166666667,0,0x841D,
0.859712000000000,0,0x0000,
0.859719958333333,0,0x851A,
0.859735791666667,0,0xAF3F,
0.859743750000000,0,0x861D,
0.859773875000000,0,0x0004,
0.859781583333333,0,0x0311,
0.859797708333333,0,0x0A01,
0.859805666666667,0,0x8311,
0.859821500000000,0,0x0F00,
0.859829416666667,0,0x8411,
0.859845291666667,0,0x0000,
0.859853208333333,0,0x851A,
0.859869041666667,0,0xAF3F,
0.859877000000000,0,0x8611,
0.859907833333333,0,0x0004,
0.859915500000000,0,0x0315,
0.859932000000000,0,0x0A01,
0.859939916666667,0,0x8315,
0.859955791666667,0,0x0F00,
0.859963666666667,0,0x8415,
0.859979541666667,0,0x0000,
0.859987500000000,0,0x851A,
0.860003333333333,0,0xAF3F,
0.860011250000000,0,0x8615,
0.860041958333333,0,0x0004,
0.860049625000000,0,0x0319,
0.860065791666667,0,0x0A01,
0.860073708333333,0,0x8319,
0.860089541666667,0,0x0F00,
0.860097500000000,0,0x8419,
0.860113333333333,0,0x0000,
0.860121250000000,0,0x851A,
0.860137125000000,0,0xAF3F,
0.860145041666667,0,0x8619,
0.860176041666667,0,0x0004,
0.860183708333333,0,0x031D,
0.860200000000000,0,0x0A01,
0.860207916666667,0,0x831D,
0.860223791666667,0,0x0F00,
0.860231708333333,0,0x841D,
0.860247541666667,0,0x0000,
0.860255500000000,0,0x851A,
0.860271333333333,0,0xA73F,
0.860279291666667,0,0x861D,
0.860309625000000,0,0x0001,
0.860317291666667,0,0x1D11,
0.860333750000000,0,0x1551,
0.860341666666667,0,0x9D11,
0.860369291666667,0,0x0003,
0.860377000000000,0,0x2415,
0.860393208333333,0,0x0048,
0.860401083333333,0,0xA41A,
0.860416958333333,0,0x0040,
0.860424875000000,0,0xA51A,
0.860440750000000,0,0x0000,
0.860448666666667,0,0xA61A,
0.860477375000000,0,0x0005,
0.860485041666667,0,0x2D19,
0.860501166666667,0,0x4C94,
0.860509083333333,0,0xAD1A,
0.860524916666667,0,0xFFFF,
0.860532875000000,0,0xAE1A,
0.860548708333333,0,0x4DC3,
0.860556625000000,0,0xAF1A,
0.860572500000000,0,0xFFFF,
0.860580416666667,0,0xB01A,
0.860596291666667,0,0x830F,
0.860604208333333,0,0xB11A,
0.860633875000000,0,0x0006,
0.860641583333333,0,0x3B1D,
0.860657708333333,0,0xB3FE,
0.860665625000000,0,0xBB1A,
0.860681500000000,0,0xB34F,
0.860689416666667,0,0xBC1A,
0.860705250000000,0,0xB2DF,
0.860713166666667,0,0xBD1A,
0.860729041666667,0,0xB221,
0.860736958333333,0,0xBE1A,
0.860752833333333,0,0xB21F,
0.860760750000000,0,0xBF1A,
0.860776583333333,0,0xB291,
0.860784500000000,0,0xC01A,
0.860814458333333,0,0x000A,
0.860822125000000,0,0x4111,
0.860838500000000,0,0xC0C5,
0.860846416666667,0,0xC11A,
0.860862250000000,0,0xC0BF,
0.860870208333333,0,0xC21A,
0.860886041666667,0,0xC0C1,
0.860893958333333,0,0xC31A,
0.860909833333333,0,0xC0C2,
0.860917750000000,0,0xC41A,
0.860933583333333,0,0xC0C5,
0.860941500000000,0,0xC51A,
0.860957375000000,0,0xE04A,
0.860965291666667,0,0xC61A,
0.860981125000000,0,0x8000,
0.860989083333333,0,0xC71A,
0.861004916666667,0,0xA303,
0.861012833333333,0,0xC81A,
0.861028708333333,0,0x9E3B,
0.861036625000000,0,0xC91A,
0.861052458333333,0,0x9E3D,
0.861060416666667,0,0xCA1A,
0.861092333333333,0,0x0004,
0.861100041666667,0,0x0325,
0.861116208333333,0,0x0A01,
0.861124083333333,0,0x8325,
0.861139791666667,0,0x0F00,
0.861147625000000,0,0x8425,
0.861163375000000,0,0x0000,
0.861171208333333,0,0x852A,
0.861186958333333,0,0xA73F,
0.861194833333333,0,0x8625,
0.861225958333333,0,0x0001,
0.861233625000000,0,0x1D29,
0.861249875000000,0,0x0055,
0.861257750000000,0,0x9D29,
0.861286791666667,0,0x0003,
0.861294500000000,0,0x242D,
0.861310791666667,0,0x004C,
0.861318666666667,0,0xA42A,
0.861334375000000,0,0x0040,
0.861342250000000,0,0xA52A,
0.861357958333333,0,0x0000,
0.861365833333333,0,0xA62A,
0.861395416666667,0,0x0005,
0.861403125000000,0,0x2D21,
0.861419375000000,0,0x4D47,
0.861427250000000,0,0xAD2A,
0.861442958333333,0,0xFFFF,
0.861450833333333,0,0xAE2A,
0.861466541666667,0,0xCB80,
0.861474416666667,0,0xAF2A,
0.861490125000000,0,0x8000,
0.861498000000000,0,0xB02A,
0.861513708333333,0,0x8302,
0.861521583333333,0,0xB12A,
0.861551250000000,0,0x0006,
0.861558958333333,0,0x3B25,
0.861575125000000,0,0xE563,
0.861583000000000,0,0xBB2A,
0.861598708333333,0,0x8001,
0.861606583333333,0,0xBC2A,
0.861622333333333,0,0x8000,
0.861630166666667,0,0xBD2A,
0.861645875000000,0,0x8000,
0.861653750000000,0,0xBE2A,
0.861669458333333,0,0xE602,
0.861677333333333,0,0xBF2A,
0.861693041666667,0,0xE61A,
0.861700916666667,0,0xC02A,
0.861730833333333,0,0x000A,
0.861738500000000,0,0x4129,
0.861754458333333,0,0xDEF0,
0.861762333333333,0,0xC12A,
0.861778083333333,0,0xDFF0,
0.861785916666667,0,0xC22A,
0.861801666666667,0,0xE01C,
0.861809500000000,0,0xC32A,
0.861825208333333,0,0xE15B,
0.861833083333333,0,0xC42A,
0.861848833333333,0,0xA994,
0.861856666666667,0,0xC52A,
0.861872416666667,0,0xFF50,
0.861880291666667,0,0xC62A,
0.861896000000000,0,0xC00E,
0.861903833333333,0,0xC72A,
0.861919583333333,0,0xA2E4,
0.861927416666667,0,0xC82A,
0.861943166666667,0,0x9E38,
0.861951041666667,0,0xC92A,
0.861966750000000,0,0x9E41,
0.861974583333333,0,0xCA2A,
0.869377041666667,0,0xBC3F,
0.869384708333333,0,0x060F,
0.869411625000000,0,0x0004,
0.869419291666667,0,0x0311,
0.869435375000000,0,0x0A01,
0.869443333333333,0,0x8311,
0.869459166666667,0,0x0F00,
0.869467083333333,0,0x8411,
0.869482958333333,0,0x0000,
0.869490875000000,0,0x851B,
0.869506708333333,0,0xBF3F,
0.869514666666667,0,0x8611,
0.869545375000000,0,0x0004,
0.869553041666667,0,0x0315,
0.869569125000000,0,0x0A01,
0.869577083333333,0,0x8315,
0.869592916666667,0,0x0F00,
0.869600833333333,0,0x8415,
0.869616708333333,0,0x0000,
0.869624625000000,0,0x851B,
0.869640458333333,0,0xBF3F,
0.869648416666667,0,0x8615,
0.869679166666667,0,0x0004,
0.869686833333333,0,0x0319,
0.869702875000000,0,0x0A01,
0.869710833333333,0,0x8319,
0.869726666666667,0,0x0F00,
0.869734625000000,0,0x8419,
0.869750458333333,0,0x0000,
0.869758375000000,0,0x851B,
0.869774250000000,0,0xBF3F,
0.869782166666667,0,0x8619,
0.869813333333333,0,0x0004,
0.869821000000000,0,0x031D,
0.869837166666667,0,0x0A01,
0.869845083333333,0,0x831D,
0.869860958333333,0,0x0F00,
0.869868875000000,0,0x841D,
0.869884750000000,0,0x0000,
0.869892666666667,0,0x851B,
0.869908541666667,0,0xBF3F,
0.869916458333333,0,0x861D,
0.869947666666667,0,0x0004,
0.869955333333333,0,0x0311,
0.869971458333333,0,0x0A01,
0.869979375000000,0,0x8311,
0.869995208333333,0,0x0F00,
0.870003125000000,0,0x8411,
0.870019000000000,0,0x0000,
0.870026916666667,0,0x851B,
0.870042791666667,0,0xB73F,
0.870050708333333,0,0x8611,
0.870080791666667,0,0x0001,
0.870088500000000,0,0x1D15,
0.870104708333333,0,0x1551,
0.870112625000000,0,0x9D15,
0.870140583333333,0,0x0003,
0.870148250000000,0,0x2419,
0.870164625000000,0,0x0048,
0.870172541666667,0,0xA41B,
0.870188416666667,0,0x0040,
0.870196333333333,0,0xA51B,
0.870212166666667,0,0x0000,
0.870220083333333,0,0xA61B,
0.870249583333333,0,0x0005,
0.870257291666667,0,0x2D1D,
0.870273583333333,0,0x4D97,
0.870281500000000,0,0xAD1B,
0.870297333333333,0,0xFFFF,
0.870305291666667,0,0xAE1B,
0.870321125000000,0,0x4B8B,
0.870329041666667,0,0xAF1B,
0.870344916666667,0,0xFFFF,
0.870352833333333,0,0xB01B,
0.870368666666667,0,0x8308,
0.870376583333333,0,0xB11B,
0.870407125000000,0,0x0006,
0.870414791666667,0,0x3B11,
0.870431083333333,0,0xB3FB,
0.870439000000000,0,0xBB1B,
0.870454875000000,0,0xB34A,
0.870462791666667,0,0xBC1B,
0.870478625000000,0,0xB2DE,
0.870486541666667,0,0xBD1B,
0.870502375000000,0,0xB220,
0.870510333333333,0,0xBE1B,
0.870526166666667,0,0xB221,
0.870534083333333,0,0xBF1B,
0.870549916666667,0,0xB293,
0.870557875000000,0,0xC01B,
0.870588291666667,0,0x000A,
0.870595958333333,0,0x4115,
0.870612333333333,0,0xC0C5,
0.870620291666667,0,0xC11B,
0.870636125000000,0,0xC0C1,
0.870644041666667,0,0xC21B,
0.870659916666667,0,0xC0C0,
0.870667791666667,0,0xC31B,
0.870683666666667,0,0xC0C5,
0.870691583333333,0,0xC41B,
0.870707458333333,0,0xC0C4,
0.870715375000000,0,0xC51B,
0.870731208333333,0,0xE050,
0.870739166666667,0,0xC61B,
0.870755000000000,0,0x8002,
0.870762916666667,0,0xC71B,
0.870778750000000,0,0xA303,
0.870786708333333,0,0xC81B,
0.870802541666667,0,0x9E3A,
0.870810458333333,0,0xC91B,
0.870826333333333,0,0x9E3C,
0.870834250000000,0,0xCA1B,
0.870866666666667,0,0x0004,
0.870874333333333,0,0x0329,
0.870890375000000,0,0x0A01,
0.870898208333333,0,0x8329,
0.870913958333333,0,0x0F00,
0.870921791666667,0,0x8429,
0.870937541666667,0,0x0000,
0.870945416666667,0,0x852B,
0.870961125000000,0,0xB73F,
0.870969000000000,0,0x8629,
0.870999333333333,0,0x0001,
0.871007000000000,0,0x1D2D,
0.871023041666667,0,0x0055,
0.871030875000000,0,0x9D2D,
0.871059750000000,0,0x0003,
0.871067416666667,0,0x2421,
0.871083458333333,0,0x004C,
0.871091333333333,0,0xA42B,
0.871107041666667,0,0x0040,
0.871114916666667,0,0xA52B,
0.871130625000000,0,0x0000,
0.871138500000000,0,0xA62B,
0.871167416666667,0,0x0005,
0.871175125000000,0,0x2D25,
0.871191083333333,0,0x4E4D,
0.871198958333333,0,0xAD2B,
0.871214666666667,0,0xFFFF,
0.871222541666667,0,0xAE2B,
0.871238250000000,0,0xCBF8,
0.871246125000000,0,0xAF2B,
0.871261833333333,0,0x8000,
0.871269708333333,0,0xB02B,
0.871285416666667,0,0x8301,
0.871293291666667,0,0xB12B,
0.871323541666667,0,0x0006,
0.871331208333333,0,0x3B29,
0.871347333333333,0,0xE563,
0.871355166666667,0,0xBB2B,
0.871370916666667,0,0x8000,
0.871378750000000,0,0xBC2B,
0.871394500000000,0,0x8004,
0.871402333333333,0,0xBD2B,
0.871418041666667,0,0x8002,
0.871425916666667,0,0xBE2B,
0.871441625000000,0,0xE5FE,
0.871449500000000,0,0xBF2B,
0.871465250000000,0,0xE615,
0.871473083333333,0,0xC02B,
0.871502708333333,0,0x000A,
0.871510375000000,0,0x412D,
0.871526666666667,0,0xDEF2,
0.871534500000000,0,0xC12B,
0.871550250000000,0,0xDFF4,
0.871558083333333,0,0xC22B,
0.871573833333333,0,0xE01C,
0.871581666666667,0,0xC32B,
0.871597375000000,0,0xE154,
0.871605250000000,0,0xC42B,
0.871621000000000,0,0xA993,
0.871628875000000,0,0xC52B,
0.871644541666667,0,0xFF4C,
0.871652416666667,0,0xC62B,
0.871668166666667,0,0xC011,
0.871676000000000,0,0xC72B,
0.871691750000000,0,0xA2E5,
0.871699583333333,0,0xC82B,
0.871715333333333,0,0x9E39,
0.871723208333333,0,0xC92B,
0.871738916666667,0,0x9E42,
0.871746791666667,0,0xCA2B,
0.879386333333333,0,0xCC3F,
0.879394041666667,0,0x0603,
0.879421041666667,0,0x0004,
0.879428750000000,0,0x0315,
0.879445083333333,0,0x0A01,
0.879453000000000,0,0x8315,
0.879468875000000,0,0x0F00,
0.879476833333333,0,0x8415,
0.879492666666667,0,0x0000,
0.879500625000000,0,0x851C,
0.879516458333333,0,0xCF3F,
0.879524416666667,0,0x8615,
0.879555208333333,0,0x0004,
0.879562875000000,0,0x0319,
0.879578916666667,0,0x0A01,
0.879586875000000,0,0x8319,
0.879602708333333,0,0x0F00,
0.879610666666667,0,0x8419,
0.879626500000000,0,0x0000,
0.879634458333333,0,0x851C,
0.879650291666667,0,0xCF3F,
0.879658208333333,0,0x8619,
0.879689416666667,0,0x0004,
0.879697083333333,0,0x031D,
0.879713208333333,0,0x0A01,
0.879721125000000,0,0x831D,
0.879737000000000,0,0x0F00,
0.879744916666667,0,0x841D,
0.879760791666667,0,0x0000,
0.879768708333333,0,0x851C,
0.879784583333333,0,0xCF3F,
0.879792500000000,0,0x861D,
0.879823583333333,0,0x0004,
0.879831250000000,0,0x0311,
0.879847500000000,0,0x0A01,
0.879855458333333,0,0x8311,
0.879871291666667,0,0x0F00,
0.879879250000000,0,0x8411,
0.879895083333333,0,0x0000,
0.879903000000000,0,0x851C,
0.879918875000000,0,0xCF3F,
0.879926791666667,0,0x8611,
0.879958416666667,0,0x0004,
0.879966125000000,0,0x0315,
0.879982250000000,0,0x0A01,
0.879990208333333,0,0x8315,
0.880006041666667,0,0x0F00,
0.880013958333333,0,0x8415,
0.880029833333333,0,0x0000,
0.880037750000000,0,0x851C,
0.880053583333333,0,0xC73F,
0.880061541666667,0,0x8615,
0.880092541666667,0,0x0001,
0.880100250000000,0,0x1D19,
0.880116500000000,0,0x1551,
0.880124458333333,0,0x9D19,
0.880152333333333,0,0x0003,
0.880160000000000,0,0x241D,
0.880176458333333,0,0x0048,
0.880184375000000,0,0xA41C,
0.880200208333333,0,0x0040,
0.880208166666667,0,0xA51C,
0.880224000000000,0,0x0000,
0.880231958333333,0,0xA61C,
0.880261041666667,0,0x0005,
0.880268750000000,0,0x2D11,
0.880284916666667,0,0x4EA1,
0.880292875000000,0,0xAD1C,
0.880308708333333,0,0xFFFF,
0.880316625000000,0,0xAE1C,
0.880332500000000,0,0x4957,
0.880340416666667,0,0xAF1C,
0.880356291666667,0,0xFFFF,
0.880364208333333,0,0xB01C,
0.880380041666667,0,0x830C,
0.880387958333333,0,0xB11C,
0.880419041666667,0,0x0006,
0.880426708333333,0,0x3B15,
0.880442958333333,0,0xB3F7,
0.880450875000000,0,0xBB1C,
0.880466708333333,0,0xB34A,
0.880474666666667,0,0xBC1C,
0.880490500000000,0,0xB2DB,
0.880498416666667,0,0xBD1C,
0.880514250000000,0,0xB21F,
0.880522166666667,0,0xBE1C,
0.880538041666667,0,0xB21D,
0.880545958333333,0,0xBF1C,
0.880561833333333,0,0xB292,
0.880569750000000,0,0xC01C,
0.880600416666667,0,0x000A,
0.880608125000000,0,0x4119,
0.880624250000000,0,0xC0C1,
0.880632166666667,0,0xC11C,
0.880648041666667,0,0xC0BE,
0.880655958333333,0,0xC21C,
0.880671791666667,0,0xC0C3,
0.880679750000000,0,0xC31C,
0.880695583333333,0,0xC0C3,
0.880703541666667,0,0xC41C,
0.880719375000000,0,0xC0C6,
0.880727291666667,0,0xC51C,
0.880743166666667,0,0xE04C,
0.880751083333333,0,0xC61C,
0.880766916666667,0,0x8000,
0.880774875000000,0,0xC71C,
0.880790708333333,0,0xA303,
0.880798625000000,0,0xC81C,
0.880814458333333,0,0x9E39,
0.880822416666667,0,0xC91C,
0.880838250000000,0,0x9E3C,
0.880846166666667,0,0xCA1C,
0.880878416666667,0,0x0004,
0.880886083333333,0,0x032D,
0.880902416666667,0,0x0A01,
0.880910291666667,0,0x832D,
0.880926000000000,0,0x0F00,
0.880933875000000,0,0x842D,
0.880949583333333,0,0x0000,
0.880957458333333,0,0x852C,
0.880973166666667,0,0xC73F,
0.880981041666667,0,0x862D,
0.881011708333333,0,0x0001,
0.881019375000000,0,0x1D21,
0.881035583333333,0,0x0055,
0.881043458333333,0,0x9D21,
0.881071500000000,0,0x0003,
0.881079208333333,0,0x2425,
0.881095541666667,0,0x004C,
0.881103375000000,0,0xA42C,
0.881119083333333,0,0x0040,
0.881126958333333,0,0xA52C,
0.881142666666667,0,0x0000,
0.881150541666667,0,0xA62C,
0.881179083333333,0,0x0005,
0.881186750000000,0,0x2D29,
0.881203125000000,0,0x4F59,
0.881211000000000,0,0xAD2C,
0.881226708333333,0,0xFFFF,
0.881234541666667,0,0xAE2C,
0.881250291666667,0,0xCBC3,
0.881258125000000,0,0xAF2C,
0.881273833333333,0,0x8000,
0.881281708333333,0,0xB02C,
0.881297416666667,0,0x8308,
0.881305291666667,0,0xB12C,
0.881335666666667,0,0x0006,
0.881343375000000,0,0x3B2D,
0.881359333333333,0,0xE55F,
0.881367208333333,0,0xBB2C,
0.881382916666667,0,0x8000,
0.881390791666667,0,0xBC2C,
0.881406500000000,0,0x8000,
0.881414375000000,0,0xBD2C,
0.881430083333333,0,0x8000,
0.881437958333333,0,0xBE2C,
0.881453666666667,0,0xE5FE,
0.881461541666667,0,0xBF2C,
0.881477250000000,0,0xE615,
0.881485125000000,0,0xC02C,
0.881514958333333,0,0x000A,
0.881522666666667,0,0x4121,
0.881538666666667,0,0xDEF3,
0.881546541666667,0,0xC12C,
0.881562250000000,0,0xDFF6,
0.881570125000000,0,0xC22C,
0.881585833333333,0,0xE01F,
0.881593708333333,0,0xC32C,
0.881609416666667,0,0xE15C,
0.881617291666667,0,0xC42C,
0.881633041666667,0,0xA995,
0.881640875000000,0,0xC52C,
0.881656625000000,0,0xFF57,
0.881664458333333,0,0xC62C,
0.881680208333333,0,0xC012,
0.881688041666667,0,0xC72C,
0.881703750000000,0,0xA2E6,
0.881711625000000,0,0xC82C,
0.881727333333333,0,0x9E3D,
0.881735208333333,0,0xC92C,
0.881750958333333,0,0x9E3F,
0.881758791666667,0,0xCA2C,
0.889375791666667,0,0xDC3F,
0.889383458333333,0,0x0607,
0.889410416666667,0,0x0004,
0.889418083333333,0,0x0319,
0.889434291666667,0,0x0A01,
0.889442250000000,0,0x8319,
0.889458083333333,0,0x0F00,
0.889466000000000,0,0x8419,
0.889481875000000,0,0x0000,
0.889489791666667,0,0x851D,
0.889505625000000,0,0xDF3F,
0.889513583333333,0,0x8619,
0.889543791666667,0,0x0004,
0.889551458333333,0,0x031D,
0.889567583333333,0,0x0A01,
0.889575500000000,0,0x831D,
0.889591333333333,0,0x0F00,
0.889599250000000,0,0x841D,
0.889615125000000,0,0x0000,
0.889623083333333,0,0x851D,
0.889638916666667,0,0xDF3F,
0.889646833333333,0,0x861D,
0.889678000000000,0,0x0004,
0.889685666666667,0,0x0311,
0.889701833333333,0,0x0A01,
0.889709750000000,0,0x8311,
0.889725625000000,0,0x0F00,
0.889733583333333,0,0x8411,
0.889749416666667,0,0x0000,
0.889757333333333,0,0x851D,
0.889773208333333,0,0xDF3F,
0.889781125000000,0,0x8611,
0.889811833333333,0,0x0004,
0.889819500000000,0,0x0315,
0.889835625000000,0,0x0A01,
0.889843583333333,0,0x8315,
0.889859416666667,0,0x0F00,
0.889867333333333,0,0x8415,
0.889883208333333,0,0x0000,
0.889891125000000,0,0x851D,
0.889907000000000,0,0xDF3F,
0.889914916666667,0,0x8615,
0.889945125000000,0,0x0004,
0.889952833333333,0,0x0319,
0.889968916666667,0,0x0A01,
0.889976833333333,0,0x8319,
0.889992666666667,0,0x0F00,
0.890000583333333,0,0x8419,
0.890016458333333,0,0x0000,
0.890024375000000,0,0x851D,
0.890040250000000,0,0xD73F,
0.890048166666667,0,0x8619,
0.890078708333333,0,0x0001,
0.890086375000000,0,0x1D1D,
0.890102666666667,0,0x1551,
0.890110583333333,0,0x9D1D,
0.890139041666667,0,0x0003,
0.890146708333333,0,0x2411,
0.890163083333333,0,0x0048,
0.890171041666667,0,0xA41D,
0.890186875000000,0,0x0040,
0.890194833333333,0,0xA51D,
0.890210666666667,0,0x0000,
0.890218583333333,0,0xA61D,
0.890247541666667,0,0x0005,
0.890255208333333,0,0x2D15,
0.890271625000000,0,0x4FAB,
0.890279541666667,0,0xAD1D,
0.890295375000000,0,0xFFFF,
0.890303333333333,0,0xAE1D,
0.890319166666667,0,0x46FE,
0.890327083333333,0,0xAF1D,
0.890342958333333,0,0xFFFF,
0.890350875000000,0,0xB01D,
0.890366750000000,0,0x8307,
0.890374666666667,0,0xB11D,
0.890404708333333,0,0x0006,
0.890412416666667,0,0x3B19,
0.890428666666667,0,0xB3FB,
0.890436583333333,0,0xBB1D,
0.890452458333333,0,0xB34E,
0.890460375000000,0,0xBC1D,
0.890476208333333,0,0xB2E0,
0.890484125000000,0,0xBD1D,
0.890500000000000,0,0xB221,
0.890507916666667,0,0xBE1D,
0.890523750000000,0,0xB222,
0.890531666666667,0,0xBF1D,
0.890547541666667,0,0xB295,
0.890555458333333,0,0xC01D,
0.890586083333333,0,0x000A,
0.890593750000000,0,0x411D,
0.890609916666667,0,0xC0C5,
0.890617875000000,0,0xC11D,
0.890633708333333,0,0xC0C1,
0.890641666666667,0,0xC21D,
0.890657500000000,0,0xC0C5,
0.890665416666667,0,0xC31D,
0.890681291666667,0,0xC0C5,
0.890689208333333,0,0xC41D,
0.890705083333333,0,0xC0C5,
0.890713000000000,0,0xC51D,
0.890728833333333,0,0xE04C,
0.890736750000000,0,0xC61D,
0.890752625000000,0,0x8000,
0.890760541666667,0,0xC71D,
0.890776375000000,0,0xA301,
0.890784333333333,0,0xC81D,
0.890800166666667,0,0x9E3B,
0.890808083333333,0,0xC91D,
0.890823916666667,0,0x9E3C,
0.890831833333333,0,0xCA1D,
0.890863250000000,0,0x0004,
0.890870958333333,0,0x0321,
0.890886958333333,0,0x0A01,
0.890894833333333,0,0x8321,
0.890910541666667,0,0x0F00,
0.890918416666667,0,0x8421,
0.890934125000000,0,0x0000,
0.890942000000000,0,0x852D,
0.890957708333333,0,0xD73F,
0.890965583333333,0,0x8621,
0.890996625000000,0,0x0001,
0.891004291666667,0,0x1D25,
0.891020625000000,0,0x0055,
0.891028500000000,0,0x9D25,
0.891056083333333,0,0x0003,
0.891063750000000,0,0x2429,
0.891080041666667,0,0x004C,
0.891087916666667,0,0xA42D,
0.891103666666667,0,0x0040,
0.891111500000000,0,0xA52D,
0.891127250000000,0,0x0000,
0.891135083333333,0,0xA62D,
0.891164083333333,0,0x0005,
0.891171750000000,0,0x2D2D,
0.891188166666667,0,0x5064,
0.891196041666667,0,0xAD2D,
0.891211750000000,0,0xFFFF,
0.891219625000000,0,0xAE2D,
0.891235333333333,0,0xCA48,
0.891243208333333,0,0xAF2D,
0.891258916666667,0,0x8000,
0.891266791666667,0,0xB02D,
0.891282500000000,0,0x8306,
0.891290375000000,0,0xB12D,
0.891321250000000,0,0x0006,
0.891328958333333,0,0x3B21,
0.891344916666667,0,0xE560,
0.891352791666667,0,0xBB2D,
0.891368500000000,0,0x8000,
0.891376375000000,0,0xBC2D,
0.891392083333333,0,0x8001,
0.891399958333333,0,0xBD2D,
0.891415666666667,0,0x8001,
0.891423541666667,0,0xBE2D,
0.891439250000000,0,0xE601,
0.891447125000000,0,0xBF2D,
0.891462833333333,0,0xE615,
0.891470708333333,0,0xC02D,
0.891500708333333,0,0x000A,
0.891508375000000,0,0x4125,
0.891524750000000,0,0xDEF5,
0.891532625000000,0,0xC12D,
0.891548333333333,0,0xDFF5,
0.891556208333333,0,0xC22D,
0.891571916666667,0,0xE01F,
0.891579791666667,0,0xC32D,
0.891595500000000,0,0xE15C,
0.891603375000000,0,0xC42D,
0.891619083333333,0,0xA99A,
0.891626958333333,0,0xC52D,
0.891642666666667,0,0xFF56,
0.891650541666667,0,0xC62D,
0.891666291666667,0,0xC015,
0.891674125000000,0,0xC72D,
0.891689875000000,0,0xA2E3,
0.891697708333333,0,0xC82D,
0.891713458333333,0,0x9E3D,
0.891721291666667,0,0xC92D,
0.891737041666667,0,0x9E3E,
0.891744875000000,0,0xCA2D,
0.899386708333333,0,0xEC3F,
0.899394375000000,0,0x060B,
0.899422166666667,0,0x0004,
0.899429833333333,0,0x031D,
0.899445833333333,0,0x0A01,
0.899453791666667,0,0x831D,
0.899469625000000,0,0x0F00,
0.899477541666667,0,0x841D,
0.899493416666667,0,0x0000,
0.899501333333333,0,0x851E,
0.899517208333333,0,0xEF3F,
0.899525125000000,0,0x861D,
0.899556166666667,0,0x0004,
0.899563875000000,0,0x0311,
0.899580125000000,0,0x0A01,
0.899588041666667,0,0x8311,
0.899603916666667,0,0x0F00,
0.899611791666667,0,0x8411,
0.899627666666667,0,0x0000,
0.899635583333333,0,0x851E,
0.899651458333333,0,0xEF3F,
0.899659375000000,0,0x8611,
0.899690666666667,0,0x0004,
0.899698333333333,0,0x0315,
0.899714416666667,0,0x0A01,
0.899722291666667,0,0x8315,
0.899738166666667,0,0x0F00,
0.899746125000000,0,0x8415,
0.899761958333333,0,0x0000,
0.899769916666667,0,0x851E,
0.899785750000000,0,0xEF3F,
0.899793708333333,0,0x8615,
0.899824333333333,0,0x0004,
0.899832000000000,0,0x0319,
0.899848208333333,0,0x0A01,
0.899856125000000,0,0x8319,
0.899872000000000,0,0x0F00,
0.899879916666667,0,0x8419,
0.899895791666667,0,0x0000,
0.899903666666667,0,0x851E,
0.899919541666667,0,0xEF3F,
0.899927458333333,0,0x8619,
0.899958833333333,0,0x0004,
0.899966541666667,0,0x031D,
0.899982916666667,0,0x0A01,
0.899990875000000,0,0x831D,
0.900006708333333,0,0x0F00,
0.900014625000000,0,0x841D,
0.900030500000000,0,0x0000,
0.900038416666667,0,0x851E,
0.900054250000000,0,0xE73F,
0.900062208333333,0,0x861D,
0.900093000000000,0,0x0001,
0.900100666666667,0,0x1D11,
0.900116666666667,0,0x1551,
0.900124625000000,0,0x9D11,
0.900153083333333,0,0x0003,
0.900160791666667,0,0x2415,
0.900177125000000,0,0x0048,
0.900185041666667,0,0xA41E,
0.900200875000000,0,0x0040,
0.900208833333333,0,0xA51E,
0.900224666666667,0,0x0000,
0.900232625000000,0,0xA61E,
0.900261416666667,0,0x0005,
0.900269083333333,0,0x2D19,
0.900285083333333,0